!Keysight Technologies,M9374A,MY55442783,A.12.55.05
!Date: Thursday, May 20, 2021 15:04:37
!Correction: S11(Full 2 Port(1,2)) 
!S21(Full 2 Port(1,2)) 
!S12(Full 2 Port(1,2)) 
!S22(Full 2 Port(1,2)) 
!S2P File: Measurements: S11, S21, S12, S22:
# Hz S  RI   R 50
500000000 -0.97917855 0.033520795 0.00010416139 -0.00038899627 0.00090454344 -0.00046409978 -0.9889859 0.025157493
501000000 -0.98037815 0.033584252 0.00020378428 0.00020207345 0.00068388105 -0.0011495183 -0.98840058 0.026457187
502000000 -0.97938055 0.033245306 -0.00079459266 -0.00025734547 -0.00021204754 -0.0008037333 -0.990255 0.025815612
503000000 -0.97828072 0.033058878 -0.00044247726 -0.00016959981 0.00011639448 -0.0001676722 -0.99017924 0.02598545
504000000 -0.97916555 0.033865385 0.00010517456 -0.00044646146 0.00027274294 0.00042652647 -0.98944116 0.026388368
505000000 -0.97837466 0.033647478 0.0002989471 -0.00011682206 0.00049840868 -9.1141934e-005 -0.99001145 0.027384397
506000000 -0.97834086 0.03422875 -0.00015775014 -0.00084061903 -0.00016605994 -0.0010276677 -0.99007183 0.026598547
507000000 -0.9799912 0.034109026 0.0001601953 -0.00051711715 -0.00056878082 0.00025184217 -0.98904306 0.028814718
508000000 -0.98113805 0.033761915 -0.00060497934 -0.00084791816 -3.3618428e-005 -4.5006585e-005 -0.99121743 0.027491881
509000000 -0.97985876 0.03439806 -2.2427534e-005 -0.00086139009 0.0010892597 -0.00043461961 -0.98870265 0.027340373
510000000 -0.98016912 0.034075782 -0.00041114265 -0.00014389676 -0.00032127002 0.00011047992 -0.98935688 0.028148644
511000000 -0.97999334 0.036119789 0.00036178669 0.00064216671 0.00072448287 -0.00024781347 -0.98831999 0.028295556
512000000 -0.97919315 0.034551959 -4.5372959e-005 0.00066428311 6.0036451e-005 4.2459309e-005 -0.99029309 0.026574126
513000000 -0.97911817 0.033724148 2.6319924e-005 -0.0010891631 -0.00069065532 -0.0001726167 -0.98951495 0.026589809
514000000 -0.98177969 0.035131399 -0.00081497489 -0.00091427792 0.00037100926 -0.00037875053 -0.99024028 0.028303102
515000000 -0.97951287 0.035397336 0.00015004622 -0.0001454459 0.00029414566 -0.00096102821 -0.99069148 0.028464006
516000000 -0.97975886 0.035613839 0.00056844606 -0.00018007858 0.00093087292 -2.460551e-005 -0.99026984 0.027986955
517000000 -0.98007029 0.035481684 -0.00011399524 -0.00035332193 0.00027165873 -2.7901728e-005 -0.98912287 0.028421041
518000000 -0.97985911 0.035223987 -6.9678659e-005 2.3136505e-005 -0.00018084505 -0.00089505676 -0.98924065 0.027209783
519000000 -0.97972107 0.035211559 0.00040817496 -0.00040412779 -0.00034757343 0.00050388632 -0.98903579 0.028524436
520000000 -0.97937411 0.035012651 -0.00021635847 -0.00025959674 0.00020840464 -0.0008858096 -0.98823953 0.028153228
521000000 -0.97965354 0.036457449 0.00029122137 -0.00078541785 -0.0004697032 -7.4244075e-005 -0.98841536 0.028695926
522000000 -0.98020089 0.035134301 -2.4305245e-006 -0.00027674666 -4.2150197e-005 0.00022076792 -0.98879904 0.028394228
523000000 -0.98002803 0.034649216 0.0001856891 -0.00013661713 -0.00038830744 -0.00037197536 -0.98910987 0.028390549
524000000 -0.97900653 0.035756078 -0.00025892557 -0.00023886975 -0.00044983623 -0.00016740203 -0.98869842 0.02828441
525000000 -0.97888225 0.037114929 0.00015845291 -0.001074223 -2.4076897e-005 -0.00031073176 -0.98957235 0.028774645
526000000 -0.9788928 0.037003472 0.00023280983 0.00029310494 -2.6925996e-005 -0.00057407713 -0.98857796 0.028330166
527000000 -0.97935194 0.036450461 0.00025963577 -0.00012572718 -0.00017948575 0.00031653224 -0.98872411 0.027207291
528000000 -0.97933471 0.036157157 0.00073957135 -2.0634485e-005 -0.00044162531 -0.00015135844 -0.98869538 0.029584346
529000000 -0.97970432 0.036172207 -0.0003220877 -0.00039017954 -0.00039021694 -0.00029819348 -0.98846561 0.03038748
530000000 -0.97911394 0.038123924 0.0006992956 -0.0001339208 -0.00035975612 -0.00012603989 -0.98961949 0.029424626
531000000 -0.97784799 0.036046505 -0.00017122338 -0.0011031247 -0.00029688576 -0.00059220142 -0.98950064 0.030408187
532000000 -0.97953296 0.037223976 -0.00075026159 0.0004093624 -0.00054217118 3.4384459e-005 -0.9889285 0.029325042
533000000 -0.97851497 0.036806911 3.7521211e-005 -0.00066625531 1.741601e-005 0.00019230395 -0.98887676 0.029384244
534000000 -0.97972041 0.036150314 -0.0011059254 -0.00021185112 0.00056109327 -0.00055151479 -0.98932284 0.027813422
535000000 -0.97828186 0.037550736 0.00016092828 -0.00082848046 -0.00043520154 0.00016351252 -0.98853475 0.030153623
536000000 -0.97960544 0.036461942 0.00052655366 -0.00017496679 -7.5670273e-006 -0.00057982112 -0.98888564 0.029589953
537000000 -0.97889209 0.036547244 -0.00035095771 -0.00029696329 -0.00059513678 -0.00076655671 -0.98742616 0.029176779
538000000 -0.9795875 0.036587738 0.00020832154 0.00029842972 -0.00062634132 0.00062147592 -0.98935449 0.030407565
539000000 -0.98031563 0.03690083 -0.0004950767 -0.0006326178 0.00012712195 -0.0002220637 -0.9880529 0.03070695
540000000 -0.98016614 0.036850605 -5.3818589e-005 -0.00032764277 -0.00039163942 -0.0002901383 -0.98905134 0.029808976
541000000 -0.97809845 0.035984125 -0.00068982888 -0.00017491178 0.0003984567 -0.00010752391 -0.98915696 0.030388698
542000000 -0.97923982 0.036328468 -0.00011979498 -0.00041845196 -0.00046045898 -0.00060577196 -0.98842144 0.029401746
543000000 -0.97855705 0.03742487 0.00055084983 -0.00079522148 0.00033269206 -0.00053321512 -0.99078846 0.029543247
544000000 -0.97940755 0.036471743 -0.00051497377 -0.00010606219 0.00070352206 0.00047726298 -0.99030739 0.02981686
545000000 -0.98017651 0.036444463 -0.00020717313 -0.00072833232 0.00012996932 -0.00027442121 -0.98820394 0.030586759
546000000 -0.97940868 0.03710223 -2.9488453e-006 0.00018906209 -0.00023402044 -0.00035140998 -0.98921084 0.02986175
547000000 -0.97890562 0.036119509 -0.00020679685 -0.00062442216 -0.00073856727 -0.00047506686 -0.98855239 0.029808624
548000000 -0.97741181 0.038027585 -2.3514158e-005 0.00043711276 -0.00022250199 -6.1032672e-005 -0.98892468 0.030320464
549000000 -0.9790259 0.036584724 -0.00035081964 -0.00043697754 0.00052309642 0.00046843628 -0.98986357 0.030422363
550000000 -0.97632056 0.037650608 1.6473572e-005 -0.00019882793 -4.9576905e-005 -0.00035731317 -0.98880726 0.031360634
551000000 -0.97853309 0.037175097 1.8331921e-005 -0.00013692334 -0.00020745114 -1.3697613e-005 -0.98895937 0.029572962
552000000 -0.97949982 0.037896343 -0.00074385264 -0.00079314964 1.77078e-005 -0.00012533985 -0.9886595 0.031278051
553000000 -0.97886622 0.036740899 0.00012137731 -0.00021806081 -0.0003389561 0.00023277143 -0.98849583 0.029316235
554000000 -0.97999376 0.036106102 -0.00043500739 -0.00017127926 -0.00011616421 -0.00083053223 -0.98895872 0.029217616
555000000 -0.97865677 0.035880685 0.00076638715 0.00025651869 -0.00011361144 -0.00059002399 -0.99033177 0.028419323
556000000 -0.97767448 0.036865268 -0.00034982385 -5.348587e-005 0.00021179228 -2.5156876e-005 -0.98872632 0.029527843
557000000 -0.97966546 0.036756471 -0.00026473578 -0.00036516052 0.00093012408 -0.0001300243 -0.98948771 0.02947537
558000000 -0.98013139 0.035404883 6.4289314e-005 -1.4935768e-005 -0.00098374311 0.00026315486 -0.98941469 0.030361522
559000000 -0.97863418 0.03518017 -0.00067223754 -0.00041442868 0.00013816904 -0.0002729632 -0.99006021 0.030714186
560000000 -0.97958541 0.035802249 -0.00023930475 0.00019896026 2.2231984e-006 -0.00061708695 -0.98930985 0.030754656
561000000 -0.97880578 0.036774784 -0.00031503339 7.807873e-005 -0.00025060293 -0.0011696592 -0.9897005 0.030429779
562000000 -0.97917396 0.036377821 -0.00026615532 -0.00012239597 -2.8699658e-005 -0.00012694702 -0.98993278 0.029412158
563000000 -0.97786707 0.038447108 0.00012126728 -0.00072388386 -0.00043243854 -0.00025049079 -0.98955745 0.030544829
564000000 -0.97853357 0.036742866 9.9095501e-005 -0.00044207764 0.00019625106 6.0185208e-005 -0.99005997 0.030448865
565000000 -0.97815305 0.036302857 -0.00063203502 -0.00046544327 -0.00062075723 -0.00072724157 -0.98911625 0.029278135
566000000 -0.97831559 0.036288828 -0.00026586509 0.00063453824 -0.00022318798 -0.00031268827 -0.98952234 0.029261546
567000000 -0.97849959 0.036838803 -0.00049435673 -0.00029498053 -0.00062748382 -0.00073738192 -0.9901095 0.028999733
568000000 -0.97873557 0.037060417 -2.780569e-005 -0.00033975788 5.3081378e-005 0.00033926184 -0.98817056 0.028440911
569000000 -0.97814685 0.037462529 -4.4956887e-005 -0.00048435913 -0.00042638544 -0.0011108782 -0.98919404 0.028352393
570000000 -0.97986776 0.037728235 -0.00021352019 -0.00032134636 -0.00026127519 -0.00036644426 -0.98972625 0.029373279
571000000 -0.9787305 0.036563318 -0.00051597855 -0.0004580346 -0.00023824729 0.00033530558 -0.98999578 0.030639224
572000000 -0.97701138 0.037042294 0.00010302072 -0.00014836238 -9.5928255e-005 -0.00038047315 -0.98853058 0.030734155
573000000 -0.97862393 0.036060009 1.7595747e-005 0.00037420448 6.3812346e-005 -0.00046902403 -0.99040443 0.030348111
574000000 -0.97727299 0.036432907 8.0910075e-005 0.00028352093 0.00032868652 0.00029281832 -0.98988634 0.029636424
575000000 -0.97764182 0.036040723 -0.0005720171 -0.00075849373 0.000337442 -7.5905359e-006 -0.99041367 0.030235346
576000000 -0.97859192 0.036654223 -0.0004967422 9.6144402e-005 0.0002519401 0.00043049871 -0.98902375 0.029789997
577000000 -0.9783951 0.035428591 0.00033155433 -0.00068078493 -0.0003150902 -1.1591591e-005 -0.98950613 0.028665023
578000000 -0.9784832 0.037091482 0.00013751465 0.0001555015 -0.00013229334 -0.00041467624 -0.98924601 0.029142566
579000000 -0.97803193 0.037055757 -0.00019078951 -0.00026637109 -0.00031582394 -0.000529485 -0.98914415 0.029849855
580000000 -0.978953 0.036475893 -0.00022686803 -0.0006430705 -9.1945709e-005 -0.00067712081 -0.98972589 0.031888351
581000000 -0.97839653 0.035489671 0.00012727981 6.4796172e-005 0.0002296865 -0.00038413072 -0.98954785 0.029766964
582000000 -0.97835225 0.037397038 -0.00025554304 -0.0001089134 -0.00030039536 -0.00028059675 -0.9889968 0.030106904
583000000 -0.97841144 0.03632655 -0.00042305043 -0.00085392967 0.00037443676 -0.0010231588 -0.98833698 0.03055995
584000000 -0.97756475 0.037583966 -9.4423965e-005 -0.00019139092 -2.7023563e-005 3.3383971e-005 -0.98913449 0.031101596
585000000 -0.97781509 0.036796421 -5.4969227e-005 -0.00046939112 -0.00012124029 -0.00051715347 -0.99021626 0.029166259
586000000 -0.97892529 0.037744682 -0.00045774836 -7.4780066e-005 0.00059499108 -0.00034606378 -0.98917997 0.030557876
587000000 -0.97909492 0.037752893 0.00042898016 -0.00045239151 -0.00029211628 -0.00011712518 -0.98817873 0.030885475
588000000 -0.97821075 0.037102349 -0.00016087924 -0.0010456835 -2.6035512e-005 -0.0004323021 -0.99006349 0.030667789
589000000 -0.97860909 0.03682819 0.00010682685 0.00033594863 0.00043694963 -0.00010384793 -0.98957521 0.031244688
590000000 -0.97815335 0.038157504 0.00040361704 0.00047097926 4.3208376e-005 0.00036887097 -0.98791635 0.030564845
591000000 -0.97764069 0.037275054 8.6678301e-005 -0.00060043327 0.00052127166 0.0010285823 -0.98875344 0.030696901
592000000 -0.97868097 0.037149508 0.00016480499 -0.00091980665 0.00011714472 -0.00010310533 -0.98996502 0.031844754
593000000 -0.97765851 0.037853673 -0.00046581397 0.0001909164 0.00022706309 -0.00023687218 -0.98999608 0.029984361
594000000 -0.97753453 0.039235733 -8.4139807e-005 -0.00074496219 0.0001063998 -0.0006361116 -0.98900074 0.031288289
595000000 -0.97871327 0.03645204 -0.00033031512 -0.00047030198 -7.6159136e-005 -3.996359e-005 -0.98958939 0.029772265
596000000 -0.9785744 0.037338756 0.00055729446 0.00021705999 0.00026229947 -0.00073662179 -0.98813039 0.030349199
597000000 -0.97872126 0.03929022 -0.00012736834 -0.00045412531 0.00021143758 -0.0011357167 -0.98966724 0.031028386
598000000 -0.9797225 0.038569573 -0.00036039163 0.00021878259 -0.00048668261 0.00024821289 -0.98953271 0.031461939
599000000 -0.97773731 0.037573703 0.00023228255 -0.00096338044 -0.00039631827 -0.00065485004 -0.98971891 0.029519379
600000000 -0.97881293 0.038327057 -0.00018794624 0.00022626917 4.0369043e-005 -0.00073148805 -0.98845083 0.030603837
601000000 -0.97835726 0.039089214 0.00011975715 -3.5936173e-005 -9.1340407e-005 -0.00021302288 -0.98864353 0.032215867
602000000 -0.97925466 0.039347753 4.3257442e-005 -0.00035010529 -0.00056106102 -0.00034073947 -0.98937696 0.031293511
603000000 -0.97934264 0.038796779 -0.00012553718 -0.00078188191 -0.00055733655 -0.00069175049 -0.98952055 0.032121819
604000000 -0.97780389 0.03965836 -0.00036004555 -0.00025578335 2.2870983e-005 -0.00047750826 -0.98873544 0.031750154
605000000 -0.97803122 0.039951667 -0.00020782213 -0.0003020048 1.4677595e-006 -0.00030191295 -0.98857021 0.031942658
606000000 -0.9794904 0.040633019 -0.00012024953 -0.0001760958 0.00018456363 -0.00074253028 -0.9892534 0.031689443
607000000 -0.97830188 0.039328702 0.00079661078 0.00010388681 -0.00071861601 -0.00053891563 -0.98996109 0.031488076
608000000 -0.9784041 0.040258419 0.00023757564 -0.00092181272 0.0003729914 0.00050002534 -0.99107689 0.030430416
609000000 -0.97775102 0.040402669 5.6959143e-005 0.00012791909 0.0006402515 9.0643334e-005 -0.9880144 0.029623019
610000000 -0.97715092 0.040392358 -2.4406772e-005 0.00041985689 -0.00069461385 -0.00039207574 -0.99027461 0.032415155
611000000 -0.9777472 0.039813083 0.00016791675 -0.00016274171 -0.0001732692 -8.1155649e-006 -0.98822331 0.0307723
612000000 -0.97808778 0.040404271 -0.00025378074 0.00020535628 -0.00014298344 -0.00027960268 -0.99001157 0.031304386
613000000 -0.97832662 0.039871912 1.9301322e-005 -0.00020148323 -0.0001482356 -0.00025158687 -0.98962444 0.031249624
614000000 -0.97836077 0.040512316 0.00067527295 -0.0011505516 0.00072576094 0.00029267379 -0.98982185 0.032075759
615000000 -0.97713912 0.041077942 -0.0003433488 -0.00035906603 3.958703e-005 -0.00025879417 -0.98929024 0.031903323
616000000 -0.97851235 0.041431587 -0.00056250376 -0.00047073211 0.00031359718 -0.00076002075 -0.98897403 0.031154834
617000000 -0.97900677 0.040330816 -0.0002480479 -7.0362963e-005 9.2616792e-005 -0.00012504301 -0.98926198 0.034011912
618000000 -0.9790886 0.040640689 -0.00037239696 -9.0366004e-005 0.00011911303 0.00037335747 -0.988648 0.032806844
619000000 -0.9759028 0.041696135 -0.00083813415 -0.000297747 0.00016583754 -0.00070866727 -0.98800617 0.032417148
620000000 -0.9781037 0.04230937 -8.2206287e-005 -4.1725849e-005 0.00070340786 -0.00042864261 -0.98865229 0.032982104
621000000 -0.97890562 0.041517068 -0.00020104398 -0.00025486221 -0.00043861297 -2.1064867e-005 -0.98838073 0.03212285
622000000 -0.97794825 0.040537119 -0.00066442782 -0.00013886864 0.00044337174 -0.00037353512 -0.98851395 0.032684132
623000000 -0.97697222 0.041735321 -0.00058751018 -0.00019669488 0.00012327792 0.00027813567 -0.98811924 0.032754295
624000000 -0.97817904 0.041484784 0.0001056576 0.00036418263 -0.0003778656 2.1569024e-006 -0.98878086 0.033613473
625000000 -0.97874922 0.042108435 -0.00053993927 0.00041837202 -1.5557913e-006 0.00018461313 -0.98836035 0.031799629
626000000 -0.97893906 0.042414337 0.0005483579 1.7303333e-005 5.3017451e-005 -0.00025548655 -0.98878211 0.033127937
627000000 -0.97895038 0.042452108 -0.00034738754 -0.00030562165 0.00060444814 -0.00049409288 -0.98882616 0.03305731
628000000 -0.97836816 0.042781666 0.00034334211 -0.00024900981 -0.00041936111 -0.00074129819 -0.98785174 0.033374093
629000000 -0.97897536 0.042236209 -0.00063050271 -0.00036289333 -0.00076388835 0.00033226609 -0.98899758 0.032692846
630000000 -0.9780972 0.0412018 -0.00027332245 -0.00032044266 -0.00054900604 -0.0003719902 -0.98861551 0.034018673
631000000 -0.97892594 0.041452929 -0.00018932924 -0.00089015818 0.00070219341 -0.00033244476 -0.98947597 0.0339652
632000000 -0.9785521 0.043364245 0.00082804915 -0.00013366445 -0.00021260831 -0.00012530801 -0.9874745 0.034207795
633000000 -0.9778775 0.042463753 0.00031906576 0.00013338219 0.00018685052 -0.00025626775 -0.98847705 0.032928549
634000000 -0.97901565 0.043431003 -0.00024614838 -0.00042057526 -0.00043912011 -3.4469769e-005 -0.98871249 0.033998139
635000000 -0.97805774 0.042207457 0.00023187336 0.00031919702 0.00037765678 -5.4889306e-006 -0.98776168 0.0339607
636000000 -0.97752923 0.04298516 -0.00050680083 -0.00027946962 0.00026432783 -0.00024102507 -0.9885655 0.033015832
637000000 -0.97765857 0.042602383 -0.00019615122 -6.3182952e-006 -0.00030741462 -0.00050963846 -0.98820347 0.033650666
638000000 -0.97760814 0.043527305 0.00022790197 -0.00051892234 0.00037383122 3.5905956e-005 -0.98756951 0.033676792
639000000 -0.97914779 0.044367872 0.00063680118 -0.00058875483 0.00018453665 -0.0010142176 -0.98792213 0.033610515
640000000 -0.97721875 0.044682417 -0.0004066964 -0.00013627061 0.00029935513 -0.00015521904 -0.98789018 0.032987766
641000000 -0.97883534 0.044096507 0.00019813424 -0.0002852616 -7.9238444e-006 0.00015533184 -0.98797107 0.034142945
642000000 -0.97768605 0.044380855 0.00061032252 -0.00032224844 3.7996015e-005 4.4786873e-005 -0.98837286 0.033386856
643000000 -0.97690684 0.044883184 -0.00042761758 -0.00036995046 0.00014946715 1.1414116e-005 -0.98920298 0.034011856
644000000 -0.97775334 0.042502131 -0.00042572693 0.0001628348 0.00049963983 0.00088902266 -0.98824787 0.035035346
645000000 -0.97829747 0.044323619 0.00085899897 -0.00079501193 0.00025274901 -0.00016624721 -0.98911148 0.033187497
646000000 -0.97847009 0.045606725 -7.4574658e-005 -0.00015289601 -0.00065261201 1.0378986e-005 -0.98822564 0.034230329
647000000 -0.97746581 0.043663416 -7.4609219e-005 -0.0007685849 -0.00064341672 4.7860285e-005 -0.98849279 0.034096789
648000000 -0.97780544 0.044762757 0.00053567381 -0.00017186778 -0.00056778942 -0.00073706848 -0.98796672 0.035620637
649000000 -0.97829735 0.044461142 -0.00045048472 -0.00022385021 -0.00062992238 -0.00018535016 -0.98744291 0.035276771
650000000 -0.97721994 0.044522036 -0.00014265449 -0.00018532382 -0.0004075394 -0.00065433385 -0.98867923 0.034981389
651000000 -0.9778775 0.044870336 0.00024766423 -0.00028421069 -0.00040020404 -0.00022888031 -0.98841816 0.033313517
652000000 -0.97915828 0.044537596 -0.00035105567 -0.00029581058 -2.0902457e-005 -6.7350556e-005 -0.98627919 0.035214443
653000000 -0.97798562 0.044619713 -0.00026301452 -9.2033682e-005 -0.00054286426 -0.00023783935 -0.98841029 0.033928722
654000000 -0.97722179 0.045917109 -9.0021087e-005 -0.0011024792 0.00059891038 -5.0282473e-005 -0.98874408 0.034401126
655000000 -0.97813463 0.045708321 -0.0007717532 -0.00037725331 -0.00018766067 -0.0005003956 -0.98924148 0.034115169
656000000 -0.97798818 0.045850769 0.00057594216 -0.00050188589 -0.00036092263 0.00054478185 -0.98819727 0.034903083
657000000 -0.97759193 0.044510443 9.3275608e-005 -0.0009333482 -3.1540007e-005 -0.00043200114 -0.987674 0.03432269
658000000 -0.97838616 0.044422098 -0.00042889174 0.00049815886 0.00020762194 -0.00052913767 -0.98750514 0.034269627
659000000 -0.97791404 0.043976199 -0.00013945816 0.00016138941 -0.0001467853 -0.00010324395 -0.98751903 0.033962201
660000000 -0.97715795 0.04576144 -0.00071981415 0.00012041169 4.9152917e-005 -0.00058641098 -0.98883581 0.035212368
661000000 -0.97634321 0.044918347 0.00095915009 -0.00072582124 -0.00038811567 -0.00033246615 -0.98780352 0.034326185
662000000 -0.97765839 0.045996383 0.00067785039 -0.00040567419 -0.00081907946 6.9076174e-005 -0.9896422 0.034876291
663000000 -0.97781068 0.045933321 -0.00042274405 -0.00076862006 0.0001151143 -0.00055570604 -0.9872216 0.033508141
664000000 -0.97718483 0.043937415 -0.00011659165 0.00020036657 -0.00028674628 -0.00037496007 -0.98934543 0.033536289
665000000 -0.97697866 0.044576641 -0.00046378552 -0.00040583135 -0.00038945529 -0.00055311184 -0.98910207 0.034249276
666000000 -0.9770835 0.044783588 -0.00051163096 -0.00063842768 -0.00029764837 -7.9059668e-005 -0.98763371 0.033971138
667000000 -0.97787762 0.044856291 -0.00013461141 -0.0003401851 -0.00040298872 0.00017186349 -0.98676735 0.03561233
668000000 -0.97874129 0.04586022 -0.00038840534 -0.00069525378 -2.1917404e-005 -0.00042405908 -0.98991567 0.034581341
