!Keysight Technologies,M9374A,MY55442783,A.12.55.05
!Date: Thursday, May 20, 2021 14:59:17
!Correction: S11(Full 2 Port(1,2)) 
!S21(Full 2 Port(1,2)) 
!S12(Full 2 Port(1,2)) 
!S22(Full 2 Port(1,2)) 
!S2P File: Measurements: S11, S21, S12, S22:
# Hz S  RI   R 50
500000000 -0.98026866 0.034257587 -0.00027435503 -0.00040499697 -0.00033713982 -8.3394618e-005 -0.99022448 0.025348378
501000000 -0.98246264 0.034432556 -0.00062093185 -0.00057688967 0.00017924892 -0.00042274871 -0.9882443 0.026809765
502000000 -0.98140448 0.032849353 0.00038469787 -0.00051292806 -1.4269239e-005 -0.0002971708 -0.99076587 0.025603293
503000000 -0.98156708 0.034022089 -0.0010001388 -0.00080361305 0.00050874124 -0.00014880543 -0.98996592 0.026029706
504000000 -0.98025167 0.034233667 0.00088603684 -0.00031789171 -0.00016283951 -0.0010617678 -0.99086928 0.026826965
505000000 -0.98075491 0.034448784 -0.00030682859 6.339555e-005 -0.00042785532 0.00012940061 -0.99076861 0.02681173
506000000 -0.98153859 0.033699632 -0.00056988897 0.00033227855 -6.8962829e-005 0.00041395988 -0.98729396 0.026664061
507000000 -0.98079813 0.034529611 -0.00018955357 -0.00020615998 0.00015787316 0.00048807639 -0.99007422 0.027099054
508000000 -0.98119521 0.032859642 -0.00014829087 0.00060222531 2.2165874e-005 0.00028883145 -0.98823488 0.027032658
509000000 -0.98083562 0.034182359 -0.00046843811 0.00017703924 0.00059099996 0.00026627711 -0.9893536 0.025929499
510000000 -0.98113692 0.035686873 -0.00023084137 -0.00022250337 -0.00046906137 0.00064126228 -0.98884028 0.027708078
511000000 -0.98039722 0.03475637 0.00042722619 -0.00068891491 -0.00010885813 -0.00033948637 -0.98899442 0.027858125
512000000 -0.98121268 0.034387868 0.00012023897 0.00033850357 -0.00055107783 0.00010841537 -0.98968744 0.028970601
513000000 -0.98160976 0.034071181 -8.8401604e-005 0.00054542109 0.00030859455 -0.00020037062 -0.98986894 0.028292587
514000000 -0.98126072 0.034588657 -0.00023864416 -0.0010309314 0.00028168596 -0.00019525636 -0.98992765 0.027179567
515000000 -0.98174208 0.034170099 -9.7622709e-005 -0.00030635425 0.00022659457 -0.00034450588 -0.99019533 0.027965724
516000000 -0.98058331 0.035556555 -0.0003568292 -0.00030305074 0.00018304259 -0.0010174447 -0.9909901 0.028173044
517000000 -0.98219156 0.035128191 0.00063783262 -0.00030317766 -0.00013390844 0.00025091978 -0.98854816 0.027137648
518000000 -0.9810189 0.034677394 -0.00028302456 0.00030868087 -2.9552428e-005 0.00012526932 -0.98939842 0.026979841
519000000 -0.98175806 0.036458805 -0.00053604267 -0.00077538635 -0.00039443115 -0.00049597007 -0.98890495 0.027964681
520000000 -0.98168331 0.035126418 0.00012091843 0.00028985189 -0.00081112899 -0.00017001409 -0.98884416 0.027819615
521000000 -0.98148364 0.036861811 6.0341798e-005 -0.00021184959 -0.00014603919 -0.00026946916 -0.98918784 0.028459832
522000000 -0.98146629 0.036352769 0.00035297411 -0.00020892183 -0.00037881499 -0.00024075723 -0.98925549 0.029880857
523000000 -0.98181748 0.03562535 0.00017926098 0.00016623171 0.00013226429 -0.00038333566 -0.9886809 0.028646015
524000000 -0.98034263 0.035632137 0.00067182613 3.1253847e-005 -0.00031928791 0.0001070438 -0.99039042 0.028915646
525000000 -0.98071504 0.036560006 -0.00065035961 -0.00040853475 0.00086810708 0.00078686868 -0.99046081 0.028839599
526000000 -0.98094875 0.035148438 -0.00016266824 -0.00062918244 -0.00020490064 1.0442507e-005 -0.98950499 0.029306984
527000000 -0.98171788 0.036342435 -9.9712131e-005 0.00025165058 -0.00010578198 -1.6547503e-005 -0.98982787 0.030158922
528000000 -0.98081207 0.037060328 0.00017609209 -4.2242114e-005 -0.0002146862 0.00060118677 -0.9890151 0.029174309
529000000 -0.98186553 0.036893513 0.00023593436 -4.8846989e-005 0.00040362607 -0.00042800713 -0.98825258 0.030136889
530000000 -0.9810304 0.037501469 -0.00058510958 -0.00063752371 -0.00025362195 -0.00014578676 -0.98920375 0.029902577
531000000 -0.98164165 0.036367595 -0.00066019059 -0.00030918943 -0.00078936614 0.00025545622 -0.98892182 0.029607236
532000000 -0.98060644 0.036884684 -0.00017248288 -9.1153124e-006 -0.00050463766 0.00010883604 -0.98909605 0.028670739
533000000 -0.98070925 0.036673315 -0.00078409415 -0.00015673474 0.00024735718 -1.0470237e-005 -0.98941821 0.029901583
534000000 -0.98103571 0.0364215 -0.00021899538 0.00016068114 0.00052813301 -0.00042861456 -0.98995918 0.029866626
535000000 -0.98077756 0.037282929 -0.0003137243 -0.0007740407 -0.00070408155 -0.00037137207 -0.98879874 0.029507201
536000000 -0.98120052 0.036771774 -0.00015473505 -0.00035717298 -1.2248748e-005 -0.00051504048 -0.98851174 0.029502984
537000000 -0.98137534 0.03642147 -0.00018641366 -4.4333679e-005 -0.00089378183 0.00052152731 -0.98896164 0.029416624
538000000 -0.98169702 0.035261866 -0.0002130964 -0.0003181721 2.3312875e-006 -0.00020428459 -0.98930955 0.028867625
539000000 -0.98183751 0.036717597 -0.00021299871 -0.00013313773 0.00052514439 0.00046084431 -0.98872083 0.029509397
540000000 -0.98123068 0.036537431 0.00073889131 3.0115694e-005 0.00020005583 0.00045472416 -0.99016601 0.030372292
541000000 -0.98203075 0.037781563 -0.00068082084 -0.00077669317 0.00010278921 -0.00075889932 -0.98965657 0.030005896
542000000 -0.98070014 0.037544183 -0.00015749049 -0.000261329 0.00079987774 -1.8105316e-005 -0.98966795 0.029466651
543000000 -0.98045552 0.035723589 -0.00017944285 -0.00015755736 1.5198329e-005 0.00012948579 -0.98840076 0.030369598
544000000 -0.9795 0.037197813 7.2808478e-005 -0.00044030612 0.00019781973 0.00011386717 -0.98876655 0.02962381
545000000 -0.98156303 0.03712913 -0.00016010962 -0.0004161917 -2.6781592e-005 0.00065700675 -0.99016356 0.029186608
546000000 -0.98109132 0.037706923 -0.00070976501 0.00049104117 -0.00038390129 -0.00020681006 -0.98977017 0.030639637
547000000 -0.98178059 0.037973896 0.00051163766 -0.00089350773 7.3445422e-005 -0.00026091147 -0.98942751 0.030286239
548000000 -0.98021835 0.037876602 -0.00014107754 -0.00017716631 -5.4622265e-005 -7.4530311e-005 -0.98902589 0.029271305
549000000 -0.98126602 0.036916338 -0.00032536915 0.00025641036 0.00019677421 0.00015376226 -0.98862243 0.030095171
550000000 -0.98038143 0.036719181 0.00035367461 -0.00046447723 -0.00014351019 0.00081689277 -0.98875302 0.030721426
551000000 -0.9813782 0.03613076 -0.00045730011 0.00053672364 8.8917513e-006 9.0502952e-005 -0.98826599 0.030938856
552000000 -0.98061699 0.03653815 -0.00058505201 -0.00065674388 0.00029662083 -3.0406507e-005 -0.989586 0.030311383
553000000 -0.98062944 0.036564518 -0.00047155839 -3.9446973e-006 -0.00021373338 -0.00054418197 -0.99001062 0.028956074
554000000 -0.98125291 0.035858933 0.00035031035 0.00014530554 -0.00014575801 -4.6411122e-005 -0.98968256 0.030405518
555000000 -0.98024297 0.036384579 -5.10268e-005 -0.00052687904 0.00022011463 0.00016245531 -0.9896096 0.029289465
556000000 -0.97989392 0.03752758 -0.00064150104 0.00058069627 0.00019545437 -0.00025478279 -0.98966801 0.030463321
557000000 -0.98125166 0.037513338 0.00028597619 -4.6656976e-005 0.00030569721 -0.00051403244 -0.98951268 0.030805459
558000000 -0.98139256 0.037210777 -0.00065235567 -6.5011474e-005 -0.00056298595 0.00024839269 -0.99003136 0.030285057
559000000 -0.97967148 0.036187202 0.00031151052 -0.00011549125 0.00014919408 -9.4871641e-005 -0.98923653 0.030053759
560000000 -0.98246145 0.03739468 -0.0001342613 -0.0010986229 -0.00021206566 0.00035036719 -0.98831946 0.029476184
561000000 -0.98055995 0.036538333 0.00043245975 0.00019610721 0.000108485 0.00018464724 -0.98867482 0.030411899
562000000 -0.97974563 0.037076868 0.00020862697 -0.00018295455 -0.00052321516 -0.00060137652 -0.9901945 0.02985749
563000000 -0.98105794 0.037195437 -0.0004985577 -6.3024825e-005 -0.00018876635 4.0089126e-006 -0.98937076 0.029519102
564000000 -0.98150593 0.037202854 8.360947e-005 0.00023119617 0.00041164784 -0.00020005919 -0.98958445 0.028866177
565000000 -0.98011518 0.037408665 -0.00028802975 -0.00037915309 -0.00048650964 0.00033623044 -0.98962402 0.029854039
566000000 -0.98094028 0.036915533 1.0139596e-005 -2.3401635e-005 0.00012769355 -0.00034293471 -0.98992074 0.030283179
567000000 -0.98003554 0.037561223 -7.7249633e-006 -0.00069393415 -0.00079848425 -0.00046507677 -0.98874104 0.030286225
568000000 -0.98033857 0.036218598 0.00016264977 -0.00059220119 -0.00067773095 0.00039271172 -0.98879784 0.030191049
569000000 -0.98110592 0.036386468 0.00010977998 -0.00054051715 0.00043805395 -0.0001705614 -0.98866874 0.028394518
570000000 -0.97901809 0.035664201 2.2976077e-005 -0.00056723563 -5.9496856e-006 -0.00010610474 -0.98741591 0.030192662
571000000 -0.98032838 0.036191471 -0.00013768938 -0.00079909095 -0.00039161267 -0.00040079936 -0.98930031 0.030461414
572000000 -0.98016745 0.034975145 -0.00050587516 0.0001448046 -0.00027170725 3.0537012e-005 -0.98958677 0.028664261
573000000 -0.98140961 0.037376806 -0.00030396876 0.00038084135 -0.00079831504 -9.2501477e-006 -0.98825324 0.03042884
574000000 -0.98016524 0.037973281 -0.00012013705 -0.00031276897 -8.5876476e-005 0.00025868558 -0.98995697 0.029610164
575000000 -0.98052979 0.037655126 -0.00023630534 0.00030143981 0.00061842566 0.0010587743 -0.98988771 0.031289108
576000000 -0.98062164 0.03723735 0.00017303474 -0.00054884411 0.00045833434 -0.00016546567 -0.98862249 0.029937888
577000000 -0.98077607 0.036516514 -0.00024195849 -4.7472538e-005 -0.00017926577 -0.00068312587 -0.98885524 0.029768568
578000000 -0.98000342 0.03744293 -0.00018863408 -0.00090440799 0.00022575885 0.00047415824 -0.98837477 0.030469909
579000000 -0.9803189 0.037023649 -0.00021538006 -0.00020674308 0.00059592392 -0.00053734449 -0.99169159 0.029481828
580000000 -0.98069215 0.037397482 -6.2755505e-005 -0.000479348 -0.00043440273 -0.00062453089 -0.98975259 0.031089103
581000000 -0.98058987 0.036081228 -0.00012201041 0.0004949983 -0.00028515331 -9.030092e-005 -0.9901126 0.030191362
582000000 -0.97983861 0.036571149 -0.0002162537 7.1986768e-005 0.00090313482 0.00071532011 -0.99019146 0.029046081
583000000 -0.98124808 0.037683059 5.523381e-005 -0.0006539484 0.00026761537 -0.00058121898 -0.98965675 0.028335862
584000000 -0.98049957 0.037272301 0.00021823221 0.00034741699 -0.00086528715 -9.6056232e-005 -0.98963398 0.031730838
585000000 -0.9813866 0.03757894 0.00046643638 5.0658797e-005 5.5972345e-005 -0.00045737816 -0.98946828 0.029464165
586000000 -0.97992206 0.037131507 0.0001569724 0.00024252877 8.898785e-005 -0.00011378498 -0.98973256 0.030725647
587000000 -0.97996825 0.03840673 -0.00047264295 -0.00029828364 -0.00087261223 -0.00075790787 -0.98837256 0.029872488
588000000 -0.97989446 0.037058536 -0.00032430157 6.8423229e-005 -6.4878332e-006 0.00083642884 -0.98967057 0.030498225
589000000 -0.97890311 0.036494229 0.00033435036 0.00057860964 -0.0001353448 -0.00023747981 -0.9892363 0.031208072
590000000 -0.98055798 0.0382259 -5.9233647e-005 -5.8759746e-005 3.3707664e-005 0.00022482645 -0.98908448 0.030462746
591000000 -0.9803198 0.03902889 0.00053593796 -0.00052587857 -0.000920252 0.00073963637 -0.9887675 0.030719116
592000000 -0.98117137 0.036902204 1.7338183e-005 1.1834239e-005 -9.7989498e-005 -0.00035517858 -0.98923767 0.028937876
593000000 -0.97923195 0.038117431 0.00020046829 0.00073186122 0.00057143229 -0.0010302063 -0.98965907 0.030820021
594000000 -0.98000115 0.037563581 -0.00043989928 0.00063438748 -0.00035430989 0.00015081919 -0.99003386 0.031222839
595000000 -0.98175192 0.037409276 -0.00053857337 -0.00089779613 -0.00087959832 -0.0009878393 -0.98901063 0.031094052
596000000 -0.97972834 0.037103925 -1.4293795e-006 -0.0004198 -0.00029662834 -0.00016451598 -0.98997688 0.031559385
597000000 -0.9809289 0.039051499 -0.00031792728 0.00014511566 -0.00046475764 0.00060192827 -0.98874974 0.030247886
598000000 -0.98037899 0.038370494 1.5962003e-006 -0.00060313795 4.8045422e-005 -0.00029834794 -0.98939472 0.03088933
599000000 -0.98084378 0.037992641 0.00021234994 -0.00029388806 0.00033071145 -0.00017552591 -0.9897204 0.029864646
600000000 -0.98026907 0.038328182 -0.00033300402 -0.00036567586 -0.00086725724 -0.0003946689 -0.9887138 0.031666655
601000000 -0.98114961 0.038982291 -7.3900832e-005 -0.0002648457 -0.00036362995 0.00061224331 -0.98900527 0.031444103
602000000 -0.98053282 0.039232459 0.00017585354 9.0550202e-005 0.00027002851 -0.0007089405 -0.98897111 0.032548584
603000000 -0.98185915 0.039939571 0.00040002941 -4.8245685e-005 -0.0002516135 -0.00052752829 -0.99032235 0.030919066
604000000 -0.9793461 0.038201604 -0.00055578287 -5.5883287e-005 0.00049785752 -0.00020584626 -0.98974526 0.032117188
605000000 -0.98058188 0.038826942 4.594983e-005 0.00026587676 -0.00042586066 0.00039835469 -0.98799986 0.031100404
606000000 -0.98016036 0.040510893 -0.00054573221 -5.621549e-006 -0.00017285062 -3.5118424e-005 -0.98872888 0.031365447
607000000 -0.97990924 0.039814644 -5.4729728e-005 -0.00063116959 -0.0006604729 -0.00067661447 -0.9900974 0.030290907
608000000 -0.97892416 0.040722683 0.00043463972 -0.0002019828 0.00042289443 0.00025145069 -0.98947293 0.031220431
609000000 -0.98045945 0.038379215 0.00020288311 -0.00055014814 0.0006030653 -0.00055182417 -0.98835379 0.031778689
610000000 -0.97965783 0.039948996 -0.00046056099 -0.00052301126 -0.00053423143 -0.00022422828 -0.98783535 0.031998634
611000000 -0.97947371 0.04058443 0.0001578879 -1.8003453e-005 -9.8237593e-005 -0.00027099406 -0.98816693 0.031815253
612000000 -0.98069298 0.040442716 -0.00026806741 -0.00036667183 -0.00012016232 0.00043577183 -0.98857832 0.03223116
613000000 -0.9802472 0.041104697 0.00046984412 -0.00032113338 -3.3122906e-005 -0.00039938543 -0.98788321 0.030721782
614000000 -0.97918838 0.04115786 -0.000250065 -0.00014731496 0.00068848988 -0.00028074626 -0.99019533 0.032872815
615000000 -0.9809956 0.039659251 -0.00074419024 -0.00018543762 0.00039655168 -0.0005424337 -0.98935586 0.031919032
616000000 -0.97974163 0.039971016 0.00037087596 -0.00053632853 0.00053282274 0.00018231173 -0.98947889 0.032641672
617000000 -0.9797762 0.041293915 0.00023562975 -0.0003071664 4.7778467e-005 -0.00022597231 -0.9890067 0.032298043
618000000 -0.97972405 0.041576166 -0.00082332944 0.00039924146 3.6298454e-005 -0.00034596227 -0.98806304 0.031597141
619000000 -0.9811905 0.04162674 -8.3041683e-005 0.00043674308 -0.00021615683 -0.00035683141 -0.98809093 0.031832136
620000000 -0.97977352 0.041672897 -0.00026934152 -0.00065004179 3.5823628e-005 -0.00058255484 -0.98824739 0.032271281
621000000 -0.98049361 0.041881267 -0.00050089438 -6.7355264e-005 0.00025349305 -0.00068154407 -0.98890126 0.033111978
622000000 -0.97962326 0.04180038 0.00068938662 -0.00056170445 0.00048770252 -7.6617915e-005 -0.98913568 0.033507284
623000000 -0.97879863 0.043167103 -0.00025428034 -5.8824353e-005 0.00026921224 -0.00022518706 -0.98840541 0.032721087
624000000 -0.97965139 0.040802449 0.00012123917 -0.00023616265 0.00014911011 -9.1972994e-005 -0.98827636 0.032505736
625000000 -0.97967678 0.0429511 -0.00023922282 -0.00044365568 -0.0007998888 -2.5738151e-005 -0.98820794 0.032975774
626000000 -0.98047984 0.042537641 0.00097321294 0.00067011855 -0.00065275404 0.00027201712 -0.98872119 0.033974778
627000000 -0.98079985 0.042507131 -0.00014805923 -0.00077498989 -0.0010164335 -0.00083792093 -0.98990196 0.032694299
628000000 -0.98131412 0.04407689 -0.00016495422 -0.00027184316 7.6689917e-005 -0.00043419428 -0.9890101 0.033416092
629000000 -0.98052579 0.042130779 0.00090206001 3.3627581e-005 -0.00023470666 -0.00046695067 -0.99033874 0.033305652
630000000 -0.97843999 0.042670913 -0.00031764823 0.00056728808 -0.00079766457 0.00034991271 -0.98916787 0.034686815
631000000 -0.98014677 0.043010574 0.00023449404 0.00049937115 -0.00040409758 4.6062694e-005 -0.98937172 0.034631327
632000000 -0.98010921 0.043994274 -0.00045069796 -0.00024521045 -0.00039864902 -0.00021546872 -0.98814619 0.033507232
633000000 -0.97998118 0.043301445 -0.00015362224 -0.00083799323 0.0005753499 -0.00070232723 -0.98885149 0.033717524
634000000 -0.97980887 0.043651246 -0.00070629403 -0.00037750677 -7.5849843e-005 -0.00079756737 -0.98864502 0.033594348
635000000 -0.98082763 0.042493299 -0.00038859129 0.00041069664 0.00029000684 -0.00033306805 -0.98919219 0.032637365
636000000 -0.97817224 0.043574948 0.00030569494 -0.00040544281 -0.00056015112 5.4535831e-005 -0.98921436 0.033295583
637000000 -0.97960234 0.042882115 -0.00036021924 -0.00042570839 -0.00018594047 -3.5521916e-005 -0.98869789 0.034092061
638000000 -0.98031569 0.043660987 0.00068251818 9.9717283e-005 -0.00048289841 -0.00019663728 -0.98920935 0.033203326
639000000 -0.9812398 0.043899961 -0.00032066161 -9.6096614e-005 2.8463252e-005 -3.8960086e-005 -0.98898906 0.034338746
640000000 -0.97956759 0.044011936 3.4239394e-005 -0.00035754393 -0.00031892574 -7.9234851e-005 -0.98735917 0.034581229
641000000 -0.97963208 0.044643428 -0.00059229601 -0.00061412697 0.00021183743 0.00022103544 -0.98819554 0.034314573
642000000 -0.97874904 0.044238668 -0.00022711662 -0.0003638012 -0.00061895995 -0.00054491166 -0.9898603 0.034077566
643000000 -0.97937995 0.044104513 -0.00019368145 -0.00028236461 -0.00045542765 -0.00015136426 -0.98772395 0.033424266
644000000 -0.97974175 0.044561706 0.00014966495 -5.050992e-005 0.00020361986 0.00022095381 -0.98938215 0.033916473
645000000 -0.98005176 0.044934601 -0.00038213833 -6.3148e-005 0.00024037156 -0.0011119462 -0.98893136 0.034232426
646000000 -0.97965944 0.044278521 1.3754144e-005 -0.00039153139 0.00028763688 -0.00011492307 -0.98862869 0.035142042
647000000 -0.98074776 0.045237921 -0.0003196951 5.9299459e-006 -0.00015866046 -0.00026846837 -0.98842782 0.033692174
648000000 -0.97943932 0.044665176 -0.00022821501 -0.00059588789 -0.0005371187 -0.00099436403 -0.98850906 0.034912843
649000000 -0.97947407 0.045338962 -0.0007004994 -0.00055247406 -0.00096987409 -0.00049000775 -0.98797828 0.035336792
650000000 -0.97967815 0.043672539 4.1435022e-005 -2.7552964e-005 0.00080974086 0.00018062492 -0.98780417 0.035822269
651000000 -0.97979039 0.044066712 -0.00020548761 -0.00048900238 0.00045591785 5.7950834e-005 -0.98834676 0.03361984
652000000 -0.97879058 0.044610821 -7.3494957e-006 8.3719802e-005 0.0004376492 5.8366244e-005 -0.98761535 0.034580488
653000000 -0.97943968 0.045711897 0.00026134058 -0.00031705643 -0.00025275565 -0.00063604908 -0.98834962 0.033907369
654000000 -0.9793241 0.044772781 -0.00064127112 -0.00022236253 -0.00044927595 -0.00027732895 -0.98909229 0.034688208
655000000 -0.97996873 0.044398785 0.00050347683 0.0003949262 2.816346e-005 -7.8375364e-005 -0.98839915 0.034494434
656000000 -0.97938031 0.046410833 0.00025121885 -0.00016814595 -0.00023476887 -0.00050288229 -0.98941743 0.034085516
657000000 -0.97998035 0.045846429 -0.00045701262 -8.2908358e-005 0.00016376756 0.00024270028 -0.98849601 0.034661707
658000000 -0.9809283 0.045575503 -0.00017289695 -0.00049072824 -0.00055715902 -0.00012075192 -0.98766941 0.033004556
659000000 -0.97824526 0.044773534 0.0004160328 5.0667106e-005 2.5309462e-005 -0.00021576945 -0.987553 0.034328472
660000000 -0.97966111 0.044897053 0.00022778838 -3.6285808e-005 -3.4536584e-005 -0.00015634703 -0.98743528 0.034543939
661000000 -0.98012364 0.045255151 -0.00027271613 -0.0001254448 -0.00039344633 -0.00051777577 -0.98860162 0.035936896
662000000 -0.97956496 0.045122776 0.00029224879 -0.0003625039 -0.00021267684 -0.00079438358 -0.98800087 0.034707934
663000000 -0.98050642 0.045537423 -4.0595119e-006 -0.00049874122 -0.00040953569 -0.00037139357 -0.98823452 0.034224678
664000000 -0.97859359 0.044541959 -0.00013098889 5.552889e-005 -0.00015895712 -0.00074936356 -0.98744529 0.035062417
665000000 -0.97856134 0.045232441 -0.00017284378 -0.0003118958 -0.00075943652 -0.000652563 -0.98891681 0.034705359
666000000 -0.97963244 0.04481506 0.00021022817 0.00017867706 -0.00095045101 -0.0002257664 -0.98918813 0.034465559
667000000 -0.97887337 0.044961534 0.00077616732 -0.00034658296 -0.00043175885 -0.00020058759 -0.98863482 0.033455733
668000000 -0.9801079 0.046389643 -8.1022736e-005 -0.00015101758 -0.00039574411 -0.00015123344 -0.98912036 0.034188341
