!Keysight Technologies,M9374A,MY55442783,A.12.55.05
!Date: Thursday, May 20, 2021 14:27:18
!Correction: S11(Full 2 Port(1,2)) 
!S21(Full 2 Port(1,2)) 
!S12(Full 2 Port(1,2)) 
!S22(Full 2 Port(1,2)) 
!S2P File: Measurements: S11, S21, S12, S22:
# Hz S  RI   R 50
500000000 -0.98195374 0.034819905 -0.00043519595 -8.2768216e-005 7.6294826e-005 0.00033961906 -0.98868001 0.026482858
501000000 -0.98419148 0.033086836 -0.00049177971 -0.00079595781 0.00035488233 0.00042520658 -0.98916006 0.025264788
502000000 -0.98227078 0.034117293 -0.00032459566 -0.00063189783 -0.00010756777 -0.00070853805 -0.98899633 0.027169177
503000000 -0.98188567 0.033253271 -0.00048654649 -9.0120571e-005 -0.00040404382 0.00047906238 -0.98852634 0.027373446
504000000 -0.98214114 0.036027934 -0.00086854555 -0.0006791848 2.7487164e-005 -0.00059009506 -0.98830354 0.02804799
505000000 -0.98224443 0.034763541 0.00023356799 0.00020150097 -8.5414096e-005 -0.00047210295 -0.98951203 0.027295552
506000000 -0.98059016 0.034411944 0.00051022222 -1.4643086e-005 1.4309419e-005 -0.00041326325 -0.98869532 0.026761588
507000000 -0.98078293 0.034455311 0.00010548833 0.00016864471 0.0003497522 3.251216e-006 -0.98955917 0.028032318
508000000 -0.98236185 0.034882173 -0.00016763665 4.0602179e-005 -0.00014865656 0.00058893982 -0.98961025 0.027129358
509000000 -0.98307878 0.035511427 3.9591338e-005 -0.00021655286 -1.3182217e-005 0.00049087434 -0.98837084 0.027372986
510000000 -0.98242897 0.033951469 -8.10243e-005 -0.00046099356 -0.00029111304 -0.0003296838 -0.98849487 0.027866894
511000000 -0.98217231 0.035978213 -0.00063169171 -0.00042525236 -0.00038792001 -0.00021013548 -0.98919886 0.028348539
512000000 -0.98258352 0.034978479 0.00018640958 -0.00012885885 0.00018086107 -0.00021128963 -0.98906654 0.027451877
513000000 -0.98198086 0.034751184 -0.00060126395 0.00017569879 -0.00028148139 -0.00075589184 -0.98872083 0.026517279
514000000 -0.98226488 0.035829633 -0.00041047396 -0.00030440223 -0.00027674946 -0.00039653954 -0.98919153 0.028053036
515000000 -0.98222417 0.036274996 -0.00024703576 8.2333921e-005 -0.00036945299 5.6983918e-005 -0.98935103 0.028170513
516000000 -0.98144901 0.035831716 0.000151685 -0.00010754697 -0.00036958602 -7.7054356e-005 -0.98948544 0.027252942
517000000 -0.98241842 0.036597304 0.00020193761 -0.00099638395 -0.0012972655 -2.3535204e-005 -0.98932505 0.027686676
518000000 -0.98083776 0.035703767 0.00020131143 -0.00025227797 4.5805584e-005 -0.00078210025 -0.98906237 0.027905518
519000000 -0.982144 0.035628036 0.00013407654 -0.00037864165 -0.00015603343 5.284086e-005 -0.98860544 0.028388975
520000000 -0.98163104 0.035605427 0.00053126446 -0.0005105313 -0.00037924366 0.00015061381 -0.98837602 0.029161511
521000000 -0.98164588 0.037983339 0.0005421071 -0.00032050966 0.00046346156 -0.00035496609 -0.988895 0.029492252
522000000 -0.98214477 0.035827301 9.2355622e-005 0.00012741241 -0.00017911987 -0.00015217549 -0.98895788 0.028551059
523000000 -0.98199028 0.03589512 -9.4846211e-005 7.665233e-005 4.2824995e-005 0.00023235484 -0.98893911 0.027916109
524000000 -0.98147392 0.037250295 -0.00035695249 -0.00020814269 -0.00024362786 -0.00076048303 -0.9897157 0.02923088
525000000 -0.98174506 0.037126936 0.00024143021 0.00018305096 -0.00049166579 -0.0010130921 -0.98892099 0.029215429
526000000 -0.98066849 0.03852354 0.00068620936 0.00027551359 -0.00019001958 0.00067419221 -0.98856592 0.029037632
527000000 -0.98146397 0.037935663 -0.00012659903 2.8228284e-005 -0.00017258173 -0.00028230931 -0.98979068 0.029695576
528000000 -0.98114008 0.03773389 0.00024619614 0.00021185694 0.0003127552 -0.00032069991 -0.98747844 0.029970597
529000000 -0.98251134 0.037896279 -0.00013682547 0.00025582022 -0.000478142 -7.1262504e-005 -0.98912281 0.029844249
530000000 -0.98110574 0.0366401 -0.00016950082 -0.00021488 -0.00033825153 0.000550734 -0.98876792 0.029717125
531000000 -0.98155957 0.036880855 -0.00074594317 -0.00015701234 -0.00072157208 -0.00015096183 -0.9884364 0.028140333
532000000 -0.98205203 0.037412118 -0.00023781536 0.00021369894 -0.00022461639 -0.00022790728 -0.98888481 0.028486079
533000000 -0.98049921 0.037518524 0.00022245842 0.00053510634 -2.0704101e-005 -0.00052586332 -0.98833424 0.028718317
534000000 -0.98193175 0.036735691 4.7155103e-005 7.9765974e-005 -0.00020187673 8.1995408e-005 -0.98973823 0.027995829
535000000 -0.98225266 0.037918892 -0.00014598062 2.5285372e-005 0.00025861282 -0.00015568176 -0.98873037 0.030046016
536000000 -0.98173094 0.036587246 0.00023344747 0.0001399388 -0.00010431941 -0.00086629618 -0.98869699 0.030233063
537000000 -0.98167861 0.038261756 0.0006156778 -0.0003097484 -0.00015276548 2.1772703e-005 -0.98885417 0.029650059
538000000 -0.98152554 0.037644263 0.00079845352 1.5863021e-005 0.0010560387 0.00029393073 -0.9881264 0.030868893
539000000 -0.98258418 0.037415024 0.00026544556 -0.00018350495 0.00021222221 -0.00032221875 -0.98854458 0.02951673
540000000 -0.98306793 0.037131287 0.00028679657 0.00055254757 0.000912669 0.0002784571 -0.98730141 0.029958475
541000000 -0.98161024 0.038927671 -0.00036776395 0.0002238507 -9.2572882e-005 -0.0010452408 -0.98805541 0.030093517
542000000 -0.98094559 0.038188595 -0.00020854789 -0.00047749031 6.2921805e-005 -0.00024848623 -0.98834759 0.028897176
543000000 -0.9811852 0.03839425 0.00014995197 -3.6458172e-005 0.00066487287 -0.00072365924 -0.98944867 0.030646088
544000000 -0.98137754 0.038329117 0.00038795924 -0.00023952925 -0.00080924574 -0.00021642548 -0.98935688 0.030682698
545000000 -0.98288584 0.037470281 -0.00028469253 0.00036066805 -0.00010179779 -0.00026153552 -0.98929411 0.031097453
546000000 -0.98064786 0.037765507 0.00041304037 0.0001378782 -0.00023595686 -0.00020975689 -0.98855239 0.030672388
547000000 -0.98203486 0.036869146 -0.00048600373 -5.9747908e-005 0.00021468186 0.00031556841 -0.98784018 0.030756736
548000000 -0.98165131 0.038090169 0.00041119033 0.00025557936 0.00038499277 -0.00042022867 -0.98909855 0.029976491
549000000 -0.98005772 0.037424814 0.00032929049 0.00056574371 -0.00090920768 -0.00011226472 -0.9883101 0.031270646
550000000 -0.98179293 0.037737537 -0.00026738236 -0.00031509888 4.7924077e-005 -6.3226507e-005 -0.98864031 0.031029925
551000000 -0.98106903 0.037622392 0.00037284355 0.00016074456 -8.2679537e-005 0.00013261316 -0.98810607 0.030109515
552000000 -0.98105818 0.036889125 -4.9917857e-005 0.0001900089 0.00038868512 -0.00010286488 -0.98868471 0.030625924
553000000 -0.98121524 0.037631687 -0.00074244291 -0.00044624455 -0.00036491224 4.0422288e-005 -0.98930049 0.029286331
554000000 -0.98054063 0.036368746 -0.00047397896 -0.00063903158 -0.00055436854 0.00031927993 -0.9882791 0.030429088
555000000 -0.9803775 0.037544422 -4.9050825e-005 0.00044347462 0.00017886019 0.00012527799 -0.98794526 0.030704375
556000000 -0.9819541 0.038538944 -0.00035772345 -0.00053897488 -0.00053125655 -0.0012779741 -0.98978716 0.029880196
557000000 -0.98117 0.038379092 0.00010296413 -0.00021907652 -8.9797995e-006 0.0001464557 -0.98900551 0.030581079
558000000 -0.98131502 0.037565235 -0.0001511274 -0.00031953643 -0.0001865018 -5.0668354e-005 -0.98849851 0.031108616
559000000 -0.9798997 0.038418479 -0.00042804543 -0.00068310648 -6.405975e-006 -0.00032035355 -0.98971546 0.030458022
560000000 -0.9817223 0.037104491 -3.794855e-005 -0.00061071926 0.00018335352 -0.0002992863 -0.98866963 0.030360056
561000000 -0.98258656 0.037726086 -0.00079592451 -0.00020027657 -0.00010806126 -0.00046762865 -0.98929763 0.029645488
562000000 -0.98124492 0.03710309 0.00021994673 9.6570584e-005 8.8915505e-005 -0.00061504013 -0.98947161 0.029795798
563000000 -0.98137087 0.038053744 -6.2593746e-005 -0.00047981934 0.00082331104 -0.00018514127 -0.98964584 0.0312266
564000000 -0.98195201 0.036535308 -9.4914787e-005 -0.00035577745 0.00017106713 -0.00021606467 -0.98915344 0.030509917
565000000 -0.98182201 0.037660152 0.0004634505 -0.00017358997 0.00032147052 -0.00033050455 -0.9892866 0.029751383
566000000 -0.98141235 0.036858749 -0.00011309124 -0.00058893277 -0.0003455737 -4.4086541e-005 -0.98793828 0.029635165
567000000 -0.98172849 0.036872767 -0.0004701752 -0.00015016636 0.00081300945 0.00010829148 -0.98908657 0.029985592
568000000 -0.98128891 0.03761832 0.0002979335 -7.4500545e-005 -0.00056832685 -0.00026875734 -0.98839778 0.029534187
569000000 -0.98214108 0.036786839 -0.00059496384 -0.00053882418 -9.0341891e-005 -0.00030320633 -0.9890995 0.029238176
570000000 -0.98132741 0.037186913 -0.00012847428 -0.00042706099 0.00054057012 8.2955965e-005 -0.9884128 0.029852739
571000000 -0.98137665 0.035117257 -0.00012913768 -0.00072687562 -0.00013672962 8.2059938e-005 -0.98954773 0.030215403
572000000 -0.98048425 0.036774371 -0.00048960763 0.00023050353 -0.00055394828 -0.00045531272 -0.98871756 0.029673345
573000000 -0.98145217 0.036120489 -0.00090595271 -0.00028833453 0.00024258338 -0.0001604463 -0.98858488 0.030276302
574000000 -0.97920358 0.038145527 -0.00030017542 0.00043089618 -0.00078414293 -0.00015179043 -0.98975664 0.029320955
575000000 -0.98156404 0.037225235 -0.00019532017 3.5004614e-005 -0.00052920752 0.00028187135 -0.99030495 0.030284764
576000000 -0.98054522 0.037476707 0.00060879026 9.2646143e-005 0.00050391816 -0.00049172435 -0.98921722 0.030605469
577000000 -0.98094743 0.036911011 -5.6883724e-005 -0.00022915435 -0.00044907018 -0.00040002115 -0.98921591 0.031239249
578000000 -0.97926265 0.037741929 -0.00043821789 -0.00059506891 -0.00012307013 0.0001629395 -0.98899722 0.030114451
579000000 -0.98066419 0.037843302 0.00039195846 2.5431895e-005 -0.00035836792 -0.00022692584 -0.98866343 0.02954006
580000000 -0.98094207 0.037662767 0.00029920437 -0.00053623406 -0.00013042807 -0.00074369542 -0.98905551 0.029446626
581000000 -0.98184735 0.036982719 -0.00011813959 0.00049244473 -8.6921551e-005 0.00012351197 -0.98891753 0.03034921
582000000 -0.98004389 0.037513323 -0.00025916321 -0.00044963238 0.00029165138 -0.00011031244 -0.98796952 0.030428104
583000000 -0.98128515 0.038690165 -1.3706413e-005 -1.1354755e-006 0.00031357087 -0.00086744892 -0.98862833 0.030529656
584000000 -0.98117143 0.037268452 -0.00019840794 -0.00053278101 -0.00048156353 -8.2149338e-005 -0.98878884 0.031063192
585000000 -0.98245561 0.037493609 -0.00033581196 0.00023231545 -0.00018539491 -8.5401232e-005 -0.98870003 0.030958675
586000000 -0.98036963 0.039145298 3.430664e-006 -0.00020833226 -0.0003792959 0.00012789549 -0.98964226 0.030027809
587000000 -0.98040867 0.038747195 0.00041868407 -0.00036434308 0.00053637248 -0.00083460758 -0.98790956 0.031095846
588000000 -0.98064953 0.038246371 0.00010086545 -0.00046673042 -5.1077754e-005 -0.00036027233 -0.98854172 0.030614261
589000000 -0.9799158 0.038183525 -0.00066588644 -0.00089785748 -0.00056137866 -0.00046926973 -0.98904574 0.032388292
590000000 -0.98126692 0.038448066 -0.00051024044 -0.00094286731 -0.00018273811 0.0001985298 -0.98860025 0.031567235
591000000 -0.98090786 0.03752676 -0.00068809424 -0.00017467873 0.00037988208 -0.00015519466 -0.98815906 0.030923199
592000000 -0.98101401 0.038149595 0.00067206222 -0.00011912561 6.7508816e-005 0.00080983655 -0.9891721 0.029340299
593000000 -0.97990149 0.038397022 0.0010749295 -0.00036004325 -0.00030205137 0.00049814873 -0.98892117 0.029823782
594000000 -0.98101985 0.038604714 0.00012964848 0.00067963521 -7.4977841e-005 0.0006152601 -0.98865932 0.031545263
595000000 -0.98062372 0.038454361 4.0201292e-005 -0.00033424367 -0.00036670957 -0.00073226512 -0.98993373 0.030965118
596000000 -0.98010403 0.037541538 -0.00043581903 -0.00044626821 0.00029873129 -0.00019816929 -0.98930138 0.030735154
597000000 -0.98180223 0.03961315 -0.00057160261 0.00016466697 3.3696557e-005 1.0770727e-005 -0.98905224 0.032685038
598000000 -0.98085439 0.038579024 -0.00018072364 -0.00076628203 0.00019768543 -0.00019327963 -0.98823899 0.032211404
599000000 -0.98197216 0.038350713 0.00031477626 0.00033253187 -0.00010519852 -0.00051820138 -0.99002689 0.030934375
600000000 -0.98192167 0.039750021 -0.00028435307 -0.0003495432 0.00081652036 -5.3016676e-005 -0.99037337 0.030884419
601000000 -0.98090619 0.040659256 0.00013108891 -0.00025815994 -0.00087743026 -0.00087380153 -0.99035549 0.031476837
602000000 -0.98072207 0.03959455 0.00027056519 0.00018739818 -0.00058090914 -0.00068914541 -0.99022675 0.031998083
603000000 -0.98116583 0.039956369 8.9679743e-005 -0.00045529244 -0.00019985835 -0.00041758802 -0.98870492 0.031776387
604000000 -0.98076963 0.040495798 -0.00033746232 -0.00034084584 0.00026404089 -0.0011588699 -0.98869169 0.031776097
605000000 -0.9807691 0.0403747 0.00012806788 -0.00054868974 0.001070122 0.00075869099 -0.98835391 0.032430891
606000000 -0.98172575 0.040027108 0.00028238396 -0.00020555928 0.00030859769 -0.00043867284 -0.98826218 0.030086972
607000000 -0.98069412 0.039559163 7.8190496e-005 -0.001041716 -0.00031836136 -0.00010609427 -0.9881072 0.031346254
608000000 -0.98096472 0.040960386 -0.00033236208 -0.00026011857 -0.00081333175 -0.0002583084 -0.9879123 0.030887498
609000000 -0.98084354 0.040640749 -0.0011355677 -0.00015799327 -0.00025454702 -0.00047962705 -0.98890126 0.031905979
610000000 -0.98146373 0.041789118 0.00014211395 -0.00018108332 1.076903e-005 4.0861483e-005 -0.98771739 0.03239705
611000000 -0.98068255 0.041963216 -0.0002919056 -0.00022724541 -0.0001806006 0.0002520222 -0.9891274 0.032098193
612000000 -0.980663 0.040527035 -0.00020058334 -0.00043041658 -0.00032476694 0.00016434127 -0.98927033 0.033014465
613000000 -0.98184979 0.041006126 0.00067875639 -0.00039045798 -5.6166231e-005 -0.0010582604 -0.98936576 0.031497005
614000000 -0.9805215 0.041953731 0.00058209361 -0.00034371964 0.001015655 -0.00076256844 -0.98908538 0.031847417
615000000 -0.98069674 0.041782472 -0.00016769064 3.9497107e-005 -0.00027873457 -0.00018374567 -0.98761725 0.032833535
616000000 -0.98036236 0.04160402 -0.00052993972 4.7935441e-006 2.7464022e-005 -0.0003920465 -0.98891407 0.032704677
617000000 -0.97964591 0.041766532 -0.0001018523 3.5812176e-005 0.0002373001 0.00033521437 -0.98947531 0.033086136
618000000 -0.98089433 0.042989023 -0.001377737 -0.0003762671 0.00025023363 -0.00079216063 -0.98947132 0.032359492
619000000 -0.97866189 0.042750891 -0.00018117817 0.00032633904 -0.00031450918 0.00041075744 -0.98999524 0.032477554
620000000 -0.97974664 0.042875011 -1.587149e-005 -0.00028647878 0.00011505963 3.1506806e-005 -0.98887175 0.033619903
621000000 -0.9802568 0.043244358 -0.00018842833 -5.4903088e-005 0.00043317073 0.00050652632 -0.98756617 0.032798495
622000000 -0.9792372 0.041700903 -9.1170405e-005 -0.00025830441 0.00061384222 0.00016989037 -0.98770338 0.032395978
623000000 -0.98003799 0.041996643 5.0303239e-005 -0.00071012066 0.00027234294 -0.00042457992 -0.98748165 0.032137081
624000000 -0.98117346 0.041466217 -8.3383355e-005 -0.00037477486 0.00030369507 0.00025795971 -0.9881469 0.03403068
625000000 -0.98120397 0.043389421 0.00027671127 -0.00034280971 -0.0002902085 -0.00040708121 -0.98905504 0.032006402
626000000 -0.97987711 0.04376119 -0.00031941562 -0.00038436026 0.00036879725 -0.00057235116 -0.98833972 0.035207875
627000000 -0.98031449 0.042495083 -0.00051973126 0.00039622339 0.00056371919 -2.3098028e-006 -0.98764002 0.033281155
628000000 -0.98035598 0.043026444 -0.00017380207 0.00091308763 -2.1049551e-005 -0.0010231765 -0.98793429 0.033393193
629000000 -0.9804371 0.04349225 -0.00033691057 0.00041990058 -0.00027091333 4.9315269e-005 -0.98907077 0.034304332
630000000 -0.98046464 0.043049019 0.00038924202 -0.00034004447 0.0007426088 -0.00038864219 -0.98892415 0.035270516
631000000 -0.97985131 0.043604795 -0.0002354124 0.00029511191 0.00014964865 4.6802194e-005 -0.98832244 0.035034224
632000000 -0.98107713 0.043607984 -0.00035893568 -0.00084522588 -0.0010274062 -0.00036844681 -0.9871254 0.03374235
633000000 -0.97956568 0.043777 -0.00025630964 0.00031476124 6.7567926e-005 -0.00074608967 -0.98845875 0.032877464
634000000 -0.97967869 0.044519924 -2.3761451e-005 -3.6409667e-005 -0.00014371793 -0.00028481885 -0.98831153 0.035425317
635000000 -0.98053515 0.042141709 -0.00042880705 -0.00072778063 3.154705e-005 -0.00036442769 -0.98795789 0.033563182
636000000 -0.9802345 0.043560833 -0.0002595215 0.0002497721 -3.1795938e-005 -0.00077635515 -0.98981643 0.034597941
637000000 -0.98056084 0.044070035 -0.00019538103 -0.0004662463 -0.00059801142 -0.00039311789 -0.98793966 0.033364844
638000000 -0.97889769 0.04488809 2.0294913e-006 -0.00046506114 -0.00045573575 -0.00041601408 -0.98757404 0.034528229
639000000 -0.98010904 0.04456849 -0.00086578081 -0.00030596263 6.1870787e-006 -0.00041421648 -0.98757839 0.034477543
640000000 -0.98066825 0.044921044 0.00027347158 -2.3803586e-005 0.00010603703 -0.00048200882 -0.98760724 0.034276519
641000000 -0.97936976 0.044198893 -0.00060177193 -0.00043999168 0.00024944209 -0.00086317153 -0.98782778 0.033792701
642000000 -0.98049331 0.045046512 -1.4497347e-005 -6.7359411e-005 -0.00028299942 4.2123131e-005 -0.98870355 0.034016274
643000000 -0.98038852 0.045073722 0.00067702332 -0.00059965253 -9.2563329e-005 -0.00065599399 -0.98848403 0.033691626
644000000 -0.98066306 0.044756528 7.8139368e-005 -0.00073927094 5.7052777e-005 -0.00033546306 -0.9881233 0.035452448
645000000 -0.98052585 0.045548279 -0.00012905485 -0.00097451394 -0.0003200068 -0.00018629992 -0.98834908 0.03326951
646000000 -0.98033261 0.046030089 -9.1370333e-005 -0.0002497354 -0.00030438849 -0.00020608639 -0.98763907 0.034704439
647000000 -0.98091131 0.044955421 -0.00022212659 -0.00041632209 -0.00092123036 -0.00097587123 -0.98903638 0.03384063
648000000 -0.98080355 0.045443997 0.00043925078 0.00069202087 -0.00049613509 -0.00046010816 -0.98835307 0.035249755
649000000 -0.98011523 0.045803662 -0.00028932406 -0.00018144908 -0.00011692048 -0.00037670028 -0.98799819 0.034352716
650000000 -0.98011798 0.045877934 -0.00053667056 4.2428783e-005 -0.00021190512 -0.00030038675 -0.98817033 0.035295773
651000000 -0.9806509 0.044885334 0.00016654877 0.00010866272 0.00045032072 7.3645591e-005 -0.98736656 0.03397321
652000000 -0.97995633 0.045294061 0.00033707239 -0.00035167061 -0.0001668537 -0.00047029345 -0.98724318 0.034629166
653000000 -0.97923189 0.045823876 0.00030489641 -0.00041741578 -0.00028969537 -0.00074608932 -0.98802519 0.034423865
654000000 -0.97959578 0.045814011 -0.00054848904 -5.2129559e-005 -0.00015059904 -8.094943e-005 -0.98764998 0.033862915
655000000 -0.97908187 0.045222752 0.00030832761 0.00048365016 -0.00019881187 -0.0002784922 -0.98798174 0.035481498
656000000 -0.98000205 0.046144966 -0.00045847247 -0.00016846966 -0.00065462146 -0.00068519264 -0.98753619 0.03501657
657000000 -0.97999686 0.04570454 -0.00069004751 -0.0002935412 -0.00010945766 -0.00046631673 -0.98966533 0.035095528
658000000 -0.9792254 0.045378607 -0.00021461464 -0.00037969681 -0.00069114839 -8.8274421e-005 -0.98723638 0.033653688
659000000 -0.98084664 0.04558919 -4.9419821e-005 -0.00042361795 -0.00065557496 6.0610924e-005 -0.98844874 0.034932166
660000000 -0.9798851 0.046869989 -0.00034080242 -0.00016280786 -0.00023432495 -0.0011720599 -0.98670834 0.034737993
661000000 -0.98086429 0.046260651 -6.9123031e-005 -7.7445147e-005 -0.00041431806 -0.00026173101 -0.98939723 0.033970434
662000000 -0.98055863 0.046498556 -5.4220771e-005 -0.00081560062 -0.00071103324 0.00014599149 -0.98836035 0.034490392
663000000 -0.98041248 0.046345863 1.5166048e-005 7.8021563e-005 -5.107333e-005 -0.00031097271 -0.98658276 0.034406539
664000000 -0.9800576 0.045978967 0.00013611095 0.00025878911 -0.00015073258 2.9836243e-005 -0.98886698 0.034160603
665000000 -0.98061836 0.04492582 -4.4809913e-005 -0.00028054518 -0.0003043242 -0.00011968789 -0.98818916 0.035055831
666000000 -0.98059577 0.046154294 -0.00044736624 0.00012807541 -0.00021812537 -0.00024285364 -0.98876041 0.033456702
667000000 -0.97911352 0.046070881 0.00026755469 -0.00062603812 -0.00029883601 -0.0002793085 -0.98826307 0.032935023
668000000 -0.97974586 0.046295941 -8.8892004e-005 1.4063391e-005 0.000567907 -0.00034964579 -0.98882353 0.035456948
