!Keysight Technologies,M9374A,MY55442783,A.12.55.05
!Date: Thursday, May 20, 2021 14:16:38
!Correction: S11(Full 2 Port(1,2)) 
!S21(Full 2 Port(1,2)) 
!S12(Full 2 Port(1,2)) 
!S22(Full 2 Port(1,2)) 
!S2P File: Measurements: S11, S21, S12, S22:
# Hz S  RI   R 50
500000000 -0.9822526 0.033736985 -0.001042348 -0.00038227777 0.00022154837 -0.00056584168 -0.98890465 0.02502274
501000000 -0.98228317 0.034788184 0.00013195223 0.00034254012 0.00032810384 0.00034197242 -0.98923516 0.025745841
502000000 -0.98178393 0.034258854 -6.6911831e-005 -0.00088834576 0.00028200581 -3.5221005e-006 -0.98955858 0.026806556
503000000 -0.9817279 0.032895043 -0.00063328526 -0.00085735769 -0.0011808468 8.345244e-005 -0.98951983 0.026750905
504000000 -0.98109919 0.035151988 0.00019005315 -0.00026986768 0.00065033336 -0.00025479644 -0.98860961 0.026174754
505000000 -0.98116422 0.03474658 -0.00049052341 4.2102132e-005 -0.0004082066 -0.00022230046 -0.98879117 0.027352801
506000000 -0.98147744 0.034624338 -0.0001821061 -0.00056931254 -3.0352046e-005 -1.1381891e-005 -0.98795289 0.027898902
507000000 -0.98175341 0.034751177 -0.00015089654 0.00054148264 0.00059891946 -0.00018954121 -0.98936772 0.028546864
508000000 -0.98193419 0.036640812 0.00055827299 -0.00044533386 0.00079385209 0.00038926851 -0.98927528 0.027184322
509000000 -0.98038447 0.035785291 -0.00022671562 -0.00074047595 -0.00018292875 0.00041946382 -0.98894244 0.02702193
510000000 -0.98113137 0.036004301 0.00028430601 -0.0008553791 0.00027327958 -0.00020510211 -0.9884522 0.029058848
511000000 -0.98041564 0.035863902 0.00070914964 -0.00060617039 -0.00021839097 -0.00052632438 -0.98882759 0.028479254
512000000 -0.98135263 0.034825917 -0.00072262896 6.5757808e-006 -0.0012248093 0.0002907695 -0.98957002 0.027783003
513000000 -0.982252 0.036056552 -0.00019310704 -0.00032840492 -0.00084927824 5.6765944e-005 -0.98868686 0.026900601
514000000 -0.98166037 0.036305178 -0.00015613547 -7.1096198e-005 0.00021810016 0.00045249879 -0.98905611 0.027512683
515000000 -0.9818545 0.03691468 8.431133e-005 0.00047102067 -0.00040812491 -0.0004913733 -0.98853308 0.02822783
516000000 -0.98097157 0.035172578 0.00023232448 -9.5182855e-005 0.00043758628 -0.00070650468 -0.98815662 0.028283706
517000000 -0.98122507 0.036380529 0.00041883852 -0.0002330065 0.00014900978 1.3906555e-005 -0.98802722 0.026739491
518000000 -0.98220068 0.036482546 -0.00068172446 0.00021891479 0.00082203967 0.00026059631 -0.9885568 0.02826344
519000000 -0.98125637 0.03618734 -0.00019862712 -0.00046770158 -0.00043850081 -0.00023161445 -0.98817408 0.028762737
520000000 -0.98053259 0.035539508 -0.0003685519 9.0225665e-005 -0.00047483694 -0.00027419065 -0.9883889 0.029377587
521000000 -0.9804697 0.036427017 0.00021070546 9.2570066e-005 -5.4020526e-005 0.00030852231 -0.98878485 0.028544059
522000000 -0.98282385 0.036770709 -0.00048725645 -0.00050935097 0.00054683012 -0.00024547672 -0.98840505 0.028565856
523000000 -0.98187172 0.037436742 -0.00022279991 -0.000822826 -0.00066096889 -0.00074322516 -0.98954195 0.028117971
524000000 -0.98194164 0.038468812 6.0105431e-005 -0.00027004184 -0.00030210629 -0.00051576801 -0.98873091 0.029767996
525000000 -0.98093009 0.036766533 0.00084972399 0.000457113 0.00036042556 0.00023466989 -0.98976779 0.02875613
526000000 -0.98274165 0.037492901 -8.4387182e-005 -0.00091657805 -0.00041827562 -0.00024362387 -0.98853326 0.029199274
527000000 -0.98218858 0.036826856 -0.00010787308 -0.0001147872 -0.00094959087 0.00019807697 -0.98933196 0.029462511
528000000 -0.98027349 0.038322728 0.00030622637 -9.4902614e-005 0.00010990975 -4.4680291e-005 -0.98699802 0.029545074
529000000 -0.98217511 0.037703518 0.00038084542 8.854413e-006 0.00031672858 -4.4519253e-005 -0.98733693 0.029355993
530000000 -0.98050499 0.036397964 0.00079255895 7.0208422e-005 -2.0615285e-005 0.00033634994 -0.98892856 0.029614281
531000000 -0.98113626 0.03681742 0.00041881451 0.00060776353 -0.00040178499 -0.00043420767 -0.98870695 0.029865395
532000000 -0.98148805 0.03796399 0.0002582059 -0.0013617204 0.00043484487 -0.00015908531 -0.98752242 0.030121971
533000000 -0.98156202 0.037248656 0.00020874894 -0.00039347159 -0.00030315891 -0.00011145367 -0.98740149 0.029565997
534000000 -0.98209757 0.036098696 -0.00040290167 0.00018113 4.2183779e-005 -0.00039235633 -0.98987019 0.029154919
535000000 -0.98141164 0.038686927 0.00042243209 0.00044422792 -9.403767e-005 -0.00016639607 -0.98795557 0.029742666
536000000 -0.98081517 0.037619323 0.00028865421 -0.00052880746 0.00042407881 0.00033173358 -0.98755658 0.030549787
537000000 -0.98145717 0.037348401 0.00045325593 -0.00018808657 0.00024320697 5.5137675e-006 -0.98951125 0.030815134
538000000 -0.98189014 0.036191788 -0.00065588183 -0.0006919743 0.00010076233 -0.00017784278 -0.98843986 0.029727926
539000000 -0.98166806 0.037316132 -0.00019230197 0.00030747143 -0.00050080003 0.0001951351 -0.98883814 0.03045815
540000000 -0.98192978 0.037748802 2.7917065e-005 0.00027611069 0.00012451589 -0.00043044679 -0.98761243 0.029205104
541000000 -0.98147321 0.036929224 -2.8544731e-005 -0.00044663102 0.0001431523 0.00024952242 -0.98847324 0.029614214
542000000 -0.98196173 0.037885778 0.00071898772 5.7007655e-005 -0.000547987 -0.0003169594 -0.9878754 0.030105066
543000000 -0.98064566 0.03707831 0.00027738785 0.0003536054 0.00041874516 -0.00040749734 -0.98849887 0.030617854
544000000 -0.98076826 0.038177177 0.00066539715 -0.00030573457 0.00038644244 2.5160076e-005 -0.98797858 0.031999085
545000000 -0.98273486 0.038264256 -2.6154516e-006 0.00059310696 0.00010433264 -0.0001617809 -0.9887048 0.031043926
546000000 -0.98264968 0.038821552 -0.0003869202 -0.00045086438 0.00032869817 0.00016435237 -0.98872167 0.028903252
547000000 -0.98123926 0.037261721 0.00040458509 -0.00014866704 1.0849515e-005 -4.1980027e-005 -0.98780757 0.03022271
548000000 -0.98072845 0.037695181 0.00052777724 0.00015477085 -0.00013016307 5.8951038e-005 -0.98832929 0.030451052
549000000 -0.98060358 0.038018696 0.00027711346 0.0002824594 -0.0002935876 7.4046453e-005 -0.98824626 0.030334698
550000000 -0.98039359 0.038469579 0.00041611391 -0.00072014669 5.9548405e-005 0.00052102003 -0.98799372 0.03139361
551000000 -0.98099697 0.03768285 -0.00025667329 0.00020518253 -0.00018849029 -0.00065870368 -0.98933667 0.029513406
552000000 -0.9811213 0.037574191 -4.261058e-005 0.00028382786 5.8721555e-005 -0.00018473613 -0.98884499 0.03037875
553000000 -0.98178011 0.038227752 -0.00012590882 -0.00044526032 -0.00015545213 -5.1424417e-005 -0.9891969 0.030081587
554000000 -0.98188883 0.036059972 -7.7511526e-005 -0.0002144888 -0.00055392634 0.00033215739 -0.98847866 0.029177085
555000000 -0.98097408 0.037198253 -0.00045743631 0.00010091643 0.00039831651 -5.9085651e-005 -0.98959166 0.029642588
556000000 -0.98064542 0.038089298 0.00062464626 -9.501083e-005 3.0761585e-005 -0.00048578862 -0.98922014 0.03220354
557000000 -0.98203087 0.037908684 0.00010704855 0.00016983956 4.9474544e-005 -0.00013278036 -0.98886484 0.030057339
558000000 -0.98093516 0.037723772 4.2688814e-007 -0.00027861237 -0.00084704568 -0.00047426566 -0.98962539 0.030967947
559000000 -0.98067379 0.037527967 8.6423614e-005 -0.00055325765 -0.00059658248 -8.0936079e-005 -0.98849261 0.030572793
560000000 -0.98122078 0.036930054 -0.00039478985 -3.9989187e-005 -0.00035429036 -4.6771333e-005 -0.9883365 0.031160794
561000000 -0.9815411 0.038033035 -0.00065011554 5.84966e-005 -0.00092180795 -0.00067700824 -0.98836797 0.030262711
562000000 -0.98027402 0.0378538 -6.0084192e-005 -0.00023495349 0.00045085268 -4.6972484e-005 -0.9888494 0.030935545
563000000 -0.98091727 0.037942141 -0.00032777456 -0.0003480656 0.0010170016 -0.00017022771 -0.98826027 0.031100767
564000000 -0.98105729 0.037767842 -2.2864615e-005 -0.00019422849 -0.00026853758 -0.00051819911 -0.98953772 0.029529562
565000000 -0.98082906 0.03768941 -0.00084338337 -0.00033187584 -0.00032684219 -0.00033417821 -0.98838037 0.029823601
566000000 -0.98068517 0.037806801 -0.00011972737 9.3929317e-005 -0.00020504015 1.4447925e-005 -0.98777974 0.02996706
567000000 -0.98114288 0.036953948 0.00037971247 -0.00014785332 -0.00043777283 -0.00040713849 -0.98917329 0.030178284
568000000 -0.98061711 0.037950795 0.00031295762 0.00055123289 -0.00062526355 -0.00055655552 -0.98934329 0.030595368
569000000 -0.98028517 0.039210539 -0.00020119143 -0.00028278932 0.00059275131 0.0002197498 -0.98870778 0.029004902
570000000 -0.98059291 0.038211815 -0.00037837069 -0.00036682631 -6.0782768e-005 -0.00077900372 -0.98757678 0.029710406
571000000 -0.98030722 0.037578087 -0.00058783829 0.00041844131 0.00023963912 -0.00065818959 -0.98939902 0.029385537
572000000 -0.98023969 0.037442502 -0.00026159961 3.1944368e-005 0.00024171086 0.00029415157 -0.98862338 0.029395651
573000000 -0.98079753 0.037292201 3.1018539e-005 0.00023485422 -0.00028598626 0.00031397259 -0.98969716 0.02928639
574000000 -0.98030955 0.038771875 0.00044497842 3.1755204e-005 -0.00089058065 -6.0742903e-005 -0.98888016 0.030513814
575000000 -0.98141122 0.038208142 -0.00032621634 -0.00049671106 -0.00080227031 0.00032292973 -0.98891252 0.031109398
576000000 -0.9809919 0.037771571 -4.7550006e-005 -0.00031260622 -4.0285322e-006 -0.00044573244 -0.98930961 0.030794609
577000000 -0.98140258 0.037622467 -0.00015269242 -0.0010143376 1.4186518e-005 7.1389063e-006 -0.98769516 0.029634422
578000000 -0.98082632 0.037408635 7.1948722e-005 -0.0004522877 -7.1693452e-005 0.00046443281 -0.98788768 0.029464049
579000000 -0.98018402 0.037530266 -0.00029479375 -0.00030471457 -6.3516061e-005 5.8615868e-005 -0.98901284 0.029517096
580000000 -0.98042768 0.037335463 0.0007028954 0.00037359633 -0.00068700593 -0.00068159489 -0.98784935 0.031139031
581000000 -0.9816888 0.037447684 4.52391e-005 -0.0004327099 0.0008963538 -0.00093421945 -0.98913407 0.029703895
582000000 -0.98031861 0.037192658 -0.00045677976 -0.00040807409 0.00047216559 0.00019761936 -0.98820895 0.029499928
583000000 -0.98012722 0.038306586 0.00019032809 -0.00088243303 -0.00046347626 -0.00011002806 -0.98841268 0.030479761
584000000 -0.98018855 0.038232129 0.00045359848 -0.00031045949 -0.00030146044 -0.0003779832 -0.98870265 0.030072326
585000000 -0.98033488 0.038544942 0.00026640142 -0.00017815361 0.00033919484 -7.7406148e-005 -0.98969626 0.029618939
586000000 -0.98136139 0.037871577 0.00031128366 -0.0001239946 0.00048175326 -0.00058842392 -0.98816991 0.030017516
587000000 -0.98138613 0.038714405 -0.00049601926 0.00059561932 -0.00050696213 -0.00019294579 -0.98781502 0.029367248
588000000 -0.97945464 0.038248822 0.00053608901 -0.0011030005 0.0003773116 -5.9408587e-005 -0.98828059 0.030534215
589000000 -0.98049062 0.037847985 -0.0001804396 -0.00082649605 0.00068603788 -0.00011947723 -0.98930413 0.030815827
590000000 -0.98046899 0.037653945 -0.00042818507 -0.00044299837 -0.00032437337 -0.00048005345 -0.98838699 0.031322338
591000000 -0.98071641 0.039044589 -9.0716545e-005 -0.00023627799 1.1677608e-006 -0.00078937423 -0.98720813 0.030685358
592000000 -0.98094064 0.037950713 0.00022295647 0.00023304942 0.00038100334 -0.00034020146 -0.98883021 0.031128794
593000000 -0.97990072 0.03790516 -0.00059605663 -0.0007177369 0.00041152723 -0.00023316301 -0.98899662 0.030781051
594000000 -0.97981751 0.039450534 4.2372249e-005 -0.00035465858 0.00013802864 0.00049539673 -0.99002862 0.031282376
595000000 -0.98065257 0.038707115 -0.00031101351 -0.00020793427 -0.00022259059 8.7307038e-005 -0.98875457 0.030913308
596000000 -0.98162967 0.037957899 -0.00056204689 0.00024604402 -0.00018252768 -0.00098522275 -0.99001074 0.031060705
597000000 -0.98114413 0.038480781 -0.00034189192 -0.0013803422 2.2246064e-005 -0.00070908375 -0.98849177 0.03030991
598000000 -0.98174107 0.039283331 -0.00017980242 -0.00032815748 -1.6713931e-005 -0.00014377217 -0.98905283 0.031023905
599000000 -0.97924864 0.039350912 2.5379397e-005 -0.0001216357 0.0012096772 -0.0004299561 -0.98908812 0.031435475
600000000 -0.98131567 0.040526479 0.00075338455 0.00011907816 0.00058960693 -0.00024589017 -0.98867369 0.03046263
601000000 -0.98007679 0.039523281 -0.0002550614 -0.00010104271 -5.9684276e-005 -2.9953297e-005 -0.98904616 0.030977245
602000000 -0.98053491 0.039613634 -0.00040498481 -0.00022013075 -0.00065125572 -0.001022531 -0.98860288 0.03202451
603000000 -0.98141497 0.039641771 5.7423495e-006 -0.00060304813 -0.00096646737 -0.0002361442 -0.98865479 0.032721885
604000000 -0.9808026 0.040508997 0.00064198818 -0.00025362306 -0.00014621161 0.00033009579 -0.98705435 0.032681316
605000000 -0.98077863 0.039517093 0.00027981511 0.00035830832 0.00035576636 0.00028013223 -0.9887746 0.033121347
606000000 -0.98042375 0.040995199 3.7696711e-005 0.00030521624 0.00016396325 -0.00016622068 -0.98700142 0.031064622
607000000 -0.9806419 0.040412549 0.00035893125 -0.0002015198 -4.3939755e-005 -0.00010117196 -0.98877245 0.031016545
608000000 -0.98055929 0.041694969 0.00021108493 0.00013129717 -0.00041930054 0.00042416216 -0.98987198 0.031670474
609000000 -0.98026013 0.039462369 -6.598328e-005 -0.00037524223 1.7932562e-005 -0.00056196086 -0.9891842 0.032399073
610000000 -0.97986704 0.04095253 -0.00021006491 -0.00065136701 -0.00071801129 9.5357325e-005 -0.98761255 0.031648118
611000000 -0.97902644 0.040995684 0.00021167005 -0.00049103907 0.00012200488 -0.00029550248 -0.98824316 0.032125104
612000000 -0.98093438 0.04098849 0.00066638429 0.00069608353 6.1676492e-006 0.00036713656 -0.98766941 0.033307903
613000000 -0.98030812 0.041348733 -0.00072644959 -0.00025744081 8.3617997e-005 -0.00070270133 -0.98786497 0.031717196
614000000 -0.98044109 0.041210007 -0.00096032734 0.00016429988 7.1288661e-005 -0.00015362396 -0.98952681 0.032013074
615000000 -0.98113424 0.040798996 -5.8555506e-006 0.00019175191 0.00033334573 -7.7450437e-005 -0.98814344 0.031991448
616000000 -0.97983122 0.042163339 -0.00041573719 -0.000805474 5.9772166e-005 -0.00040383678 -0.9888708 0.032872654
617000000 -0.98143518 0.042243227 0.00013570509 0.00064162642 -0.00095441856 -0.00053051213 -0.98965836 0.033883847
618000000 -0.98045903 0.042056832 -0.00071710488 0.00026743865 -0.00066367426 -0.00055691565 -0.9894079 0.032160286
619000000 -0.97958863 0.042509817 -0.00031077579 3.9750634e-005 0.00010265983 0.00024088188 -0.98952264 0.032407157
620000000 -0.98055393 0.042540919 0.00020003659 0.00023382489 -0.00061035715 3.4067663e-005 -0.98824632 0.032347482
621000000 -0.98139423 0.0423324 -0.0001643383 -0.00042297682 0.00013875839 -0.00016642 -0.98772228 0.033067793
622000000 -0.97998065 0.042713549 -6.4982225e-005 9.8443728e-005 0.00040465163 0.00012570484 -0.98959637 0.032614395
623000000 -0.97984403 0.043014869 -0.00028003202 -0.00026827797 -0.0002454822 -0.00073947053 -0.98877084 0.032340478
624000000 -0.97919798 0.041596919 0.00019260074 -0.00054484402 0.00052357232 -0.00060046493 -0.98744601 0.034662198
625000000 -0.97975659 0.044149596 0.00036626213 -0.00038185416 0.00033762111 -0.00032533973 -0.98791373 0.032291479
626000000 -0.98065984 0.043006863 -0.0001965267 -0.00038013261 0.00010607513 -0.00048607273 -0.9878518 0.032705721
627000000 -0.98017699 0.041301634 -0.00041101984 0.00051086507 0.00031820784 -0.00025359812 -0.9881317 0.034556005
628000000 -0.98037022 0.0429627 0.00019502194 0.00024998339 0.0003294156 -0.00022359579 -0.98693234 0.0338425
629000000 -0.9799552 0.044610489 0.00033504848 0.00017544831 -0.00097935449 0.00023436558 -0.98827839 0.033691429
630000000 -0.98001748 0.043609705 -0.0003829427 0.0001140614 -0.00078022445 0.00017495968 -0.9881525 0.033694644
631000000 -0.97928625 0.042803723 0.00012483906 1.0546988e-006 -8.5225132e-005 -0.00063479372 -0.98836899 0.033947945
632000000 -0.9797107 0.044406045 -0.00017613365 0.00031911486 0.0012732687 -0.00051790028 -0.986673 0.034189168
633000000 -0.98060155 0.043907177 0.00014721665 -0.00044289688 -0.00046783983 -0.00015161441 -0.98896062 0.032666508
634000000 -0.98056477 0.044698369 0.00052210921 -0.00037760887 -0.00034106211 -0.00020888781 -0.98857599 0.033173081
635000000 -0.97983551 0.043351203 0.00077036268 -0.00057335023 -0.00029349397 -0.0007915055 -0.98825532 0.034024682
636000000 -0.98100609 0.044131488 -0.0001676398 6.1756866e-005 -0.00025611673 -0.00053303165 -0.98835701 0.035306405
637000000 -0.9801811 0.044200771 0.00031115467 -0.00087411655 -0.00016287868 -0.00025614613 -0.98766124 0.03316493
638000000 -0.98060507 0.043964654 -0.00010312413 -0.00046501885 0.00061922363 0.0003655024 -0.98734188 0.033051886
639000000 -0.98105115 0.045369849 -0.00045881319 -0.00022530716 0.00040594899 -6.4524218e-005 -0.98770589 0.035163365
640000000 -0.97956544 0.044569902 -7.6853619e-005 8.9917492e-005 -0.00021804086 0.00022100731 -0.9887591 0.033328831
641000000 -0.98016745 0.045696683 0.00033179863 -0.00066709035 -3.9826922e-005 0.00027823675 -0.98737556 0.03494459
642000000 -0.97952127 0.044841141 -0.00052026432 0.00042323821 0.00037262763 -0.00059210503 -0.98842627 0.034272842
643000000 -0.97990721 0.045106571 5.1894363e-005 -0.00014014523 5.412606e-005 -7.2947005e-005 -0.98809946 0.033093754
644000000 -0.98100621 0.044989999 -0.00026019764 9.3377348e-005 -0.00028032533 -0.00036288431 -0.98843586 0.034600355
645000000 -0.9802202 0.044087905 -0.00026555266 -4.1501393e-005 0.00059014477 0.00046330734 -0.98817861 0.03324873
646000000 -0.97973526 0.044785403 0.00022999501 -0.00056911801 6.1859457e-005 -0.00045008372 -0.98734587 0.034971178
647000000 -0.97998023 0.045083381 0.00017101843 -0.0009129268 -0.00059413933 -0.00015416944 -0.98756659 0.03496217
648000000 -0.98055744 0.044700656 -8.9093715e-005 -0.0002668568 0.00034774246 0.00017187148 -0.98753631 0.035480537
649000000 -0.98028427 0.045007218 0.0006266071 -0.00035183536 -9.9843841e-005 0.00017926018 -0.98734063 0.035438206
650000000 -0.97979128 0.044946522 -0.00061504444 0.00027541316 0.00045865707 -0.00040330624 -0.98653525 0.035854444
651000000 -0.97959489 0.045464184 -8.0575403e-005 -0.00044341481 -3.582158e-005 -0.00024670621 -0.98734176 0.034687709
652000000 -0.98047084 0.044339165 0.00035742519 -0.00031629339 -0.00012230696 -0.00057555555 -0.98715711 0.034095034
653000000 -0.98034966 0.045684438 -0.00039015902 -0.00025680559 4.1399377e-005 -0.00078087696 -0.98835653 0.034528602
654000000 -0.98006511 0.046349436 0.00019265254 -0.00068436348 -0.00017757641 -0.00015833546 -0.98789281 0.033562355
655000000 -0.97815502 0.045936082 -0.00031567767 0.00021272377 -0.00051262742 -0.0010997062 -0.98709738 0.034272287
656000000 -0.97887176 0.046596073 0.00052420521 -0.00034583046 3.8089979e-006 -0.00039558535 -0.9878794 0.034777701
657000000 -0.98007315 0.046192516 0.00036969734 -0.00046434914 0.0002927125 -0.0005820645 -0.98703307 0.034692835
658000000 -0.98005557 0.045338206 0.0001285121 -0.00026983101 0.00044710669 -0.00061193074 -0.98761106 0.034252975
659000000 -0.98010641 0.046342406 -0.00060437433 -4.7504313e-005 -0.00021319358 4.180109e-005 -0.98858815 0.036564972
660000000 -0.98026872 0.046685163 -0.00020091671 -0.00029444264 -8.7575252e-005 -0.00031507522 -0.98652124 0.033851948
661000000 -0.98090863 0.046424732 -0.00030483553 -4.5975607e-006 3.9624974e-005 0.00063983555 -0.98902339 0.03480963
662000000 -0.97963637 0.045234062 -4.4042688e-005 -0.00028137834 0.00016729232 0.00011440309 -0.9872005 0.03344601
663000000 -0.97953075 0.045668788 -0.0002526202 -1.8073841e-005 0.00013935189 -0.00033502554 -0.98721105 0.035027757
664000000 -0.98049945 0.044946991 0.00022232742 0.00014279825 -4.7566995e-005 0.00015494977 -0.98818123 0.034972906
665000000 -0.97955269 0.046156932 0.0002203878 -0.00036744378 -0.00019456696 -0.000248622 -0.98788083 0.035208818
666000000 -0.97899622 0.046276953 0.00040488839 -0.0003888293 -2.672331e-005 0.00035331817 -0.98697108 0.035083149
667000000 -0.97942096 0.045925703 -0.00011537395 0.00032780107 0.0003653173 -0.00032615603 -0.9875043 0.033264145
668000000 -0.97965449 0.046286132 0.00016445415 0.00018914283 0.00016627507 -0.00045029106 -0.98791397 0.035192978
669000000 -0.9791193 0.045767054 -0.00055172725 0.00067872647 5.4237884e-005 -0.00089129404 -0.98743409 0.034312822
