!Keysight Technologies,M9374A,MY55442783,A.12.55.05
!Date: Thursday, May 20, 2021 14:21:58
!Correction: S11(Full 2 Port(1,2)) 
!S21(Full 2 Port(1,2)) 
!S12(Full 2 Port(1,2)) 
!S22(Full 2 Port(1,2)) 
!S2P File: Measurements: S11, S21, S12, S22:
# Hz S  RI   R 50
500000000 -0.98289716 0.035108518 -0.00027558405 0.00014284186 4.9002247e-005 -0.00032896057 -0.98875254 0.0263988
501000000 -0.98104763 0.035755657 -0.00059536594 -0.00022196083 -0.00034195269 -0.00066106726 -0.98862869 0.026764501
502000000 -0.98168069 0.034911525 0.00028945628 -0.0011336659 -0.00087334734 0.0003244525 -0.99011302 0.026299926
503000000 -0.98128372 0.034950536 0.00011747067 -5.3391126e-005 0.00038084446 0.00050130452 -0.98854232 0.027569579
504000000 -0.98075885 0.03564848 -0.00020300575 -0.00029406862 0.00055194821 -0.00029142792 -0.98939013 0.026087636
505000000 -0.98170978 0.03435941 -0.00025880919 0.00035568638 0.00023846822 4.5304564e-006 -0.98915213 0.0270034
506000000 -0.98181021 0.034060612 -0.00045467744 0.00019021195 3.5509096e-005 -0.00046964586 -0.9888429 0.027372638
507000000 -0.98148507 0.035100374 -0.00038443619 -0.00077282178 0.00084860536 2.9640842e-005 -0.98906356 0.02803454
508000000 -0.98330879 0.035646398 -0.00046073971 0.00031840007 -8.7439155e-005 -0.00034119992 -0.98949856 0.02729263
509000000 -0.98179018 0.035908859 0.00032252137 0.00080582121 -5.045993e-005 -0.00041750958 -0.98880213 0.027482258
510000000 -0.98172164 0.035184808 -0.00049019948 -0.00021724885 0.00037261937 0.00012604783 -0.98881495 0.027659018
511000000 -0.98128861 0.036290567 -0.00014126528 -0.00019232763 -0.00011284491 -0.00042103906 -0.98816276 0.027525019
512000000 -0.98205858 0.034646403 -0.00028635393 -0.00029347916 -0.00072318001 -0.00057591795 -0.98765713 0.027796447
513000000 -0.98268962 0.034152959 -0.00016190021 -0.00067169935 0.00078132295 5.340021e-005 -0.98848408 0.027677014
514000000 -0.98216331 0.036219615 -0.00048157855 -0.00057113828 -0.00021566392 -0.00014371767 -0.98960042 0.027281119
515000000 -0.98212361 0.035607722 -0.00028460333 -0.00064237695 -0.00051169103 -0.00026654176 -0.98943186 0.027906753
516000000 -0.98175156 0.035511039 0.00029649565 -0.00041901378 -9.1288341e-005 -0.00041013307 -0.98896104 0.02786099
517000000 -0.9816975 0.035424344 -0.00023270019 0.00031833726 0.00011852016 0.00024288236 -0.9890812 0.027084304
518000000 -0.98156416 0.03719537 0.00028572141 -9.6216136e-005 -7.6419376e-005 -0.00019847821 -0.98825127 0.027979773
519000000 -0.98218703 0.036850281 -0.00031302284 -0.00042247464 0.00073589885 -0.00033124856 -0.98794681 0.029051652
520000000 -0.98171574 0.03580492 0.00069265114 -0.00027207498 -0.00027868792 -3.1321179e-005 -0.98959345 0.029206209
521000000 -0.98206758 0.037681848 0.00071650831 3.8308564e-005 -0.00068413466 -0.00014378998 -0.98877329 0.029847613
522000000 -0.98223025 0.036213949 -4.275325e-006 -0.00012638878 -2.0798714e-005 0.00018773635 -0.98826844 0.027893865
523000000 -0.98216647 0.03651543 -0.00024916284 -0.00030994398 -0.00044922958 0.00051061501 -0.98814893 0.028657651
524000000 -0.9809429 0.03654217 -0.00017263595 0.00023020324 -0.00096746511 -0.00029676844 -0.98933566 0.028154831
525000000 -0.98129249 0.036167525 -0.00029931276 -0.00016146321 0.00018474036 -0.00039894649 -0.98906803 0.029133359
526000000 -0.98196411 0.036846347 -0.00043750019 0.00066937844 0.00053870917 -0.00096956035 -0.98854244 0.028052134
527000000 -0.98179352 0.03597011 -4.5203822e-005 0.00014097233 -0.00030048829 0.00047303943 -0.98896015 0.030509451
528000000 -0.98025006 0.037923172 6.6354027e-005 -0.00014441395 0.00019182159 -0.00020193974 -0.98897547 0.029558435
529000000 -0.98187208 0.037750315 -0.00032133752 -0.0010621727 0.00060222601 0.00018123408 -0.98762113 0.030266471
530000000 -0.98176193 0.03709887 0.00048609663 -0.0004095698 0.00022319301 -0.00017148617 -0.9881829 0.029520204
531000000 -0.98254448 0.037719484 0.00033371712 -8.8306937e-005 7.7799094e-005 0.00030059469 -0.98877203 0.028764067
532000000 -0.98212743 0.036847346 -0.00021946566 -0.00018844866 -0.00019549957 0.00023819321 -0.98842883 0.028873792
533000000 -0.9824236 0.036966637 -0.00032902174 -9.8303834e-005 0.00013885845 -0.0004758508 -0.98884195 0.028562956
534000000 -0.98189628 0.036493797 -7.9869693e-005 0.00011140198 4.8975795e-005 -9.4491137e-005 -0.98936182 0.029904472
535000000 -0.98154986 0.037832033 0.00033318662 0.00031849262 0.00026085274 -0.00039180098 -0.98873878 0.029334025
536000000 -0.98148263 0.036863595 -0.00025497476 -0.00015752662 -0.00032249349 -2.1886686e-005 -0.98832792 0.029351089
537000000 -0.98071873 0.035869051 -0.00017626621 -0.0009367257 -0.00039410818 0.00038014477 -0.98826259 0.030193733
538000000 -0.98212516 0.037359696 0.00021579923 0.00058679481 -0.00053972885 -0.00078835129 -0.98802656 0.029844483
539000000 -0.98192412 0.037225623 0.00059083058 0.00023001202 -0.00049275579 6.4441869e-005 -0.98887622 0.029850937
540000000 -0.98197043 0.038473345 6.7278961e-005 4.3890352e-005 4.4233079e-006 -4.2987335e-006 -0.98809707 0.029976226
541000000 -0.98084539 0.03839615 0.00049711938 0.00015308376 -0.00046335271 -0.0002272546 -0.98835856 0.03002136
542000000 -0.98154449 0.037883345 7.8421515e-005 -0.00083263224 0.00020638263 -0.0007025231 -0.98927146 0.030104967
543000000 -0.9814232 0.037684049 -2.5597277e-005 -0.0004505924 -0.00010212747 1.1366162e-005 -0.98777956 0.030651882
544000000 -0.98130459 0.037512399 -0.00043172023 -0.00041674831 -0.00021114221 0.000485392 -0.98883182 0.030500686
545000000 -0.98202449 0.037246726 0.00033479466 -9.1815062e-005 0.0002177939 0.00033875677 -0.98856378 0.030807525
546000000 -0.98197061 0.037982218 -0.00061451364 -0.00074541685 -0.00063683523 0.00021909161 -0.98872542 0.030684682
547000000 -0.98121595 0.038810167 0.00034558846 -0.00045313014 -0.00041860511 3.4708453e-005 -0.98814118 0.030875646
548000000 -0.98109323 0.037487298 -0.0001048327 0.00021515157 -0.0006825875 -6.836246e-005 -0.9886983 0.02992918
549000000 -0.98105973 0.038535155 0.00022299209 0.00022113278 -0.00013749835 0.00011054943 -0.98897278 0.029966863
550000000 -0.98075753 0.039113592 0.00037651497 0.00031157635 0.00047935513 -5.1716528e-005 -0.98962021 0.031511098
551000000 -0.98157817 0.037493475 -0.00063598831 -0.00024151988 -0.00067152124 -0.00050511648 -0.9882009 0.031376716
552000000 -0.98264372 0.03745744 -2.0646041e-005 0.00037179902 -0.00059219397 -0.00054498465 -0.988478 0.03003587
553000000 -0.98103225 0.037907977 -0.00014507498 -0.00033345175 -0.00059599668 -0.0012679065 -0.98927855 0.030063109
554000000 -0.98076427 0.037143067 -5.6990084e-005 -0.00034942615 -0.00050686521 4.2135005e-005 -0.98775411 0.029551364
555000000 -0.98227704 0.037872903 -1.6018592e-005 3.5461276e-006 -1.8218085e-005 0.00010177944 -0.98961103 0.029987382
556000000 -0.98130673 0.038022228 -0.00043845348 -0.00022916775 3.696249e-005 -2.9061654e-005 -0.98964363 0.029488511
557000000 -0.98228377 0.038395222 -0.00013955237 -0.00010746134 0.0002131275 -0.00051065109 -0.98921347 0.029904092
558000000 -0.98026043 0.037809853 0.0001140489 -0.00054437318 0.00016035707 0.00011660155 -0.98803937 0.029667074
559000000 -0.97942376 0.037667599 -0.00032199192 -0.00029007811 0.00029390468 -5.6073626e-005 -0.98879236 0.030511184
560000000 -0.98144358 0.03746495 0.00030588143 -0.00016494648 -0.00038964173 -0.0005755765 -0.98903972 0.030327938
561000000 -0.98042321 0.038122602 0.00029604023 -0.00065458199 -0.00012630357 -0.0001827472 -0.98716784 0.029695222
562000000 -0.98133361 0.038707376 -0.00040643578 0.00058931939 -0.00025205209 -0.00069284777 -0.98844826 0.030643741
563000000 -0.98039871 0.038221002 -0.00033270387 -0.00016013533 0.00037179232 0.00022246486 -0.98869586 0.030471563
564000000 -0.98155236 0.036849141 -3.864933e-005 0.00019049962 0.00019874428 0.00012923514 -0.98933333 0.029183315
565000000 -0.98145407 0.037039191 -0.00050390989 -0.00024001821 -0.00040486048 -0.00086923206 -0.98839968 0.030025797
566000000 -0.98100483 0.037322331 -0.00059186982 -0.00034785201 -0.00028402125 1.3772063e-005 -0.98912072 0.030880453
567000000 -0.98049551 0.038577206 -3.4365254e-005 -0.00034753644 0.00015780647 0.00013853365 -0.98967594 0.029378656
568000000 -0.97941446 0.036137003 -0.00054148189 -4.7768153e-005 -1.3809223e-005 -0.0003196664 -0.9885233 0.030302025
569000000 -0.98086959 0.037375726 -3.2380274e-005 0.00016398229 -0.0002593027 -0.00052658177 -0.98832804 0.029513737
570000000 -0.98109829 0.037190184 0.00037061362 0.00020704183 -0.00029303203 -0.00054321962 -0.98778373 0.030668084
571000000 -0.98042399 0.036299769 0.00041572886 -0.00025418555 -0.00056585745 0.00022823758 -0.98983514 0.030930784
572000000 -0.9805491 0.038409106 -0.0002157319 0.00020194989 -0.00043765645 1.8479628e-005 -0.98887879 0.029914351
573000000 -0.9813019 0.037018523 0.00099616067 0.00023330569 -6.4457899e-006 -0.00012622966 -0.98955065 0.030448159
574000000 -0.98031068 0.037071336 0.00037193813 0.00035006515 9.5814161e-005 -0.00040571843 -0.98897785 0.030637739
575000000 -0.98118693 0.038160592 5.6973455e-005 -0.00036785711 0.0002281652 -0.00095831981 -0.98929507 0.031757087
576000000 -0.98051721 0.038320631 -0.00021550753 -0.00034597272 -7.0942287e-006 -0.00069805863 -0.98941767 0.029074334
577000000 -0.9802773 0.036805667 0.00024606739 -0.00052063237 -0.00025747065 -0.00033820336 -0.98843229 0.030597838
578000000 -0.98069704 0.038713839 0.00049825537 -0.00059556641 0.00010577535 0.00029803856 -0.98837334 0.031114452
579000000 -0.98130053 0.037940454 0.00035811318 -0.0003094814 5.0006809e-005 -0.00029736274 -0.98899305 0.030504728
580000000 -0.98117518 0.0381152 -7.3873862e-006 -0.00060455658 -5.8723588e-005 0.00044945098 -0.9874329 0.03065869
581000000 -0.98012584 0.037460674 0.00022821258 0.00011328569 0.00029398393 0.00012216916 -0.98964125 0.030114422
582000000 -0.98023313 0.038017206 0.00078999344 -0.0003705853 0.0006716341 -3.5379671e-005 -0.98891705 0.031566836
583000000 -0.98104858 0.038850162 0.00020552581 -0.00019738995 -0.00022050862 -0.00083663862 -0.98894751 0.030248178
584000000 -0.97944379 0.037271976 7.4060648e-005 -0.00054184301 -3.0169636e-005 -0.00039683966 -0.98852015 0.030559611
585000000 -0.98125017 0.03837762 0.0004741397 -0.00080376654 3.9299372e-005 -0.00067991944 -0.98978251 0.03048793
586000000 -0.98075384 0.037827168 0.00014933283 -0.00016314126 -0.001237117 7.1605988e-005 -0.98885047 0.029901989
587000000 -0.98121029 0.038099207 -0.00027799726 -0.00031154745 0.00018678296 -7.2740651e-005 -0.98819667 0.030409971
588000000 -0.98147744 0.037156738 5.2496584e-005 -0.00025716677 0.00087066495 -0.00046583198 -0.98834616 0.030821228
589000000 -0.97961485 0.038838595 -0.00055642618 8.5417916e-005 -0.00029948601 -0.00015575136 -0.98781127 0.030735513
590000000 -0.98141581 0.0382482 -9.6898577e-005 0.00081363239 -0.0002171521 -2.8118331e-005 -0.98884338 0.030822329
591000000 -0.98095441 0.037984721 -0.00056856393 -0.00041170412 3.5363508e-005 -3.3146138e-005 -0.9881084 0.0304504
592000000 -0.98182857 0.037941411 -0.00010247567 -0.00042087704 0.00032386658 -0.00018047482 -0.98869312 0.02985052
593000000 -0.98019433 0.038646515 3.0116053e-005 -0.00050281396 -0.00050678675 -0.0009927277 -0.98938251 0.029673463
594000000 -0.98070705 0.039131876 -0.00022868316 -0.00077184325 0.00030366227 0.00019122782 -0.98878384 0.030061305
595000000 -0.98186588 0.038214523 -0.00036282546 -7.0305439e-005 -0.0003204238 0.00012183231 -0.98838043 0.029724747
596000000 -0.98157054 0.039770629 -2.1323842e-005 4.6069788e-005 -0.00023075628 -0.0010845916 -0.98831427 0.030933283
597000000 -0.98098624 0.03872833 -0.00073420233 0.0001921251 -0.00080024585 -0.00035609788 -0.98801094 0.031216448
598000000 -0.98126453 0.039190017 0.00059998629 3.677978e-005 8.2090904e-005 -0.000621974 -0.98887867 0.030918071
599000000 -0.97985017 0.038383178 -0.00028519597 -0.00017019092 0.00019562563 0.00016194533 -0.98840654 0.031814169
600000000 -0.98127592 0.039810337 0.00034797876 -0.00012357619 0.00022482518 -0.00063487486 -0.98894149 0.030014707
601000000 -0.98078239 0.039406065 0.00033069871 -0.0011545145 -0.00022461536 -0.00029357756 -0.98839742 0.032252483
602000000 -0.98107231 0.038752984 -0.0003495217 -0.00027461455 -8.0659316e-005 0.00050848443 -0.98912895 0.031225303
603000000 -0.98251581 0.040386885 0.00010561459 -1.8007631e-005 0.00022448451 -0.00026632889 -0.98938996 0.030488322
604000000 -0.97908258 0.040278915 -7.817032e-005 -0.00035872494 0.00067815778 -0.00034035899 -0.98952568 0.032683346
605000000 -0.98069912 0.039317414 -0.00011094622 -0.00039361397 0.00026955255 -7.6315664e-005 -0.98862523 0.032204635
606000000 -0.98096681 0.04014371 0.00051697303 0.00023541853 -9.1210131e-005 -0.00051961589 -0.98875302 0.031151991
607000000 -0.98129308 0.039744399 -2.5318493e-005 -0.00089288416 -0.00051458314 -8.8118984e-005 -0.98805481 0.031260759
608000000 -0.9801029 0.040925942 -0.00063641765 0.00068693829 -0.00078707706 -0.00050418527 -0.9882611 0.030966494
609000000 -0.98131549 0.040508892 -0.00053839752 -0.00074759912 -0.00031030277 -0.00044748583 -0.98812777 0.031840265
610000000 -0.97931617 0.040214505 -0.00029866159 -0.00019121972 -0.00016220998 -0.00030448101 -0.98891509 0.032905068
611000000 -0.98004842 0.040917072 -9.6331692e-005 -0.00075887138 0.00019966562 -0.00070349162 -0.98790163 0.031170143
612000000 -0.98014736 0.042394023 0.00027711436 -0.00039182339 -0.00015407478 -1.5408677e-005 -0.98689508 0.032313675
613000000 -0.98117274 0.041222341 -0.00051907799 -0.0002836675 -5.6443554e-005 0.00015532476 -0.9884212 0.032119434
614000000 -0.98069555 0.041343272 -0.00065535831 -0.00011593867 9.4168878e-005 -0.00021142249 -0.98918998 0.031769067
615000000 -0.98017526 0.041608009 -0.00082706328 -0.0006156927 -0.00025313438 5.0819956e-005 -0.98884422 0.032299623
616000000 -0.98082262 0.040812183 4.8513903e-005 -0.00035481772 0.0001077143 -0.00056139496 -0.98894787 0.032787971
617000000 -0.98096126 0.042390168 0.00013284772 -0.00064696698 3.2939792e-005 0.00029860623 -0.98737311 0.033458002
618000000 -0.98118693 0.042085133 -8.8162386e-005 -0.00019836523 -0.00047687077 -0.00024268265 -0.98851073 0.032134384
619000000 -0.97983336 0.0420577 0.0005361549 -0.00054678571 -0.00018840635 -0.00032669376 -0.98796815 0.0321582
620000000 -0.97946513 0.041785475 -1.5303347e-005 6.0125592e-005 0.00014297235 -0.00011600638 -0.98787552 0.032098379
621000000 -0.97989362 0.041619819 -0.00043142302 -0.00068346516 -0.0007495578 -0.0009994735 -0.98786181 0.03334387
622000000 -0.98098528 0.043254938 -0.00039073752 -0.00065313338 -0.0002725097 0.0001602332 -0.98862159 0.033259381
623000000 -0.98010278 0.042282782 -0.00062239455 0.00016460294 6.7997506e-005 -0.00028168899 -0.9887237 0.032704808
624000000 -0.98056841 0.042102534 -2.6499003e-005 -0.00023687261 -0.0003679528 -0.0001461162 -0.98912132 0.034096502
625000000 -0.98034471 0.044286467 -0.00044314255 -0.00087676517 6.295526e-005 0.00017777993 -0.98857814 0.032777693
626000000 -0.9807598 0.043478169 0.00014139221 -0.00072830217 -0.00023842814 -0.0012652136 -0.9875198 0.034388717
627000000 -0.97950971 0.043900952 0.00010400698 -0.00054017029 -0.00053532596 0.00052664126 -0.9884038 0.033747856
628000000 -0.98092484 0.043548118 0.00029567708 -0.00013540521 0.00044959947 -0.00076844252 -0.98900145 0.034178227
629000000 -0.9799909 0.044454638 3.1921325e-005 -0.00012273501 0.00030089976 9.7051015e-005 -0.98817748 0.033620235
630000000 -0.9809584 0.04292405 -7.8607249e-005 -0.00031275925 0.00035785246 0.00029100035 -0.98817366 0.034477606
631000000 -0.98062861 0.043456111 -0.00029617763 0.00024296873 0.00027952247 -0.00029119352 -0.98824781 0.034110643
632000000 -0.9811551 0.043947902 0.00060988375 1.1602814e-005 0.00065987499 -0.00045926782 -0.98759943 0.0340004
633000000 -0.97966617 0.044275127 -0.00063230417 -0.00019653153 0.00037444863 -0.00062658364 -0.98749286 0.033043854
634000000 -0.97976691 0.044898741 -8.9465495e-005 -2.1347128e-005 -0.00011872351 -0.00022637633 -0.98806822 0.03460535
635000000 -0.9802376 0.042949792 0.00036572563 0.00018147593 -0.00037886458 -0.0010872438 -0.98826337 0.033858221
636000000 -0.98014593 0.044282854 -0.00038742131 -0.00061209552 0.00029763495 -0.00055893691 -0.98811609 0.033558037
637000000 -0.98035091 0.044030063 2.217976e-005 -0.00058014458 -0.00010081006 -0.00063281273 -0.98743391 0.03267137
638000000 -0.98031372 0.044108696 0.00026086441 -0.00017242244 0.00054291397 -0.00058702327 -0.98857361 0.033265326
639000000 -0.98087877 0.042989917 -0.00037360663 -0.00014524767 0.00073929277 -0.00088789349 -0.98813003 0.034583434
640000000 -0.9803288 0.045050964 -0.00031960735 -0.00019126217 0.00075925299 -0.00036194207 -0.98797446 0.033025119
641000000 -0.98047537 0.044881068 -0.00041877176 -0.00044851803 0.0005955302 9.5940894e-005 -0.98768383 0.034462679
642000000 -0.97926342 0.044791099 -0.00010415274 -8.0092461e-005 -2.8730839e-005 -0.0003015424 -0.98750806 0.034862444
643000000 -0.98027217 0.045996308 -0.00022221966 -0.00040148932 7.7992139e-005 -0.00061468186 -0.9887315 0.03400578
644000000 -0.98028445 0.045176644 -0.00047496046 -0.00032863242 -0.00022061788 9.2680246e-005 -0.98738682 0.03469209
645000000 -0.98029298 0.04456703 -0.00065842643 0.00078659703 0.00049950468 9.8852752e-006 -0.98701864 0.035620153
646000000 -0.98066461 0.045976479 -0.00014174447 -0.00073100714 0.00083277957 -0.00019164939 -0.9870944 0.034334272
647000000 -0.98181456 0.04548588 -0.00011098778 -0.00072833011 2.8574468e-005 -0.00070926384 -0.98850542 0.035543174
648000000 -0.98031151 0.045430832 -0.00044293026 -2.3477822e-005 0.00097685133 -2.4848372e-005 -0.98749292 0.034069892
649000000 -0.97953844 0.04467918 -0.00015182748 -0.00028776797 -0.00015816597 -0.00010634638 -0.98727095 0.035221733
650000000 -0.98055595 0.046656784 -0.00043144371 0.00012187657 0.00017631985 0.000330802 -0.98793256 0.034996495
651000000 -0.97996134 0.045943495 2.4905756e-005 -0.00042812934 -0.00088964374 -0.00030635629 -0.98775107 0.03363052
652000000 -0.97964281 0.045681842 -0.00020812794 -0.00014724702 -0.0001643501 2.2236256e-005 -0.98649669 0.034391586
653000000 -0.98040205 0.046308905 -7.2761277e-006 -0.00045690275 3.8795275e-005 0.00010285035 -0.98819757 0.035293244
654000000 -0.97970808 0.046239007 0.00027028256 -0.00038080497 -0.00035733922 -0.00061095064 -0.98814279 0.033947926
655000000 -0.97959179 0.045140218 -0.00014078552 -0.00050603802 5.1087836e-006 -0.00033999226 -0.9875496 0.034612976
656000000 -0.97830582 0.046242259 -0.00010308 -0.00059863477 0.0004037105 -0.00038311427 -0.98863792 0.034940764
657000000 -0.98058963 0.046094567 5.2501426e-005 -0.00028306298 -0.00038865849 -0.00033913698 -0.98833805 0.036127195
658000000 -0.98011971 0.046011269 0.00023621929 -0.00087046047 -0.0002289379 -0.00064729044 -0.98789382 0.033770531
659000000 -0.98008347 0.045955937 -0.00076488109 -0.00062085467 -0.00037663095 -0.0005771413 -0.98752719 0.034335665
660000000 -0.98027557 0.046580937 -0.00065390306 -0.0005247909 0.00020327544 -0.00075510144 -0.98836893 0.035161823
661000000 -0.98004264 0.046898205 0.00071281678 -0.00032660106 2.2259946e-005 -0.00032911211 -0.98782128 0.03563498
662000000 -0.97998846 0.046514697 0.00061535509 -0.0004857984 0.00017631076 0.00031633503 -0.98884189 0.035472173
663000000 -0.98124868 0.046391658 0.00018671581 0.00060481648 -0.00069621915 -9.1537353e-005 -0.98750883 0.035257641
664000000 -0.97837478 0.045659248 0.00038609729 -0.0008518711 -4.9466449e-005 -8.6454726e-005 -0.987988 0.035773572
665000000 -0.9791286 0.046016417 0.00010041144 -0.00036132988 -9.3306946e-005 -0.00011066086 -0.98805708 0.034762628
666000000 -0.98032004 0.046048746 -6.8082036e-006 -0.00060936768 -0.00016368742 0.00017774518 -0.98923182 0.034097493
667000000 -0.97830504 0.045702301 0.00047924192 -0.00029046912 -0.0005910605 4.7892308e-006 -0.98796684 0.033902295
668000000 -0.97923547 0.046553325 -0.00022168047 -3.7178033e-005 1.6118538e-005 -0.00024279667 -0.98840874 0.034636993
