!Keysight Technologies,M9374A,MY55442783,A.12.55.05
!Date: Thursday, May 20, 2021 14:37:58
!Correction: S11(Full 2 Port(1,2)) 
!S21(Full 2 Port(1,2)) 
!S12(Full 2 Port(1,2)) 
!S22(Full 2 Port(1,2)) 
!S2P File: Measurements: S11, S21, S12, S22:
# Hz S  RI   R 50
500000000 -0.98211223 0.032433987 -0.00040988243 -0.00013979802 -0.00012850782 -0.00056085002 -0.98932123 0.026003113
501000000 -0.98245454 0.034660846 -0.00034002922 0.00034847946 -0.00019658255 -0.00059946184 -0.98933792 0.026131382
502000000 -0.98293972 0.034134429 -0.0001775736 -0.00031121829 7.5411466e-005 -0.00038210765 -0.99059212 0.026177285
503000000 -0.9820261 0.035049602 1.1321007e-005 -0.00017368006 0.0002040783 -0.0003564943 -0.98936969 0.026183367
504000000 -0.98158348 0.034980275 -0.00037801298 -0.00086741213 -3.631252e-006 -0.00053432782 -0.99003148 0.02662345
505000000 -0.9824751 0.035422679 -0.00064215728 -0.00039440684 -0.00018153715 -0.00076810754 -0.98898309 0.027899968
506000000 -0.9825201 0.03448322 -0.00063646201 0.00058991712 4.7760925e-005 -0.00051116711 -0.98815256 0.028296294
507000000 -0.98220587 0.034592479 -0.00063818361 -0.00019949392 0.00050710409 3.6528341e-005 -0.98904479 0.027198302
508000000 -0.98202407 0.034742221 -0.00012409659 1.7831639e-005 -0.00030627803 -0.00019773733 -0.98872411 0.027966816
509000000 -0.98158544 0.035360981 -8.0655715e-005 -0.00058175554 -0.00065021851 -0.0002762457 -0.98870653 0.026959714
510000000 -0.98243827 0.034693427 -0.00013266706 -0.00039502137 0.00041052332 -0.0011985519 -0.98860174 0.027684061
511000000 -0.98097914 0.034797292 0.00065012067 5.1502855e-005 0.00036837955 -0.00054580165 -0.98880005 0.027902696
512000000 -0.98271489 0.034758359 0.0001030522 4.2398478e-006 -0.00010265334 -0.00076017441 -0.98841286 0.027360523
513000000 -0.9812448 0.035825677 -0.00023529328 -0.00012672308 -0.00045917192 -0.00040555035 -0.98804647 0.027753998
514000000 -0.98240542 0.035351872 -0.00016126817 0.00018382016 -0.00035494618 -4.0120522e-005 -0.98845971 0.026406819
515000000 -0.98186386 0.036203604 0.00062067283 -0.0012029308 0.000398951 -0.00084120891 -0.98931867 0.028280353
516000000 -0.98304141 0.037315145 0.00032087587 -1.1445626e-005 0.00036770105 0.00028794672 -0.98899394 0.028419288
517000000 -0.98242319 0.03657221 8.6574328e-005 -0.00085656071 0.0004337678 -0.00049783889 -0.9894349 0.027533691
518000000 -0.98238021 0.036225259 0.00034303445 0.0001449608 0.00018515646 0.0003172752 -0.9887591 0.028264692
519000000 -0.98310441 0.036206126 0.00015263034 -0.0001825439 -0.00038161001 4.1726427e-005 -0.98779845 0.028361265
520000000 -0.98080105 0.035095233 -0.0002392929 -2.0903355e-005 -0.00043954377 -0.00073746819 -0.98761463 0.028843885
521000000 -0.98167926 0.036501009 0.00068509753 -0.00078908599 -0.00043268874 -0.00020603715 -0.98874915 0.029979505
522000000 -0.9834013 0.036365166 4.5842142e-005 0.00020425708 -0.00077348278 9.2954295e-005 -0.98898757 0.029252075
523000000 -0.98359907 0.035534658 -0.00045139948 0.00023740403 8.9453133e-005 -0.00021955138 -0.98868525 0.028363543
524000000 -0.98224199 0.036138885 -0.00082097237 0.0004544261 -0.00017319307 -0.00030463768 -0.98916066 0.029333163
525000000 -0.98054123 0.037261132 -0.00074378232 -0.0011422246 -0.0004930225 -0.00067516405 -0.98890191 0.029031722
526000000 -0.98264337 0.037327342 0.00041132962 1.9581219e-005 -0.00018836699 -0.00033627424 -0.98853546 0.02979685
527000000 -0.98255926 0.037727486 0.00095886638 -0.00020627651 0.00058614509 -0.00068258191 -0.9899928 0.028403556
528000000 -0.98078418 0.035965964 -0.00019782194 -0.00016070611 -0.00026861855 -0.00052047282 -0.98861539 0.028955035
529000000 -0.98282921 0.038357541 0.00034427346 0.00036948969 0.0004969273 0.00017608366 -0.98776561 0.029896405
530000000 -0.98145306 0.038346376 -0.00029306786 -0.00024956049 7.9643251e-006 -0.00081553741 -0.98889875 0.029675772
531000000 -0.9826268 0.03771124 -0.00038112857 -8.0098602e-005 -0.0004515512 -0.00053523661 -0.98879784 0.030685898
532000000 -0.98210645 0.037912332 -0.00016010812 0.0004531689 -0.00020289957 0.00033228591 -0.98871106 0.029842498
533000000 -0.98276711 0.037073512 -0.00067793217 7.8580262e-005 -0.00047050152 -0.00060831371 -0.9888202 0.029853284
534000000 -0.98093462 0.037667122 0.0005923704 -0.00045280415 -0.00020724871 -0.00016390227 -0.98924524 0.027653769
535000000 -0.98173273 0.037117496 0.0010029088 -0.000306698 0.00015442169 -0.00014841069 -0.9877314 0.030495746
536000000 -0.98111135 0.036394037 0.00014964414 -0.0002521484 -0.00032216258 -0.00071115838 -0.98900104 0.029657433
537000000 -0.98200047 0.036278639 0.00030813983 -0.00021975487 -0.00041614141 -0.00070228061 -0.98915589 0.029724229
538000000 -0.98270488 0.038195089 0.00037197449 -0.001173056 -0.00029492952 -8.877425e-005 -0.9887864 0.028450774
539000000 -0.98141998 0.036977548 -0.00036164591 -0.00047081485 0.0010281606 -0.00019685597 -0.98919696 0.029423207
540000000 -0.98247981 0.036759637 0.00024936258 -0.00024670942 -4.8363985e-005 -0.00030460212 -0.98905593 0.030633513
541000000 -0.98214161 0.038303442 9.3724113e-005 -0.00071221608 -9.8435281e-005 -0.00020767139 -0.98825538 0.030001644
542000000 -0.98107547 0.037159272 0.00023021434 -0.00096654351 -2.6077794e-005 -1.4048986e-005 -0.98726821 0.030003145
543000000 -0.98103261 0.037637483 -0.00061268371 1.8142158e-005 0.00029331259 -7.9205623e-005 -0.98877066 0.030235795
544000000 -0.98156643 0.03781832 0.00012279335 0.00014016108 -1.3224009e-005 -0.00018020644 -0.9893356 0.030327719
545000000 -0.98216021 0.037498355 -0.00068485667 -0.00054009934 1.5789738e-005 -0.0002044365 -0.98800957 0.031219194
546000000 -0.98086566 0.038019739 -0.00034627441 -0.00041646828 0.0007558192 -0.00022524469 -0.98803437 0.030810531
547000000 -0.98189873 0.037919477 5.0769114e-007 -0.00044658038 -0.00020275037 -0.00058562757 -0.98894846 0.029703643
548000000 -0.98185706 0.038099345 -0.00019993033 -3.7164325e-006 0.0001701772 0.00019818261 -0.98784596 0.030800397
549000000 -0.98176175 0.036933571 2.3134024e-005 -0.00046532133 -0.00028844032 -2.0058378e-005 -0.98905623 0.030422695
550000000 -0.98109078 0.038435638 0.00030542203 0.00014414552 0.00036567199 -0.00022530933 -0.98806667 0.030217111
551000000 -0.98049945 0.037365299 0.00042654833 0.00023211923 -0.00034672939 -0.00074623717 -0.98817766 0.029177062
552000000 -0.98144388 0.037751935 -0.00010953852 -0.00077255641 -0.00080732972 -1.2803561e-005 -0.98871452 0.030464852
553000000 -0.98123473 0.037852779 -0.00027419513 -0.00025740717 -2.8301005e-005 -0.00079144159 -0.98852402 0.030215776
554000000 -0.98158175 0.036541186 -0.00024644172 -0.00018306878 0.00031911369 -0.00067442929 -0.98864335 0.030444959
555000000 -0.9807508 0.037410613 -0.00015155647 -0.00038819879 0.0004918644 -0.00031080324 -0.98947793 0.029106682
556000000 -0.9804849 0.037549965 -0.00025134749 -0.00040969576 3.9433248e-006 0.00018812327 -0.98846966 0.030458605
557000000 -0.98123038 0.037502915 0.00019743547 -0.00035678776 3.4731846e-005 -0.00069673778 -0.99005449 0.030348537
558000000 -0.98092562 0.036322474 0.00029964841 -0.00041393374 0.0002318164 0.00014442889 -0.98790741 0.029899977
559000000 -0.98115206 0.038256645 0.00046382009 7.5546937e-005 -0.0003027223 -0.0013092327 -0.9891606 0.02964963
560000000 -0.98123175 0.037837349 -2.271751e-005 1.2295911e-005 9.3203715e-005 7.461421e-005 -0.98886466 0.030091753
561000000 -0.98155874 0.0376947 -0.00070624938 0.0004119231 -0.00021754662 -0.00010477186 -0.98727393 0.029094532
562000000 -0.98112881 0.037490658 0.00017411061 -0.00061433087 -0.00012608265 -0.00084979576 -0.98874038 0.029607601
563000000 -0.98219198 0.03728725 -0.00022263975 -0.00016220708 -0.00028268251 -0.00012619037 -0.98927128 0.029702276
564000000 -0.98105329 0.037896346 -0.00060139375 -0.00034639952 -0.00021158224 0.00047896578 -0.98810059 0.030809756
565000000 -0.98122615 0.036265288 5.590159e-005 -4.2179112e-005 -0.00030881813 0.00020432254 -0.98988086 0.030671388
566000000 -0.98129207 0.037685174 -0.00010180469 -0.0001150411 -0.00028583605 -0.00070457556 -0.98830038 0.029983146
567000000 -0.98202288 0.037676185 -0.00056229229 -0.00058941729 0.00038635312 -0.00078522082 -0.98915851 0.029846948
568000000 -0.98081851 0.038638081 0.00034458525 -0.00062031782 -0.00010008351 0.00013018008 -0.98830497 0.029182393
569000000 -0.98149544 0.038052049 -0.00052959367 0.00046915587 0.00013457383 -0.00040823844 -0.98886794 0.029294327
570000000 -0.98103344 0.036873557 0.00016623309 -1.9706236e-005 3.8172358e-005 -7.8157456e-005 -0.98829615 0.030374411
571000000 -0.98153865 0.036696386 3.0279749e-005 2.5974552e-005 -0.00072179252 3.2813321e-005 -0.99051374 0.029146545
572000000 -0.98015535 0.037034281 -0.00043346442 0.00021062809 6.8663048e-006 -0.00017653494 -0.98807228 0.029225441
573000000 -0.98213011 0.036074392 0.00041851777 -0.00061228097 -0.00082438946 -0.00051541621 -0.98941684 0.030351648
574000000 -0.98040551 0.03698615 0.00062223495 -0.0008271925 -0.00073887495 -0.00067847187 -0.98753858 0.03093772
575000000 -0.98165059 0.037295066 -8.8520334e-005 -0.00044040661 -0.0003374393 0.00036546114 -0.98963016 0.030061176
576000000 -0.98077261 0.03681935 -0.00017500829 -0.00025145389 0.00046070936 -0.00059217733 -0.98853487 0.030286439
577000000 -0.98152041 0.037623461 0.00023040795 8.6408254e-005 -0.00025074623 8.1727849e-005 -0.98857963 0.029888524
578000000 -0.98219585 0.0374461 -0.00012096921 -0.00010514061 -0.00020094022 -0.00084281235 -0.9888258 0.029231209
579000000 -0.98051542 0.037943978 -0.00035538484 0.00011077294 -9.0998779e-005 -0.00034352895 -0.98911422 0.030175075
580000000 -0.98086935 0.038118836 -0.00063271582 -0.00094151997 -0.00091184134 0.00033040586 -0.98955941 0.032542709
581000000 -0.98072958 0.037306342 -0.00048189261 0.00032063734 0.00019544021 0.00020327531 -0.98875302 0.030179353
582000000 -0.98083174 0.037805509 -3.8128306e-005 -0.00057682785 0.00017487151 0.00017623423 -0.98906416 0.030958032
583000000 -0.97995734 0.036710218 -2.2357757e-005 0.00034198785 -0.00055793324 -8.7902066e-005 -0.98887831 0.031334843
584000000 -0.98079789 0.039171468 -0.00064599921 0.00072573347 5.4251635e-005 -0.00012767424 -0.98909873 0.030899128
585000000 -0.9821167 0.037778962 7.1989751e-005 -0.00036340667 0.00028109574 -0.00053536001 -0.98915499 0.030445294
586000000 -0.98198938 0.038007781 -0.00019019491 -6.6495551e-005 0.0003607455 -0.00048971083 -0.98939139 0.0300263
587000000 -0.98202425 0.038158834 4.1940284e-006 -0.00080475927 0.00056623376 0.00064768229 -0.98840189 0.030387821
588000000 -0.98084962 0.038234185 0.00036291746 0.00016054795 -0.00011130731 0.00016685529 -0.98936743 0.030266715
589000000 -0.98093426 0.037808988 0.00033996871 -0.00013185105 -0.0010620872 -6.2132087e-005 -0.98785168 0.031086244
590000000 -0.98123115 0.038387265 0.00095706043 0.0001962118 -0.0001880193 -0.00029305098 -0.98753685 0.031269424
591000000 -0.98041421 0.038992338 0.00076078885 -0.00017961078 0.00017048982 -5.3407173e-005 -0.98888004 0.030896604
592000000 -0.98077291 0.037767261 9.4778014e-005 -0.00024687476 0.00027346169 -0.00026546675 -0.98935878 0.030323617
593000000 -0.9794963 0.03780137 -0.00039690186 0.00054437877 0.00015580813 -0.00011754693 -0.98858815 0.030825887
594000000 -0.98088706 0.038570881 -0.0001131251 -0.0003744002 0.00045123853 2.16483e-005 -0.98894292 0.030890319
595000000 -0.98029327 0.037757091 -0.00047314956 0.00040160251 -0.00040434548 0.00052056881 -0.98952341 0.031192228
596000000 -0.98035187 0.038227957 -0.00016432739 -0.00011115884 -0.00021008306 -0.00027460197 -0.98898977 0.031142568
597000000 -0.98089987 0.038459398 -0.00051742315 -0.0010251623 -0.00011232043 0.0011896306 -0.9894188 0.030230349
598000000 -0.98073447 0.038085964 -0.00031986606 -0.00031131657 0.00032416641 2.0029747e-005 -0.98923999 0.031101722
599000000 -0.97983479 0.038814701 -0.00026102323 -0.00038662192 -9.3668612e-005 -0.00017381771 -0.9897328 0.029357418
600000000 -0.98090988 0.039095718 -0.00019882881 0.00016133171 0.00013222299 0.00047047308 -0.98899657 0.030299604
601000000 -0.98088396 0.039413147 -7.555887e-005 -0.0004088594 0.00032242713 0.00022560226 -0.98959166 0.030189477
602000000 -0.9807654 0.03879191 0.00013954641 -0.0003920845 8.1115604e-006 0.00014654938 -0.9893477 0.031259205
603000000 -0.98239845 0.041127168 7.2294247e-006 -0.00037163511 0.00019645336 -0.00034104628 -0.98928124 0.031846449
604000000 -0.98117888 0.039428879 -0.00014788074 -0.00041459865 -0.00012231045 -0.00051717152 -0.98860174 0.030834716
605000000 -0.98117149 0.040057376 0.00090987899 0.00018526186 -0.0003260907 -3.9170751e-005 -0.98836172 0.03161132
606000000 -0.98240221 0.039114501 -0.00018297262 -0.00016248471 0.00010886248 -0.00010114289 -0.98848343 0.031267982
607000000 -0.98139697 0.040696155 4.226121e-005 0.00057096221 0.00013083118 -0.00024179019 -0.98897636 0.031885091
608000000 -0.98242342 0.040456206 0.00020953285 -0.00062789128 0.00021801679 -0.00016706153 -0.9883799 0.031172272
609000000 -0.9803248 0.040578417 -0.00024076362 -0.00014212281 -0.00066815253 -2.5460035e-005 -0.98788506 0.030596616
610000000 -0.98037857 0.04110831 0.00017762311 0.00040087992 0.00016629435 -0.00044245477 -0.98836643 0.032348678
611000000 -0.98187083 0.040599003 0.00027454639 -0.00020235979 -0.00054860435 -5.9339618e-005 -0.98713136 0.032267746
612000000 -0.98067337 0.041084018 -0.00060503453 6.5979337e-005 -0.00024761079 -0.0003565402 -0.98808104 0.033328746
613000000 -0.98151785 0.039671503 -0.0002856158 7.6974218e-005 0.00045584494 -8.8020861e-005 -0.98882669 0.031732697
614000000 -0.98089999 0.04087868 0.00055936689 -0.00055464619 -3.637523e-005 -0.00062049332 -0.98917305 0.032363918
615000000 -0.98191643 0.041066349 0.00066957838 0.00049741793 0.00066471356 -4.1374213e-005 -0.98738623 0.032709051
616000000 -0.98146075 0.040842105 -0.00033085817 -0.0002886251 0.00031507766 -0.00055923726 -0.98749608 0.032283537
617000000 -0.98023391 0.041745152 0.0006379048 -0.0002561041 -8.0167083e-005 3.20869e-005 -0.98989058 0.032880828
618000000 -0.98171437 0.041859992 0.00032722889 -0.00031917627 -0.00015863136 -0.00070830877 -0.98833472 0.03280605
619000000 -0.98097509 0.042703826 -0.00052721432 -0.00043707405 -0.00043539188 -0.00040484229 -0.98780203 0.031435173
620000000 -0.98152798 0.04212128 -1.6675674e-005 -0.00058767205 -8.8660294e-005 0.00062846957 -0.98927259 0.034032408
621000000 -0.98107457 0.041182041 0.00054915744 -0.00041443249 -0.0005728493 0.00035440791 -0.98866796 0.033270631
622000000 -0.98071134 0.040890101 -0.00020506076 -6.3804429e-005 0.0001111979 -0.0006772207 -0.98843896 0.034164097
623000000 -0.9811399 0.041796938 0.00014505602 -0.0005088172 -0.00018016137 -0.00052390405 -0.98865288 0.032675013
624000000 -0.98072368 0.043206289 -0.00039112198 -3.4141292e-005 -0.00012690498 -0.0001389984 -0.98823553 0.033049565
625000000 -0.98034739 0.042599525 -0.00056377758 8.065872e-007 -8.75927e-005 -0.0001614568 -0.98916858 0.032861762
626000000 -0.98091435 0.043080222 -0.0009585162 -0.00053332624 0.00079575786 -0.00047829875 -0.98820156 0.033205722
627000000 -0.98062891 0.042156313 0.00047990869 -0.00020066026 -8.0786995e-005 -0.00092484936 -0.98661333 0.032345928
628000000 -0.98111022 0.041849069 0.00020110839 -0.00014930798 -0.00063512498 -0.00040563644 -0.98761344 0.033793714
629000000 -0.98136419 0.043592643 -0.00033235174 -0.00018390261 -1.3713291e-005 -0.0002339226 -0.989622 0.033840962
630000000 -0.97989082 0.043015726 -1.918457e-005 -0.00018867957 -0.00073697598 -0.0010464786 -0.9894805 0.03468249
631000000 -0.98064798 0.043208964 0.00052805524 -0.00018469684 0.00061834068 -0.00015423956 -0.98797625 0.03415668
632000000 -0.98120409 0.043536015 -0.00042604152 0.00030696936 0.0004805573 -0.0003070239 -0.98744702 0.033998583
633000000 -0.98058856 0.043890744 -0.00032286727 -1.1519855e-005 0.00028545747 -0.00032212469 -0.98851424 0.033914492
634000000 -0.98042369 0.044177838 0.00038977587 -0.00046301482 -3.2374508e-005 -0.00039077157 -0.98757184 0.033112388
635000000 -0.98160368 0.044092849 -0.00025705592 -0.00035779274 -0.00039888642 -0.00024646215 -0.98750722 0.033273906
636000000 -0.98129487 0.043956134 -0.00023424967 -7.0278831e-005 0.00067252229 4.9396316e-005 -0.98856694 0.033650912
637000000 -0.98050356 0.044469658 9.5052746e-005 -5.2862521e-005 -0.00023234071 -0.00057176512 -0.98819447 0.033552229
638000000 -0.98097569 0.044110376 6.6163302e-008 0.00010298996 5.8121546e-005 0.00010399454 -0.98905939 0.033591449
639000000 -0.98047382 0.04504906 -0.00028193154 -0.00034470449 0.0005514879 -0.00028231941 -0.98784411 0.034048118
640000000 -0.97977674 0.044133067 -0.00044815379 -8.038438e-005 0.00037017823 -0.0002904062 -0.9887405 0.033781502
641000000 -0.98030138 0.044621035 0.00029050041 -0.0003229162 0.00027729111 -0.0002883038 -0.98820204 0.034676809
642000000 -0.97998738 0.045080833 6.1962244e-005 -0.0011695364 -0.00052703288 -0.00022234645 -0.98842502 0.034590904
643000000 -0.98035139 0.044671528 0.00018072639 -0.00031984106 -8.4869709e-005 -0.00027083344 -0.98813957 0.033170789
644000000 -0.98091537 0.045223735 0.00017298273 -0.00057480385 4.3974815e-006 0.00051431195 -0.9891656 0.033565648
645000000 -0.98005313 0.0454382 -0.00012041223 -7.4959666e-005 0.00014367062 -0.00060793327 -0.98779345 0.035131823
646000000 -0.98027766 0.04518418 -0.00033995998 -0.00083154615 0.00033552208 -0.00039559568 -0.98737568 0.034691658
647000000 -0.98124647 0.045695987 -0.00010768614 -0.00082800118 0.00020896851 -0.0011592438 -0.98808819 0.033233099
648000000 -0.97949153 0.045994058 -0.00033303836 4.6353129e-005 0.00013471924 -0.00015716115 -0.98780566 0.034033984
649000000 -0.98176163 0.045112595 -0.000565294 0.00062999892 -4.2685992e-005 -0.00013190972 -0.98833704 0.03425739
650000000 -0.97993195 0.045121185 0.00033925337 -0.00096117676 -0.0001449066 7.731143e-005 -0.98765427 0.035606585
651000000 -0.98073018 0.044920936 -0.00041547042 -0.0002912585 -5.5547266e-006 2.3556859e-006 -0.98727965 0.035141271
652000000 -0.97997588 0.045772318 -0.00023048723 -0.00061605457 -0.00048696619 -5.8374571e-005 -0.98731118 0.035001986
653000000 -0.9806937 0.044963505 0.00033816602 -0.00036122894 0.00068636268 -0.00036117935 -0.98797911 0.034380946
654000000 -0.98137581 0.045563795 -0.00018849201 -1.5025002e-005 -0.00059870922 3.5259561e-006 -0.98796004 0.034288678
655000000 -0.97937846 0.045572393 -6.6914385e-005 -0.00030351986 0.00025881018 -0.00074612204 -0.98765695 0.034629829
656000000 -0.98007578 0.045733627 -0.00012797078 -0.00021402945 0.00021080177 0.00023733714 -0.98963684 0.034093589
657000000 -0.98022056 0.045514099 -0.00017017761 -0.00038243277 -2.8370103e-005 -0.00026201567 -0.98765206 0.035345897
658000000 -0.98037541 0.046080075 -0.00052118633 -0.00023972568 0.00021864535 -0.00012536894 -0.98699856 0.034725714
659000000 -0.97977585 0.045482375 -6.9386057e-005 0.00011806066 -0.00048270091 0.00029889084 -0.98782092 0.034193195
660000000 -0.98008823 0.046147306 -7.8995537e-005 -0.00035034874 0.00069455808 0.00018103892 -0.98760349 0.033846959
661000000 -0.97986031 0.046639588 -0.00037105696 -0.00093587581 -0.00099745684 -0.00016317752 -0.98851824 0.034763519
662000000 -0.98039979 0.043985736 -0.0010331078 -0.00059694005 0.00012013888 -6.3730945e-006 -0.9874056 0.035305351
663000000 -0.9813382 0.046154354 -6.5343513e-005 -0.0005743964 -0.00030069816 -0.0010299172 -0.98793399 0.034882274
664000000 -0.97982055 0.044987433 -0.00014042515 -0.00019964746 -0.00069081079 -1.7294809e-005 -0.98915797 0.034032781
665000000 -0.98020375 0.045937572 -0.0002952143 -0.00083952479 0.00041796072 -0.00037795777 -0.98776054 0.034252476
666000000 -0.97997469 0.044801917 -0.00048725604 -0.00051946752 -0.00030034472 -9.4335745e-005 -0.98765057 0.034085363
667000000 -0.98027045 0.045490623 0.00018523056 8.5238062e-005 -5.4386634e-005 9.8934099e-005 -0.98712969 0.034023423
668000000 -0.98078024 0.045626007 -0.00046947086 -0.00031100429 8.0433951e-005 -0.00025726686 -0.98837107 0.0339434
