!Keysight Technologies,M9374A,MY55442783,A.12.55.05
!Date: Thursday, May 20, 2021 14:53:57
!Correction: S11(Full 2 Port(1,2)) 
!S21(Full 2 Port(1,2)) 
!S12(Full 2 Port(1,2)) 
!S22(Full 2 Port(1,2)) 
!S2P File: Measurements: S11, S21, S12, S22:
# Hz S  RI   R 50
500000000 -0.98164386 0.034459107 -7.3701781e-006 -0.00085682166 -0.00098806259 -0.00032859811 -0.99008 0.025479753
501000000 -0.98285115 0.034043238 0.00023170578 -0.00054994121 -0.00028607031 -0.0008381505 -0.98891574 0.025939453
502000000 -0.98270291 0.034034096 -0.00013072284 -0.0001697932 0.0005392055 -0.0010545717 -0.98959601 0.02566419
503000000 -0.98345357 0.034233645 -0.00016130444 -0.00053141965 0.00041283941 -0.00064130948 -0.98984259 0.027292861
504000000 -0.98233682 0.032546185 5.6930985e-005 0.00010873252 2.8509372e-005 6.4993503e-005 -0.98975462 0.025925031
505000000 -0.98239392 0.034474161 -5.6728168e-005 -0.00096550566 -8.9452333e-005 0.00010097203 -0.98880172 0.027078094
506000000 -0.98325562 0.034101557 -2.0705595e-005 -0.0004994818 -8.3861443e-005 0.00025499801 -0.9888587 0.025981601
507000000 -0.98258096 0.034489345 -0.00016635271 8.9108449e-005 0.00020615842 -0.00045622175 -0.98981959 0.0271166
508000000 -0.98191279 0.036088314 -7.7291057e-005 -0.00076163816 -0.00010300658 -1.5659298e-005 -0.99070138 0.027875766
509000000 -0.9823001 0.036089417 0.00021314393 -0.00035193385 0.00035999576 -0.00065176742 -0.99013537 0.027924204
510000000 -0.98306191 0.03568656 0.00021817227 0.00059634051 -0.0002327885 -0.00043643563 -0.98858666 0.026881799
511000000 -0.98210579 0.03512641 -0.00080978306 -0.00055595848 -5.1524221e-005 3.1134965e-005 -0.98914427 0.027568573
512000000 -0.98152697 0.035833985 7.2107912e-005 0.0005748946 -0.00049276021 -0.00057357078 -0.98928273 0.027719779
513000000 -0.9806143 0.033841953 0.00033058913 0.00094703102 -0.00033557514 0.00014263106 -0.98899841 0.025428323
514000000 -0.98341668 0.034745552 0.00027028631 -4.1460039e-006 -0.00076964288 -0.00013749792 -0.9907124 0.02683148
515000000 -0.98272961 0.034787048 0.00014660376 -0.00017940595 1.9182879e-005 -3.7066686e-005 -0.9907707 0.029034825
516000000 -0.98252171 0.037082512 0.00025260629 -0.00079590559 0.00033562427 -0.00021730554 -0.98978996 0.0282827
517000000 -0.98141396 0.035824735 0.00048266613 -0.00065417244 -0.00014466168 0.00035524683 -0.98836964 0.028343379
518000000 -0.98160607 0.035741068 0.00084932847 -0.00056186214 -0.00010655527 -0.00017567881 -0.98963737 0.027505355
519000000 -0.98282605 0.036713623 -0.00036686478 -0.00049184047 0.00028083721 -0.00047513205 -0.9894895 0.027180603
520000000 -0.98185402 0.035927769 0.00062904292 4.9350299e-005 -9.3788869e-005 6.4689543e-006 -0.98861545 0.02961926
521000000 -0.98316789 0.037091512 0.00012011671 7.1726616e-005 0.00025781596 5.5825378e-005 -0.99047673 0.028686609
522000000 -0.98140502 0.034866102 -0.00016457438 -0.00066914386 -0.00085454434 -0.001089284 -0.98915672 0.028906846
523000000 -0.98257917 0.035190832 -0.00011044351 -0.0005570284 -0.00029389074 -0.00027861839 -0.98846191 0.027947515
524000000 -0.98092943 0.036264107 9.2040769e-005 -0.00050011108 0.00078110385 -0.0012876613 -0.98867774 0.028176427
525000000 -0.98133177 0.036574259 -0.00019075829 0.00021572517 3.534984e-005 -0.00035523166 -0.99065393 0.027851634
526000000 -0.9819724 0.036210328 0.00065522618 -0.00014647008 -0.00021424852 -0.00064160192 -0.98876405 0.02868773
527000000 -0.98167449 0.038465798 -0.00023636453 -0.00020293065 9.1006823e-006 -0.00034272057 -0.9893769 0.029277705
528000000 -0.98169726 0.036706913 0.00010325646 -0.00080121588 0.00040570338 -0.0004000575 -0.98775655 0.028087707
529000000 -0.98220408 0.037104763 1.9269521e-005 0.00031421831 -0.00013896321 -0.00010132786 -0.98863399 0.028921442
530000000 -0.98299628 0.037974544 -0.00044540834 -0.00036525485 0.00056471757 -0.00022349002 -0.98959184 0.028798398
531000000 -0.98253423 0.037187025 3.0663254e-005 -0.00098808447 -0.0005206787 -0.0010539764 -0.98938787 0.029164264
532000000 -0.9821012 0.038077284 0.00043153786 7.6263677e-005 -0.00030556641 -0.00043938309 -0.9894104 0.029260583
533000000 -0.98188215 0.03798705 -0.00058826664 -0.00077058841 -0.00061221147 -0.00034698998 -0.98858929 0.02948872
534000000 -0.98060292 0.037042238 0.00021806586 -0.00017800053 1.5235649e-005 -0.00059426622 -0.98930162 0.030148135
535000000 -0.98187488 0.038221944 -3.1572781e-005 -0.00019044084 -9.7160577e-005 -0.00048870762 -0.98902631 0.029766554
536000000 -0.98132986 0.037688408 0.00018655258 -0.00041793808 -0.00094221422 0.00012761133 -0.98798817 0.029634181
537000000 -0.98207986 0.036998488 0.00025092834 -0.00073672395 -5.4038293e-005 -0.00021377396 -0.98928845 0.028989855
538000000 -0.98221844 0.037290156 5.9581551e-005 -0.00071702496 -4.2382206e-005 -0.0002674064 -0.98908728 0.029226469
539000000 -0.98241013 0.03814888 -0.00053040904 0.000171245 -9.4592069e-005 -0.0005309867 -0.98834145 0.03029535
540000000 -0.98237234 0.037592199 -2.4487003e-005 -0.00028288184 -0.00010735066 -0.00063757121 -0.98949087 0.029182533
541000000 -0.98193425 0.037360966 -0.00060159178 -9.741784e-005 -0.00032568624 -0.00045833815 -0.98885101 0.030215176
542000000 -0.98065525 0.037496693 0.00045601776 -0.00015746767 0.00047184978 0.0001033114 -0.98853278 0.030006375
543000000 -0.98200399 0.037434191 0.00055426871 -7.3188348e-005 -0.00019960466 9.4361261e-005 -0.98925591 0.030172579
544000000 -0.98152524 0.037908763 0.00029709408 4.676927e-005 0.0002538707 0.00012112287 -0.98836851 0.029090408
545000000 -0.98332369 0.037089732 -0.00060161942 -0.0004029086 -0.0001167192 -0.00038443037 -0.98826653 0.03066422
546000000 -0.9816252 0.03688309 0.00013822415 -0.00056011468 -0.00067274662 8.5489715e-005 -0.98888499 0.028947245
547000000 -0.98161334 0.037677284 0.0001752065 -0.00058076554 0.00010773759 0.00020135505 -0.98927552 0.030500248
548000000 -0.98084366 0.037672643 -0.00022812744 -0.00024108178 -3.3803153e-007 0.0011247563 -0.98929715 0.030502744
549000000 -0.98047471 0.037044048 0.00044154358 0.00020917619 8.9671201e-005 -0.00023533725 -0.99017358 0.030725228
550000000 -0.98056096 0.036727499 0.00052382529 6.1599661e-005 2.345704e-005 -0.00011799762 -0.98907572 0.029530725
551000000 -0.98110509 0.036691163 -0.00041762061 -0.00076957559 -5.8361347e-005 -0.0010933168 -0.98908073 0.030409399
552000000 -0.98120999 0.0368458 -0.00057402137 0.00079224748 0.00024252839 0.00028738641 -0.98948175 0.03029027
553000000 -0.98067147 0.036433399 -3.8236129e-005 -9.4057868e-005 0.00045642752 -0.0002671406 -0.98827738 0.029993184
554000000 -0.9822312 0.03648435 -5.3736563e-005 -0.00012472863 0.00057530322 -0.00011877103 -0.9882434 0.030732689
555000000 -0.98072195 0.037534337 0.0010252355 -8.1596801e-005 -0.0001964002 -0.00041068034 -0.98968256 0.029725719
556000000 -0.98017842 0.036335655 0.00044929859 3.8860499e-006 4.1397889e-005 -9.5329706e-006 -0.98954177 0.030290384
557000000 -0.98145509 0.037615623 -4.711447e-005 -0.00019280432 -0.00017380431 -0.0003488861 -0.98999739 0.029812813
558000000 -0.98109639 0.037004694 5.0098679e-005 0.00079277513 -2.2872136e-005 -0.0004702064 -0.9896031 0.028827539
559000000 -0.98060381 0.037678462 0.00061049336 8.8094457e-005 -0.00032261407 -0.00056894042 -0.98987693 0.030736266
560000000 -0.98106325 0.037129555 -0.00026829072 -0.00059412717 0.00030852415 -0.00091347209 -0.98985034 0.030154791
561000000 -0.98194391 0.036437709 0.00065371545 -0.00078076473 -0.00012621247 -0.0009041623 -0.98931772 0.02916735
562000000 -0.98107338 0.037154052 -0.00024457477 0.00041214112 -0.00036316738 2.586705e-005 -0.99003577 0.030950073
563000000 -0.98074973 0.037290592 0.00058672432 0.00025391765 -3.5217188e-005 0.00012175675 -0.98959249 0.03124591
564000000 -0.98128968 0.037319414 -0.00012831499 -0.00022717861 -6.6835521e-005 0.00049763365 -0.98986322 0.028617935
565000000 -0.98100054 0.037216447 0.00028968399 0.00015914234 -0.00032770931 9.9876788e-006 -0.98878509 0.029747883
566000000 -0.98079032 0.03752644 -0.00020291215 0.00026402992 7.3295974e-005 0.00026660771 -0.98897034 0.029541377
567000000 -0.980326 0.037706651 -0.00034499221 0.00019476931 0.00041208512 0.00055831805 -0.98879373 0.030731309
568000000 -0.98073208 0.037314672 0.00030112237 -0.0002188069 -0.00011615431 -0.00011173911 -0.98818755 0.030146642
569000000 -0.98218322 0.037424862 -0.00020484834 -0.00034487317 -0.00042492911 0.00028734593 -0.98810041 0.029007651
570000000 -0.98083425 0.038258053 -0.00013812502 0.00069246633 0.00018297127 0.00035106466 -0.98835415 0.030143229
571000000 -0.98070008 0.036706336 0.00057675882 -0.00015249402 0.00030034143 0.0001074346 -0.9893676 0.030248359
572000000 -0.9790374 0.037585501 -0.0002542905 -0.0002296677 0.00027994518 7.6981928e-007 -0.98914921 0.029926434
573000000 -0.98120123 0.036127955 -0.00047263832 -0.0011497635 -0.00041282075 -0.00057588425 -0.98849624 0.030494062
574000000 -0.98110861 0.037630245 0.00030839565 -9.7096206e-005 0.00047220942 -0.00042955484 -0.98854977 0.029493432
575000000 -0.98119211 0.037043381 0.00020152261 -9.2508577e-005 -0.00079062028 -0.00038234703 -0.98905259 0.030032273
576000000 -0.98046064 0.03717988 0.00012203058 -0.00031444352 0.00061770761 -0.00045689649 -0.98887551 0.030401301
577000000 -0.98113418 0.03592667 -0.00087703834 -0.00055119122 -0.00041513555 0.00012514305 -0.98907739 0.02847703
578000000 -0.98037231 0.03715656 -0.00047263777 -0.00048686369 0.00014976684 -0.00042210205 -0.98865181 0.029469142
579000000 -0.98060465 0.036862645 8.5583903e-005 -0.00067383272 0.0001343929 -0.00034968817 -0.98991954 0.030236555
580000000 -0.98139018 0.037292607 -0.00045839057 0.00039545464 -9.4576382e-005 -0.00056282623 -0.98893744 0.030293878
581000000 -0.98038995 0.037214771 0.00033687055 -7.5437332e-005 -0.00015108727 0.00039814823 -0.99069083 0.0302209
582000000 -0.98031974 0.037486475 9.1068599e-005 -0.00041316479 -0.00044590901 -0.00018793516 -0.98997051 0.03048642
583000000 -0.97954768 0.037688054 -0.00017202194 -0.00021269709 -6.6709217e-005 -0.00053475739 -0.98784566 0.030835856
584000000 -0.98116922 0.037136372 -0.00022521376 0.0004070235 -0.00036152423 -0.00013232131 -0.98983347 0.028830094
585000000 -0.98178077 0.038577039 -0.0004191297 -0.00060175208 -0.00026450743 -0.00011497719 -0.98838925 0.030150646
586000000 -0.98231018 0.037164398 0.00070125848 -0.00028953387 0.00031791782 -0.00048530754 -0.98957652 0.030060574
587000000 -0.98119754 0.037360761 -0.00020855339 0.00093269144 0.00019832967 -0.00042881153 -0.98782623 0.030911108
588000000 -0.98074573 0.038045794 0.00043714579 -0.00087955425 0.00020219196 -2.3046964e-006 -0.98981047 0.03199245
589000000 -0.98057401 0.038428646 -0.00016422232 -7.1490802e-005 0.00054665096 -0.00034004924 -0.98871243 0.031419635
590000000 -0.981686 0.038002275 -0.00017210783 -0.00042742645 0.00030310641 -0.00051684049 -0.98820812 0.030841686
591000000 -0.9816435 0.037863296 -0.00025975975 -0.00046972118 -4.7973495e-005 -0.00047104756 -0.98981786 0.031179627
592000000 -0.98057187 0.037608352 -0.0010657243 4.73498e-005 -0.0002889465 -0.00015399212 -0.98841453 0.029029017
593000000 -0.98089194 0.036810976 0.00024806583 -5.9054209e-006 0.0010354716 -0.00093864562 -0.98881066 0.031250268
594000000 -0.98104668 0.037567209 5.7742432e-006 -0.00039035009 -6.4900567e-005 -0.00081046874 -0.98950404 0.031037079
595000000 -0.97992134 0.03795502 -0.00045831583 -2.5037882e-005 8.330217e-005 -0.00018428738 -0.98972905 0.031393465
596000000 -0.97950375 0.037777424 -0.00026924745 -5.6395405e-005 3.3852808e-005 7.4314434e-005 -0.9890362 0.030437557
597000000 -0.98287153 0.03713046 -0.00018354839 -1.829547e-005 -0.00017572529 0.00027258904 -0.98925245 0.031204408
598000000 -0.98129636 0.037821621 -0.00012780925 -0.00033807848 -0.00010266466 -0.00072745635 -0.98857564 0.031106494
599000000 -0.98151881 0.039152954 -7.2834773e-005 0.00050570135 -0.00047474218 -1.8491266e-005 -0.99020118 0.030420473
600000000 -0.98155093 0.03903228 -0.00037815759 -0.0005401618 -0.00014780465 6.3829984e-006 -0.98913831 0.032746859
601000000 -0.98073131 0.039566107 0.00060476083 -0.00027656381 0.00020334095 -4.680315e-005 -0.99003208 0.030976793
602000000 -0.9813841 0.038884804 0.00034530903 -0.00059561076 -6.1821753e-005 -0.0003726643 -0.98961651 0.030015444
603000000 -0.9820295 0.039377857 0.00040103358 -0.00020236378 0.00049256539 1.9384397e-005 -0.98877048 0.031862792
604000000 -0.98107523 0.038863901 5.9273621e-005 -2.6539707e-005 4.5677138e-005 -0.00068165868 -0.98886997 0.031428833
605000000 -0.9815405 0.040002499 -0.00052347413 -3.7725877e-005 0.00015436996 0.00033124199 -0.98775327 0.031379901
606000000 -0.98212427 0.039835591 0.00027164514 -0.00041604048 -0.00052056526 -3.1543153e-005 -0.98849201 0.030543381
607000000 -0.98141676 0.03930752 -0.00019288261 -0.00047792363 -0.00012943821 -0.0010711882 -0.98955846 0.031122241
608000000 -0.98074782 0.03952672 0.00041610785 -0.00026902111 0.00059518177 0.00026638096 -0.9887653 0.032012101
609000000 -0.98170877 0.039098732 -7.0894166e-005 0.00037747223 -0.00038029341 -5.9851962e-005 -0.98972851 0.031095931
610000000 -0.98017877 0.040387254 -0.00031592642 -0.00025685612 -0.00064566883 -0.00026287229 -0.98839509 0.032286435
611000000 -0.98062867 0.039375894 -0.00032510053 -7.5924043e-005 0.00034495036 -0.00021123764 -0.98820436 0.031090267
612000000 -0.98061621 0.040272236 -0.00042337269 -0.0006884404 0.0010933666 -0.00014126251 -0.98992085 0.031085337
613000000 -0.98074514 0.041071951 -0.00056798034 0.00055857509 9.7957869e-005 0.00013536497 -0.98853314 0.030930268
614000000 -0.98042917 0.040461265 0.00048748194 -0.0005976184 0.00014528818 9.7362012e-005 -0.98895788 0.032265779
615000000 -0.98051834 0.040501535 -0.00054062187 -0.00019453955 0.00020891381 -0.00058934325 -0.98899388 0.031972468
616000000 -0.98164642 0.041291375 0.00026244286 -0.00020608171 -0.00021932076 -0.00067548262 -0.98818415 0.031226542
617000000 -0.98115569 0.041319277 0.00044645378 -0.00030589092 -0.00026814104 -9.9994933e-005 -0.98880476 0.03238349
618000000 -0.98113143 0.040745549 3.6971087e-005 0.00016502576 -0.00067291904 1.50347e-005 -0.98867875 0.032172974
619000000 -0.97993821 0.041262273 -0.00024870006 -0.00013187987 -0.00014370622 -0.00059171149 -0.98953682 0.031953637
620000000 -0.97969079 0.042511448 0.00013301008 0.00066812843 -0.00030744498 0.00063993077 -0.98858583 0.033036683
621000000 -0.98061067 0.042151518 -0.00014836305 -0.00039272921 -0.00039398071 -0.00053260173 -0.98748255 0.032423276
622000000 -0.97984576 0.041558579 0.00052932603 -9.5749674e-005 0.00084875332 -0.00019745999 -0.98952574 0.032528866
623000000 -0.98075432 0.042512447 -9.3581941e-005 0.00018967176 0.00012578974 -0.0008049648 -0.9891296 0.032798208
624000000 -0.98086435 0.041172039 -7.6431919e-005 -0.00049134356 5.0877974e-005 -3.7066424e-005 -0.98966879 0.03176688
625000000 -0.9813478 0.04276761 -0.00044065752 9.5895048e-005 0.00053729839 -0.00029591532 -0.98872429 0.033201516
626000000 -0.98034388 0.044239718 -2.9632417e-006 -0.00029984297 -0.00035797316 0.00067306485 -0.98844135 0.033757214
627000000 -0.981493 0.042386174 -0.00065924472 0.00053790119 0.00033772015 -0.00065139041 -0.98758352 0.031161079
628000000 -0.98055995 0.04258636 -0.00021744797 -0.00021190412 -0.00076343206 -0.00038612564 -0.98905969 0.034726098
629000000 -0.97980684 0.045025539 -2.8387667e-005 -2.3126127e-005 0.00057288475 -0.00039836855 -0.98941481 0.034174725
630000000 -0.97982979 0.042651981 -0.00015368374 -0.00035010991 -0.00065842707 -0.000552735 -0.98978603 0.033668473
631000000 -0.98100775 0.0437655 0.00028482315 -5.3205877e-005 -0.00041131946 -0.00037236168 -0.98891336 0.033512428
632000000 -0.98148561 0.0437131 -0.00045175251 -0.00021985803 0.00034262161 -0.00078096567 -0.98809004 0.032983363
633000000 -0.9813875 0.043644331 -0.00021915452 -0.0010434595 0.000521974 2.8626571e-005 -0.9879995 0.033811338
634000000 -0.98076111 0.044213336 0.00083551626 -3.6718968e-005 -0.00054034602 0.00021334061 -0.98904699 0.033806693
635000000 -0.97978598 0.04325752 -0.00047214082 0.00031191841 -0.00036848302 -0.00057949882 -0.98873937 0.032822322
636000000 -0.9797712 0.044178776 0.0004337623 -0.00020259761 4.6975922e-005 7.5228541e-005 -0.98954439 0.033651046
637000000 -0.98144865 0.044311598 0.00021800301 -0.00052284007 0.00059023907 -0.00010521132 -0.98839515 0.033566389
638000000 -0.97935838 0.044074621 2.5843701e-005 0.00020478819 0.00011146398 -0.00040818506 -0.98854154 0.034602031
639000000 -0.98118168 0.042976487 -0.00021765329 0.00033593626 -0.00091130834 -0.00022642754 -0.98894393 0.033768948
640000000 -0.98090893 0.043520574 -0.00043852025 -2.1417159e-006 0.00013406923 -0.00011122994 -0.98926842 0.034519214
641000000 -0.98016298 0.044817407 -0.00028751409 -0.00030555556 -0.00049506547 2.8862127e-005 -0.98763728 0.034463171
642000000 -0.97839814 0.044720925 0.00075633562 -0.00088737957 -0.00044830813 5.4923468e-005 -0.98872429 0.034259707
643000000 -0.98020881 0.044836234 0.00034743774 -0.00021811707 0.00017876638 -0.00019926275 -0.9885962 0.033172511
644000000 -0.97990823 0.044203661 -0.00051785074 -0.00056769687 0.00014351236 -0.00057406712 -0.98833829 0.034627065
645000000 -0.98072231 0.043799754 -0.00013776375 -0.00051809923 -0.00046304127 2.9797613e-005 -0.98807609 0.033837829
646000000 -0.98091543 0.044981577 0.0006702161 0.00066493143 0.00013141574 -0.00035875707 -0.9868747 0.034285679
647000000 -0.98071408 0.04595726 -0.00034588907 -0.00078452093 0.00019543375 0.00010271632 -0.98797345 0.034952547
648000000 -0.9799844 0.04473795 -0.00027592009 -3.2712673e-005 0.00028544164 -0.00026574626 -0.98803049 0.035474531
649000000 -0.98005027 0.044625901 0.00033969231 -0.00039894623 0.00010766506 -0.00021769234 -0.98950851 0.03463595
650000000 -0.97946608 0.043981861 -0.00038087595 -0.00025137753 0.00026945196 1.0035791e-005 -0.98766106 0.035366997
651000000 -0.98025638 0.04412147 -7.9618167e-006 -0.0013385345 -0.00017851639 -0.00071152375 -0.98773187 0.034616247
652000000 -0.98048413 0.044784255 -0.00099753751 -0.00046683365 -0.00019914274 -0.00011301177 -0.98806006 0.034274798
653000000 -0.97990274 0.045136761 2.4596899e-005 -0.00044246967 0.00051394734 -0.0011093895 -0.9877283 0.034259845
654000000 -0.98011971 0.046376418 0.00016919585 -0.00045058475 0.00050651509 -0.00044800108 -0.98902774 0.034543537
655000000 -0.97936994 0.043852124 0.00053109112 -0.0016589134 0.00024295226 -0.00017619762 -0.9892168 0.034711361
656000000 -0.979325 0.045030568 -0.00073204009 -0.00043964799 -5.282589e-005 -9.6571006e-005 -0.98832279 0.034585845
657000000 -0.97957629 0.044892885 0.00092143106 -0.00039508348 6.1114763e-005 -0.00053721358 -0.98805094 0.035290796
658000000 -0.98045331 0.045982946 -0.00066152506 -0.00037834136 -8.791055e-005 -0.00076910923 -0.98874688 0.034110934
659000000 -0.98076195 0.046054404 -0.00017195458 -0.00034969783 -0.00012419005 -0.0005704845 -0.98834723 0.034257226
660000000 -0.97923452 0.046556968 -7.246426e-005 -5.5356439e-005 -3.2398337e-005 -0.00031969979 -0.98836881 0.034349766
661000000 -0.97987795 0.045557741 -0.00062569359 -0.00086536718 -0.00039742791 -0.00033503299 -0.98808998 0.034411818
662000000 -0.98011386 0.045412336 -0.00043846385 -0.00022307657 1.822645e-005 -0.00027961718 -0.98892599 0.035259485
663000000 -0.98040205 0.04667126 3.7671336e-005 -0.00073597074 -0.00030150634 -0.00053468725 -0.98825061 0.033335339
664000000 -0.97978574 0.045049291 -0.0001666936 -0.00043783966 0.0005142162 -0.00062520802 -0.9887256 0.035112482
665000000 -0.97873205 0.045302965 0.00053878804 -0.00028487493 0.00048032141 0.00012433944 -0.98782402 0.034134142
666000000 -0.98013467 0.045062896 6.0509145e-005 -0.00053780072 -0.00044988666 -0.00040824141 -0.98873657 0.034679554
667000000 -0.97955519 0.045567464 -0.00016873573 1.8165812e-005 -0.00040926755 -0.00016706744 -0.98847508 0.033440974
668000000 -0.97966897 0.04574234 -4.2231943e-005 0.00014199354 0.00028482688 -0.00063035981 -0.98812538 0.033533111
