!Keysight Technologies,M9374A,MY55442783,A.12.55.05
!Date: Thursday, May 20, 2021 14:32:38
!Correction: S11(Full 2 Port(1,2)) 
!S21(Full 2 Port(1,2)) 
!S12(Full 2 Port(1,2)) 
!S22(Full 2 Port(1,2)) 
!S2P File: Measurements: S11, S21, S12, S22:
# Hz S  RI   R 50
500000000 -0.98280835 0.033085689 3.4531913e-005 -0.00014021582 0.0005013927 -0.00032305278 -0.98996854 0.025260774
501000000 -0.9835155 0.034110107 0.00027542535 -0.00023531825 0.00014008186 0.00055945816 -0.98917562 0.027079796
502000000 -0.98189032 0.035011753 -0.00081732782 -3.6768477e-005 1.6297667e-005 -0.00073516899 -0.98851186 0.027238039
503000000 -0.9809193 0.033839323 -0.0010357385 -9.757161e-005 -0.00018860136 -0.00033652884 -0.98932743 0.027087847
504000000 -0.98183948 0.034356676 0.00099803775 0.00013632447 -0.0001784195 0.00012828903 -0.98941869 0.026298393
505000000 -0.98152816 0.034945533 -0.00034888228 -0.00032458396 -1.1088528e-005 -7.0828301e-006 -0.98885018 0.026922397
506000000 -0.9819715 0.034670644 -9.9298641e-006 -0.00082241633 -0.00035416428 -0.000411791 -0.98887116 0.026833231
507000000 -0.98154199 0.035051122 -0.00042593837 0.00041220555 0.00075077411 0.00041414925 -0.98893559 0.027203232
508000000 -0.9820441 0.034410398 0.00038948687 -0.00034859119 -0.00012854642 2.1752701e-005 -0.99013829 0.027885541
509000000 -0.98195875 0.035057012 5.2395426e-005 -2.6830403e-005 -0.00029113662 -0.00053909427 -0.98901492 0.027191922
510000000 -0.98149592 0.034672327 -3.8688482e-005 -0.00017919662 -0.00041553288 -0.00036478558 -0.99016231 0.027333958
511000000 -0.98193049 0.035479501 0.00073042075 1.5990243e-005 0.00037760223 -0.00011314941 -0.98825449 0.029253524
512000000 -0.98159128 0.034475826 -0.00027900111 -9.7842742e-005 -0.00052371167 0.00068222434 -0.98905891 0.027500475
513000000 -0.98114371 0.035092592 -0.00030214488 -0.00032514366 -0.00036790062 -4.7004014e-005 -0.98844713 0.026911911
514000000 -0.98179579 0.036545645 -0.00015501343 -0.00054680364 -7.1491457e-005 0.0002486548 -0.98886329 0.028044665
515000000 -0.98341894 0.036188278 -0.00088873622 -0.00059796759 0.00039006126 -0.00041810499 -0.98927718 0.028577039
516000000 -0.98190081 0.036582001 0.00020723959 -0.00046492682 -0.00056464918 0.0001686238 -0.99018961 0.027329719
517000000 -0.98263633 0.036644697 -0.00045297405 -0.00034247298 0.00080695486 -0.00031927161 -0.98864883 0.02834856
518000000 -0.98151731 0.035654221 -0.00029459546 -0.0010028088 -0.0006704196 -2.7463171e-005 -0.98934489 0.028012028
519000000 -0.98208302 0.036513012 -0.00059961702 -0.00035002103 8.5747088e-005 -0.0011453432 -0.98896778 0.029983109
520000000 -0.98111916 0.03611749 -0.00019491953 -0.00067890302 -0.00049542432 -5.258747e-006 -0.98829329 0.028762782
521000000 -0.98255932 0.036372934 0.00041340242 9.3360548e-005 0.000402034 -0.0012078529 -0.99020183 0.027811525
522000000 -0.9823519 0.036347285 0.00037747715 -0.00068923068 -0.00043400112 2.5396741e-006 -0.98886365 0.029164832
523000000 -0.98198915 0.036303651 -0.00022114426 -0.00055866654 0.00037760223 -0.00017863952 -0.9890098 0.029485466
524000000 -0.98194164 0.036398623 0.00016071647 -0.00018598682 -0.00014441514 -0.00036054195 -0.98977226 0.028441051
525000000 -0.98158395 0.036802806 8.4567902e-005 -0.00040537218 -0.00017054535 0.00015609359 -0.98911214 0.029569279
526000000 -0.98069203 0.037205402 7.8634432e-005 -0.00032933956 0.00028049189 -0.00020515588 -0.98901618 0.029740909
527000000 -0.9816792 0.037751224 0.00028802644 -0.0004050672 2.2081413e-005 -0.00060978893 -0.98859751 0.028760066
528000000 -0.98111838 0.035975087 -0.00057201425 -0.00034252845 -0.00042341326 0.00010577442 -0.98847467 0.030047229
529000000 -0.98243779 0.037649833 6.2508858e-005 -0.0003090096 0.00072490086 -0.00090267521 -0.98794186 0.029475987
530000000 -0.98272562 0.037399638 -0.00030900643 -0.00040026268 -0.00013708166 0.0002207184 -0.9879517 0.029521057
531000000 -0.98199576 0.036239021 -0.00036569955 -0.00076836679 -0.00066188385 -1.8515795e-005 -0.98852825 0.030219192
532000000 -0.98295474 0.036241069 -2.7206377e-005 0.00036902266 -0.00015388291 -0.00041010781 -0.98789257 0.030161938
533000000 -0.9818157 0.038096271 -0.00056891725 -0.00040528688 -0.00042955094 -0.00078425778 -0.98837715 0.029416347
534000000 -0.98163968 0.036829632 0.00052001397 -0.00060182472 -0.00011388752 -0.00049586676 -0.98900598 0.029467707
535000000 -0.98118758 0.037230663 -4.3119699e-006 6.3053776e-005 -0.0003488177 0.00032036615 -0.98876756 0.029672446
536000000 -0.98208171 0.036715794 6.6812798e-005 -0.00055435568 -0.00048462482 -0.00024506019 -0.98850375 0.02894624
537000000 -0.98206306 0.03693343 -0.0002302393 -0.0002517034 3.2135513e-006 -9.0196001e-005 -0.98783296 0.029600795
538000000 -0.98221332 0.037576739 0.00027461906 -8.7096072e-005 0.00018562915 -0.00089522294 -0.98809117 0.029208833
539000000 -0.98242223 0.037565652 -0.00043378063 -0.00060210907 -0.00018902558 -0.00088266016 -0.98924184 0.03016213
540000000 -0.98207629 0.03871914 -9.5775526e-005 -0.00025622177 0.00032299623 -0.00017587568 -0.98837525 0.030111412
541000000 -0.98185939 0.038165644 4.765704e-006 -0.00024961121 0.00012584403 -0.0010473593 -0.98912066 0.02904631
542000000 -0.98097742 0.036661685 0.00019607888 -0.00039650017 0.00027097316 -0.00066572503 -0.98932904 0.029793095
543000000 -0.98105651 0.037801452 -3.741129e-005 3.2993604e-008 0.00048006064 -0.00099306111 -0.99002993 0.030321606
544000000 -0.98030376 0.037844073 -3.7984635e-005 2.7766975e-005 0.00029313299 -0.00030873969 -0.98985529 0.031074615
545000000 -0.98127645 0.03691693 -0.0001978745 -0.00026760405 -0.00033599389 0.00015969666 -0.98887992 0.030405551
546000000 -0.98160386 0.037489146 -0.00020973419 -0.00065942173 -0.00023760556 -0.00056818989 -0.98928165 0.030651705
547000000 -0.98128432 0.038073499 -0.00034083825 -0.00049014582 -3.0704679e-005 0.00055941497 -0.98820436 0.030316541
548000000 -0.98126662 0.03736243 -0.00072433706 -0.00047381964 -7.7831273e-006 -0.00011935155 -0.98805976 0.03000953
549000000 -0.98107457 0.037033074 -0.00030056533 -0.00022752832 0.00036953622 -0.00028438287 -0.98939228 0.029840792
550000000 -0.9806115 0.038471658 0.00019983589 -0.00053197873 0.0002607723 3.171356e-006 -0.98880982 0.031553045
551000000 -0.98125613 0.039115064 -0.00049174175 -0.00016498739 -0.00054625509 0.00040519563 -0.98815715 0.030672383
552000000 -0.98165506 0.035402849 -0.00046085662 0.00032132422 0.00011074716 -0.00019668418 -0.98846996 0.030100733
553000000 -0.98088962 0.037726711 -0.0004539084 0.00047582216 0.00049987668 -0.0002787124 -0.9888792 0.030243231
554000000 -0.98118895 0.036830012 0.00015644182 -6.8156754e-005 -1.5251016e-005 0.00018885086 -0.98932678 0.029484013
555000000 -0.98087645 0.03780992 -0.00020367972 -0.00076877081 0.00034667633 -0.00053461059 -0.98913455 0.030057602
556000000 -0.97984016 0.037528936 -0.00020800366 -0.00029526316 0.00061218842 -0.0002234214 -0.98905236 0.030965975
557000000 -0.98246932 0.037523046 0.00011064148 0.00033076401 -0.0004245592 -0.00057768705 -0.98989934 0.029439336
558000000 -0.9816649 0.037850026 0.00053514703 -0.0001892124 0.00016060949 0.00016960083 -0.99012029 0.030537874
559000000 -0.9798106 0.037058406 0.00015139076 5.4951139e-005 0.00023849308 -0.00012717558 -0.98832482 0.0296461
560000000 -0.98092693 0.03794191 -0.00028682107 -7.7872486e-005 2.451714e-006 -0.00055566576 -0.98875022 0.02979482
561000000 -0.98119116 0.037155434 -0.00078381028 -0.0010409968 -0.00036716237 -0.00070822553 -0.98868656 0.028416229
562000000 -0.9810679 0.038258903 -0.0001345846 -2.6156778e-005 -0.00083396223 -0.0003569258 -0.98853678 0.03188134
563000000 -0.98013502 0.038059726 -0.00036022058 0.00036568157 -0.00010898765 -0.00054183806 -0.98876578 0.030388165
564000000 -0.98131555 0.037346937 -0.00068185083 -1.2715721e-005 -1.6477026e-005 -0.00034146564 -0.98897463 0.029931067
565000000 -0.98174566 0.036419936 0.00020935689 -0.0004271236 -0.00058717013 -0.0004484689 -0.98825747 0.030318337
566000000 -0.98092753 0.035853319 -8.6959299e-006 6.1558065e-005 0.00027107474 -0.00011725837 -0.98789448 0.029657857
567000000 -0.98154974 0.035767671 -0.00041968175 9.273969e-005 -0.00010471675 -0.00024854593 -0.98876768 0.029989267
568000000 -0.97994238 0.037967514 0.00027846149 -0.00025091873 0.00044709281 9.8760756e-005 -0.98852968 0.030354016
569000000 -0.98024207 0.038037911 0.00060433499 -0.00080136355 0.00062912429 0.00016404704 -0.98827267 0.029263174
570000000 -0.98088157 0.037901398 -0.00016034557 -0.00039620756 0.00010279961 0.00021249308 -0.98815691 0.030094685
571000000 -0.9807781 0.036335535 0.00026969303 -0.00017613979 -0.00032318948 1.4999397e-005 -0.99011594 0.028899916
572000000 -0.98051667 0.0377043 -3.6212994e-005 -0.00046154144 -0.00044204458 -0.00035614739 -0.98780805 0.030859452
573000000 -0.98116994 0.036585908 0.00014732339 -0.00063532375 1.8983284e-005 0.00042135108 -0.98883641 0.030240191
574000000 -0.98077047 0.0379363 2.403621e-005 5.3421831e-005 0.00023390401 -0.00067668117 -0.98903751 0.03093108
575000000 -0.98112929 0.037366375 0.00032012063 -0.00048530116 -0.00013088986 -0.00070152507 -0.98971504 0.029284928
576000000 -0.98073775 0.037253872 7.205605e-006 -0.00046874644 -0.00010336893 -0.00039328053 -0.98836643 0.030270262
577000000 -0.98151553 0.037967019 0.00025044841 3.1824926e-005 0.00054103567 -0.00038103893 -0.98810941 0.029670499
578000000 -0.98145366 0.037079543 9.7535492e-005 -4.49338e-005 0.00016995025 0.00036008994 -0.98909885 0.029729292
579000000 -0.98072189 0.03794761 0.00019030974 -0.00060296734 0.00063815253 -0.00010470767 -0.98906684 0.030140238
580000000 -0.98127401 0.037515044 0.0003715106 -0.00076626398 -0.00026733644 2.099893e-005 -0.98818189 0.03021156
581000000 -0.98107898 0.037114937 0.00016807577 1.4877434e-005 -0.00028858776 0.00012614005 -0.99003989 0.030885903
582000000 -0.98131394 0.036712963 0.00015097897 0.00024238102 -7.1025148e-005 4.6567598e-005 -0.98892748 0.029851789
583000000 -0.98229402 0.037790492 0.00027631337 -0.0002976415 0.00055009982 -0.00054999167 -0.98908097 0.02944286
584000000 -0.98044366 0.036857728 0.00051445357 -0.0008579471 7.7760422e-005 8.8407309e-005 -0.98902661 0.031041285
585000000 -0.98205429 0.038155094 -6.3666703e-006 -0.00090745982 -0.00040972055 0.00060891407 -0.98932809 0.03113988
586000000 -0.98134363 0.038302176 -0.00026561003 -5.4402713e-005 7.9048354e-005 -0.00039563925 -0.98937219 0.02971267
587000000 -0.98169118 0.038579836 -0.00027803387 -0.00043210707 7.2728667e-006 0.00017415429 -0.98930252 0.029347038
588000000 -0.9817335 0.03851413 0.00012176445 -0.00057341909 -0.0001614707 -0.00093263335 -0.98915851 0.031220563
589000000 -0.98111147 0.037548833 -0.00064149161 8.1327271e-005 -0.00039551512 -6.4247768e-005 -0.98956674 0.030749833
590000000 -0.98151541 0.039127354 0.00048708293 -0.00032988307 -0.00011199298 -0.00024880259 -0.98811156 0.031327352
591000000 -0.98120099 0.038986422 0.00057914748 -0.00073589018 -0.00017494759 -0.00067089644 -0.98984116 0.030971339
592000000 -0.98155123 0.03764113 -1.7043303e-005 0.00011760072 -0.00035905556 0.0003988067 -0.98955387 0.030486161
593000000 -0.98087913 0.037830792 -0.00029545234 -0.00015962915 0.00014690901 -0.00093691738 -0.98872495 0.030424939
594000000 -0.98090839 0.038087562 -2.6197496e-005 -0.00020619406 0.00020954218 -0.00052086293 -0.98934674 0.030821992
595000000 -0.9801597 0.03793025 -9.5975309e-005 -3.6937425e-005 -0.00010923853 0.0001962969 -0.98783457 0.031951204
596000000 -0.98035693 0.039191388 0.00011719001 7.3018775e-005 -0.00010703965 -0.00071235572 -0.9892326 0.031782579
597000000 -0.98027903 0.038637057 -0.00030791282 0.00028614348 -6.5967353e-005 -0.00055398402 -0.98960435 0.030560238
598000000 -0.98157614 0.039433945 -0.00084443815 1.7437043e-005 0.00027895282 0.00031986812 -0.98884672 0.031497348
599000000 -0.98141283 0.040271275 -0.00021369151 -0.0010916105 0.00046747026 -0.0003255342 -0.98865205 0.030117929
600000000 -0.98057103 0.03940526 5.5015738e-005 3.376359e-005 0.00011975967 4.0118714e-005 -0.98874468 0.031516548
601000000 -0.98095703 0.040095482 8.2671082e-005 -0.00079611345 0.00042633995 -0.00043752976 -0.98914993 0.030881602
602000000 -0.98099202 0.038697384 -0.00048026536 -0.00027953504 -0.00055687729 -0.00062325603 -0.98825049 0.032397952
603000000 -0.98119551 0.0400826 -0.00029540458 -0.00015086241 -0.00042238916 0.00012394809 -0.98955971 0.030875672
604000000 -0.98058987 0.040269509 -0.00012771286 -0.00051052158 0.00042173624 0.00021304082 -0.98894477 0.031597611
605000000 -0.9807474 0.040046751 9.3642819e-005 -0.00050070352 -0.00023517052 0.00018545448 -0.98875552 0.031733919
606000000 -0.98216051 0.040586434 -0.00037125932 -0.0001477989 -0.000448115 1.202155e-005 -0.98826236 0.032477453
607000000 -0.98062915 0.03916543 -0.00060066028 -0.00059259037 0.00050630973 0.0001941752 -0.9879722 0.030811589
608000000 -0.98238301 0.040397115 0.00014432675 1.5517919e-005 -0.00012431893 -0.00057636702 -0.98820841 0.031984176
609000000 -0.98085535 0.042057004 0.00095260906 -0.00053920853 -0.00071861746 -0.00030323502 -0.98815107 0.032625996
610000000 -0.98006636 0.040992197 -0.00015699187 -0.00042348131 0.0011435972 -0.00056844979 -0.98730218 0.032252703
611000000 -0.97951096 0.041501835 -0.00037433734 0.00058654987 -0.00016485104 0.0001981307 -0.98875934 0.029520543
612000000 -0.98023444 0.040427323 0.00036855577 -0.00037226416 -0.00078141212 -0.00019871333 -0.98825747 0.031989317
613000000 -0.97996271 0.041773744 -0.00051801634 -0.00072834594 0.00030733677 -0.00014043834 -0.98862171 0.031844173
614000000 -0.98030621 0.04121124 0.00033846509 -0.00054232607 0.00025547275 -0.00056430761 -0.98878878 0.032131184
615000000 -0.98035634 0.040335413 -0.00042661178 0.00025942933 -0.00061817345 -0.00010219786 -0.98897302 0.032872099
616000000 -0.98156029 0.040741071 -0.00062811584 0.00015870651 -0.00059839751 -0.00074815244 -0.98863381 0.032119669
617000000 -0.98195261 0.041351225 -0.00016752168 -0.00019386796 8.2273953e-005 -0.00061410939 -0.98773253 0.032627165
618000000 -0.98135096 0.041932624 0.00072803261 -0.00036756811 -3.4193628e-005 -0.00065569271 -0.9885217 0.033752128
619000000 -0.98028564 0.041689746 -0.00010836756 -0.00037063961 0.00031060801 0.00028385746 -0.98868591 0.032721844
620000000 -0.98044246 0.042780656 0.0006724323 0.00019742169 -0.00014646689 0.00041603198 -0.98774678 0.032881502
621000000 -0.98184067 0.041534871 4.5057444e-005 0.00016069456 -0.00037600214 -0.0003591149 -0.98929781 0.03333674
622000000 -0.98063153 0.041990981 0.00026180519 -0.0003708452 0.00047397558 4.3302603e-005 -0.98857939 0.031678006
623000000 -0.98062664 0.043078009 -0.00066347042 -0.00019951593 0.0001437278 -0.00069993257 -0.98902762 0.03264619
624000000 -0.98147297 0.042126473 -0.0004468828 -0.0002638429 0.00035819909 -0.00041755053 -0.98779583 0.033892803
625000000 -0.97988468 0.043940801 -1.0441274e-005 -0.0010278769 0.00026078787 -0.00033537985 -0.98793381 0.031555492
626000000 -0.9807713 0.042351104 0.00078909245 -0.00052737992 -5.637822e-005 -2.74377e-005 -0.98884696 0.033964463
627000000 -0.98069984 0.044380482 -6.5266424e-005 -0.0001381975 -0.00055872247 -0.00044318856 -0.98758304 0.033181287
628000000 -0.97971386 0.043348819 -0.00017936199 -0.0001011223 0.00012902827 -0.00052062242 -0.98914921 0.033414543
629000000 -0.98044848 0.043939732 0.00052949047 -6.872994e-005 0.00036698979 -9.7797267e-005 -0.98884273 0.033369143
630000000 -0.98039806 0.043604124 0.00062493671 -3.5928559e-005 -0.00016497677 -5.4253789e-005 -0.98816139 0.034270138
631000000 -0.98189354 0.043837979 2.8713454e-005 -0.00015057701 0.00024496982 -0.00048146496 -0.9883303 0.033556715
632000000 -0.98044294 0.042988405 0.00021688973 -0.00041624898 -0.00015671477 6.4559317e-005 -0.98765284 0.033939652
633000000 -0.9806723 0.042248301 7.513888e-005 -0.00043401637 3.689179e-006 -0.00077206997 -0.98758405 0.033566702
634000000 -0.98118293 0.045736138 0.00064443506 -0.0006356294 8.8996596e-005 -9.0314039e-005 -0.98863631 0.034723364
635000000 -0.98103106 0.044126187 -0.00020435265 -0.0002441301 0.00069061021 -0.00032020826 -0.98808604 0.035223782
636000000 -0.98119551 0.043715697 -0.00037078999 -0.0006873628 0.00066523626 8.2240054e-005 -0.98862463 0.033120099
637000000 -0.98035419 0.043862559 -0.00057532429 8.3449238e-005 -0.00012938016 -0.00056374114 -0.98778522 0.032883883
638000000 -0.97963679 0.044263631 -0.00017938139 -0.00010526901 -0.00010210601 -0.00010614345 -0.98821062 0.033212848
639000000 -0.98201615 0.04505156 0.00020393435 -5.1367615e-006 0.00029454869 -0.00064488273 -0.98773247 0.034042239
640000000 -0.98036861 0.044807166 -0.00067805161 0.00014540221 -0.00021284184 -0.0006847718 -0.98778194 0.033628762
641000000 -0.97960669 0.044433001 6.1457977e-005 0.00034233558 -7.6130513e-005 -7.6732038e-005 -0.9872278 0.034188651
642000000 -0.98129249 0.044187684 7.7538539e-007 -0.00063413841 -0.00045630342 8.20676e-005 -0.98853374 0.033782244
643000000 -0.98001575 0.044487808 -7.3534116e-005 -0.0005936817 0.00063794828 -0.00080683647 -0.98796833 0.034024894
644000000 -0.98013049 0.043885082 -0.00035579456 -0.00041715009 0.00063279126 -0.00031941279 -0.98814291 0.033514176
645000000 -0.98045397 0.044027783 -0.00058112555 -0.00019799086 7.0249058e-005 -0.00025284893 -0.9884333 0.033852085
646000000 -0.98068631 0.044830739 -0.00058021909 -0.001141304 0.00094349298 -0.0004977319 -0.98695803 0.034234487
647000000 -0.97967368 0.045971617 0.00023863715 -0.0009486003 0.0003144017 -0.00028573646 -0.98833835 0.034088306
648000000 -0.98009425 0.045822941 -0.00024594841 0.00073047524 0.00018352541 0.00056270178 -0.98855132 0.034313791
649000000 -0.98050767 0.043925181 -0.00017629254 -0.00029571497 -0.00012907581 -0.00025917654 -0.98732483 0.035067957
650000000 -0.98036128 0.045063879 -0.00014930835 -0.00032990071 -0.00056982087 -0.00012334785 -0.9878332 0.034215886
651000000 -0.98017561 0.044632811 0.00023067604 -0.00059535063 -1.2335775e-005 2.327014e-005 -0.98750067 0.034118757
652000000 -0.97985685 0.045413472 -0.00072091864 -0.000154332 0.00043325606 -0.00013017195 -0.98663735 0.034341015
653000000 -0.9792515 0.046005759 -0.00034216946 8.0876835e-006 -0.00037357214 -0.00039858339 -0.98792571 0.034006208
654000000 -0.97913766 0.046100892 0.00018311596 -0.00022664132 -0.00066792319 9.7824504e-006 -0.98835146 0.034644634
655000000 -0.98094636 0.044555631 -1.6777151e-006 -0.00089572626 0.00081697089 1.9823832e-005 -0.98708594 0.034019805
656000000 -0.97960281 0.046125717 -3.3127864e-005 0.00016932051 -0.00057335204 -0.00012735165 -0.9877376 0.034196064
657000000 -0.98050481 0.045966901 0.00051067123 -0.00035848893 3.8571219e-005 -0.00058402296 -0.9881745 0.035627168
658000000 -0.98056304 0.046162385 0.00020177354 -0.00075232674 -0.00044120254 -0.00016393705 -0.98644507 0.034703746
659000000 -0.98005098 0.045000605 0.00039457445 0.00025766852 3.4669527e-005 -0.00046455854 -0.98879325 0.034469157
660000000 -0.97964334 0.045837566 0.00030599925 0.00028469335 -1.2040155e-005 0.00057175657 -0.98749459 0.033555213
661000000 -0.98038614 0.045691945 -0.00065017061 -0.00053949596 -0.0010852345 -0.0005003296 -0.98678684 0.034240883
662000000 -0.98051339 0.044785079 -0.00041232613 -0.00069842796 -0.00042416769 -8.9229616e-006 -0.98850811 0.035045981
663000000 -0.97932452 0.045526739 -0.00039903584 -0.00074411224 0.00035896705 -0.00063123449 -0.98812234 0.03475941
664000000 -0.98067105 0.045366202 2.6107597e-005 -0.0009755934 0.00038966758 0.00015578447 -0.98791045 0.035298463
665000000 -0.97963071 0.045042444 0.00013242188 0.00025527939 0.00032881662 8.8116925e-005 -0.98830867 0.034434661
666000000 -0.97926259 0.046019919 -0.00024839962 6.4395754e-005 -0.00040175774 -0.0002577875 -0.98742294 0.034621786
667000000 -0.98050028 0.045864832 -0.00035087927 -0.000213843 0.00018889636 0.00016994504 -0.9892121 0.033895917
668000000 -0.97982609 0.044167586 -0.00023789619 -0.00027611668 7.6528486e-005 0.0003701321 -0.98861194 0.033372078
