!Keysight Technologies,M9374A,MY55442783,A.12.55.05
!Date: Thursday, May 20, 2021 14:43:18
!Correction: S11(Full 2 Port(1,2)) 
!S21(Full 2 Port(1,2)) 
!S12(Full 2 Port(1,2)) 
!S22(Full 2 Port(1,2)) 
!S2P File: Measurements: S11, S21, S12, S22:
# Hz S  RI   R 50
500000000 -0.98378021 0.033797901 0.00028162403 -0.00094591751 0.000713913 -0.00038097776 -0.98872042 0.025592834
501000000 -0.98271698 0.036084123 -0.00069451332 0.00034982708 0.00022405839 0.00048404047 -0.98850358 0.027255088
502000000 -0.9816308 0.034284972 -0.00015918328 0.00036970354 0.00031583663 -0.00098763651 -0.98966044 0.026054371
503000000 -0.98212349 0.03389946 3.6217505e-005 -0.00045980501 0.00032737557 -0.0010927146 -0.99010932 0.026677059
504000000 -0.98192006 0.03308874 0.00021671831 -0.0007123237 7.7162571e-005 -0.00025761928 -0.99029994 0.027139686
505000000 -0.98158681 0.034791324 0.00012361757 0.00038684098 5.4542081e-005 0.00013364814 -0.98957568 0.026705306
506000000 -0.9821834 0.034451462 7.6395139e-005 0.00020716745 0.00026028947 -0.0004982212 -0.98931301 0.026002796
507000000 -0.98188722 0.03535077 -0.00046058514 -0.00047536701 8.3872284e-005 -0.00041827833 -0.98991048 0.027757166
508000000 -0.98237687 0.03624947 -6.5085078e-005 -0.00032109561 -7.4666787e-005 -0.00050325721 -0.98801798 0.027622133
509000000 -0.98243254 0.035625327 -0.00067322626 -0.00022801453 -0.00044413385 -0.00086391583 -0.98840952 0.027261829
510000000 -0.98313689 0.034690168 -0.00087748806 0.00021873935 1.8422097e-005 -1.3588928e-005 -0.98841387 0.027635302
511000000 -0.98140728 0.035316039 -0.00022025219 0.0001322195 -0.00013280471 0.00016883649 -0.98890305 0.027040588
512000000 -0.98185933 0.035047155 -0.0003677168 -0.00017289812 -0.0005899074 -5.409096e-005 -0.98924196 0.027247468
513000000 -0.98248285 0.035805464 -0.0002672449 -0.00023552187 -0.00040265283 -0.0005340341 -0.990466 0.026027571
514000000 -0.98248667 0.034964353 0.00034941942 -0.00032934616 -0.00055037648 -0.00033271941 -0.98794144 0.027896002
515000000 -0.98330569 0.03598851 -0.00015625982 -0.00032979035 -0.00020416228 -0.00056152517 -0.99058568 0.028770948
516000000 -0.98208737 0.035583261 0.00024712304 -0.00055933348 0.00066462543 -8.5021697e-005 -0.98921061 0.028204245
517000000 -0.98337239 0.035665628 -0.00058287656 -0.00036699447 0.00056219229 -0.00094449514 -0.98888576 0.027259173
518000000 -0.9820894 0.037211556 -0.00056222104 -0.00042143511 -0.00057991041 0.00030338185 -0.98794419 0.028373577
519000000 -0.98320562 0.03519978 -0.00012061345 -0.0010779606 -0.00060696935 -0.00052024092 -0.98807031 0.028878836
520000000 -0.9819476 0.036063213 5.4944288e-005 -5.2671007e-006 -0.00092232466 -0.00036548547 -0.98756969 0.028477214
521000000 -0.98299313 0.037166283 -0.00024444357 8.7313034e-005 0.0003603526 5.943048e-005 -0.98936611 0.02831547
522000000 -0.98379982 0.035708733 0.00027785526 -0.00023213132 -0.00017615028 0.00083023059 -0.98969573 0.029091451
523000000 -0.9818756 0.035386462 4.7838275e-005 -0.00020444668 -7.553435e-005 -0.00044165709 -0.98999476 0.02896742
524000000 -0.98193705 0.037582919 0.0002975034 -0.00038307285 -0.00028889294 -5.2953412e-005 -0.9906075 0.029802499
525000000 -0.98195791 0.036893193 -0.00033584982 -0.00037546238 0.00021368897 -0.00040167838 -0.98856163 0.028775401
526000000 -0.9817453 0.036953669 0.0007648741 -0.0007002519 0.00049163413 -0.00023787728 -0.98901337 0.02995391
527000000 -0.98332381 0.035822198 -0.00021597666 -0.00054908084 -3.4859819e-005 0.00014723255 -0.98901278 0.030169036
528000000 -0.98220402 0.037069961 0.00074150646 -5.9425278e-005 -9.8465389e-005 -0.00043698578 -0.98889947 0.030965284
529000000 -0.9810167 0.037159786 -0.00012774502 -0.00011161366 -0.00012484707 0.00043947599 -0.98872614 0.029805833
530000000 -0.98263305 0.036905196 0.00070219568 -0.00063849072 -0.00016594732 -0.00040914954 -0.98891789 0.029687738
531000000 -0.98214245 0.036702085 -0.00072383217 -0.00024664708 0.00037226296 -0.00026034331 -0.98979068 0.030051686
532000000 -0.98340845 0.037234619 -0.00016619798 -0.00031055129 -0.00012869948 1.6264294e-005 -0.98925638 0.028945336
533000000 -0.98195046 0.037170868 -0.00025872039 0.00014440851 0.00061891222 -0.00023914203 -0.98858279 0.030082045
534000000 -0.98229319 0.035972428 7.5634613e-005 0.00014674186 -3.1891101e-005 -0.000135027 -0.98806989 0.029730555
535000000 -0.98094785 0.036896709 0.00032182634 -0.00086610729 -0.00039670325 -0.00014731305 -0.9882834 0.029149089
536000000 -0.98207742 0.036883388 -0.00022695908 2.5963167e-005 -0.00081622624 -0.00040435919 -0.98812473 0.029724207
537000000 -0.9820497 0.036042742 0.0003046655 0.00061896892 -0.00021225549 -8.4716376e-005 -0.98897737 0.031133287
538000000 -0.98289174 0.037178304 0.00017766176 -6.271981e-005 -0.00022841839 -0.00037568959 -0.98904747 0.029972659
539000000 -0.98106307 0.037272628 -7.6435026e-005 -0.00042091345 0.00037548199 -0.00013927612 -0.98897213 0.029799219
540000000 -0.98242921 0.037949763 -0.00062451209 9.0015899e-005 -4.1744861e-005 7.0214024e-005 -0.98920333 0.028589066
541000000 -0.98135287 0.037978139 7.1443828e-006 0.00013573888 0.00012721244 0.00019919957 -0.9883334 0.029230012
542000000 -0.98157334 0.037962496 2.0700369e-005 0.00033500273 -0.00028097845 -0.00049093907 -0.98930758 0.030529609
543000000 -0.98252553 0.036768414 -0.00030527523 -0.00014671034 0.0003777589 -0.0003939445 -0.99030489 0.030181358
544000000 -0.98165333 0.037501536 6.6967332e-005 0.00028198279 -0.00024999183 -0.0005916786 -0.98940045 0.029726559
545000000 -0.98241991 0.038054954 -0.00017703463 0.00052518194 -0.00060588046 -0.00057536567 -0.9887473 0.029758815
546000000 -0.98233122 0.037318133 -0.00047683378 -0.0004538775 -2.1287094e-006 0.0002132298 -0.98913449 0.030242573
547000000 -0.98159266 0.036954362 -0.00085689605 -0.00029101962 -4.936635e-005 -1.304165e-005 -0.98997182 0.030235305
548000000 -0.98111767 0.038087245 4.0611212e-005 -0.0001209902 -0.00040722641 0.00010078042 -0.98833394 0.029877564
549000000 -0.9812218 0.037185941 -0.00046956979 0.00073700293 -0.00036707611 -0.0006659046 -0.9881044 0.031845722
550000000 -0.98169506 0.037828472 0.00011892209 -0.00044877958 0.0002798097 -0.00042017107 -0.98904175 0.031358156
551000000 -0.98105627 0.036730226 -0.00034275118 -4.9337072e-005 0.00069607573 -9.8653705e-005 -0.98837465 0.030435355
552000000 -0.98232365 0.036753017 0.00035741765 9.0523819e-005 6.2059073e-005 2.8157641e-005 -0.9887079 0.030504771
553000000 -0.98194009 0.037014168 -0.00029054782 -0.00049883442 0.00039088062 3.1816562e-005 -0.9892956 0.029984061
554000000 -0.98226702 0.036858428 -0.00028010388 0.00013386793 0.00013127393 -5.5037573e-005 -0.98846543 0.030122902
555000000 -0.9815101 0.038387358 0.00020452355 1.6010226e-005 -0.00095110951 -0.00052513997 -0.9881258 0.030187789
556000000 -0.98116338 0.037747353 -0.00066364766 -0.0012004283 -0.00015434834 -0.00077636173 -0.98852921 0.030315766
557000000 -0.982346 0.037924297 0.0002692964 0.00022621837 5.9689482e-005 -0.00015510614 -0.98901987 0.029272323
558000000 -0.98107785 0.036987897 0.00038215911 -0.00011559225 0.00019571246 -0.000720379 -0.98809457 0.030011287
559000000 -0.98153961 0.037475832 0.00042272313 -0.00076008571 -0.00078525336 -0.00038377519 -0.98969537 0.030180225
560000000 -0.98189199 0.037012257 -0.0002496425 2.9165698e-005 -0.0005995534 -0.00011175609 -0.98814058 0.030936325
561000000 -0.98184627 0.037014186 0.00024858688 -0.00016872978 -0.00047735625 0.00015604794 -0.98994023 0.029243337
562000000 -0.98080903 0.036682509 -0.00074875564 -0.00041559275 0.00076862099 -0.00054887153 -0.99012756 0.031099847
563000000 -0.98145533 0.037451982 0.00014195924 -0.00018255858 0.00086184754 0.00033233396 -0.98905748 0.031605493
564000000 -0.98263013 0.037168961 -0.00055727316 -0.00028466067 1.1726586e-005 -0.00062880764 -0.98945045 0.029869154
565000000 -0.98184025 0.037430845 -0.00011643219 -0.00026230043 -9.22861e-006 -0.00038067414 -0.98911798 0.029949533
566000000 -0.98105818 0.036332414 -0.00032945283 -0.00024744519 0.0002509804 -0.00016219736 -0.98902202 0.030069958
567000000 -0.98213798 0.037633333 0.00063629594 0.00060895848 -0.00072905503 0.00039076674 -0.9894923 0.030042468
568000000 -0.98180932 0.037758667 0.00043125788 -0.00037324586 0.0003275692 -0.00085050991 -0.98868728 0.030020721
569000000 -0.98175502 0.037960786 -3.2758293e-005 -0.00029491837 -0.00021185928 -0.0007555777 -0.98894125 0.029309787
570000000 -0.98065537 0.037752997 -0.00018420695 -0.00018449748 0.00073908851 0.00048117814 -0.9876554 0.030038422
571000000 -0.98186821 0.037360795 8.6618114e-005 -0.00022960153 0.0001718007 0.00028142796 -0.9889338 0.03113172
572000000 -0.9810046 0.037032392 -0.00021188796 -0.00096334598 -0.00048427723 -0.00016352454 -0.98793554 0.029935637
573000000 -0.98233598 0.037478182 -0.00038917892 0.00081348157 -0.00063379348 -0.0002725675 -0.98832583 0.030936947
574000000 -0.98083913 0.037060939 0.00012929826 -0.00019984478 0.00062347658 -0.0003049121 -0.98903614 0.030400999
575000000 -0.98172253 0.0372658 0.00038196516 -0.00078244915 0.00020608587 0.00029482855 -0.98913258 0.030204751
576000000 -0.9807846 0.035758369 -0.00033910063 5.8036643e-005 -0.00031989269 5.8873789e-005 -0.98933089 0.029901182
577000000 -0.98129737 0.037222497 -0.00022093003 -0.00039958299 -0.00025543713 -0.000398123 -0.98871785 0.028286194
578000000 -0.98105758 0.037369613 0.0002668213 -0.00051864493 0.00018944145 3.6433034e-005 -0.98847669 0.029253881
579000000 -0.98083079 0.038483649 -1.9875839e-005 -0.00071105856 -0.00015700744 -0.00013181448 -0.99033767 0.029756377
580000000 -0.9820413 0.036897179 -6.8422611e-005 -0.0004224595 -2.9853588e-006 -0.00090395135 -0.98882669 0.029895447
581000000 -0.98129267 0.036878072 -0.00038103748 -0.00061712216 -0.00028171233 -0.00088923576 -0.98850268 0.03000211
582000000 -0.97968709 0.038054325 -0.00038062246 -0.0009469362 -0.00086262048 -0.00034294571 -0.98929441 0.030076219
583000000 -0.98165619 0.038057204 -0.00045860882 -0.00070774264 -0.00026446709 -0.00037409892 -0.98842829 0.031158431
584000000 -0.98016417 0.038790863 -0.00042163063 -6.1142418e-005 0.00023689521 -0.0006525577 -0.98853916 0.030220838
585000000 -0.98051381 0.036675107 -0.0004217808 -0.00016625559 0.00050315249 -0.00084784289 -0.98980194 0.030381449
586000000 -0.98201454 0.038273256 -0.0002464951 -5.1630526e-005 -4.2255451e-006 6.8011097e-005 -0.98875904 0.030847836
587000000 -0.98121345 0.037709054 -0.00064147747 -0.0005120564 -0.00036545223 -0.00033239479 -0.98779082 0.030762725
588000000 -0.98051471 0.037546121 8.8904613e-005 -0.00029725308 -0.00036134999 -5.9688991e-005 -0.98947698 0.031152748
589000000 -0.98030871 0.036727086 -3.6156256e-005 -0.00013877256 0.00055247027 -0.00032524214 -0.98913652 0.031479504
590000000 -0.98138541 0.037495006 0.0002608143 -0.0008171731 -0.00058898859 -0.00070741156 -0.98761004 0.029927613
591000000 -0.98174673 0.039815735 -0.00011676445 5.3299842e-005 0.00038832746 -0.00022147805 -0.98887664 0.031936634
592000000 -0.9825722 0.03857816 2.3349234e-005 -0.0011467892 0.00023488539 -9.5727242e-005 -0.98887771 0.030168209
593000000 -0.98136723 0.037410859 0.0001892009 -0.00048677894 5.451544e-006 -0.00040912855 -0.9897781 0.030935377
594000000 -0.98135251 0.038683064 0.00028764454 0.00032902151 -0.00029779674 0.00014911224 -0.98996651 0.031079054
595000000 -0.98118061 0.038064145 2.6552603e-005 -0.00017009115 -0.00027206875 -3.3340719e-005 -0.98944491 0.031435832
596000000 -0.98087603 0.03831894 -0.00063808478 0.00020718212 0.00051608682 -0.00048797994 -0.98921978 0.031148026
597000000 -0.98187453 0.038765155 0.0004199105 -0.0003012814 -3.3130895e-005 -0.00050978136 -0.98844802 0.031293117
598000000 -0.98172456 0.038332887 -0.0002390986 8.129597e-005 2.2424725e-005 -0.000387137 -0.98794901 0.030561918
599000000 -0.98076677 0.039143987 0.00053956837 0.00011822079 0.00026661382 7.2286995e-005 -0.98985761 0.030401139
600000000 -0.98217195 0.0382208 6.5238812e-005 0.00013488749 -0.00017848372 0.00010959908 -0.98863399 0.031446479
601000000 -0.98133636 0.039845664 5.8899499e-005 -0.00059038994 -0.0003510784 -0.0002631516 -0.98912454 0.030937627
602000000 -0.98073554 0.040214002 3.8087215e-005 -0.00026222554 -0.00038269587 -0.00060818956 -0.98974442 0.031446196
603000000 -0.98233825 0.040058464 3.0826446e-005 0.0003589858 -6.1609295e-005 8.1634622e-005 -0.98988807 0.032130696
604000000 -0.97972155 0.038630996 -0.0004254503 6.2973618e-007 0.00031980991 -0.00033798604 -0.98868483 0.032469906
605000000 -0.98117614 0.039137311 -0.00020905232 -0.00018235041 -0.00045948365 -2.404742e-005 -0.98921818 0.032386962
606000000 -0.98138458 0.040103 -0.0008868266 -0.00018988202 0.00058290065 -0.00039398062 -0.98831528 0.032962203
607000000 -0.98240751 0.039343104 -0.00033404279 -0.00045463076 0.00039313649 -0.00075057626 -0.98952723 0.030213337
608000000 -0.98103881 0.04075405 -0.00072482566 -0.00033507831 0.00011604084 -0.0009776674 -0.98890436 0.032128014
609000000 -0.98120958 0.039138574 -2.6483167e-005 0.00015102242 -5.0308372e-005 -0.00038723013 -0.98946172 0.031569973
610000000 -0.98037821 0.04087051 0.00026347436 0.00010334406 0.0001685953 -0.0003775878 -0.98727363 0.031736214
611000000 -0.98127449 0.041311454 0.00076700456 -0.00067830709 -0.00040519444 -0.00010126406 -0.98871118 0.031884108
612000000 -0.98179185 0.041325543 1.3408562e-005 -0.00016233436 6.6650675e-005 0.0004121786 -0.98792136 0.031828783
613000000 -0.98043925 0.039233189 -0.00029213581 -0.00063381845 -0.00048812581 -0.00046714782 -0.98738825 0.030544197
614000000 -0.98191082 0.042171184 -0.00068387424 0.00014287794 -0.00078119151 -0.00013685858 -0.98995996 0.031807709
615000000 -0.98084402 0.04131145 -0.00053594838 -0.00022747934 -0.00051553524 -0.00054131588 -0.98924941 0.032466367
616000000 -0.98108572 0.041252512 1.1015824e-005 -0.00046902825 0.00090713787 -0.00046784387 -0.98892742 0.033327196
617000000 -0.98168021 0.041585952 -0.00049373583 7.9283258e-005 -0.00021232045 -0.0004922112 -0.98877388 0.033757493
618000000 -0.98163205 0.040486269 -6.5078893e-005 -0.00048746495 0.00053673604 0.00045088006 -0.9889167 0.032266129
619000000 -0.98179483 0.043089166 0.00047508927 -0.0002716757 0.00035361416 0.00039978791 -0.98773181 0.032721415
620000000 -0.98073334 0.042228788 0.00026769517 -5.1899584e-005 -0.00045264114 -0.00078378891 -0.98855954 0.033126369
621000000 -0.98207265 0.040234704 -0.00035757973 -0.00055148493 7.8935976e-005 -0.00084837602 -0.98817998 0.033603646
622000000 -0.97993433 0.041970409 0.00028900409 -0.00054892036 -0.00053025957 0.00042475978 -0.98917556 0.032579336
623000000 -0.98030257 0.042054173 -0.00066695904 -0.0010702953 0.00010292116 -0.00039646422 -0.98752987 0.032536451
624000000 -0.98020756 0.043082628 -1.3067292e-006 -0.00022877676 0.00018777674 0.00030369416 -0.98999107 0.033757705
625000000 -0.98077536 0.043799959 -0.00039397721 -0.00050238025 -0.00021461183 -0.00046281618 -0.9877072 0.033404972
626000000 -0.98114991 0.042597428 -0.00052237336 -0.00013322246 0.00062027836 0.00015429653 -0.98810762 0.03402045
627000000 -0.98224443 0.043067649 -0.000147157 -0.00080065202 -8.0269696e-005 1.8330729e-005 -0.98734599 0.032865662
628000000 -0.98202181 0.042611431 0.00052032026 -0.0011541133 -0.00088835869 0.00048723401 -0.98819613 0.03357856
629000000 -0.98069108 0.044545688 4.1005973e-005 0.00031592438 0.00019838606 -0.00064651005 -0.99026996 0.034638658
630000000 -0.98007572 0.043811176 -0.00019535354 -0.00096572412 0.0006335061 -0.00071757747 -0.98966163 0.032672316
631000000 -0.98136336 0.043208461 0.0005374754 -0.00027739978 0.00063698308 -0.00092030171 -0.98848885 0.033807646
632000000 -0.98092228 0.042976458 -0.00040315342 -0.0010121105 -0.00022559558 0.00031049317 -0.98844677 0.033111997
633000000 -0.98071074 0.04362927 4.4762921e-005 -0.00081810867 -5.8456088e-005 -0.00033300117 -0.98927838 0.033796001
634000000 -0.98204666 0.044599283 -5.2215091e-005 -0.0002889274 0.0002599936 0.00026944521 -0.9880051 0.033739556
635000000 -0.97978121 0.043802552 -0.00052373781 -0.00058016117 0.00079578278 -0.00047904064 -0.98825258 0.03384177
636000000 -0.98035187 0.043826353 -0.00062393292 0.0005289283 0.00028200759 -0.00037999629 -0.98825777 0.034104094
637000000 -0.98031491 0.044083383 -0.00022928421 -0.00010175604 0.00014137977 0.00028938122 -0.98886979 0.033833336
638000000 -0.9811458 0.043351442 0.0004381187 -0.0001369948 -0.00049889798 -0.0001132103 -0.98866796 0.034727607
639000000 -0.98138922 0.04421154 2.1412047e-006 -0.00076907728 -0.0011635218 -0.0010878185 -0.98695636 0.033392511
640000000 -0.98049229 0.044305649 -7.5308672e-005 -0.0001656489 -0.0004304024 0.00031130362 -0.98758131 0.033800367
641000000 -0.98190075 0.045118161 0.00026583369 -0.00042525306 0.00030962733 6.1506289e-006 -0.98767996 0.035549868
642000000 -0.98012877 0.044194568 0.00025462321 -0.0002195745 0.0003410581 0.00038167791 -0.98828501 0.033770747
643000000 -0.9797585 0.043959849 -0.00011807208 -0.0011286056 -0.00045659411 -0.00060408609 -0.98867673 0.033361383
644000000 -0.98078799 0.044521842 0.00049960549 -0.00033876029 0.00010611702 -0.00037142157 -0.98860115 0.034255493
645000000 -0.98076063 0.045191169 0.00018104874 -0.0006856168 -0.0005871295 -0.00032286195 -0.98860633 0.033265855
646000000 -0.98166215 0.045047641 -0.00047800815 -0.00060810515 -0.00070452079 -0.00024228716 -0.9880538 0.035129972
647000000 -0.98070794 0.046172485 -0.00020869498 -0.00037532521 -0.00067766942 -0.00055460632 -0.98800975 0.033946414
648000000 -0.98104739 0.044397809 0.0003883286 -0.00049441383 0.00034268541 -0.00075663289 -0.98835808 0.034317467
649000000 -0.98028189 0.045253176 9.7011682e-005 0.00039312174 -0.00021041499 -0.00022761941 -0.98854607 0.035418376
650000000 -0.98089409 0.045402367 -0.00071514182 -0.0004179992 0.00050855085 0.00073423155 -0.98770756 0.034553971
651000000 -0.97999853 0.045374755 -0.00027689006 -0.00030250687 -0.00015491927 -0.00059981516 -0.98776877 0.033705067
652000000 -0.98048067 0.044115961 -0.00037458513 -0.00013920412 -0.00032736888 6.8738795e-005 -0.98799568 0.034528971
653000000 -0.9802258 0.046036519 -0.00069428323 0.00030546027 5.7447935e-005 -0.00050036528 -0.98799074 0.034690171
654000000 -0.97937506 0.045315087 -4.5118497e-005 -0.00043860771 -0.00032331917 -4.5009678e-005 -0.98899633 0.034301173
655000000 -0.9794898 0.046223465 1.7008841e-005 1.3414887e-005 -0.00062409439 0.00051782437 -0.98853809 0.034785729
656000000 -0.97950137 0.045997448 -0.00029728498 -0.00090929802 -0.00043498774 -0.00016289046 -0.98775959 0.034506261
657000000 -0.98044634 0.04496469 -0.0002176024 -0.00023499294 -0.00073979347 2.3996288e-006 -0.98894054 0.035549264
658000000 -0.98038089 0.04572434 0.00037951668 -0.00020725156 9.0286747e-005 -1.5628773e-005 -0.98774952 0.034264319
659000000 -0.98075992 0.046089843 4.7505098e-005 -0.00013780672 -0.00010392116 0.00074549153 -0.98754513 0.034091
660000000 -0.97983295 0.045620132 -0.00043480293 -0.00073301164 -0.00010965218 -0.00058533309 -0.98628503 0.033457022
661000000 -0.98157519 0.046236832 -0.00035383535 -0.00075842458 -0.00021742734 -0.00039415996 -0.98876661 0.033991583
662000000 -0.97909856 0.044952512 -0.00077154906 -0.00034452893 0.0006130535 -6.9490823e-005 -0.98868799 0.035312638
663000000 -0.97958922 0.045632716 -0.00015209355 -0.00019348253 -0.00024319431 -0.00044775507 -0.9871996 0.03379738
664000000 -0.97965348 0.045985989 -0.00014477981 4.7899259e-005 -0.00043809286 -0.00061916345 -0.9882803 0.034894403
665000000 -0.9801932 0.045820385 -0.00049558195 5.8298883e-005 -0.00065837265 5.9626473e-005 -0.98751855 0.035364918
666000000 -0.97993159 0.045561198 6.5295368e-005 -3.5417841e-005 0.00058893807 -0.00061035575 -0.98796225 0.032963511
667000000 -0.97988778 0.046216894 -0.00020468325 -0.00051607128 -0.00030552346 2.1846519e-005 -0.98799258 0.033293404
668000000 -0.98115265 0.046877656 0.00015762198 -0.00017736292 -0.00018108434 -0.00013189834 -0.98753649 0.034110248
