!Keysight Technologies,M9374A,MY55442783,A.12.55.05
!Date: Thursday, May 20, 2021 14:48:38
!Correction: S11(Full 2 Port(1,2)) 
!S21(Full 2 Port(1,2)) 
!S12(Full 2 Port(1,2)) 
!S22(Full 2 Port(1,2)) 
!S2P File: Measurements: S11, S21, S12, S22:
# Hz S  RI   R 50
500000000 -0.9824481 0.033599254 0.00017560001 -0.0012573483 -0.00055451918 -0.001018005 -0.98993444 0.025546825
501000000 -0.98316902 0.033844072 0.00030161886 -0.00032181022 0.00029594792 -0.00071871775 -0.98986197 0.026300985
502000000 -0.98137939 0.033605251 0.00017778637 -0.00044436305 0.00068344478 -0.00020935807 -0.98959792 0.026242657
503000000 -0.98246652 0.034662001 -0.00027275371 -0.00068930926 0.00055156945 -0.00018093945 -0.98947442 0.027051171
504000000 -0.98219937 0.034547277 -8.7623266e-005 -0.00068526657 0.0010393087 -0.00015596082 -0.98989391 0.027584283
505000000 -0.98260868 0.035154957 0.00011430274 -2.3713334e-005 -0.00018937413 0.00068718812 -0.98994404 0.025558732
506000000 -0.98216563 0.033108428 -0.00015961853 6.4505286e-005 0.00012305676 -0.00041386415 -0.98817945 0.026318993
507000000 -0.9825719 0.034821767 -0.00043872697 3.5087218e-005 0.00031383231 -0.0003661364 -0.98930192 0.027684078
508000000 -0.9823578 0.034775034 0.00027241165 -0.0005284567 -8.4154097e-005 -0.0011265175 -0.99097872 0.028797122
509000000 -0.98384166 0.036216896 0.00050113222 -0.00031699796 -0.00032541493 0.00024383712 -0.98932266 0.02838695
510000000 -0.98248053 0.034799699 -0.00052412465 -1.7499055e-005 -0.00057081861 0.00044511742 -0.98914522 0.027544292
511000000 -0.98220617 0.035498738 -7.0821407e-005 1.2984706e-006 0.00012743991 -0.0002436248 -0.98968649 0.027458206
512000000 -0.98318458 0.034665383 -0.00012420035 -0.00020264809 -0.00017289839 -0.00090474216 -0.98971206 0.027116776
513000000 -0.98240399 0.034807429 -1.8669703e-005 0.00031173142 -4.8046488e-005 -0.00043811832 -0.98856598 0.02676858
514000000 -0.98206335 0.034967367 0.00059983117 -0.0004307187 0.00028093002 -0.00033795723 -0.99018431 0.027956959
515000000 -0.98299366 0.036740772 4.1704032e-005 0.00020534344 -0.0003875726 -0.00021585956 -0.9902606 0.027795454
516000000 -0.98168945 0.035691593 0.00042659865 -6.4123255e-005 0.0002582843 -0.00025161423 -0.98891836 0.027076501
517000000 -0.98279393 0.035817612 0.00019912365 -9.6818745e-005 0.0001039593 -6.0783546e-005 -0.98921269 0.028088544
518000000 -0.98162615 0.036845539 -0.00013315327 0.00037050381 0.00064179429 -0.0011173276 -0.98962688 0.027370023
519000000 -0.98305035 0.034926794 0.00033636048 0.00028173573 -0.00015753448 4.0434639e-005 -0.98992491 0.029251141
520000000 -0.98208046 0.036372472 -0.00011082674 -0.00019399756 -0.00030764833 -0.00085316534 -0.99033636 0.028073847
521000000 -0.98145652 0.037180338 -0.00022195459 -0.00050007756 -0.00016321198 0.0005074903 -0.98895544 0.028977796
522000000 -0.98269933 0.036375698 0.00012115882 -0.00034740282 0.00077759684 -0.00015532896 -0.98873276 0.029442435
523000000 -0.98194426 0.035994552 -1.0247601e-006 0.00013230264 0.0004327402 -0.00050713081 -0.98777819 0.028425578
524000000 -0.98176211 0.036192331 0.00017096197 -0.00022043278 0.0002851618 -0.0001238969 -0.98932749 0.027970627
525000000 -0.98153168 0.036892533 -0.00037433839 -0.00069130515 0.00080638699 -0.00087029679 -0.98996633 0.030339025
526000000 -0.98208565 0.038304467 0.00046477027 -0.00025099478 -0.00018734823 -0.00094240584 -0.9887414 0.029548157
527000000 -0.98391366 0.037467759 -0.00017188737 -0.00011326465 -0.0002217242 3.5306402e-005 -0.98809481 0.02856194
528000000 -0.98268545 0.037297115 0.00075763388 -0.00013842204 0.00023880404 7.8271376e-005 -0.98886514 0.029343296
529000000 -0.98295397 0.0378838 2.0552268e-005 0.00030048037 5.890285e-005 -0.00025988562 -0.98832053 0.030307587
530000000 -0.98169041 0.037243817 -0.00015928368 -4.6135545e-005 -7.0083086e-005 0.00026743527 -0.98913914 0.029509149
531000000 -0.98190421 0.036294904 -6.9624657e-005 -0.00044227022 -0.00046443552 -0.00033184167 -0.99039471 0.029225498
532000000 -0.98220938 0.037525121 3.5043384e-005 -0.00023292033 0.00045322601 -0.0014221359 -0.98879772 0.029773563
533000000 -0.98279393 0.037667744 -0.00046241633 0.00036357829 0.00041840819 -0.00073708949 -0.98853236 0.03023392
534000000 -0.98215663 0.036314234 -2.0928974e-005 0.00021623274 -0.00056960969 -0.00025548265 -0.98852766 0.028927254
535000000 -0.98162031 0.037257202 -0.00025274951 0.00052200048 -0.00047326417 -0.00037490035 -0.98798788 0.029008163
536000000 -0.98228097 0.037130829 -0.00039486439 0.00013699083 0.00049697497 -0.00047757005 -0.98835176 0.029556811
537000000 -0.98297447 0.036015786 7.7449069e-005 -0.00061961304 5.9546332e-005 -0.00032630906 -0.98835671 0.029575502
538000000 -0.98165596 0.037409674 -0.00023545213 -0.0011982556 0.00013051074 -0.00024919093 -0.98937416 0.029421948
539000000 -0.98115903 0.037271582 3.5160207e-005 -0.00023404074 -0.00023358437 -0.00048396343 -0.988482 0.029574579
540000000 -0.98236734 0.038188592 -0.00012911948 -0.00016215986 2.3211551e-006 -0.00040614896 -0.98926455 0.029539805
541000000 -0.98187655 0.037802968 -0.00074096658 -0.0012266395 -0.00025869312 -0.00070133223 -0.98873299 0.030159311
542000000 -0.98182607 0.037268844 0.00039296059 -0.00036807108 0.00034039555 0.00036318184 -0.9885242 0.030028349
543000000 -0.98249894 0.038186569 0.00017339249 0.00025672559 9.4999479e-005 -7.1573486e-005 -0.98969716 0.029633893
544000000 -0.98161805 0.03806388 -0.0004458797 -0.00018088124 -0.00067198707 -0.0007619955 -0.9898876 0.030442592
545000000 -0.98321778 0.036762223 -0.00050037302 5.226197e-005 0.00042630872 -0.00036622412 -0.98844409 0.029169865
546000000 -0.98161697 0.038468774 6.8125315e-005 -0.00064298988 0.00040746375 -0.00013911584 -0.9889614 0.029929521
547000000 -0.9814862 0.037287757 -0.00065862789 0.00050593546 -9.9682359e-007 -0.00033402347 -0.98877943 0.028891684
548000000 -0.9807924 0.037801035 0.00037437933 -0.000612139 -0.00025378889 -0.00024706981 -0.9890213 0.02932984
549000000 -0.98258847 0.037598845 -0.00017962702 -7.0169655e-005 8.8472159e-005 3.0860014e-005 -0.98985416 0.030454971
550000000 -0.98170382 0.037553981 0.00051524607 -4.3896638e-005 0.00023877335 -0.00031150971 -0.98997247 0.031570423
551000000 -0.98119038 0.036795631 -0.00074840209 0.00011905734 -0.0001274661 -6.2489003e-006 -0.98941076 0.029219111
552000000 -0.98217255 0.037483912 0.00037886342 -0.00042639888 0.0003837262 -0.00018789174 -0.98793167 0.029107392
553000000 -0.98224032 0.037790902 0.00050467037 -8.4442559e-005 -0.00046039192 -0.00031103974 -0.9881435 0.030511182
554000000 -0.98328054 0.037277572 -0.00028981018 -0.0010761169 2.337713e-005 -0.00013204852 -0.98926967 0.029068068
555000000 -0.98130071 0.037908878 -7.5560283e-006 -0.00028915948 -0.00018255673 -0.00016113387 -0.98988718 0.030813666
556000000 -0.98035258 0.037052307 2.455998e-005 -0.00026056456 -0.00089267665 6.9377111e-006 -0.98895091 0.030246099
557000000 -0.98242915 0.036533851 -0.00030505954 -0.00041203332 5.5639735e-005 0.00035910949 -0.9886688 0.029959124
558000000 -0.98221016 0.03863572 -0.00068348495 -0.00043384667 -0.00010194303 -0.00022690177 -0.9882651 0.030961335
559000000 -0.98119009 0.036503553 0.00019576184 -0.00069649029 0.00022142699 -0.00045353241 -0.9899258 0.030851724
560000000 -0.98272175 0.036924809 -6.4024869e-005 -0.00035955364 0.00010397514 0.00014903316 -0.98827314 0.029831523
561000000 -0.98231614 0.036526304 -0.00024373041 -0.00065684499 -1.7239074e-005 -5.4194792e-005 -0.98876375 0.030774752
562000000 -0.98104388 0.03732064 0.00069079309 -0.00063752558 0.00050578435 0.00025377603 -0.98975539 0.030200979
563000000 -0.98218215 0.037855078 -3.2216794e-005 -0.0003486778 -0.00025523012 -6.3687189e-006 -0.98968446 0.030428601
564000000 -0.98155278 0.03732986 -0.00010067754 -0.00029565571 -0.00040223371 0.00052583549 -0.98898715 0.030046482
565000000 -0.98166132 0.036931418 -0.00040078387 0.00011529514 -0.00018616344 -0.00074037776 -0.9903205 0.029747184
566000000 -0.98180723 0.037181664 0.00022347878 0.00028130048 -0.00018973077 0.00041168928 -0.98936874 0.029837593
567000000 -0.98225892 0.037229925 -0.00033812629 -0.00030515558 -0.00026966 -0.00063183205 -0.98927188 0.030592781
568000000 -0.98083711 0.037339687 -1.6447842e-006 -0.0010123682 -9.9221188e-006 0.00054523279 -0.98881292 0.029851645
569000000 -0.98150933 0.036900956 -0.00013067671 1.1395019e-005 -8.0652106e-005 -0.00040616436 -0.98913491 0.028907793
570000000 -0.98065466 0.037291955 -0.00011491581 -0.00033974994 -0.00034792759 5.6534565e-005 -0.9892891 0.029016322
571000000 -0.98097044 0.03657477 -3.1408632e-005 0.00040521694 0.00062782795 -0.00061199191 -0.98859155 0.030173684
572000000 -0.97980416 0.037037652 6.5837397e-005 -0.00031958503 -9.8245255e-005 0.00016194287 -0.98914474 0.03120877
573000000 -0.9819538 0.03593488 0.00025518678 -0.00044455487 4.2407326e-005 5.1666051e-005 -0.98923713 0.03072845
574000000 -0.98256665 0.036728993 -0.00014061267 0.00047369697 -0.00063309527 -0.00039076572 -0.98941749 0.028998127
575000000 -0.98206061 0.037805088 1.4358257e-005 -0.00074267428 -0.00012440489 -0.00044094981 -0.99093097 0.030543666
576000000 -0.98173964 0.036209516 -3.2999901e-006 0.00047465041 -0.00090368744 -0.00083804521 -0.98879361 0.031100357
577000000 -0.98102164 0.037538268 0.00016307468 -0.00043277832 7.9274338e-005 -1.781426e-005 -0.98917961 0.029447624
578000000 -0.98110914 0.036780994 0.00047319758 -0.00030171286 0.0010485867 -0.00076522335 -0.98961842 0.028919615
579000000 -0.98138416 0.037031777 1.4071784e-005 -0.00045601846 -7.3299685e-005 -0.00015418898 -0.98920339 0.029860871
580000000 -0.98083144 0.03748928 -0.0002127628 -0.00016739401 -0.00016918303 -8.6214268e-006 -0.9887979 0.030151138
581000000 -0.98170674 0.036667969 7.627903e-005 -0.00087153504 0.00065313873 -0.00052475953 -0.99002349 0.030269686
582000000 -0.98237365 0.038455881 0.00022828909 -0.0002307285 0.00081255642 0.00036534018 -0.98840129 0.029072287
583000000 -0.98041052 0.038622916 0.00024385386 -0.0005167044 -0.00037549686 -0.00040977585 -0.9901464 0.030345673
584000000 -0.98259532 0.036511134 -0.00022060171 -0.00030245603 0.00040839057 0.00014556297 -0.98884141 0.032101881
585000000 -0.98118818 0.037205167 -0.00024199847 0.00066032144 -0.00029567064 -0.00054695527 -0.98949301 0.030537408
586000000 -0.98125672 0.037911523 0.00067722704 -0.00024218009 -0.00039714269 -0.00063817162 -0.98900527 0.030004453
587000000 -0.98078299 0.03876527 -0.00037721431 -0.0002934997 -0.0003802444 -0.00047559896 -0.98829699 0.030852651
588000000 -0.98122472 0.036950368 0.00059719896 -7.326623e-005 -0.00021840472 9.3558781e-005 -0.98894149 0.030792266
589000000 -0.98091453 0.038311604 0.00010282487 -0.00072566961 -0.00065034151 -0.0010508868 -0.98938322 0.031026434
590000000 -0.9824053 0.039683025 0.00035876312 -0.00015005821 -0.00098069245 -7.6636315e-005 -0.98800433 0.029556287
591000000 -0.98136747 0.038447686 0.00016270948 -0.00029511258 -0.00026958395 0.00044616373 -0.99023145 0.030289512
592000000 -0.981628 0.038064945 -0.00022085747 -0.00031008379 -0.00040408238 -0.00060224516 -0.9895398 0.030454181
593000000 -0.98038536 0.038309906 0.00061077945 -1.9900639e-005 6.9942398e-005 -0.00030372175 -0.98931801 0.031765308
594000000 -0.98130912 0.038961645 -0.00027966741 0.00024886488 0.0001786912 -0.0011717435 -0.9900341 0.030300057
595000000 -0.98212218 0.038222272 -0.00076836604 -0.00037367799 -0.00028519394 -0.00026354066 -0.98959631 0.031029761
596000000 -0.98158932 0.036893681 0.00084127579 0.0004582477 -0.00024859773 -0.00033447007 -0.98897988 0.031062277
597000000 -0.98143059 0.037673779 0.00021460454 -4.5793575e-005 2.6813066e-005 -3.1901996e-005 -0.98943162 0.030043907
598000000 -0.98114157 0.039229535 0.00023856571 -0.00046606586 -0.00035077528 -0.00097093935 -0.9886086 0.031173781
599000000 -0.98101425 0.037882209 0.00072853686 -6.4518747e-005 -0.001094647 0.00013931206 -0.98999125 0.029791739
600000000 -0.981188 0.038541999 -0.00044045286 -0.00064201345 0.00033580078 -0.00030002132 -0.98870683 0.031005435
601000000 -0.98134023 0.038980063 5.4754393e-005 -0.00095093972 0.00058515446 -0.00026264112 -0.98961091 0.031247785
602000000 -0.97979122 0.038692437 -0.0002847487 -0.00018390984 0.00022772244 -0.0010029288 -0.98860008 0.032151453
603000000 -0.98188901 0.038784184 0.0002696435 -4.4930766e-005 0.00022681248 -0.00067813136 -0.98952925 0.031100722
604000000 -0.98116839 0.040727858 -0.00045303325 -0.00058899412 0.00033198981 -0.00029061839 -0.98915672 0.032435037
605000000 -0.98184663 0.039443653 0.00029169372 -0.0002448106 -0.00025378118 0.0002634004 -0.98860401 0.031024588
606000000 -0.98156297 0.039487764 -0.00021683949 -0.00032557154 -0.00054176489 -0.00081085385 -0.98934019 0.031102218
607000000 -0.98129463 0.041099086 5.481267e-005 -0.0006174586 0.00024110547 -0.0002146527 -0.98831064 0.031146554
608000000 -0.98204648 0.040049419 -0.00016860363 0.00018839088 0.00017071347 -0.00092192751 -0.98791045 0.031561308
609000000 -0.98071331 0.039368983 0.000330604 -0.00019895611 0.00019612543 -0.00069171668 -0.98853213 0.032063354
610000000 -0.98171747 0.040592294 0.00018263207 -0.00059260498 -5.9785685e-005 -0.00047436979 -0.98884028 0.0319677
611000000 -0.98040175 0.040674109 6.1747429e-005 -0.00053726998 0.0002321472 -0.00095550332 -0.98863924 0.030697199
612000000 -0.98127133 0.040801782 -0.00088762853 -0.00072234665 -0.00080233335 0.00012949474 -0.98897773 0.032195672
613000000 -0.98131359 0.040187981 -8.071167e-006 -0.0011155488 0.00010984084 -7.9463789e-006 -0.98830146 0.031813234
614000000 -0.98208058 0.041019872 0.00045209029 -0.00038516105 -0.00013852908 -0.00047501229 -0.98955572 0.032707535
615000000 -0.98226422 0.041276451 0.00025573155 0.00013670594 -0.00069945597 5.2256844e-005 -0.98835123 0.032133654
616000000 -0.9818517 0.041026957 0.00069614087 -0.00047609443 0.0001463574 1.6953421e-005 -0.98766524 0.032951001
617000000 -0.98086983 0.041602891 -0.00030169592 -0.00037520018 0.00033364847 -5.4609507e-005 -0.98878026 0.032049563
618000000 -0.9816106 0.041840795 -0.00020748435 -0.00038251077 0.00076332729 -0.00013022016 -0.9883706 0.032421727
619000000 -0.98073971 0.042506196 0.00018969706 -0.00064959959 -0.00045272632 -0.00042588901 -0.9896127 0.033340234
620000000 -0.98068213 0.04195299 -0.00064396905 -0.0011963791 0.00012413471 -0.00015233908 -0.98917484 0.032926295
621000000 -0.98235822 0.041847236 0.00042489538 -0.00032925548 -0.00013327478 0.00041229842 -0.98825461 0.032560889
622000000 -0.98077428 0.041778259 -0.0004751478 0.00025677672 0.00057052658 5.3512435e-005 -0.98877436 0.03237696
623000000 -0.97985631 0.042435296 0.00039379988 -0.00039264408 -0.00025749774 0.00043641281 -0.98899108 0.033241499
624000000 -0.9797557 0.041021124 0.00028220436 -0.00031908182 -0.00045307187 0.00026956227 -0.98923993 0.033109128
625000000 -0.98203051 0.043081339 3.6622376e-007 -0.00019252807 -5.2042546e-005 -0.00047384223 -0.98882461 0.032531917
626000000 -0.98079783 0.042687085 0.0002180912 -0.00042143429 -0.00065602176 -2.5850268e-005 -0.98808962 0.032205578
627000000 -0.98080498 0.04293761 -0.00020210321 -0.00033774247 -0.00024185884 -0.00014700089 -0.9887377 0.032823652
628000000 -0.98156798 0.042655468 0.00010343465 -0.00013086486 0.00038724017 0.00010061496 -0.98839468 0.033600952
629000000 -0.98061216 0.04301133 0.00059358164 -0.00078657415 0.00010452235 0.00058216712 -0.98860335 0.034637094
630000000 -0.98078245 0.044074591 -0.0010740909 -0.00031873488 -0.00050475553 8.9988653e-006 -0.98938024 0.034637958
631000000 -0.98050916 0.043087889 -0.00016429159 -0.00091628631 -0.00021336507 -0.00054271735 -0.98951924 0.033151858
632000000 -0.98231328 0.043320086 0.00021315823 3.0433535e-005 0.00042800992 -0.00054498558 -0.98805469 0.033453513
633000000 -0.98095214 0.043630216 -0.00015445272 -0.00071897235 -0.0010764303 -0.00021422577 -0.98892272 0.033872876
634000000 -0.98239785 0.043385081 -0.00028015039 -0.000215747 0.00073572074 6.4573476e-005 -0.98868144 0.033929117
635000000 -0.98061377 0.044026904 0.00032093274 0.00010081212 -7.6874734e-005 0.00016642992 -0.98834032 0.033261318
636000000 -0.97984195 0.044028956 0.00028777073 -0.00084631774 0.00019059426 -0.0006822435 -0.98847842 0.033871479
637000000 -0.98071265 0.043610375 -0.0001527751 0.00018708047 -0.00027456673 -6.2580257e-005 -0.98858666 0.034008238
638000000 -0.98033977 0.04295484 8.3831856e-006 -0.00010420513 -0.00018819724 0.00011382095 -0.9886412 0.03365691
639000000 -0.98195446 0.043746162 -0.00026024031 -0.00036231696 -0.00054506474 -0.00067428552 -0.98830742 0.03516341
640000000 -0.98213577 0.044817895 -0.00059707917 0.00014761399 -0.00054679113 0.00047904931 -0.98849338 0.034070536
641000000 -0.9803195 0.043759458 0.00023566489 0.00015465253 9.8904638e-005 -0.00012060775 -0.9877249 0.032683313
642000000 -0.97999805 0.044623908 -0.00012654297 -0.00047322823 -0.00039764901 -0.00012115555 -0.98858052 0.033654418
643000000 -0.97988969 0.044081427 -0.00040719451 0.00038912587 0.00071098702 -0.00020856631 -0.98785526 0.034872562
644000000 -0.97962677 0.043139517 -0.00022307383 -9.6478732e-005 0.00023886349 0.00018336179 -0.98837453 0.035423554
645000000 -0.9795115 0.045077704 5.7562302e-005 -0.00049348711 -0.00010721292 -0.00012045432 -0.98778784 0.033264276
646000000 -0.98063302 0.045365389 -0.00032106723 -0.00015389475 1.874284e-005 -0.00048986741 -0.98810643 0.034199703
647000000 -0.9809708 0.044736918 -0.00032926543 -2.2841856e-005 0.00046683277 -0.00025731215 -0.98715937 0.033484988
648000000 -0.98129356 0.045302272 -2.3161441e-005 -0.00036756526 -0.0012837085 -9.204141e-005 -0.98744959 0.033925135
649000000 -0.98132694 0.044188008 -0.00060826726 -0.0011300865 0.00027407295 -0.00058548042 -0.98785204 0.033955339
650000000 -0.98130238 0.046096303 0.00068441394 0.0003777903 -6.9671648e-007 -0.00044767198 -0.98764932 0.034651995
651000000 -0.98053604 0.045308381 0.00018416512 -0.00059574045 4.0883859e-007 -0.00057586405 -0.98886657 0.033826254
652000000 -0.98037052 0.045044266 -5.803899e-005 0.00043854793 -7.2507697e-005 0.00026210255 -0.9866851 0.033790838
653000000 -0.98093534 0.044321798 0.00037762217 -0.00010586461 -3.33317e-005 -3.0580013e-005 -0.98803443 0.033527497
654000000 -0.98045224 0.046118084 0.00052128942 0.00020459649 -0.00018979378 -0.00052986556 -0.98759162 0.034326848
655000000 -0.97957152 0.044071842 0.00061927189 1.3561769e-005 -0.00013002194 0.00023830878 -0.98789597 0.035283711
656000000 -0.98105681 0.045925722 -7.8069334e-006 -0.00046627541 7.7784862e-005 -0.00080793654 -0.98762482 0.035042178
657000000 -0.98035181 0.045788493 -0.00079072465 -0.00056400284 0.00037724065 0.0003127954 -0.98859483 0.034707751
658000000 -0.98131257 0.044394962 -0.00061337685 -0.00019185185 -0.00031063208 0.00036139382 -0.98887074 0.033313915
659000000 -0.97991675 0.046596792 3.7678336e-005 -0.00042373032 0.00060167315 -0.0003756583 -0.98671722 0.035268381
660000000 -0.98111701 0.045948796 0.00058609003 -0.00011973784 0.00011707954 -2.9605717e-006 -0.98726481 0.033335589
661000000 -0.98151976 0.045308538 -0.00073257915 4.2246433e-005 -0.00059590477 -0.00018622293 -0.9893595 0.035230152
662000000 -0.98116535 0.044736113 -9.114462e-006 -0.00017756576 -7.9786812e-005 0.00017544536 -0.98861998 0.034825411
663000000 -0.98004448 0.045677178 -0.0011098066 -0.00028338417 -0.00044574458 3.3554577e-005 -0.98815382 0.033627275
664000000 -0.98069644 0.045666061 0.00031295724 -0.00023070272 8.0621685e-005 0.00067082321 -0.98811603 0.03565903
665000000 -0.98023027 0.046122551 -0.00029538124 -0.00046195145 -0.00059876224 -0.00050165429 -0.98794287 0.034252711
666000000 -0.98024172 0.04499995 -8.7424203e-005 -0.00060771225 7.3723888e-005 -0.00044925362 -0.98819762 0.03372106
667000000 -0.9799453 0.045784444 -3.269226e-005 -0.00081573409 0.0003992492 -0.00060443126 -0.98825002 0.033770349
668000000 -0.9802388 0.044794317 0.00022606246 -0.00039905965 -0.00015498101 -0.0003316479 -0.98836744 0.034239996
