!Keysight Technologies,M9374A,MY55442783,A.12.55.05
!Date: Thursday, May 20, 2021 14:11:18
!Correction: S11(Full 2 Port(1,2)) 
!S21(Full 2 Port(1,2)) 
!S12(Full 2 Port(1,2)) 
!S22(Full 2 Port(1,2)) 
!S2P File: Measurements: S11, S21, S12, S22:
# Hz S  RI   R 50
500000000 -0.98091644 0.034653194 6.1518163e-005 -0.00095841271 -2.389952e-005 -0.00014307011 -0.9894895 0.025100993
501000000 -0.98145962 0.035366457 0.00018608751 0.00011222104 1.8025685e-005 -0.00087555067 -0.98958153 0.026024764
502000000 -0.98066926 0.033297583 8.8133485e-005 -0.00094710302 -0.00017006279 -0.0006388094 -0.98782456 0.025575783
503000000 -0.97996527 0.035244167 0.00047124299 0.00011140369 -0.00023347043 0.00025840555 -0.98927653 0.026893431
504000000 -0.97979856 0.034809634 0.00055103173 0.00049154065 -0.0006424996 0.00010687339 -0.98896855 0.025355013
505000000 -0.98087227 0.036114842 5.9220074e-005 -0.00045457989 0.00062789867 -0.00028556807 -0.98832345 0.027792653
506000000 -0.98161143 0.035204697 0.00022387874 -0.00044133648 0.00038757909 -0.00034205077 -0.98811555 0.026723914
507000000 -0.98104298 0.035324171 0.00010537996 -0.00047361193 0.00040048084 -0.00060298003 -0.98852044 0.028658345
508000000 -0.98270607 0.035553426 0.00042696463 7.513343e-005 4.3263692e-005 -0.00031459343 -0.98869556 0.027238633
509000000 -0.98163146 0.034913033 -4.8567057e-005 -0.00089219213 -0.00030352658 -0.00054599211 -0.98826945 0.027647035
510000000 -0.98153037 0.036245607 0.00022624011 -0.0007672435 -9.9217592e-005 -0.00016420132 -0.9884671 0.027972993
511000000 -0.98025352 0.034426492 -0.00039154966 -0.00073984597 0.0003223684 -0.00027773087 -0.98776901 0.027186785
512000000 -0.9809224 0.035626922 0.0012622088 -5.942299e-005 -0.00011127085 0.00046947954 -0.98888284 0.027908998
513000000 -0.98179132 0.035468426 0.0001993245 -0.00083884667 0.00085990515 -0.00030892089 -0.9890275 0.02784038
514000000 -0.98167205 0.035911605 -0.00032243019 0.00021400914 -8.3229439e-005 -0.00045899538 -0.98913413 0.027487613
515000000 -0.98221511 0.036358863 -9.9619567e-005 0.00013678058 0.00095233135 -0.00047880801 -0.98888016 0.028822398
516000000 -0.980367 0.03619945 -0.00024865961 -0.00072655163 -0.00033302919 -0.00033233545 -0.98931015 0.028476443
517000000 -0.98242658 0.036219854 -7.5704287e-005 0.00046998143 -3.3922868e-005 0.00052272109 -0.98812503 0.027724793
518000000 -0.98106056 0.036209401 -0.00037761944 -0.00049292977 -9.4624389e-005 -0.00034857547 -0.98870474 0.02834362
519000000 -0.98039514 0.036891263 0.0001755917 -0.00027905777 0.0009498116 0.00065137754 -0.98898035 0.029860303
520000000 -0.98058844 0.036255501 -0.00060114334 0.00011147976 0.00029133458 -0.00010917011 -0.98830062 0.028538985
521000000 -0.98070449 0.036069993 -0.00013581858 0.00013063576 0.00042611934 0.00044887821 -0.98716354 0.02909114
522000000 -0.98224235 0.035880659 9.6332617e-005 -0.00022351867 -0.00027903053 -0.00037864354 -0.98900193 0.028890299
523000000 -0.9815895 0.036470678 -4.7332309e-005 0.00049065676 0.0002804453 -0.00030874214 -0.98874688 0.028797975
524000000 -0.98035711 0.036628567 0.00042136444 -0.00036029107 3.4234631e-006 -0.00048337068 -0.9881134 0.028492285
525000000 -0.97978741 0.037363917 0.00011063432 -0.00029579489 2.6677119e-005 1.3618398e-005 -0.98907042 0.029699117
526000000 -0.98180741 0.037930589 -0.00019428328 -0.00021873448 -5.4815449e-005 0.00024585772 -0.98889816 0.029465597
527000000 -0.98197317 0.036698289 -0.00044746627 -0.00079673063 8.8585788e-005 -0.00024189024 -0.98891044 0.028752333
528000000 -0.98141044 0.037714772 0.00021082527 0.0002746348 -0.0002323216 -0.00015598358 -0.98687422 0.030881353
529000000 -0.9812327 0.038339868 -9.0704098e-006 2.1291238e-005 -3.6317764e-005 -0.00036739669 -0.9875412 0.029271943
530000000 -0.9803611 0.037506558 8.464916e-005 -0.0010467122 0.00038293784 -0.00051900803 -0.98875862 0.029290572
531000000 -0.98182476 0.03777371 0.00023716518 0.00015820457 -0.00078932755 -0.00088567741 -0.98891854 0.030127782
532000000 -0.98065329 0.038672756 0.00012477876 -0.00023717164 -4.8242309e-005 -7.9516605e-005 -0.98898315 0.030027073
533000000 -0.98190665 0.037614871 0.00065893348 -0.00043122887 0.00018735163 -0.00012898086 -0.98755074 0.029917534
534000000 -0.98129082 0.03781309 -0.00025037426 -0.00031644708 -0.00016607909 -6.570901e-006 -0.9888193 0.028588682
535000000 -0.98105854 0.037753578 8.1941304e-005 0.00020931818 -4.4745953e-005 0.0001184963 -0.98723745 0.030799169
536000000 -0.97988522 0.038267151 0.00067608099 -0.00038677582 -8.2651597e-005 -0.00033684494 -0.9881773 0.030583397
537000000 -0.97988909 0.037497394 0.00062240026 -0.00020800503 -2.7302227e-005 -8.8412007e-006 -0.98842567 0.030586928
538000000 -0.98053747 0.037600722 0.00074342196 0.00037739775 9.3827894e-006 -0.00072727306 -0.98842973 0.029773235
539000000 -0.98069084 0.037918378 -0.00061571022 -0.0012483633 -0.00027825634 -0.001028772 -0.98950702 0.030550798
540000000 -0.98084652 0.037279144 0.00023491467 0.00017271994 -0.00016412308 -0.00039704092 -0.98847449 0.0294345
541000000 -0.9798246 0.037787847 -0.00036274682 -0.0002400931 0.00054814015 -0.00083785225 -0.98846686 0.030687656
542000000 -0.98092169 0.037706856 -0.00037813283 -9.7016527e-006 -0.00058617361 -0.0013967473 -0.98692775 0.030057788
543000000 -0.98043537 0.038317632 6.4222673e-005 0.00020403335 -0.0001964047 -0.00072551414 -0.98859787 0.031526055
544000000 -0.98020983 0.037982572 -0.00043389987 0.00033464335 -0.00019918857 0.00046216309 -0.99015546 0.030548347
545000000 -0.98133272 0.036988083 -7.7833988e-007 -0.00075909984 -0.00014562665 -0.00076388451 -0.98833716 0.029789422
546000000 -0.98082167 0.037528288 -3.7201717e-006 -0.0005048138 -0.00023094904 0.00065731426 -0.98812395 0.030247865
547000000 -0.98157185 0.038134363 -8.2533152e-005 -0.0005225885 0.00040505122 -0.00011324854 -0.98865807 0.030036796
548000000 -0.97932142 0.038657662 0.00027885681 -0.00077772938 0.00051290821 -0.00061644422 -0.98885286 0.030401092
549000000 -0.98007154 0.03820245 -0.00032650193 -0.00043205117 -0.00060863234 0.00034223267 -0.9884153 0.030995868
550000000 -0.97919142 0.03949808 -0.00031681659 -0.00027478836 -0.00024090181 -0.00033418662 -0.98800308 0.030490972
551000000 -0.9799583 0.037980285 -0.00039682875 -0.00039943869 0.00047261585 -0.000727729 -0.9887687 0.031022234
552000000 -0.98086971 0.037992135 -0.0005041316 -0.00059239467 9.4847688e-005 -0.00049463433 -0.98707241 0.030255219
553000000 -0.98039097 0.037913542 -0.00013192446 -0.00021576206 0.00027692041 -0.00089110452 -0.98784089 0.030532625
554000000 -0.9804619 0.036887027 -0.0003547493 -0.00074525032 0.00025504737 3.1168391e-005 -0.98926544 0.030065535
555000000 -0.98000431 0.039169133 0.00029147413 -0.00043281639 -0.00040214849 -0.00019125668 -0.98791832 0.030355411
556000000 -0.98020732 0.036751729 -0.00018856184 -6.2234553e-006 0.00046376328 -0.00032019673 -0.98895913 0.031951007
557000000 -0.98096919 0.038118429 0.00014040363 -0.00033454338 -0.00063284882 -0.00049973902 -0.9870491 0.029643426
558000000 -0.9816047 0.036777899 0.0001535409 -0.00045835454 -0.00056509004 -0.00025632782 -0.98892921 0.03078053
559000000 -0.98009461 0.037656687 -4.3790809e-005 0.0005542392 0.00022380901 0.00035588106 -0.98920351 0.031283069
560000000 -0.97970271 0.037988115 0.0004851243 0.00013678639 -0.00014389672 -2.39618e-005 -0.98953843 0.02970081
561000000 -0.97988737 0.036748141 -0.0003247904 0.00016643775 0.0002309488 0.00032364271 -0.98788321 0.029235959
562000000 -0.97939545 0.037564337 -0.00048943481 -8.3414583e-005 -6.8574598e-005 -0.00022767198 -0.98990005 0.029399632
563000000 -0.97986484 0.038052697 0.000259566 -0.00027310004 0.00014127727 -0.00040080686 -0.98848391 0.031680081
564000000 -0.98049325 0.036935065 -0.00030002597 -0.00064925576 -0.00036176285 0.00019848847 -0.98916113 0.030863227
565000000 -0.97920239 0.036524497 -0.00014416527 0.00055836461 0.00024125783 -0.00086540286 -0.98775762 0.029856827
566000000 -0.98070425 0.03627111 -0.00030689777 -0.00020545446 0.00025996618 -0.00033569435 -0.98940939 0.030072667
567000000 -0.98005092 0.037561659 -0.00060968834 0.00034880693 0.00030747359 -0.0002130354 -0.98804945 0.030517623
568000000 -0.97913146 0.03796516 -0.00018676702 -0.00042804054 0.00020463827 -0.00080522517 -0.98850727 0.029860074
569000000 -0.97989565 0.038682897 -0.00016711798 -0.00040310185 -0.00057026988 -0.00046694273 -0.98887503 0.029365009
570000000 -0.98051286 0.037804961 0.00022352749 -0.00036035906 0.00013411492 -0.00017271098 -0.98807681 0.030320559
571000000 -0.98126161 0.037744492 -4.6615245e-005 -3.9185135e-005 0.00038294669 -4.984971e-005 -0.98940492 0.029310675
572000000 -0.97828573 0.038215671 0.00059485016 -0.00014197783 0.00023042627 9.6223812e-005 -0.98913187 0.029940311
573000000 -0.9802025 0.036744919 -0.00025045552 -0.0005296052 0.00043067636 -0.00056829606 -0.98906702 0.030673603
574000000 -0.97960538 0.038910478 0.0002639055 -0.00033602788 -0.00021781916 -0.0010103802 -0.98841286 0.030098053
575000000 -0.98003489 0.038478542 -0.00025730583 -0.00064398337 -0.00029391053 0.00057003897 -0.98887682 0.031384259
576000000 -0.9810679 0.038314551 0.0011392172 -0.00015496444 -0.00031085359 0.00018249813 -0.98946166 0.029323462
577000000 -0.98052454 0.037633233 0.00012863771 -0.00016555982 0.00010284262 5.8780235e-005 -0.98840809 0.03035553
578000000 -0.98017544 0.037946649 -4.7642166e-005 -0.00013962225 -0.00016232087 -5.9346444e-006 -0.98875123 0.029351898
579000000 -0.98027772 0.037557375 -0.00021416914 -0.0004060989 7.4954449e-005 0.00042077308 -0.98905689 0.03064055
580000000 -0.98081654 0.038482398 -0.00030378092 -0.00028927106 2.171979e-005 5.9586298e-005 -0.98810387 0.029698124
581000000 -0.97983152 0.037561409 -0.0005007828 0.00049299182 0.00034758434 -0.0007182968 -0.98902059 0.030761721
582000000 -0.97881901 0.037992932 0.0001497121 -0.00029157166 3.6907237e-005 -0.00082964997 -0.98816192 0.030127369
583000000 -0.98020804 0.03869573 0.00050392939 -0.0012982222 -0.00013721289 -0.00021378185 -0.98861045 0.030729372
584000000 -0.98010421 0.03772264 5.2503459e-005 -4.5635286e-005 -0.00026631117 0.000117244 -0.98869294 0.03108504
585000000 -0.98131716 0.037475955 -0.00059041218 0.00015518033 0.00015436679 -0.00022200365 -0.98783672 0.031729545
586000000 -0.98024189 0.037999984 5.6039888e-005 -3.8146594e-005 0.00030776125 0.00031015856 -0.98944432 0.030409021
587000000 -0.98007959 0.037360247 -0.00016303299 -9.1564856e-005 -6.686274e-005 -0.00029386202 -0.98733747 0.03070494
588000000 -0.97963262 0.036844973 0.00014368628 0.00016198844 0.00018107676 -0.0008211754 -0.9885056 0.03151736
589000000 -0.97944379 0.038632069 -0.00014592909 -0.00045784892 0.00027261031 1.7285727e-005 -0.98921746 0.030312683
590000000 -0.97989255 0.039293416 0.00019929904 -7.1245988e-005 0.00054555072 5.2662195e-005 -0.98768437 0.029641159
591000000 -0.97839004 0.039180126 -0.00020315321 0.00038498896 -0.00072031864 -0.00071302679 -0.98824048 0.032468729
592000000 -0.98041654 0.037833422 0.00095538743 -2.6210966e-005 0.00037820212 -0.00014191754 -0.99003428 0.029890541
593000000 -0.9797703 0.037831988 -0.00052504538 -0.00016587133 -0.00015348413 -0.00058737729 -0.9895491 0.031111844
594000000 -0.98011589 0.038442846 0.00043648251 -0.00032049313 0.00029523059 -0.00086326286 -0.98838103 0.031237286
595000000 -0.97965997 0.038629662 -0.00010329735 -0.00022301813 -0.0008190269 -0.00045225932 -0.98926401 0.030425606
596000000 -0.98071641 0.038313132 -0.00049617985 -0.00028482752 -0.0001222945 -0.00027727743 -0.98844981 0.032858342
597000000 -0.98072827 0.039804615 0.00031248337 -9.010682e-005 0.00064716971 -0.00035040834 -0.98771065 0.031183504
598000000 -0.97933257 0.039352003 0.00028563908 -0.00046409591 -0.00078411633 -0.0002766047 -0.98891306 0.032190245
599000000 -0.98075354 0.039818067 -1.8340659e-005 4.554453e-005 -0.0002600078 -0.00075571385 -0.98879474 0.031366378
600000000 -0.98134696 0.03950984 -0.0010282773 -0.00063898077 0.00028252343 -0.00091901259 -0.98819441 0.032100163
601000000 -0.98032099 0.04019456 -1.1238428e-005 0.00036098799 3.5910562e-005 0.00026229856 -0.988837 0.031896405
602000000 -0.97900766 0.039039634 0.00015388436 -0.00050295825 -9.9703051e-005 -0.00064500328 -0.99019086 0.030596981
603000000 -0.98133898 0.039623525 -5.4278931e-005 -0.00010041113 0.00031632808 0.00033811445 -0.98920274 0.031710308
604000000 -0.98054135 0.03970173 -0.0003856667 -0.00047054805 -0.00021582714 -0.0012415047 -0.98892069 0.032634314
605000000 -0.97999787 0.039448854 -0.00011297967 -0.00045679594 0.00026252784 0.00024413147 -0.98900795 0.031797379
606000000 -0.97954547 0.040325735 -0.00028672675 0.00020664551 0.00069777464 -0.00041712061 -0.98800933 0.032256402
607000000 -0.97929645 0.040701687 -0.00056849746 -0.00070118363 -0.00048630004 0.00021824104 -0.98807091 0.031129425
608000000 -0.98145151 0.041285776 3.6069621e-005 -0.00030983891 0.00024166559 0.00026729103 -0.98872542 0.030951422
609000000 -0.98063344 0.040185694 -0.00016056687 -2.064332e-005 0.00045174113 0.00080969435 -0.98993611 0.032214489
610000000 -0.97943789 0.040617205 -6.9416608e-005 -0.00011313224 0.00035724533 0.00049954234 -0.98732632 0.032127831
611000000 -0.97920066 0.041288145 -2.5256124e-005 0.00079387793 0.00051170005 0.00020314637 -0.98790359 0.03151454
612000000 -0.98019671 0.040814657 -0.00043358412 -0.00062436081 -0.00034472905 -0.00033125238 -0.98797971 0.032080486
613000000 -0.98121297 0.041458294 -0.00013425821 0.00091998576 0.00022960678 -0.00019123797 -0.98882496 0.032381602
614000000 -0.97874719 0.041085392 0.00060482183 0.00010292621 0.00013233302 -0.00034909154 -0.98883772 0.031972323
615000000 -0.98021209 0.040998191 9.3195158e-006 -0.00015830844 0.00012503688 -0.00024735715 -0.98738176 0.032030698
616000000 -0.98008466 0.041105248 -0.0006221669 -0.00053544278 -0.00067808846 -2.4213221e-005 -0.98789829 0.03272298
617000000 -0.98082995 0.042963602 -0.00048623318 -0.00077021238 -0.00032292085 -0.00069328153 -0.98771101 0.034750808
618000000 -0.97958863 0.042058196 -0.00054914894 0.00033405679 -0.00024994317 -0.0006977283 -0.9880752 0.032874465
619000000 -0.97947568 0.04209096 -0.00084535626 -0.00032877008 -0.00055510527 0.0002141279 -0.9876101 0.03312701
620000000 -0.98013628 0.042990912 3.474464e-005 -0.00035664026 -0.00045330025 0.00016706219 -0.98765832 0.03370421
621000000 -0.98125005 0.042046435 0.00013623039 -0.00075276813 -0.00046204971 7.72411e-005 -0.98806602 0.03311697
622000000 -0.97899854 0.042863786 0.00028406188 0.0001892546 -0.00072788756 5.5331031e-005 -0.98839432 0.034266312
623000000 -0.97837722 0.043289389 -0.00053237722 -0.00045104936 -0.00097665773 -0.00037610976 -0.98727232 0.03284362
624000000 -0.97907829 0.042044204 -0.00041053738 0.00038127048 4.7705813e-005 -0.00017433119 -0.98803806 0.033663377
625000000 -0.9799515 0.042297512 -0.00070514187 -0.00063181849 0.00036232438 -0.00044093584 -0.98824179 0.03185318
626000000 -0.98047262 0.043277979 -0.00047060862 -0.00038947107 5.4205517e-005 0.00039138316 -0.98786193 0.034832351
627000000 -0.9791137 0.043219928 -0.00038069393 -9.9952478e-005 -0.00011144755 -0.00031011793 -0.98858654 0.033095162
628000000 -0.97995466 0.043453917 -0.0006415777 -0.00061327609 0.00024300227 -2.0332398e-005 -0.98805493 0.034646034
629000000 -0.98013753 0.043152291 0.00032176252 -0.00064862124 -0.00046207462 -0.00055110949 -0.98818624 0.034143858
630000000 -0.97934771 0.043281868 -0.00043771064 -0.00073003973 -0.00030560512 -0.0005215992 -0.98891151 0.034567963
631000000 -0.97986943 0.043334421 -0.00038377094 -0.00023506802 -0.0001868328 -0.00012892774 -0.98844266 0.035101552
632000000 -0.98005807 0.043411694 -0.00041318242 -0.0005158073 1.081238e-005 0.00043499941 -0.98836017 0.033509627
633000000 -0.97908109 0.044654291 0.00018008011 -0.00025060502 -0.00020942101 -0.00064438878 -0.98857826 0.034064934
634000000 -0.98000038 0.045358811 0.00017779577 -0.00075872429 0.00021579936 -0.00083123578 -0.98739117 0.034231849
635000000 -0.979316 0.043579634 0.00028954213 0.00054757524 -6.3317151e-005 0.00024610735 -0.98808616 0.033108849
636000000 -0.98036307 0.045923732 -0.00046371223 0.00043108381 -0.00035899665 -0.00073531014 -0.98825526 0.033353474
637000000 -0.97955412 0.044152983 0.00081896927 0.00019064738 0.00022680647 -8.0251455e-005 -0.98810214 0.033434562
638000000 -0.97879177 0.043867234 -0.00036767375 -0.0004881568 -0.000430366 -2.1667867e-005 -0.98846233 0.034325402
639000000 -0.98111957 0.046337467 0.00039936157 0.00024576765 -0.0002042609 -1.6630425e-005 -0.98621213 0.033756297
640000000 -0.97870702 0.045541018 -0.00038145654 -0.00016781369 9.2062626e-005 0.00019649025 -0.98823941 0.033764519
641000000 -0.97919792 0.044598516 -0.00015013662 -0.00082903093 -0.00027849642 -0.00038779149 -0.98616958 0.033470921
642000000 -0.97874212 0.044475023 -0.00045999119 -0.001006774 0.00015210221 -0.00027890588 -0.98793691 0.033558037
643000000 -0.97923267 0.044175703 -0.00031490525 -7.1557573e-005 0.00041479123 -0.00049017079 -0.98780382 0.033545755
644000000 -0.98018807 0.046603449 0.00024183467 4.0885203e-005 0.00010477653 -0.00062070711 -0.98834872 0.03452887
645000000 -0.97913563 0.045678955 -2.0626443e-005 -0.00049768318 -0.00010840757 0.00015806904 -0.98638695 0.033520844
646000000 -0.97911805 0.045599751 -0.00038560241 -0.0010653024 0.0006894265 0.000120718 -0.98702192 0.034635983
647000000 -0.98008478 0.045327071 -0.00045147125 0.00055059051 0.00014743757 -0.00034279752 -0.98811167 0.034734607
648000000 -0.97860026 0.045695689 -0.00027145498 1.158994e-005 0.0002170744 8.2667539e-006 -0.98731327 0.035124257
649000000 -0.97914672 0.045847833 -0.0008108475 -8.5385538e-005 -0.00030000694 -0.00072556082 -0.9885968 0.034592014
650000000 -0.97971475 0.045693383 0.00064417277 0.00033185675 0.00045013757 -0.00012275118 -0.98839384 0.035115261
651000000 -0.98013347 0.045080662 -1.1842359e-005 -0.00033946769 -0.00021815368 0.00062088488 -0.98780537 0.034610711
652000000 -0.97878015 0.045212656 -0.00045400081 0.00012158495 0.00014594772 -0.00039941291 -0.98651838 0.035383269
653000000 -0.97824425 0.045777895 0.00021118439 7.6787961e-005 6.2566425e-005 0.00037644617 -0.98703116 0.03359187
654000000 -0.97915596 0.045571245 -0.00063196261 -0.0001680753 -3.6687856e-005 -0.00065706682 -0.98840129 0.034959074
655000000 -0.97851598 0.045511123 -0.0001473055 -0.00047254009 8.3708583e-005 -0.00088943657 -0.98780864 0.035012007
656000000 -0.97926748 0.045993164 -0.00048027304 -0.00049372151 -0.000364807 0.00018835886 -0.98826605 0.03453736
657000000 -0.98018891 0.046110321 0.00011072923 -0.00029147675 -0.00027945379 0.00013484644 -0.98771954 0.032873157
658000000 -0.97987098 0.046354584 -0.0011046515 -0.00060242624 -0.00013491054 -0.00069776882 -0.98736393 0.033662006
659000000 -0.97899288 0.045741137 -0.00073813973 0.00013629025 -0.00010947478 8.6347827e-005 -0.98763716 0.035422452
660000000 -0.97934103 0.047008604 0.00015291304 -0.00027904334 -4.8983242e-005 3.539303e-005 -0.98776984 0.035620905
661000000 -0.98018712 0.045577154 -0.00080337829 -0.00055048353 0.00018442026 -0.00017779159 -0.988002 0.035162579
662000000 -0.97846681 0.04732028 -0.0003092163 -0.00025220535 0.00020016966 -6.7922207e-005 -0.98796147 0.035484165
663000000 -0.97958452 0.046682145 -0.00040521024 -9.4216994e-005 -0.00070533023 -9.0947797e-005 -0.98778564 0.034089223
664000000 -0.9795447 0.045365062 -6.9980815e-005 -0.0004669342 -8.7473738e-005 -0.00028411124 -0.98815185 0.034692034
665000000 -0.97862399 0.045834951 0.000222209 -0.00030342623 -0.00066453055 0.00020306116 -0.98755944 0.034672685
666000000 -0.98017317 0.045054447 0.00015596187 5.0687468e-005 -8.7185879e-005 -0.00073528988 -0.98871917 0.034795649
667000000 -0.97945946 0.046340212 -0.0008576368 -6.2654472e-005 0.0005055684 -0.00050915417 -0.98808903 0.034382936
668000000 -0.97934687 0.046158288 -0.00075033482 0.00026358911 -0.00049643026 -0.00017818947 -0.98814851 0.033118948
