!Keysight Technologies,M9374A,MY55442783,A.12.55.05
!Date: Thursday, May 20, 2021 14:05:59
!Correction: S11(Full 2 Port(1,2)) 
!S21(Full 2 Port(1,2)) 
!S12(Full 2 Port(1,2)) 
!S22(Full 2 Port(1,2)) 
!S2P File: Measurements: S11, S21, S12, S22:
# Hz S  RI   R 50
500000000 -0.98192209 0.033919349 0.00012174607 -0.00028747445 -0.00016522109 -0.00032125672 -0.98844558 0.026131606
501000000 -0.98107696 0.035179388 -0.000374133 -0.00092469133 -7.9124111e-005 0.00016258549 -0.98859537 0.026514217
502000000 -0.98039913 0.034100708 -0.00043189991 -0.0011526075 0.00025618353 -1.8639959e-005 -0.98928487 0.025969019
503000000 -0.98101991 0.034420479 0.00036238215 0.00058565428 -0.00073229888 0.00019218848 -0.9887864 0.025553197
504000000 -0.98124236 0.035073921 0.00056420185 -0.00068226556 -0.00073186948 -0.00069410831 -0.9890694 0.027309678
505000000 -0.98061639 0.034235336 -0.00048869522 -0.00039280838 -0.00016780663 -0.00051588943 -0.98875529 0.027115529
506000000 -0.98086989 0.034154225 0.00037128653 -3.7114369e-006 0.00049238408 0.0006511939 -0.98848367 0.028073352
507000000 -0.9800629 0.034253731 0.00039814846 -0.00039177699 -0.00021370249 -0.00073258451 -0.98841 0.028815644
508000000 -0.98117775 0.035197683 -0.00045599035 -0.00021722056 -0.00085369666 -9.8441888e-005 -0.98821092 0.027353814
509000000 -0.98150277 0.036355153 -7.481451e-005 -8.5300286e-005 0.00033234153 -0.001109867 -0.98844016 0.027562303
510000000 -0.97936529 0.035548676 -5.4843131e-005 -0.00028172522 4.0629973e-005 -0.00047315005 -0.98819828 0.028622063
511000000 -0.98129892 0.035978451 0.00030886964 -0.00042595583 1.5459884e-005 -0.00068351981 -0.98749548 0.028852405
512000000 -0.9815613 0.037354831 3.4072356e-005 0.00068474951 1.2372947e-005 4.0924584e-005 -0.98936838 0.027815012
513000000 -0.98100084 0.03570649 0.00099363737 -0.00050796737 0.00037430791 -0.00073111645 -0.99024314 0.027949959
514000000 -0.98041314 0.036185466 -0.000119739 -0.00034099014 -0.00062658999 0.00035144947 -0.98993731 0.028796289
515000000 -0.98050535 0.037326489 0.00046041369 -0.00012812273 -0.00042370142 -0.00049029168 -0.98919666 0.029106718
516000000 -0.98112166 0.035755184 4.8331687e-005 -0.00034173488 -0.00061604945 -0.00033734745 -0.98879087 0.028385695
517000000 -0.98113132 0.036577802 0.0004999442 -0.00010668083 -0.00016560037 0.00058944983 -0.98745763 0.027780624
518000000 -0.98081005 0.036900919 -0.00049794081 -7.3583156e-005 -0.00072540564 -0.00019881252 -0.9888429 0.027707279
519000000 -0.98104376 0.035498843 -0.0006490557 0.00020692474 -0.00013175834 -0.00047004921 -0.98870915 0.028722694
520000000 -0.9806214 0.036278024 -0.00025030025 -0.00039591992 0.00035943976 -0.00034224777 -0.988675 0.028439857
521000000 -0.98069102 0.036065917 5.368502e-005 -0.00018134409 1.0059972e-005 -0.00056977628 -0.98844212 0.029679276
522000000 -0.98019677 0.036829907 1.1354102e-005 0.00015061835 -0.00041726511 -0.00069988775 -0.98967505 0.029862626
523000000 -0.98031163 0.036620062 -9.8188706e-005 -0.0001484583 -0.00052942865 -4.6348108e-005 -0.98916149 0.029789889
524000000 -0.98037618 0.036311749 -4.099436e-005 0.00062917662 0.00057192252 -0.00052439433 -0.98828775 0.029146669
525000000 -0.97923934 0.037690483 0.00016933943 -0.00062279095 0.00022849835 -0.00028406165 -0.98823309 0.029209128
526000000 -0.98078871 0.037945695 0.00021808034 -0.00078596722 -8.723075e-005 -0.00065415225 -0.98866731 0.03025342
527000000 -0.98079139 0.038011666 0.00063416362 -0.00060654792 2.0807443e-005 9.9922821e-005 -0.98900765 0.030132269
528000000 -0.97989035 0.038414039 3.5775101e-005 -0.00095191697 -0.00050500757 -0.00056772883 -0.9882735 0.029437145
529000000 -0.98184091 0.038224299 -0.00022048883 -0.00069301244 -0.00020888059 0.00052746665 -0.98843729 0.030110551
530000000 -0.98068231 0.038917065 -0.00067507208 -0.00054878119 -0.00025461911 -0.00027571485 -0.98929763 0.029276874
531000000 -0.98077416 0.037341155 -0.00026012847 -0.00071182131 0.00095719408 -0.00031206454 -0.988042 0.028570037
532000000 -0.98029923 0.037928734 -0.00012586208 0.00037408195 -0.00045981116 -0.00054596906 -0.98837245 0.031003017
533000000 -0.98039675 0.037223071 0.00029630028 1.4303339e-005 -0.0002066158 -0.00054732925 -0.98834288 0.030533075
534000000 -0.98109317 0.037288789 -0.00010987093 0.00015887291 0.00050073623 -0.00013121804 -0.98802102 0.02956189
535000000 -0.98059541 0.037709031 1.8409262e-005 0.0002502898 -0.00075830641 -0.00021234542 -0.98878729 0.030162761
536000000 -0.98063803 0.037433289 -0.00020534202 -0.00040722961 0.00013027494 -0.00018180819 -0.9874962 0.029478634
537000000 -0.98167092 0.037851892 -0.00029567652 -0.00013598766 -0.00049143465 7.6147982e-005 -0.98798627 0.029379569
538000000 -0.98083335 0.038384002 -0.00017000985 -6.6806613e-005 -0.00046412912 8.2896753e-005 -0.98770356 0.030089449
539000000 -0.98081833 0.037189137 0.0005373293 0.00046015502 0.00024698745 0.00046470415 -0.98817652 0.031044377
540000000 -0.98152786 0.037596524 -0.00058485632 -0.00048523932 -0.0002455074 -0.00042110434 -0.9882043 0.030084563
541000000 -0.98059374 0.037685405 -0.00076401432 -0.0002423126 -0.00018249957 0.0002725159 -0.98855239 0.031005302
542000000 -0.98026973 0.039384745 0.00049001095 -0.00060221727 -0.0006511712 -0.00065421825 -0.9870683 0.029779393
543000000 -0.98026788 0.037971955 0.00015671112 -0.00016514937 -0.00013837211 -0.00042684856 -0.98892689 0.030713707
544000000 -0.98132318 0.038056161 0.00040357761 -0.00045530268 -0.00040337158 0.00014437108 -0.98776865 0.030506441
545000000 -0.98076969 0.038463742 -0.00058660464 -0.00036441922 0.00063194713 -0.00043981351 -0.98758262 0.031154387
546000000 -0.98071069 0.037935104 0.00042420416 -0.00069711462 -0.00040036486 0.000533321 -0.98889494 0.030738136
547000000 -0.98090786 0.038274929 -0.00060447631 -0.0005692041 9.7988515e-005 -0.00069044187 -0.98934126 0.030604422
548000000 -0.98018706 0.03819862 -0.00017952445 -0.00013906893 0.00030318799 0.00022303766 -0.98807377 0.029958164
549000000 -0.97914499 0.037882064 -0.00059519062 -0.0010424424 -0.00036873872 -0.00051950093 -0.98972631 0.031161601
550000000 -0.97929788 0.037869014 4.543527e-005 -0.00033280125 -0.00028430193 -0.00032443914 -0.98842967 0.030930419
551000000 -0.97951555 0.037908889 0.00076566247 -0.00096207432 -0.00072650856 -0.00028691479 -0.98825622 0.03051121
552000000 -0.98044449 0.038061876 -0.00034460443 -6.154617e-006 -0.00047739103 0.00027259879 -0.98829144 0.030464556
553000000 -0.98177952 0.037591662 -0.00039373868 -0.00022295753 0.00031530517 -0.0001808391 -0.9876318 0.030421687
554000000 -0.98110861 0.037208665 -0.00043557899 -0.00058696803 0.0001494702 -0.00091644091 -0.98759055 0.030147111
555000000 -0.97870731 0.038304783 -6.610719e-005 -0.00038601735 -6.5266206e-005 -0.0003616231 -0.98860908 0.030162802
556000000 -0.97982544 0.039106216 0.00044217025 -0.00060105766 9.3180366e-005 -0.0003054 -0.98881817 0.030104132
557000000 -0.98061222 0.036958445 -0.00010322525 -0.00041267072 -3.6357931e-005 0.00033611688 -0.98832732 0.031163128
558000000 -0.9806267 0.038810607 -0.00038302329 0.00052487198 -0.00028438415 -1.2962177e-005 -0.98818624 0.03079382
559000000 -0.97936362 0.038706284 4.7442954e-005 -0.00013775955 0.00056126801 0.00011540492 -0.98964185 0.030790579
560000000 -0.98068571 0.038541276 -0.00055703742 -0.00022046808 0.00083807192 -0.00064697867 -0.98819262 0.028785937
561000000 -0.98005331 0.037792176 0.00022473112 0.00013824126 -0.00034496112 -0.0003646141 -0.98742855 0.030546887
562000000 -0.98154503 0.038356349 0.00055124704 -0.0005334845 -0.00020613737 0.00013800402 -0.99014831 0.030752236
563000000 -0.98033094 0.037726004 0.00033491736 7.5819364e-005 0.00051265251 -6.1796469e-005 -0.98878682 0.031679023
564000000 -0.98084277 0.037523273 -0.0004935594 4.7970792e-005 -2.2828945e-005 -3.7859107e-005 -0.98839623 0.029775215
565000000 -0.98051417 0.038099375 2.6813621e-005 -0.00049874029 0.00066071586 0.00017959124 -0.98875982 0.03020779
566000000 -0.97939938 0.036790438 0.00035810043 -1.0094418e-005 -0.00018703687 -8.5403604e-005 -0.98807979 0.029578643
567000000 -0.97958434 0.037142221 -5.3556436e-005 9.694208e-005 0.00031104108 -5.0733968e-005 -0.98872334 0.029937012
568000000 -0.98013306 0.036712043 -0.00048696046 -0.00014801809 5.9160633e-005 -0.00074841466 -0.98812419 0.029987797
569000000 -0.97924995 0.036705412 -0.00014653495 -0.00030237154 -5.4769167e-005 -0.0002227794 -0.98861629 0.030468637
570000000 -0.97994632 0.037546396 -4.6018402e-005 -0.00044951713 7.9271507e-005 -0.00057625474 -0.98779076 0.02963585
571000000 -0.97960573 0.036656283 -0.00019649667 -0.0010708463 -0.00051553769 -0.001142645 -0.98843729 0.030428201
572000000 -0.97869366 0.037592199 -0.00018455384 0.00024211439 0.00028863933 -4.324472e-005 -0.98880744 0.030224644
573000000 -0.98030359 0.03667463 8.3419356e-005 -4.8832524e-005 8.6410066e-005 0.00018292414 -0.98880583 0.031153247
574000000 -0.97881591 0.037314441 -0.00022713901 0.00014158872 -0.00018448466 -8.7830858e-006 -0.98948652 0.032337036
575000000 -0.98032665 0.037726764 -0.00015889353 -0.00016877142 0.00018890009 -0.00034974411 -0.98925036 0.030118968
576000000 -0.98006779 0.038616534 -0.00040473015 -0.00057930092 -6.2191371e-005 -0.00067299779 -0.98830849 0.031214908
577000000 -0.98081368 0.037630919 -0.00033313705 -0.00020711041 0.00019475941 -0.0011705152 -0.98916435 0.030336419
578000000 -0.9801116 0.037134551 0.00011270304 -0.00024634166 -0.00023681208 7.6270488e-005 -0.98869914 0.029050594
579000000 -0.97958738 0.038243238 0.00068060652 0.00034702689 -2.2775401e-005 0.00022262211 -0.9887594 0.030679261
580000000 -0.98037934 0.038100399 -0.00018001796 -7.1095361e-005 0.00020381415 -0.0006575759 -0.98805922 0.031768341
581000000 -0.97951102 0.03794289 -0.00034396062 0.00026939635 -4.5883149e-005 -0.00042553325 -0.98888546 0.030109432
582000000 -0.97992462 0.037219059 -0.00074210489 -0.00061455753 -0.0011404371 0.00093919883 -0.98826504 0.032179523
583000000 -0.97970152 0.038621228 -9.2955015e-005 -1.2317051e-005 -0.00016689894 0.00025773855 -0.98812598 0.029845921
584000000 -0.98039103 0.037924439 0.00080522831 -0.00065828557 -0.00083193835 -7.4197182e-005 -0.9881047 0.032508459
585000000 -0.9816103 0.038136549 0.00036508866 0.00081956497 0.00016569575 -1.445941e-005 -0.98836875 0.030172493
586000000 -0.97941494 0.03796402 0.00056725234 -0.000203858 6.2939172e-005 -0.00050591456 -0.98869169 0.029964605
587000000 -0.98007196 0.038989596 -0.00057899504 0.00014768279 -0.00094709598 -7.3890085e-005 -0.98777914 0.030337207
588000000 -0.9799999 0.037389752 -4.0638304e-005 -8.7602766e-006 5.747913e-005 0.00019101219 -0.98828602 0.030277444
589000000 -0.97835737 0.038240835 -0.00045552701 -0.00016974937 -0.00016958953 7.7551427e-005 -0.98850352 0.030050993
590000000 -0.97910136 0.037989274 0.00033087144 -0.00028282142 -0.00031623981 -0.00092695694 -0.98761839 0.030986771
591000000 -0.97890556 0.038409527 -0.00014539718 0.0004627466 -0.00039367712 -0.00072038558 -0.98895109 0.030778274
592000000 -0.97955024 0.037557624 0.00040302184 1.2485008e-005 -0.00073059782 -0.00035807889 -0.98853105 0.030923685
593000000 -0.97941154 0.038838364 -0.00056842103 -0.00030504257 -0.00025149615 -0.00088649336 -0.98788321 0.029778341
594000000 -0.98022646 0.039210305 -0.00021663139 -0.00041894891 -0.00064914674 -0.00037340401 -0.98817587 0.031565353
595000000 -0.98122078 0.038388122 0.00018294404 -0.00027301125 -1.4831861e-005 0.00017755308 -0.98829705 0.031617798
596000000 -0.98071045 0.038868509 0.00038225987 -0.00028521664 -0.00067880208 -0.00023858412 -0.98862505 0.031376842
597000000 -0.97973698 0.039687872 -1.0602624e-006 0.00066449621 -0.00047824282 -0.00036236536 -0.98973906 0.031552091
598000000 -0.97924817 0.039129082 -0.00030197238 -0.00064727227 -0.00015552361 -0.00010727074 -0.98857617 0.031826034
599000000 -0.98008794 0.039935842 0.00032574058 -0.00031513805 0.00020003703 -0.00043586115 -0.98772317 0.031080903
600000000 -0.98061103 0.039490916 -0.00015339704 -0.00022256207 0.00017865446 -0.00044616102 -0.98795927 0.032646891
601000000 -0.97934651 0.040059213 0.00047754729 0.0001583376 -0.00044854439 -0.00013361567 -0.98888218 0.031707518
602000000 -0.97977489 0.039608572 0.00010942594 -0.00070422341 5.6717457e-005 -8.2858365e-005 -0.98756087 0.031642564
603000000 -0.97995859 0.039756402 0.00023786223 0.00018188322 0.00059508311 0.00042834837 -0.98855889 0.032575119
604000000 -0.97907317 0.040492825 -9.8450182e-005 0.00016537883 -0.00090623222 0.00052037451 -0.98759127 0.031505
605000000 -0.98029155 0.04031498 0.00051244168 -0.00010299381 -0.00056397746 -0.00025895544 -0.9898777 0.0323327
606000000 -0.97986382 0.04043404 6.781608e-005 6.0491406e-005 -8.394062e-005 -0.00048307399 -0.98912376 0.032076143
607000000 -0.98011094 0.040276662 -0.00049820653 -0.00041564796 -0.00021482119 -0.00091120979 -0.98863488 0.032328311
608000000 -0.98100674 0.041003153 9.9929595e-005 -0.00079074939 -0.00095112878 0.00081728934 -0.988837 0.032117538
609000000 -0.97934288 0.039699968 8.3980245e-005 0.0004201004 -0.0008116946 -0.00039646163 -0.98818004 0.032469265
610000000 -0.98104733 0.039941315 -0.00047346711 -0.0014283004 -0.0001477366 0.00021174199 -0.9877317 0.032704607
611000000 -0.97854906 0.040509541 -0.00037648296 0.00048551903 0.00039721368 -0.00040590783 -0.98650753 0.031247938
612000000 -0.97970051 0.041220952 0.00048059507 0.00020081936 0.0006645493 -2.2874965e-006 -0.98868304 0.032294728
613000000 -0.97980839 0.040608615 -0.00063386752 -0.00048675455 -6.0433562e-005 -0.0003565482 -0.98765641 0.032309748
614000000 -0.97872299 0.041399047 -0.00017693129 -0.0012334178 0.00025528236 -3.7111324e-005 -0.98997545 0.031943154
615000000 -0.97954714 0.040701494 0.00019283874 -0.00036575506 0.00033271505 0.0010297884 -0.98910069 0.032334499
616000000 -0.97967404 0.041735329 7.9384452e-005 -0.00011233855 -0.00024613674 -4.3041724e-005 -0.98733741 0.032341756
617000000 -0.97938162 0.042474084 -0.00052011956 -0.00014703354 -0.00053263421 6.621793e-005 -0.98869807 0.033886895
618000000 -0.98054314 0.041751679 -0.0014815311 -0.00091888959 0.00046869926 -0.00038351613 -0.98894686 0.031563357
619000000 -0.98052722 0.042242855 0.00018513991 -0.00044872766 -0.00028665178 -0.00051560818 -0.98777509 0.033633895
620000000 -0.97994226 0.042123817 0.00012954614 -3.5791923e-006 0.00054907752 -0.00072213571 -0.98841077 0.033047907
621000000 -0.97916663 0.043244582 0.00014497615 0.00026845656 -4.1585157e-005 -0.00018740098 -0.98775715 0.033596218
622000000 -0.97915626 0.042579159 0.00040397016 1.778259e-005 -0.00012483131 -0.00041199595 -0.98897111 0.033980858
623000000 -0.97964084 0.043145005 -2.378578e-005 0.00015316707 0.00032152754 0.0001703203 -0.98768699 0.033036917
624000000 -0.9796443 0.041833505 -0.00069573935 0.00059223536 0.00047022625 -0.00055771967 -0.9883309 0.033794452
625000000 -0.98002297 0.044106957 -0.00071292196 -3.2046577e-005 -0.00014079429 0.0002745672 -0.98867071 0.033297949
626000000 -0.97997546 0.043873761 -1.3941871e-005 -0.00036297561 0.00033852394 -0.00051266263 -0.98819917 0.034064207
627000000 -0.9804222 0.042578701 -9.884654e-005 -0.00012069529 -0.00092576159 -0.00096091267 -0.98726261 0.033780754
628000000 -0.97847873 0.04413734 -0.00010925884 8.4259169e-005 -0.00042400532 -0.00049487769 -0.98783356 0.034591809
629000000 -0.98026055 0.044939868 -3.8704598e-005 0.00014883945 -0.00016983745 -0.00016096522 -0.98853016 0.035199843
630000000 -0.97916073 0.045107521 -0.00035445977 2.3805975e-005 -0.00036719596 -0.00040571543 -0.9889195 0.034564883
631000000 -0.97868162 0.044197608 -0.00020678224 -0.00055889843 -0.00036113005 -0.00058925373 -0.98823857 0.033960529
632000000 -0.9798376 0.043692887 -0.00015558835 0.00043980169 -0.00025964298 -0.0007504453 -0.98691195 0.034322642
633000000 -0.97886789 0.043573786 0.00023609937 -0.00049583195 -5.2945352e-006 -0.00027299509 -0.98806679 0.033678405
634000000 -0.98037267 0.045094606 0.000235263 -0.00059644843 -0.00016677387 1.6575095e-005 -0.98784828 0.033155974
635000000 -0.97961831 0.042347532 -0.0007800273 -3.5773571e-006 0.00055896852 0.00016066887 -0.9869737 0.034496643
636000000 -0.97881341 0.043894265 -0.00064049527 0.00021444849 -0.00034277988 0.00016725053 -0.988383 0.033947568
637000000 -0.98000276 0.045430023 -0.00021985681 -7.2099698e-005 -0.0002879088 -0.00038038925 -0.98680586 0.033784896
638000000 -0.97859168 0.044300202 -0.00060805021 0.0001476929 -0.0003643861 -0.00024007485 -0.98862612 0.033531696
639000000 -0.97945523 0.04570546 -0.00013211125 -0.00052538567 -0.00011757739 -0.00028780443 -0.98762959 0.034545451
640000000 -0.97909552 0.044958483 -0.00030536042 -2.750706e-005 8.6773034e-006 0.00022965565 -0.98792571 0.034107305
641000000 -0.97936147 0.043315716 0.00027477747 0.0002370672 -0.00025503381 -0.00014849393 -0.98808289 0.035185039
642000000 -0.9791075 0.04565233 0.00011240497 -0.00060421991 0.00042868039 -0.00067434256 -0.98825681 0.034550648
643000000 -0.97943509 0.046903275 0.00046247058 -0.00025370144 -0.00028193925 0.00077209971 -0.98751283 0.033850286
644000000 -0.97976768 0.044924282 0.0001682234 0.00038398505 -0.00034225467 -0.00035902986 -0.98881263 0.034519643
645000000 -0.97907561 0.04477651 -0.0003592188 0.00068015163 -0.00025863707 5.1487441e-005 -0.98852783 0.034630984
646000000 -0.97930557 0.046063311 -0.00035291485 -0.0001334626 0.00050754973 1.7056564e-005 -0.98710036 0.035606943
647000000 -0.98008919 0.04485967 -0.00020710092 0.00015613528 0.00060503429 -0.0002446553 -0.98879504 0.034250427
648000000 -0.97883189 0.045974452 -8.3783241e-005 0.00041604962 0.00022807946 -0.00092238252 -0.98832083 0.034702457
649000000 -0.97860003 0.045959353 0.00015304072 -3.999472e-005 -0.00042290945 -0.00017759371 -0.98753035 0.035179615
650000000 -0.97839504 0.046037961 0.0003378281 -0.00013017119 0.00029400908 -0.00051095651 -0.98752034 0.035034087
651000000 -0.97837639 0.045952022 -0.00025615812 -0.00039836232 -0.00060634973 -8.8417866e-005 -0.98767871 0.035718948
652000000 -0.97928798 0.046104163 -0.0002561289 -0.00031124946 6.1113889e-005 0.00041884123 -0.98731929 0.033796243
653000000 -0.97950166 0.047054525 -0.00041779209 -0.0010738405 0.0001120277 -7.0110756e-005 -0.98704219 0.034141321
654000000 -0.97859889 0.045603368 -0.00059379573 -0.00025053954 0.00016707568 0.00038303755 -0.98839182 0.034290202
655000000 -0.97832644 0.045345291 0.00035312408 -0.00063752395 -0.00045013527 0.00022045309 -0.98735178 0.034648541
656000000 -0.97938704 0.046556581 -0.000161829 0.00036293906 -0.00015933835 -0.00020250391 -0.98852783 0.034434348
657000000 -0.9786889 0.04548702 0.00013281286 -0.0003941062 -0.00011180738 0.00018935553 -0.98812968 0.034914378
658000000 -0.97884881 0.04584197 -0.00052372098 0.00030776448 -0.00015672397 7.831808e-005 -0.98873001 0.03468284
659000000 -0.97799045 0.046097986 0.00054742 0.00032041449 -0.00037714012 -0.00018009527 -0.98713779 0.034679279
660000000 -0.97814262 0.04674159 -0.00054931728 0.00054067036 -0.00013372535 0.00032363363 -0.98750734 0.034846552
661000000 -0.97967535 0.04643248 8.4441635e-005 -0.00029354382 -0.00020631625 8.210387e-005 -0.98769373 0.034904826
662000000 -0.97957551 0.044540342 -0.00014541169 -0.0001230153 -0.0007097731 -0.00057873683 -0.9887054 0.035416149
663000000 -0.97898215 0.04589225 -0.00052704301 -0.00098605931 0.00014223062 -0.00053026184 -0.98850846 0.034469903
664000000 -0.9784047 0.046115864 6.8754198e-005 0.000619522 -5.5011838e-006 -0.00056541199 -0.98703671 0.035382107
665000000 -0.97847492 0.046598945 0.00047298888 -0.00056997297 0.0003836315 -0.00042389703 -0.98923224 0.034673207
666000000 -0.97926122 0.046551168 0.00013907738 -0.00067425042 2.3789045e-005 -0.00060384534 -0.98870414 0.033593476
667000000 -0.97746164 0.0463163 -7.6205484e-005 -0.00066747604 0.00043438523 0.00037475783 -0.98780107 0.035490893
668000000 -0.97822112 0.045395471 0.00019718047 -0.001064048 -0.00075671467 -6.6932416e-006 -0.98739141 0.033311781
