!Keysight Technologies,M9374A,MY55442783,A.12.55.05
!Date: Thursday, May 20, 2021 14:00:38
!Correction: S11(Full 2 Port(1,2)) 
!S21(Full 2 Port(1,2)) 
!S12(Full 2 Port(1,2)) 
!S22(Full 2 Port(1,2)) 
!S2P File: Measurements: S11, S21, S12, S22:
# Hz S  RI   R 50
500000000 -0.97961181 0.034539476 -0.00034206259 -0.00030312943 0.00088329223 -0.0011573161 -0.98878491 0.026588444
501000000 -0.98061454 0.034750555 0.00023285915 0.0001620676 0.00030277163 -5.7001045e-005 -0.98920989 0.026809867
502000000 -0.97956067 0.034710616 -0.00020712182 -0.00090211228 0.00059351313 0.00025164866 -0.98907518 0.026522821
503000000 -0.97973233 0.035102919 0.00040706748 -0.00054083177 8.9332694e-005 -0.00054057955 -0.98750883 0.026339553
504000000 -0.98012173 0.035358436 -0.00049437449 -0.00050275703 0.0001521878 -0.00031478368 -0.98963135 0.026679073
505000000 -0.98049867 0.034481905 0.00050952914 -9.4358938e-006 -2.0569831e-005 0.00016749822 -0.98918957 0.026919171
506000000 -0.98014998 0.035531998 -0.00050534535 -1.7569369e-006 -0.00038327463 -0.00023329761 -0.98806959 0.025826454
507000000 -0.98114288 0.036638483 0.00051291607 -0.00036184001 -0.00018035593 -0.00047814319 -0.988437 0.027900597
508000000 -0.98128337 0.035406895 -0.00020918161 -0.00069889845 0.0003261255 -0.00034966043 -0.9885636 0.028258989
509000000 -0.97992343 0.035665795 -0.00091464369 0.00051772787 -0.00010624251 -0.00063286227 -0.98710448 0.026709216
510000000 -0.9806872 0.035426058 -0.00076317048 8.4347288e-005 0.00017980099 -0.00038515401 -0.98884451 0.026773158
511000000 -0.98040688 0.03717285 5.3912365e-005 -0.00047930394 3.8442435e-005 -8.9002715e-005 -0.9877643 0.028402962
512000000 -0.97996426 0.035478674 0.00021794543 -0.00074805634 0.0002573508 -0.00032233185 -0.98816228 0.028646167
513000000 -0.98063368 0.036324151 0.00027879726 0.00024899218 -0.00063329516 -0.00037098656 -0.98825556 0.027149167
514000000 -0.97935873 0.037552401 -0.00094095909 0.00014314135 -0.00029489724 -0.00061875273 -0.98923242 0.027787872
515000000 -0.97945124 0.03589043 -0.000267842 -0.00086956017 0.00036327724 -0.0005791923 -0.98972952 0.028419778
516000000 -0.98043478 0.035929009 -0.0006009778 0.00025590396 8.0514634e-005 -0.000675291 -0.98875499 0.027579885
517000000 -0.98022985 0.037294485 -0.00030342775 0.00018278828 -0.00022331263 -0.00048487555 -0.98758 0.029210072
518000000 -0.98004895 0.037040308 -0.00027182151 -0.00086790288 0.00015989362 -0.00053594704 -0.98913813 0.028318863
519000000 -0.97951037 0.036936905 -0.00089769321 8.8116991e-005 0.00026214891 -1.0378266e-005 -0.9881022 0.028302034
520000000 -0.97994614 0.036827862 0.00041786823 -0.00045824074 -0.00040106298 -0.00016630688 -0.98792154 0.029918129
521000000 -0.97992319 0.037005115 0.00018620519 -0.00046945992 4.1888878e-005 3.6365196e-005 -0.98851782 0.028443377
522000000 -0.98181385 0.036660451 0.00088075054 -0.00022924294 1.5754336e-005 -9.0714151e-005 -0.98837596 0.029478271
523000000 -0.98134249 0.036747638 0.00047402113 -0.00010789592 0.00063234381 -0.00038352699 -0.98874485 0.029675312
524000000 -0.98000252 0.036887828 -4.2165699e-005 9.3196824e-005 0.00036547176 0.00033465037 -0.98926938 0.02985869
525000000 -0.97808564 0.036735866 -0.00095203967 -0.0004998658 -0.0001843309 -9.4340612e-005 -0.98919618 0.028862463
526000000 -0.97952253 0.038020104 0.00058592099 -0.00050242391 -0.00010748811 0.00085095735 -0.98869812 0.029541595
527000000 -0.98086149 0.03661659 0.00056688196 0.00055766426 0.00022356912 0.00027904144 -0.98792058 0.029155737
528000000 -0.98022825 0.038769715 8.1752121e-005 -0.00093329611 -0.00014816533 0.00036026511 -0.98870736 0.029261768
529000000 -0.97994578 0.03746229 0.0004585452 0.00087333843 0.00050066825 0.00020771808 -0.98775327 0.030146344
530000000 -0.98009229 0.037324183 -3.5467914e-005 -0.00031307607 -0.00064356969 0.00022264855 -0.98977971 0.028154302
531000000 -0.97936612 0.037330557 0.00015035379 -0.00039484457 -0.00050393224 -0.00039953648 -0.98839968 0.029343763
532000000 -0.97864139 0.03722566 -0.00031051115 -0.00031068578 0.00041688691 -6.1535051e-005 -0.98772627 0.029345881
533000000 -0.98074824 0.037820984 -0.00051511469 -2.7929302e-005 0.00025120142 9.4323528e-005 -0.98765969 0.029845387
534000000 -0.97988367 0.03717472 0.00032625339 -0.00019409094 -0.00020495734 -0.0011871245 -0.98835427 0.030229609
535000000 -0.97923398 0.037725307 -0.00030145727 -0.00014667405 0.00017745764 -0.00080303242 -0.98685545 0.029984165
536000000 -0.98008108 0.038158853 -0.0006984151 0.00050434703 3.2610387e-005 -0.00045186747 -0.98815531 0.030011935
537000000 -0.97945374 0.039165258 0.00026601707 -2.9151921e-005 -0.00038227928 0.00040110265 -0.98768556 0.030017713
538000000 -0.98010945 0.039675176 0.00012552511 -0.00062962185 -7.6240765e-005 0.00026939515 -0.98843533 0.029418899
539000000 -0.97926885 0.038614489 0.00039316851 0.00023058527 -0.00018026575 -0.00052762078 -0.98842508 0.031589236
540000000 -0.97944015 0.037139446 9.0130132e-005 -0.00022030846 -0.00061512273 -0.00057823263 -0.98799956 0.030277124
541000000 -0.97822785 0.039312411 0.00012464894 0.00011220088 0.00010538384 -0.00047977283 -0.98739564 0.030121045
542000000 -0.97832191 0.038543113 1.9744321e-005 -0.00042158004 0.00011909153 0.00018626337 -0.98787916 0.030320138
543000000 -0.9791702 0.038324684 0.0004283879 -0.00057518255 0.00029956075 0.00060594064 -0.98863173 0.031105936
544000000 -0.97957814 0.037282936 -0.00041083209 0.00045372147 -0.00017597375 -0.00016877822 -0.98879099 0.030367808
545000000 -0.98083341 0.037635077 -5.7254285e-005 -0.00043897098 -0.00039147781 -0.00033169531 -0.98868912 0.030227195
546000000 -0.9793902 0.037877709 -0.00051088008 0.00017172836 5.3134776e-005 -1.9002338e-005 -0.98870564 0.030159872
547000000 -0.98034513 0.040022321 0.00087183865 -0.00042763585 -0.00028485703 -0.00063905719 -0.98909867 0.029978784
548000000 -0.9788568 0.037731409 -0.00033541289 -0.00073344319 -0.00026990357 -0.00042245429 -0.98837656 0.031528477
549000000 -0.97949421 0.039359421 -0.00026859334 -0.00031644598 0.00017472477 0.00024146431 -0.98803836 0.031960234
550000000 -0.97771806 0.038177185 -0.00039070667 -0.00019033001 1.7773827e-005 -0.00048475506 -0.98801887 0.030578332
551000000 -0.9804635 0.038092513 0.00013817892 -0.00084015919 0.0006300502 0.00032749356 -0.98808432 0.030924024
552000000 -0.97946543 0.038102224 -0.00060077466 0.00018624058 0.00056737941 -0.00014656305 -0.9881075 0.031666063
553000000 -0.97972673 0.038654938 -0.00039861503 -0.00010892106 6.8300455e-005 -0.00016054482 -0.98964131 0.031045059
554000000 -0.97957712 0.039115652 -0.00047418039 5.3353473e-005 -0.00059139432 -0.00075561879 -0.98816812 0.03026503
555000000 -0.97897524 0.037282631 -2.7158232e-005 -0.00019608311 7.021139e-005 -0.00024566261 -0.98842126 0.030475942
556000000 -0.97852993 0.038215768 0.00017585405 -0.00036388283 0.00070659962 -0.00056987011 -0.98898089 0.031131258
557000000 -0.97966868 0.039216798 -7.479592e-005 0.00025529551 2.3462193e-005 -6.9376387e-005 -0.98816824 0.030807616
558000000 -0.97966486 0.038196769 -0.00033631502 -0.00038628813 -0.00071671361 -4.6493376e-005 -0.98897648 0.029097408
559000000 -0.97955358 0.038004402 -7.2495146e-005 -0.00098001468 5.0068924e-005 0.00023953544 -0.98885071 0.031121023
560000000 -0.97951341 0.038073704 -3.7356549e-005 -0.00050539209 -0.00021551062 -0.00051679683 -0.98861957 0.031179391
561000000 -0.97914803 0.037904195 0.00011490251 -0.00045417165 7.865877e-005 -0.00072700402 -0.98849362 0.029219411
562000000 -0.97794032 0.038821775 0.00069931085 -0.00071818545 -0.0004909244 -0.0006540505 -0.98926896 0.03002909
563000000 -0.97977757 0.038817585 4.395092e-005 -0.00011083028 0.0001026107 8.8870373e-005 -0.98817199 0.030884074
564000000 -0.97924256 0.037044112 7.707742e-005 0.00021550682 8.0461628e-005 -0.00055876991 -0.98830456 0.029594993
565000000 -0.97850966 0.038185079 0.00015431263 -0.00042219731 -8.6393244e-005 -0.00027453306 -0.98902315 0.030630015
566000000 -0.98012602 0.037897132 0.00030282739 -0.00060975278 -0.00026187464 -6.6125562e-005 -0.98894835 0.031077977
567000000 -0.97840565 0.038671017 6.2657877e-005 -0.00097406987 -0.00025090884 -4.7787333e-005 -0.98843241 0.030537089
568000000 -0.97890389 0.038683649 0.00055437081 -0.0002540047 -0.00033497516 -0.00042296672 -0.9883619 0.030572703
569000000 -0.97918195 0.038333643 -0.00072172174 -0.00046188367 0.00012389383 -0.00084262405 -0.98848408 0.029359179
570000000 -0.97901076 0.037671182 -0.00027250525 -2.9137878e-005 -2.5128436e-005 -0.00024424336 -0.98724502 0.030705759
571000000 -0.97949356 0.038596161 3.149172e-005 -0.00054132222 8.5649059e-005 -0.00073653623 -0.9887439 0.029902795
572000000 -0.9790476 0.038182601 -0.00082599284 -0.00025055668 -0.00030144549 -0.00064800441 -0.98811662 0.031444892
573000000 -0.97957045 0.036173489 -0.00089750398 -0.00043946115 -0.00038710368 -0.00059594034 -0.9886536 0.030598128
574000000 -0.9787761 0.03905629 -0.00064363354 -0.00032175521 0.00026830228 -0.0003560191 -0.98861915 0.029542938
575000000 -0.97934389 0.038067669 -0.00020581803 4.123792e-005 0.00032482602 -0.00075751828 -0.98777801 0.031569991
576000000 -0.9790659 0.037787717 0.00079106807 0.00012135536 6.8264126e-005 -0.00014783535 -0.98765808 0.030850966
577000000 -0.97994792 0.037829421 -0.00027358663 0.00012106894 0.00035149645 0.00018024958 -0.98869389 0.030922061
578000000 -0.97974384 0.038298648 -0.00028244936 -0.00074470747 -0.00051914027 7.4502095e-005 -0.9882099 0.030747192
579000000 -0.97956562 0.039296988 -0.00062833307 0.00023641821 0.00038925302 0.00019905237 -0.98984092 0.029780811
580000000 -0.97843808 0.038696915 -1.5974327e-005 0.00039996099 -0.00034676975 -6.3447278e-006 -0.98869801 0.031008977
581000000 -0.97843957 0.038529102 0.00025331508 0.00045427695 3.467386e-005 -0.00012507814 -0.988455 0.029708518
582000000 -0.97876549 0.038467903 -4.4839595e-005 -0.00062728307 -0.00063938415 -2.8999784e-005 -0.98888576 0.03085494
583000000 -0.97947305 0.037626967 -0.0007789823 -9.6529031e-005 0.000352445 8.56721e-006 -0.98827267 0.031615965
584000000 -0.97916192 0.038312234 -0.0010292561 -0.00084590266 -0.00019845153 -0.00017001093 -0.98738027 0.030408856
585000000 -0.97963935 0.038483024 0.00050666876 -0.00036131733 -7.5146049e-006 0.00021936263 -0.98884523 0.030496923
586000000 -0.98004365 0.037483532 -0.00033409102 -0.00061064737 -0.00036176719 0.00015922986 -0.98899472 0.031198828
587000000 -0.97957939 0.040565416 -8.8734545e-005 -0.0005858682 0.00023998805 1.4151206e-007 -0.98846686 0.03158056
588000000 -0.97875524 0.03937738 9.7635901e-005 -0.00089324295 -0.00017673365 -0.0006526889 -0.98899156 0.031438693
589000000 -0.97971046 0.038902387 -0.00046839754 -0.00068588904 -0.00034362316 -0.00068080629 -0.98781908 0.030888857
590000000 -0.97870743 0.039586596 -0.00061568251 -0.00018038257 -0.00017367155 -0.00025983033 -0.98845905 0.031967711
591000000 -0.97908115 0.039254628 -6.5988752e-005 -0.00083428866 7.8216808e-006 0.00019388441 -0.98918587 0.031444129
592000000 -0.97882485 0.03716512 0.00046820584 -0.00039523837 -0.00020163044 0.00040559922 -0.98813838 0.029737629
593000000 -0.97749609 0.039484683 0.0010033933 -0.00095171359 -7.3837808e-005 -0.00076988107 -0.98886186 0.031419899
594000000 -0.97937626 0.038422074 -0.00030490683 -0.00057627098 -0.00065955467 -8.2983985e-005 -0.98832798 0.031869054
595000000 -0.9787733 0.038343869 0.00035827904 -0.00020173391 6.9644462e-005 0.00031392492 -0.9882521 0.031412646
596000000 -0.97880739 0.039204039 -0.00017542476 -0.00031541573 -2.7050777e-005 0.00015283629 -0.98666775 0.031251822
597000000 -0.97819519 0.03914715 0.00015007435 -0.00062062626 9.7025855e-005 -0.00011180741 -0.98856241 0.03083632
598000000 -0.97832805 0.039945781 0.00056585943 -0.00079134305 0.00027457901 -0.00051588961 -0.98887312 0.030856162
599000000 -0.97939658 0.040234923 -0.00041581865 -0.0003095133 -0.00020090159 -0.001162972 -0.98886091 0.030649539
600000000 -0.98037189 0.038462073 -0.00081003137 6.9935581e-005 -4.7177298e-005 0.00021887025 -0.98822176 0.031722885
601000000 -0.97771198 0.040337313 -0.00014610271 -1.3417325e-005 -0.00021988606 -0.00072452257 -0.98830527 0.030840574
602000000 -0.97838598 0.040084526 0.00025379893 4.2957472e-006 -0.00018101577 -0.00045323322 -0.98925263 0.032151666
603000000 -0.97996169 0.039925218 4.3421223e-005 -0.00013207307 0.00013255911 0.00012110923 -0.98950595 0.032294471
604000000 -0.97848952 0.039883964 9.7802127e-005 -0.00067371497 -6.543209e-005 0.0004261712 -0.98839629 0.032019187
605000000 -0.97864723 0.040549878 0.00066182326 0.00026444191 7.0437827e-006 -0.0007583921 -0.98845732 0.033814911
606000000 -0.97822225 0.040904373 0.0006251912 -0.00042184826 0.00010814144 -0.00063103385 -0.98678517 0.030662002
607000000 -0.98015308 0.039680984 8.1917424e-006 -3.8259673e-006 -0.00018499845 -0.00034930001 -0.98917449 0.030698143
608000000 -0.97965002 0.041754685 -0.00028595928 0.00012491047 -0.00082450651 -0.00038180032 -0.98811084 0.032007687
609000000 -0.97870767 0.041462481 0.0001457032 -0.00041843948 0.00051763625 -0.00046830202 -0.98726052 0.032223139
610000000 -0.97895819 0.041925691 -5.0389415e-005 -0.00018496362 -0.00078308157 -3.804981e-005 -0.98887342 0.033137929
611000000 -0.97886115 0.042914469 0.00026363428 0.0005691821 0.00046345132 -0.00069301145 -0.98690313 0.032312643
612000000 -0.97842032 0.042016931 0.00026448566 -0.00012922483 -0.00030675664 -0.00052548363 -0.98776329 0.032295864
613000000 -0.97790486 0.041921716 -0.00051736733 -0.00037826778 5.6440065e-005 -3.4604087e-005 -0.98726898 0.031621143
614000000 -0.97809416 0.042263944 -0.0002811678 -0.00034394584 0.00031558625 -0.0007534785 -0.98911613 0.031879675
615000000 -0.97850066 0.040798962 -0.00017430517 -0.00061990891 -0.00055595109 -0.0006527896 -0.98764938 0.033578396
616000000 -0.97881866 0.043094382 -0.00055446191 -0.00039064692 -0.0016111595 -3.9894927e-005 -0.98695713 0.033686772
617000000 -0.97981524 0.042523243 0.00057735195 -0.00038728659 -0.00018563202 8.6265584e-007 -0.9879849 0.033637337
618000000 -0.97958708 0.043183338 -0.00025686677 -0.0011723216 -0.00053902739 0.00043811093 -0.98699015 0.031434316
619000000 -0.97848094 0.041776162 -0.00074502314 -0.00083774957 -2.6400277e-005 -0.0005562302 -0.98824453 0.033312064
620000000 -0.97906882 0.043598328 -0.00062672276 -0.00016685684 -0.00026527166 -0.00017680357 -0.98882121 0.033651594
621000000 -0.97909647 0.042887975 -0.00031020041 -0.00021845091 0.00033496594 0.0002484422 -0.98779196 0.033478826
622000000 -0.97844666 0.043000005 -0.00028361715 -0.00052419875 -0.0008103872 0.00013501305 -0.98751938 0.033340566
623000000 -0.97834879 0.043102428 9.7332842e-005 -0.00094759575 4.3369186e-005 -0.00040049263 -0.98735088 0.034537096
624000000 -0.9782598 0.043176692 0.00067200186 -0.00052214606 -0.0006703643 -0.00053247111 -0.98875278 0.033365767
625000000 -0.97933936 0.044206452 0.00013060303 -0.00061452226 -0.00054103567 -0.00087652524 -0.98724419 0.034880381
626000000 -0.97917283 0.044145159 0.00049985189 -0.00031202266 0.00061538984 8.0087106e-005 -0.98706388 0.034377124
627000000 -0.9795236 0.044292167 -0.00018181102 -0.00077207375 0.00062135898 -0.00078858831 -0.98767161 0.033608057
628000000 -0.97876281 0.044494007 0.00016234357 -0.00030927794 -0.00098172482 -0.00018754059 -0.98799539 0.034406051
629000000 -0.97879499 0.04384793 -9.4162249e-005 0.00011685669 8.5009975e-005 -0.00050872477 -0.9869737 0.034703232
630000000 -0.9780302 0.043188423 2.3570292e-005 -0.00020025385 -0.00064477802 -0.00043802772 -0.98852426 0.035042129
631000000 -0.97821051 0.043527946 -0.00014005815 3.2443091e-005 0.00031626874 -0.0005637845 -0.98819286 0.035703279
632000000 -0.9795838 0.045201905 -0.00027176691 -0.00022239216 -0.00030279928 -0.00024958528 -0.98706281 0.034704678
633000000 -0.97838235 0.043832995 0.00040945545 0.00024787136 -0.00071988726 -0.0002001345 -0.98816758 0.034977529
634000000 -0.97914124 0.044675272 0.00018863237 0.00010784467 -0.00011688453 0.00027816973 -0.98753971 0.033610087
635000000 -0.97865993 0.045601472 -0.00052387133 -0.00033267317 0.00029202036 -0.0010846361 -0.98798156 0.034498554
636000000 -0.9780823 0.044904787 0.00036738685 -0.00017286131 2.5078532e-005 -7.1563787e-005 -0.9883064 0.034089494
637000000 -0.97851306 0.044660214 -0.00039768664 -0.0001411166 -0.00013928613 -4.5155783e-005 -0.98805797 0.034241222
638000000 -0.97796363 0.045287263 -0.00020818271 0.00016785444 -1.6203818e-005 0.00018177218 -0.98670226 0.034608647
639000000 -0.98012549 0.046465505 0.00012417905 0.00010240664 0.00018093163 -0.00029407238 -0.98798764 0.036352009
640000000 -0.97752821 0.04405836 4.6268931e-005 -0.00029300651 -0.00052743888 -0.00053835823 -0.98738825 0.034554034
641000000 -0.97820103 0.045285922 -0.00038941103 0.0003773043 0.00029134689 -0.0011839404 -0.98886853 0.033194996
642000000 -0.97768492 0.044679053 -0.00011453762 -0.00061106734 -0.00011792575 -0.00067578757 -0.98702043 0.034866989
643000000 -0.97929579 0.04399389 0.00043119656 -0.00027163266 -0.00016759631 0.00041617724 -0.98819095 0.034002826
644000000 -0.97815633 0.044938803 0.00069216528 -0.00017467105 -0.00015397255 -0.0008276719 -0.98735118 0.034623526
645000000 -0.97814089 0.047048435 -0.00032604774 0.00018648186 0.00011175451 0.00011841245 -0.98692811 0.035994146
646000000 -0.97835547 0.046305552 -0.00032257565 0.00026044663 -0.00011822845 0.00028800889 -0.98761821 0.035454705
647000000 -0.97864473 0.044995368 -0.00019460393 -0.00023897806 9.6214208e-005 -0.00053974875 -0.9874655 0.034307212
648000000 -0.97792166 0.044766705 0.00063678087 -0.00031837472 -7.2347852e-005 -0.00065268017 -0.98705888 0.034896631
649000000 -0.97805887 0.046487406 0.00015984249 -0.00016398022 -0.00020190715 -0.00028717637 -0.98775727 0.036192954
650000000 -0.97818089 0.046312995 0.00060771161 0.00059790578 5.5967095e-005 -0.0003143973 -0.98672116 0.035391998
651000000 -0.97908103 0.045388639 -1.6853501e-005 -3.9433544e-005 -0.00044754797 -2.566014e-005 -0.98600465 0.035283133
652000000 -0.97704631 0.0457213 -0.00021590236 -0.00028304066 -7.7569603e-005 0.00033252678 -0.98721933 0.034082681
653000000 -0.97854877 0.046885673 -0.00045166575 -0.0001097218 -0.0004625725 -0.00059881934 -0.98757803 0.034757599
654000000 -0.97736913 0.046408683 -0.00062823237 -0.00049365463 2.3577933e-005 -2.5636877e-005 -0.98918915 0.034101877
655000000 -0.97763592 0.046201896 -0.00040719545 0.00023515685 0.00032491994 -0.0002709626 -0.98753071 0.035081863
656000000 -0.97738004 0.046991926 -1.8663066e-005 2.9468127e-005 -0.00028064946 -0.00068715151 -0.98739815 0.034474302
657000000 -0.97903413 0.045721244 -0.00051682908 -0.00042137172 0.00032774778 -0.00029910885 -0.98743558 0.035255991
658000000 -0.97901487 0.047052547 -0.00054781017 0.00074287085 -0.00022730924 -2.3236398e-005 -0.98679376 0.035555243
659000000 -0.97763425 0.04628868 -7.6092906e-006 -0.00032099779 -0.00022185223 -6.2088133e-005 -0.98785001 0.035339914
660000000 -0.9780032 0.047206465 -0.00035823052 -0.00036718318 -4.29428e-005 1.1698466e-005 -0.98671788 0.035061359
661000000 -0.97824961 0.047017694 5.0164475e-005 -3.0560677e-005 0.00035492668 -0.00080082187 -0.98835063 0.03574121
662000000 -0.9780364 0.046977088 7.4737574e-005 -2.3750565e-006 -0.0002017033 0.00030712478 -0.98790115 0.035893057
663000000 -0.97796243 0.045795076 0.00032618464 -0.00066503155 -0.00044563529 -8.639897e-005 -0.98716885 0.034606341
664000000 -0.97775924 0.046574987 -0.00057247409 -0.00056379125 -0.00052054552 -0.00072326517 -0.98770744 0.036053691
665000000 -0.97692829 0.047256183 -0.00047343329 -0.00032825046 1.2638671e-005 -0.00048972131 -0.98820049 0.035450652
666000000 -0.97829336 0.046147101 -0.00031444783 -0.00029217146 -0.00036534169 0.0010398184 -0.98818034 0.034006413
667000000 -0.97771847 0.046136826 -0.00077577913 0.00012768178 0.00026807369 -0.00020482401 -0.98722875 0.036473315
668000000 -0.97753948 0.046535488 -0.00017942669 2.2656277e-005 0.00028453631 0.000206347 -0.98734468 0.03491912
