!Keysight Technologies,M9374A,MY55442783,A.12.55.05
!Date: Thursday, May 20, 2021 13:29:30
!Correction: S11(Full 2 Port(1,2)) 
!S21(Full 2 Port(1,2)) 
!S12(Full 2 Port(1,2)) 
!S22(Full 2 Port(1,2)) 
!S2P File: Measurements: S11, S21, S12, S22:
# Hz S  RI   R 50
500000000 -0.68829679 0.099602498 -0.00038940916 -0.0010775795 -0.00069870427 -0.00077258167 -0.70050734 0.093833312
501000000 -0.68809915 0.10049082 -4.7452915e-005 -0.0013645311 -0.00022041042 -0.0011747456 -0.7010861 0.094777383
502000000 -0.68831003 0.099742666 0.00020705709 -0.0013495951 -0.0009384033 -0.0007655659 -0.70133638 0.09544374
503000000 -0.68810833 0.10002866 -0.00025002155 -0.0016108977 -0.00025684526 -0.0013859899 -0.70101619 0.095236808
504000000 -0.68660855 0.10032409 -0.0011196844 -0.0011238612 -0.00093438511 -0.0014652117 -0.70149988 0.095564805
505000000 -0.68759996 0.099930152 0.00033552197 -0.00078629545 -0.00030071783 -0.00079505867 -0.70029265 0.096114337
506000000 -0.6878798 0.10014588 -0.00081201992 -0.001636539 -0.00082487235 -0.00050765474 -0.70161843 0.095491283
507000000 -0.68815672 0.1007797 0.00037173272 -0.0016245628 -0.00041602389 -0.0010751185 -0.70169646 0.096957602
508000000 -0.68882293 0.1013746 -0.00022163174 -0.0013905304 -0.00045137669 -0.0013646107 -0.70117635 0.097481608
509000000 -0.68812728 0.10092149 -0.00042539841 -0.0011862639 -0.0003603338 -0.0024906804 -0.70093596 0.096936926
510000000 -0.6877557 0.10232814 -0.00063896744 -0.0018698474 0.00020216672 -0.00053828373 -0.70008618 0.096630849
511000000 -0.68765211 0.10148178 -0.00023514061 -0.0017915035 -0.00011988931 -0.0013884276 -0.70129603 0.096731603
512000000 -0.68839103 0.10071801 -0.00047237342 -0.0010215958 -0.00014861555 -0.0013994578 -0.70058393 0.097573422
513000000 -0.68823791 0.10214896 0.00032317635 -0.0015116414 -0.000557055 -0.0013836102 -0.70179737 0.098473229
514000000 -0.68877161 0.10132654 0.00046393913 -0.0010051448 -0.00014911173 -0.0019489152 -0.7014569 0.097113222
515000000 -0.68710482 0.10159978 -0.00033023869 -0.0014644084 -6.3736341e-005 -0.001612955 -0.70200104 0.098598957
516000000 -0.68780839 0.10301996 -0.00010329846 -0.00090190821 -0.0011700906 -0.0013400245 -0.70099854 0.097779483
517000000 -0.68794644 0.10326945 -0.00080788124 -0.0015641983 -0.00068163621 -0.001641439 -0.69975889 0.099481456
518000000 -0.68713254 0.10400816 -0.00079105707 -0.0014723791 -0.00066695921 -0.0014914578 -0.70103401 0.098343357
519000000 -0.68828601 0.10307001 -0.00034408283 -0.0011758859 -0.00024702106 -0.00089377369 -0.70076239 0.098738991
520000000 -0.68680501 0.10348723 -0.00072806363 -0.0016655232 -0.0004419458 -0.00095533289 -0.69986206 0.098874167
521000000 -0.68763655 0.10398096 -0.00068480603 -0.0010732578 3.1276386e-006 -0.0014559216 -0.70037556 0.099357985
522000000 -0.68907821 0.10338766 -0.00015419129 -0.00075579935 -0.00081077183 -0.00099706801 -0.70129335 0.09955202
523000000 -0.68732965 0.10358775 3.2379976e-006 -0.0011557135 -0.0001780132 -0.0018469519 -0.70040101 0.099954046
524000000 -0.68822497 0.10281672 -0.00059800991 -0.0017271426 -0.00019577509 -0.0014069917 -0.70069796 0.099349275
525000000 -0.68690473 0.10438669 -0.000156988 -0.001166018 -0.00054197799 -0.0016692777 -0.70019293 0.10142311
526000000 -0.68808007 0.10418862 0.00032213828 -0.0014489619 0.00028326261 -0.0014250418 -0.70071298 0.10056993
527000000 -0.6878432 0.10513426 -0.00045738841 -0.0013779205 -9.2789269e-005 -0.0017953126 -0.69987375 0.10086283
528000000 -0.68714231 0.10564407 -0.00091331208 -0.0014962717 -0.00027573475 -0.0012605499 -0.70007581 0.10121083
529000000 -0.68766963 0.10550982 -0.00075930206 -0.0015213932 -0.00080387143 -0.0013453342 -0.70027035 0.10183074
530000000 -0.687751 0.10592484 -0.00086697284 -0.00093594106 -0.00014780651 -0.00091351039 -0.70054185 0.10094541
531000000 -0.68818879 0.10543933 -0.00038350766 -0.0016843785 -0.00040654541 -0.0007543664 -0.69997168 0.10196818
532000000 -0.68721515 0.10575084 -3.8276459e-005 -0.0011299461 -0.0002895981 -0.001382019 -0.70052207 0.10153133
533000000 -0.68606126 0.10574047 -0.0001832722 -0.001394202 6.0176731e-005 -0.0010313751 -0.69972223 0.10173284
534000000 -0.68765271 0.10443801 0.00084282289 -0.0016984288 -3.2799973e-005 -0.0014448845 -0.70040864 0.10216371
535000000 -0.68867904 0.10605321 -0.00014134197 -0.0016805517 0.00010270136 -0.0013183258 -0.70028973 0.10167362
536000000 -0.68677866 0.1062835 -4.5559929e-005 -0.0014247578 -0.00051913509 -0.0014482189 -0.70024067 0.10316471
537000000 -0.68720955 0.10612497 -1.4019857e-005 -0.00078665308 3.7678212e-005 -0.0013962488 -0.70055056 0.10329572
538000000 -0.68767864 0.10644044 0.00034910339 -0.0019799015 -0.00027076202 -0.0019613791 -0.70021027 0.10247212
539000000 -0.68698889 0.10861681 -0.00040074979 -0.0017959458 5.2093514e-005 -0.0015778783 -0.69944197 0.10252846
540000000 -0.68694109 0.10657422 -0.00037896101 -0.0014326177 -2.8408065e-005 -0.00069187442 -0.69977754 0.10332949
541000000 -0.68717545 0.10750098 -0.0010008318 -0.0010858789 -0.0005594836 -0.0014585772 -0.69977987 0.10357331
542000000 -0.68798655 0.10782662 -0.00071002857 -0.00174243 -0.001170453 -0.0015847291 -0.70023364 0.10318265
543000000 -0.68675655 0.10760354 -0.00036436255 -0.0013805355 0.0011044506 -0.0018337786 -0.70002443 0.10400521
544000000 -0.68737322 0.10824546 -0.00019951732 -0.0020271426 -0.001038409 -0.0011179968 -0.69984347 0.10448064
545000000 -0.68663919 0.10824155 -0.00035109336 -0.0021135209 -9.0685999e-006 -0.0016443258 -0.69874865 0.10485582
546000000 -0.687141 0.10776683 -0.00057399005 -0.0019923071 -0.00048886868 -0.0016507717 -0.70032066 0.10406645
547000000 -0.68798065 0.1085013 -0.00016976093 -0.0010904854 -0.00050849281 -0.0017579497 -0.70071369 0.10455383
548000000 -0.68658543 0.1079447 -0.00076930248 -0.0013068533 -6.3270068e-005 -0.0014001551 -0.69915515 0.10540178
549000000 -0.6867103 0.10856907 -0.00063881621 -0.0017182285 -0.00083521928 -0.0019819504 -0.69993645 0.10497089
550000000 -0.68702799 0.10902643 -0.00054318446 -0.0013936274 -1.5414269e-005 -0.0015488627 -0.69997305 0.10593669
551000000 -0.68750304 0.10894873 -0.00025691139 -0.0016369671 -0.00018091519 -0.0013536504 -0.69975024 0.10539988
552000000 -0.68678141 0.10895286 -0.00026640738 -0.0014604559 -0.0006967985 -0.0014525866 -0.69940847 0.10531428
553000000 -0.68631309 0.10906734 -0.000886605 -0.0015776552 -0.00048166519 -0.0018870932 -0.70031071 0.10451546
554000000 -0.68601555 0.10892855 -0.00034547629 -0.0017980501 -0.00043954363 -0.0023040713 -0.70013183 0.10507893
555000000 -0.68680131 0.10862334 -0.00021000757 -0.0012179061 -0.0003807093 -0.00142019 -0.69983816 0.10588178
556000000 -0.6874184 0.10961562 0.00076701981 -0.0017232148 -0.00073630619 -0.0015076576 -0.70012629 0.10727586
557000000 -0.68677896 0.10942754 -0.00094969937 -0.0010045988 -0.00043895678 -0.0019435706 -0.6997962 0.10525508
558000000 -0.68591684 0.10982755 -0.00063563301 -0.0018913014 -0.00034972615 -0.0012922533 -0.69995666 0.10530684
559000000 -0.68718982 0.10917234 -0.0012478291 -0.00099475472 -0.00073578785 -0.0021630919 -0.70041615 0.10679353
560000000 -0.68683404 0.11047754 -0.00071630819 -0.0016221259 0.00010501744 -0.0010972489 -0.69967026 0.1064872
561000000 -0.68653816 0.10976895 -0.00090257137 -0.0014484104 -0.00066303951 -0.0014228569 -0.69966489 0.10606829
562000000 -0.68670702 0.11071981 -0.00031423796 -0.0016253738 -0.00042160953 -0.0012976435 -0.69961619 0.10715257
563000000 -0.68693978 0.11075789 -0.00069510471 -0.0013303873 -0.00090879679 -0.0019909299 -0.69948024 0.10788309
564000000 -0.6864168 0.11045495 5.1969359e-006 -0.001471088 -0.00084218476 -0.0014977067 -0.69989127 0.10764048
565000000 -0.68539977 0.11079565 -0.00036278091 -0.0012243614 -0.00020265079 -0.0021932248 -0.69930631 0.10724735
566000000 -0.68616807 0.1109999 -0.00066831824 -0.0010342798 -0.0007410426 -0.0014980088 -0.6999917 0.10702978
567000000 -0.68587506 0.11109291 -0.00059667951 -0.0011515578 -0.00034942917 -0.0014660371 -0.70031857 0.10642987
568000000 -0.68544787 0.11063765 0.00034656184 -0.0016567071 -0.00025443503 -0.0012711879 -0.6997875 0.10725897
569000000 -0.68687618 0.1107324 -0.00073347101 -0.0016917755 -0.00037131985 -0.0012692394 -0.69984514 0.10602743
570000000 -0.68579179 0.11228115 -0.0013831211 -0.0012673975 3.3296397e-005 -0.0010111544 -0.6996609 0.10757324
571000000 -0.68625855 0.1119779 -8.4184845e-005 -0.0019139439 -4.5718461e-005 -0.0013824862 -0.700109 0.10825542
572000000 -0.68570691 0.111407 0.00015672727 -0.0015652195 -0.00049557741 -0.0018253108 -0.70121723 0.10823141
573000000 -0.6862818 0.11170787 -0.00058492861 -0.0014882919 -0.00062559108 -0.0016297019 -0.69931817 0.10859603
574000000 -0.68481785 0.11292401 -0.00045202914 -0.0018590108 -0.00082950754 -0.001785654 -0.70063984 0.10936023
575000000 -0.68651879 0.11186748 4.5651093e-005 -0.0016850783 -0.00025962337 -0.0018195332 -0.69991195 0.10863212
576000000 -0.68482637 0.11166863 -0.00038380903 -0.00091416331 -0.00059677433 -0.001493032 -0.69904846 0.10909793
577000000 -0.68526638 0.11192415 -0.00028765798 -0.001393892 -0.00027465099 -0.001659004 -0.69960588 0.10935411
578000000 -0.68546569 0.11278156 -0.00057118456 -0.0016453668 -0.00051388191 -0.0018309643 -0.69893628 0.1085339
579000000 -0.68539214 0.11343026 -0.00058221479 -0.0010546225 -0.00020146411 -0.0012192409 -0.6993109 0.10891278
580000000 -0.68596339 0.11317901 -0.00031131282 -0.0014918605 0.00027213231 -0.0018517986 -0.70095938 0.10903829
581000000 -0.68601519 0.11355691 -0.00069138512 -0.0013040021 -0.00021946723 -0.0014231813 -0.70028967 0.11024103
582000000 -0.68619937 0.11267079 -0.00015730664 -0.00088126352 -0.00034253378 -0.0012552193 -0.700037 0.10890649
583000000 -0.68613315 0.11393795 -0.00031312185 -0.0025559962 -0.00025126472 -0.0012372903 -0.70005333 0.110375
584000000 -0.68476987 0.11322708 -0.00094544911 -0.00152574 -0.00033105235 -0.0018679947 -0.69955117 0.11103811
585000000 -0.68483198 0.11439511 -0.00053991511 -0.0009011642 -0.00062607386 -0.0015640238 -0.69944555 0.10982068
586000000 -0.68462956 0.11476164 -0.00038662172 -0.0017479772 -0.00045349589 -0.0014564784 -0.69872391 0.11041551
587000000 -0.68619937 0.11451804 -0.00030029379 -0.0014351057 -0.00060085376 -0.0016509178 -0.69878072 0.11111081
588000000 -0.68494642 0.11438176 1.588021e-005 -0.0010012307 4.940146e-005 -0.001187062 -0.70012718 0.1106929
589000000 -0.68472713 0.11477973 -0.0010524583 -0.0013086986 -0.00041592945 -0.0017675543 -0.69974071 0.11122714
590000000 -0.68550742 0.11494625 -0.00051431084 -0.0012142344 -0.00048811504 -0.0020778384 -0.69801277 0.11115798
591000000 -0.68491215 0.11485 -0.00069921633 -0.0021063674 -0.00041353828 -0.001085043 -0.699278 0.11193864
592000000 -0.68494099 0.11550574 0.00029875396 -0.0017169397 -0.001217413 -0.0013349921 -0.69864333 0.11189651
593000000 -0.68484199 0.115091 -0.00031295352 -0.0014516219 -0.00055893161 -0.0017405882 -0.6989789 0.11094297
594000000 -0.68475217 0.11647515 -0.00059526734 -0.0010960291 -0.0010940775 -0.0014488954 -0.69940186 0.11260287
595000000 -0.6847049 0.11641689 -0.00035232829 -0.0018324216 -0.00040166933 -0.0018102985 -0.69998866 0.11190446
596000000 -0.68553174 0.11542816 -0.00055122119 -0.0019000949 -0.00078711967 -0.0017263343 -0.6981588 0.11182853
597000000 -0.68592829 0.1169171 -0.00020810055 -0.0013724996 -0.0012395656 -0.0015187559 -0.69820923 0.11247358
598000000 -0.68581337 0.11725663 0.00029187388 -0.0022263087 -0.00025217078 -0.0014164974 -0.6989013 0.11249886
599000000 -0.68427992 0.11694025 -0.0010169939 -0.0012105942 -0.00036661167 -0.0016940602 -0.69830173 0.11311404
600000000 -0.68449432 0.11806245 -0.00065073016 -0.002165179 -0.00053133751 -0.0019508275 -0.69868231 0.11303154
601000000 -0.68467045 0.11750239 -0.00012098536 -0.001447832 -0.00049327908 -0.0010911035 -0.69849098 0.11279756
602000000 -0.68521041 0.11777553 0.00017687507 -0.0021363923 -0.00012310452 -0.0016021617 -0.69879949 0.11438019
603000000 -0.68484151 0.11769368 0.00012111981 -0.0018889375 -0.00049844064 -0.001633235 -0.69811034 0.1137373
604000000 -0.68327719 0.11891454 -9.3512615e-005 -0.0014752044 5.5914021e-005 -0.0015577698 -0.69896775 0.11414098
605000000 -0.68441552 0.11909995 -3.8518821e-005 -0.001445182 -0.00044319392 -0.00028933815 -0.69852501 0.11361609
606000000 -0.68435788 0.118174 -0.00071015803 -0.0021519386 -0.00057976239 -0.0019751834 -0.69741327 0.11383053
607000000 -0.68355769 0.11935422 -0.00030713042 -0.0014556318 -0.0003691731 -0.0020498643 -0.69695532 0.11399055
608000000 -0.68333167 0.1194829 -0.00021580477 -0.0018162018 8.1236933e-005 -0.0014060687 -0.69911402 0.11430355
609000000 -0.6840921 0.11906514 0.00015805969 -0.0018212767 -0.00019291686 -0.0010764663 -0.69739586 0.114391
610000000 -0.68385166 0.12011918 -0.0009105145 -0.0016187011 -0.0002446397 -0.0013960348 -0.69856542 0.11584753
611000000 -0.68404365 0.12034258 0.00023302689 -0.0018706056 -0.0002428584 -0.0017625667 -0.69808602 0.11467181
612000000 -0.68462211 0.12084998 -0.00056072691 -0.0016943931 -6.9180904e-005 -0.0010505067 -0.69874144 0.11552423
613000000 -0.68377388 0.12043469 -0.00038306447 -0.00055440416 -9.650187e-005 -0.001741419 -0.69839483 0.11609065
614000000 -0.68303257 0.12050154 -0.00025768255 -0.0017141183 0.00016866736 -0.0017950506 -0.69860804 0.11664522
615000000 -0.68486673 0.12109216 4.3899377e-005 -0.00100516 1.147894e-005 -0.0019342497 -0.69875693 0.11561875
616000000 -0.6847353 0.12230907 0.0002495774 -0.0020393301 -0.00046969124 -0.0015017088 -0.69675761 0.11648095
617000000 -0.68400288 0.12233148 -0.00082370045 -0.0013689031 -0.00078294316 -0.0018382239 -0.69811654 0.11684775
618000000 -0.68319523 0.12147374 -0.00020100235 -0.0012448567 -0.00049718941 -0.0017946087 -0.69782346 0.1162529
619000000 -0.68332511 0.12184579 -0.0010123109 -0.002010626 -0.00035119578 -0.0015106858 -0.69807512 0.11710372
620000000 -0.68494123 0.12337074 -0.00048668234 -0.0014254755 -5.9259979e-005 -0.0013139525 -0.69881034 0.1171833
621000000 -0.68417996 0.12232804 -1.2893038e-005 -0.0017739848 -0.0008070558 -0.0017474017 -0.6980235 0.11814333
622000000 -0.68360585 0.12117498 0.00028777146 -0.002053865 -0.00051324361 -0.0016749178 -0.69818407 0.11861239
623000000 -0.68300605 0.12261277 2.82089e-005 -0.0015457491 -0.0004941317 -0.0022184527 -0.69786733 0.11709409
624000000 -0.68291742 0.12300547 -0.00033509333 -0.0019226774 -0.00025503954 -0.0015473295 -0.69720823 0.11851397
625000000 -0.68325996 0.12517753 -0.00062418106 -0.0024908343 -0.0010262252 -0.0019235223 -0.69753534 0.11780705
626000000 -0.68278986 0.12502094 -0.00064901449 -0.0016132935 -0.00084094645 -0.001318059 -0.69750315 0.1184103
627000000 -0.68242031 0.12513585 -0.0011605972 -0.0023149792 -0.00048004728 -0.001516114 -0.69788289 0.11899867
628000000 -0.68356758 0.12457771 -0.00050504127 -0.0022956047 -0.00070691382 -0.0013492688 -0.69783092 0.11815989
629000000 -0.68390709 0.12482994 -0.00049786753 -0.00078059605 -0.00098561007 -0.0018595062 -0.69721943 0.11958915
630000000 -0.68294531 0.12373251 -0.00023262863 -0.0015322944 -0.00045807735 -0.0021763791 -0.69732296 0.11958728
631000000 -0.68274677 0.12377985 -5.288286e-005 -0.0011635257 -0.0012009754 -0.0019195952 -0.69746423 0.11911976
632000000 -0.68418074 0.12509169 -0.00080631644 -0.00088756823 -2.8659636e-006 -0.0019329841 -0.69737577 0.11796417
633000000 -0.68383861 0.12485042 -0.00025915835 -0.00058486732 0.00029230092 -0.0013172374 -0.69782025 0.1201834
634000000 -0.68293345 0.12647949 -0.00051744067 -0.0010646924 -6.382916e-005 -0.0013614534 -0.6973905 0.11945653
635000000 -0.68344176 0.12491946 -0.0011982081 -0.0017111638 -0.000456496 -0.0014883478 -0.69758326 0.11973476
636000000 -0.68268764 0.12605873 -0.00084355625 -0.0015844484 -0.00060509227 -0.0017994525 -0.69734406 0.1209169
637000000 -0.68355757 0.12586728 -0.00049231859 -0.0014281385 0.00032300688 -0.0019873851 -0.6965915 0.12059895
638000000 -0.68260664 0.12712325 -0.00055713608 -0.0024012476 -0.00033520837 -0.0018125884 -0.6976226 0.12140005
639000000 -0.68359339 0.12737784 -0.00040462552 -0.0011475093 -0.00074709504 -0.0020981885 -0.69654107 0.12051353
640000000 -0.68257082 0.12673664 -0.00067885412 -0.0015189158 -0.00048677414 -0.0013617314 -0.69715363 0.12028137
641000000 -0.68269801 0.12692182 2.2443624e-005 -0.0009722705 -0.0010501082 -0.0019376506 -0.69641733 0.12123204
642000000 -0.68204194 0.12697506 8.1399798e-005 -0.0018079696 -0.0010697835 -0.001679301 -0.69647682 0.12164946
643000000 -0.68307739 0.12734963 -0.00053423463 -0.0025814595 -0.0001231091 -0.0013925099 -0.69797921 0.12180016
644000000 -0.68232012 0.12803487 -0.00090974843 -0.0013511352 -0.00087352016 -0.0017288383 -0.69703245 0.12229714
645000000 -0.68288743 0.12804793 -0.00078213285 -0.0019685843 0.00036956253 -0.0015842512 -0.6973784 0.12201862
646000000 -0.68251407 0.12794554 -0.0004970234 -0.0017016676 -0.00066673843 -0.00077759958 -0.69727665 0.12132651
647000000 -0.6822359 0.12861304 0.00013564953 -0.0019438184 -0.00058209669 -0.0017324372 -0.69711578 0.12223268
648000000 -0.68283355 0.12903531 -0.0010336647 -0.0022394373 -0.0005516251 -0.0015766857 -0.6968385 0.12269064
649000000 -0.6823231 0.12811187 -0.0003738224 -0.0015789246 -0.00064024428 -0.0012772334 -0.69618487 0.12285559
650000000 -0.68309122 0.12936835 -0.00068574242 -0.0022665279 -9.6405143e-005 -0.0017150363 -0.69704568 0.12238901
651000000 -0.68271065 0.12909824 -0.00018311988 -0.0018619291 -0.00097705657 -0.001611519 -0.69726956 0.12249634
652000000 -0.68301821 0.12946673 0.00033352664 -0.0018611787 -0.0007986165 -0.0021570532 -0.69604808 0.12358691
653000000 -0.68388194 0.12933876 -6.4696775e-005 -0.0019805357 -0.00054996362 -0.0022984964 -0.69624949 0.12371539
654000000 -0.68255872 0.12951715 4.9281334e-005 -0.0013005813 -0.00028790953 -0.00096963963 -0.69730097 0.12335263
655000000 -0.68191427 0.12931967 -0.00095659104 -0.0017362005 -0.00059088232 -0.001861061 -0.6962952 0.12415036
656000000 -0.6823256 0.1300877 -0.00072897866 -0.0015785355 0.00049255672 -0.001657867 -0.69643462 0.1232502
657000000 -0.68301231 0.13107109 -0.00078096287 -0.0015933918 -0.00011258873 -0.0017023049 -0.69735229 0.12425971
658000000 -0.68301755 0.13042846 -0.00089263485 -0.0016325379 -0.00076628639 -0.0022746359 -0.69622177 0.12445538
659000000 -0.68265361 0.13123061 -0.0010038147 -0.0016794407 -9.9801597e-005 -0.0017397836 -0.69717818 0.12403455
660000000 -0.68249828 0.13241595 -0.0005554494 -0.0015955115 -0.00069517823 -0.0016673182 -0.69688439 0.12416252
661000000 -0.68245751 0.13006198 -0.00051527977 -0.0021533126 -0.00077863492 -0.0019356154 -0.69684178 0.12482418
662000000 -0.68243158 0.13028969 2.6855432e-005 -0.0019578445 -0.0002627511 -0.0013925211 -0.69668245 0.12525672
663000000 -0.68360752 0.13165414 -0.00036199085 -0.001078376 -0.00016997897 -0.0021608649 -0.69628888 0.12476161
664000000 -0.68237281 0.13099365 -0.00029287941 -0.0018302771 -0.0011553641 -0.002383312 -0.69683385 0.12528874
665000000 -0.6820187 0.13106789 -0.0002874218 -0.0010428678 -0.001082286 -0.0020666171 -0.6957652 0.12532304
666000000 -0.68206292 0.13142401 6.7542467e-005 -0.0017523621 -0.00054716849 -0.0019220934 -0.69593585 0.125571
667000000 -0.68304944 0.13126783 -0.00098126614 -0.0015721511 -0.00051958713 -0.0014700361 -0.69609541 0.12488948
668000000 -0.68204933 0.13222729 -0.00034821586 -0.0014032655 -0.00012294899 -0.0020236438 -0.69609737 0.12523785
669000000 -0.68328881 0.13167687 -0.00029743632 -0.0011236561 0.00017501769 -0.0017077301 -0.69572783 0.12554856
670000000 -0.68172306 0.13221765 -0.00018497967 -0.0019305245 -0.00073842955 -0.00088072021 -0.69577652 0.1265731
671000000 -0.68109787 0.13349758 0.00011476012 -0.0015784288 3.4699115e-005 -0.0013953245 -0.6951474 0.12641212
672000000 -0.68318546 0.13241374 -0.00066964823 -0.0021018181 -0.00017999701 -0.0022711887 -0.69621736 0.12652445
673000000 -0.68116975 0.13292859 -0.00062322838 -0.0024461763 -0.00063709257 -0.0010889453 -0.69548631 0.12647918
