!Keysight Technologies,M9374A,MY55442783,A.12.55.05
!Date: Thursday, May 20, 2021 12:46:55
!Correction: S11(Full 2 Port(1,2)) 
!S21(Full 2 Port(1,2)) 
!S12(Full 2 Port(1,2)) 
!S22(Full 2 Port(1,2)) 
!S2P File: Measurements: S11, S21, S12, S22:
# Hz S  RI   R 50
500000000 -0.68479359 0.1131594 -0.00081000093 -0.0010876604 -0.0010355993 -0.0016762693 -0.69963151 0.10817661
501000000 -0.68580306 0.11298393 -0.00041954024 -0.0010052506 -0.00056595833 -0.0019989652 -0.69833928 0.10778803
502000000 -0.68523544 0.11309472 -0.00062256411 -0.0019866549 -0.00039105641 -0.0021359802 -0.698964 0.10814222
503000000 -0.68469518 0.11313953 0.00032554255 -0.00036286406 -0.00074870099 -0.00095121888 -0.69852346 0.10895906
504000000 -0.68560302 0.11422191 -0.00059394568 -0.0011587557 -0.00073749205 -0.0011622716 -0.69748163 0.10856988
505000000 -0.68513858 0.11412672 -0.0010600651 -0.0018244435 2.0206679e-005 -0.0019205994 -0.69799858 0.10805373
506000000 -0.6842559 0.11376075 -0.0001225173 -0.0011909227 -0.00057393342 -0.00074303872 -0.69781542 0.10963489
507000000 -0.68444067 0.114149 -0.00039423586 -0.0010697027 -0.0013993006 -0.00090559927 -0.69740814 0.11049899
508000000 -0.68483412 0.11440486 -0.00099506904 -0.0010135237 0.00036111817 -0.0009695632 -0.69853652 0.10971109
509000000 -0.68425876 0.11514628 -0.00055104977 -0.0015649176 -0.00052185287 -0.00082819804 -0.69848704 0.1099068
510000000 -0.68479997 0.1147319 -2.2685605e-005 -0.0013439705 -0.00029345573 -0.001645267 -0.6981976 0.11010321
511000000 -0.68459213 0.11459962 -0.00098630087 -0.00070133631 0.00035817357 -0.00095129962 -0.69735545 0.11040949
512000000 -0.68476069 0.11483102 -0.00046777085 -0.0020824841 -0.00015123589 -0.0018608577 -0.69804621 0.11098
513000000 -0.68436736 0.11572216 -0.00020343866 -0.0015711159 4.0789124e-005 -0.0016470448 -0.69739562 0.11083584
514000000 -0.68408322 0.11573069 -0.00013494121 -0.00082710764 -0.00025356445 -0.0011976596 -0.69805133 0.11060312
515000000 -0.68468618 0.11528754 -0.00077584671 -0.00068927591 0.00020802404 -0.0012618039 -0.69774699 0.1121657
516000000 -0.68431288 0.1153817 0.00019334877 -0.0014387325 -0.00022198049 -0.001999981 -0.69834745 0.11148375
517000000 -0.68440342 0.11669286 -0.00029636218 -0.001458038 -0.00030971633 -0.001087294 -0.69750798 0.11129172
518000000 -0.68476135 0.11600508 5.2595005e-005 -0.0011302729 -0.00081096037 -0.0013135683 -0.69727403 0.11166126
519000000 -0.68538672 0.11616415 -0.00059377379 -0.0023906166 -0.00028790496 -0.0012385451 -0.69736153 0.11271612
520000000 -0.68378484 0.11685485 -0.000543211 -0.0015369288 -0.00083655928 -0.0013221698 -0.69741422 0.11216594
521000000 -0.68336368 0.11777666 -0.00061428471 -0.0014083516 -0.00011436887 -0.001093263 -0.69795007 0.11256391
522000000 -0.68429077 0.11856882 -0.00094945036 -0.00056076347 -0.00088390033 -0.0012742886 -0.69733334 0.11288437
523000000 -0.68382126 0.11753598 -0.00081421534 -0.0016404713 -0.00033805965 -0.00084326661 -0.69820386 0.11238239
524000000 -0.6842795 0.11797884 -0.00051036611 -0.0019757198 -0.00079258875 -0.0014358854 -0.69815475 0.11402116
525000000 -0.68287474 0.11868237 -0.00034060024 -0.0012614778 -0.00094049226 -0.0010410681 -0.69735223 0.11415104
526000000 -0.68463552 0.11930574 -0.00013192775 -0.0010007245 -0.00030642725 -0.0011294606 -0.6972366 0.11481488
527000000 -0.68438816 0.11927175 -0.00033003258 -0.0015725316 9.0137706e-005 -0.0017848556 -0.69710463 0.11450471
528000000 -0.68398339 0.11936055 -0.00015080535 -0.0014795706 -0.00059811753 -0.001321731 -0.69715327 0.11507589
529000000 -0.68410599 0.11968321 -0.00020919599 -0.0016001069 0.00023021504 -0.0013029776 -0.69690818 0.11502542
530000000 -0.68429965 0.11986812 -0.00082055392 -0.0016257064 -0.00033722442 -0.0012765524 -0.69805622 0.11534814
531000000 -0.68414825 0.11985371 -0.00057338306 -0.0020618043 -0.0011259681 -0.0013843221 -0.69792306 0.11650993
532000000 -0.68403536 0.11911099 -0.00030379961 -0.00084240502 -0.0005050046 -0.0011052325 -0.6968329 0.11629983
533000000 -0.68367964 0.11927435 3.6673198e-005 -0.0014895978 -0.00087563146 -0.0015179968 -0.69585931 0.11630994
534000000 -0.68419439 0.11944053 -0.00032083588 -0.00083552336 -0.00092411484 -0.0016676483 -0.69780558 0.11588001
535000000 -0.68276697 0.121215 -0.00036515482 -0.0013988387 0.00027592157 -0.00143642 -0.69694829 0.11626233
536000000 -0.68384242 0.12199971 -0.00065878604 -0.0010380744 -0.00058258878 -0.0010155245 -0.69780022 0.11633461
537000000 -0.68311471 0.1210053 -0.00082269032 -0.0017034356 -0.00086769275 -0.0014018172 -0.69823104 0.11745633
538000000 -0.68309921 0.12136373 -0.00020894897 -0.0018093536 -0.00010268398 -0.0016705305 -0.69684488 0.11675382
539000000 -0.68283224 0.12154362 -0.00022625516 -0.00079191622 2.8737932e-005 -0.0018107201 -0.69658214 0.11721789
540000000 -0.68406028 0.12141459 -0.00047310317 -0.00084232312 -0.00042653177 -0.0018440688 -0.69743586 0.11696067
541000000 -0.68229431 0.12252089 0.00019942598 -0.0018406388 -0.00020988849 -0.001280398 -0.69820434 0.11679971
542000000 -0.68383491 0.12143778 -0.00093665166 -0.0020698288 -0.00059501885 -0.0001901084 -0.69705355 0.11855973
543000000 -0.68332225 0.12297708 0.00019747828 -0.0023011724 -0.000658367 -0.0014146765 -0.69623375 0.11769228
544000000 -0.68262988 0.12235098 -0.00012124086 -0.0017863183 -0.00044506774 -0.0012563057 -0.69769603 0.11826444
545000000 -0.68299007 0.12170609 0.00036607686 -0.0016015996 -0.00080022652 -0.0019717205 -0.6980353 0.11931951
546000000 -0.68297762 0.12264241 -0.00094466354 -0.00079567998 -7.3109484e-005 -0.0015113641 -0.69686896 0.11884975
547000000 -0.68425983 0.12243803 -0.00081780343 -0.0010450976 0.00053983909 -0.0010369555 -0.69681638 0.11830412
548000000 -0.6829809 0.12268729 -0.00020091792 -0.0011673756 -0.0008122155 -0.0015702549 -0.69645119 0.1188486
549000000 -0.68316054 0.12349452 -0.00012091165 -0.0017455664 -0.00034543101 -0.0014717341 -0.69765294 0.1199534
550000000 -0.68259513 0.12390838 -0.0007894435 -0.0010581443 0.00012074312 -0.002008362 -0.69715989 0.11969583
551000000 -0.68316633 0.12373666 -0.0010194147 -0.0015942984 -0.00084309746 -0.00080967112 -0.69602525 0.1202019
552000000 -0.68345952 0.1232597 -0.00023050838 -0.0012680142 -0.00034656667 -0.0010880637 -0.69626361 0.11940727
553000000 -0.68287086 0.12461212 -0.00038770001 -0.0011306334 -0.00081303675 -0.0015432802 -0.69680363 0.11917569
554000000 -0.68430543 0.12353867 -5.9448216e-006 -0.0015763284 -0.00047135769 -0.0016188064 -0.69688708 0.11922175
555000000 -0.68364984 0.12457456 -0.0001673972 -0.0013642152 0.00013691951 -0.0011873021 -0.69623119 0.11963189
556000000 -0.68339622 0.12292128 -0.00056667603 -0.0015099719 -0.00057733513 -0.0020430693 -0.69681573 0.12078261
557000000 -0.68264008 0.12411579 -0.00013559351 -0.0014582876 -0.00041982954 -0.0019199476 -0.69760376 0.12043809
558000000 -0.68318915 0.12406015 -0.00036308891 -0.0014406246 -0.00019852009 -0.0014219978 -0.69698691 0.12086857
559000000 -0.68296832 0.12492798 5.0228384e-005 -0.0014503945 -0.00023338439 -0.0013427485 -0.6972397 0.12130718
560000000 -0.68208987 0.12426716 -0.00051912764 -0.00085363787 -0.00047321065 -0.0015697801 -0.69662064 0.12070031
561000000 -0.682863 0.12512617 -0.00023629579 -0.0016578631 -0.00034951422 -0.0012075488 -0.69695723 0.12106007
562000000 -0.68199587 0.12628222 -0.00039338265 -0.0016681665 -0.00065761514 -0.0013756758 -0.69623888 0.12096336
563000000 -0.68143898 0.12557088 -0.00092064543 -0.001328724 -0.00042014782 -0.0019273729 -0.69664115 0.12147143
564000000 -0.68385673 0.12540796 -0.00042184716 -0.0019245562 -0.0006169905 -0.0015000246 -0.69657856 0.12228976
565000000 -0.68236279 0.12560402 -0.00038333324 -0.0015709151 -0.00035772848 -0.0011260622 -0.69733727 0.122438
566000000 -0.68291152 0.12564567 -0.00072016957 -0.0012019444 -0.0009783064 -0.0011124089 -0.69761378 0.12177975
567000000 -0.68266213 0.12589484 -0.00011488429 -0.0014081541 -0.00045137544 -0.0010228892 -0.69697529 0.12386259
568000000 -0.68160564 0.12658338 -0.00053991959 -0.0012691945 -0.00084140641 -0.0017431517 -0.69688988 0.122438
569000000 -0.68218559 0.12595169 -6.3145846e-005 -0.0017339211 -0.00027302824 -0.0014230055 -0.69614202 0.12319116
570000000 -0.68305898 0.12693672 -0.00055189733 -0.0011701931 -0.00080580515 -0.0014015189 -0.69731784 0.12286701
571000000 -0.68253124 0.12630358 -0.00017855885 -0.0013266143 -1.1452779e-005 -0.0017935673 -0.69710457 0.12260012
572000000 -0.68167484 0.1265208 -0.00012713467 -0.0016419892 -0.00024800125 -0.001024044 -0.69587988 0.12327009
573000000 -0.68159074 0.12752958 -0.0009732265 -0.0019559155 -0.00084390328 -0.00187068 -0.69742286 0.12248822
574000000 -0.68163955 0.12706313 -0.00042822649 -0.0011871095 -0.00079980062 -0.0013937018 -0.6962617 0.12464698
575000000 -0.68106967 0.12716959 -0.00029875772 -0.0012418699 -0.0001865763 -0.001173932 -0.69728112 0.12334984
576000000 -0.68063509 0.12873822 -0.00017016128 -0.0011591169 -0.00088342931 -0.00099956361 -0.69658679 0.12433953
577000000 -0.68206155 0.12805542 -0.00032085902 -0.0017208625 0.00022952686 -0.0018611879 -0.69717622 0.12432772
578000000 -0.68143868 0.12744154 -0.0006204627 -0.0014915905 -0.00049853808 -0.0013364463 -0.69638449 0.12455181
579000000 -0.68190217 0.12839043 9.5454678e-005 -0.0012563413 -0.00056493212 -0.001257833 -0.69566214 0.12427127
580000000 -0.68145114 0.12867652 -0.00039311487 -0.0018816052 -1.0082875e-005 -0.0016404599 -0.69671506 0.12563807
581000000 -0.68129647 0.12878136 0.00037044409 -0.0014315619 0.00049136538 -0.0016806173 -0.69658369 0.12496202
582000000 -0.68132043 0.12835495 -0.00032143574 -0.0014182862 -0.00081599253 -0.0014749275 -0.69670469 0.12519056
583000000 -0.68123811 0.12927325 -0.00067539641 -0.0015075203 -0.00057401607 -0.0012593063 -0.69656944 0.12579335
584000000 -0.68170434 0.13000505 -0.0005844307 -0.0011024057 -0.00077003118 -0.0013854788 -0.69643211 0.12554631
585000000 -0.68145782 0.13036388 -6.2018895e-005 -0.0019354656 -0.00017163146 -0.0015855465 -0.69618756 0.1260913
586000000 -0.68231493 0.1300927 -0.00067747763 -0.0012403883 4.8384198e-005 -0.0016601325 -0.69622356 0.126169
587000000 -0.68130082 0.13040613 0.00028921699 -0.0013031738 -0.00043485995 -0.0017453644 -0.69563901 0.12636024
588000000 -0.68113482 0.13090003 -0.0001107999 -0.00091245893 -0.00017294836 -0.0017327392 -0.69604421 0.12613429
589000000 -0.68176109 0.13112153 -0.0001639429 -0.0015775732 -0.00036752512 -0.0016337821 -0.69579154 0.12689608
590000000 -0.68121254 0.13039082 -0.0003650549 -0.0019781559 -0.00031831348 -0.0015478251 -0.69518316 0.12534288
591000000 -0.68114305 0.13233651 -0.0011928425 -0.00077985012 -0.00053221278 -0.0023439401 -0.69599688 0.12707883
592000000 -0.6811471 0.13148402 -0.00034462038 -0.0014586963 -0.00064629881 -0.0014242928 -0.69692737 0.12763217
593000000 -0.68169653 0.1299624 -0.00057925831 -0.0016570844 -0.00052052981 -0.0018660185 -0.69558442 0.12728152
594000000 -0.68026048 0.13156271 -0.00043426425 -0.0016179346 -0.00097968115 -0.0014096852 -0.69575429 0.1279878
595000000 -0.6817165 0.13201976 -2.8555502e-005 -0.001655623 -0.00086707773 -0.0010522952 -0.6953305 0.12832302
596000000 -0.68154061 0.13206686 0.00071819936 -0.0019522653 -0.00031412664 -0.001154396 -0.69549131 0.12869503
597000000 -0.68211234 0.13197652 -0.00071027334 -0.001719207 -0.00033896187 -0.0010265587 -0.69560796 0.12785509
598000000 -0.68003148 0.13347839 -0.00010844327 -0.0014797871 -0.00051943696 -0.0020424267 -0.69524223 0.12858181
599000000 -0.67949432 0.13297606 -0.00067156408 -0.0015909222 -1.0838319e-005 -0.0021638968 -0.69580013 0.12811536
600000000 -0.67981404 0.13334365 -0.00022388159 -0.0017873973 -0.0010052238 -0.002303357 -0.69502616 0.12941621
601000000 -0.67940295 0.13451865 -0.00060513982 -0.0014891702 -0.00046150576 -0.001545611 -0.69494539 0.13004671
602000000 -0.67996913 0.13386153 -0.00032408276 -0.0017917077 0.00024961101 -0.00069549755 -0.69540572 0.12839913
603000000 -0.68042225 0.13337101 -0.00153979 -0.0012356256 -8.5175081e-005 -0.0024709604 -0.69443816 0.12857851
604000000 -0.67982483 0.13425004 -0.00024131512 -0.0015852575 -0.00045221148 -0.0014394233 -0.69458801 0.13080011
605000000 -0.68008578 0.13551444 -0.00081847166 -0.0010519604 -1.3562017e-005 -0.00092222705 -0.6945895 0.13065086
606000000 -0.67967695 0.1360514 -2.1374628e-005 -0.0013850019 -0.00081798376 -0.00092507288 -0.69458318 0.12967686
607000000 -0.68061805 0.13441405 -0.00086939288 -0.0010562303 -0.00035747545 -0.0020284208 -0.6948356 0.12971468
608000000 -0.68012249 0.13566005 -0.0010713263 -0.0013308198 -0.00053853285 -0.0014866682 -0.69549406 0.13007113
609000000 -0.67935795 0.13630186 -0.0011098661 -0.0018819798 -0.00069769903 -0.0014182822 -0.69519418 0.13169345
610000000 -0.6799401 0.13689631 9.5385831e-006 -0.0010621636 -0.0012146912 -0.0016129484 -0.69355208 0.13156395
611000000 -0.67963773 0.13689423 -0.00022036953 -0.0017108276 -0.00067533861 -0.0020933882 -0.69459003 0.13067687
612000000 -0.680134 0.13810404 -0.00036934039 -0.0012815745 -0.00047320922 -0.00023695317 -0.69373882 0.13171355
613000000 -0.67963219 0.13671519 -0.00010270812 -0.0020810957 -3.8662114e-005 -0.0011410537 -0.69480008 0.13176419
614000000 -0.67867362 0.1372852 -0.00088981231 -0.00095393334 0.00048091734 -0.0011104187 -0.69430989 0.13281783
615000000 -0.67883712 0.13670214 -0.0002860674 -0.002095314 -0.00063589454 -0.0018489726 -0.69468284 0.13276438
616000000 -0.67931896 0.13752508 -0.00052071578 -0.0017796573 -0.00057436625 -0.0016419778 -0.6938737 0.1335213
617000000 -0.67941082 0.13782334 -0.0002003188 -0.0023719212 0.0001891053 -0.0013520713 -0.69408393 0.13320817
618000000 -0.67972583 0.1389056 -0.00041064518 -0.0014972065 -0.0003573992 -0.00078830402 -0.69353938 0.13339829
619000000 -0.6789431 0.13847265 -5.1130188e-005 -0.0017418263 -0.00058216573 -0.0017097314 -0.69308352 0.13370849
620000000 -0.67990148 0.13894436 -0.00045679268 -0.0019593046 -5.0474893e-005 -0.0019550577 -0.69404048 0.13396804
621000000 -0.6790489 0.13941027 -0.00030471326 -0.0015439967 -0.00012714668 -0.0015048042 -0.69382209 0.13435267
622000000 -0.67846709 0.13974665 -0.00031217543 -0.0011901452 -0.00012209173 -0.0018165861 -0.69330764 0.13377906
623000000 -0.68013436 0.13900466 -0.00035447933 -0.0017518131 -0.00030567797 -0.0018570543 -0.69312781 0.13387872
624000000 -0.68000984 0.13991319 0.00042844075 -0.0020067533 -0.0012032088 -0.0013908498 -0.69397056 0.13517769
625000000 -0.67815411 0.13994905 -0.00047878767 -0.0017144221 0.0001107899 -0.0017044782 -0.69385654 0.13567588
626000000 -0.67882991 0.13975389 -0.00023380305 -0.0016805535 -0.00063900248 -0.0016461648 -0.69273573 0.13502057
627000000 -0.67909676 0.1409059 -0.0012393537 -0.0016878201 -0.00079508981 -0.0010975965 -0.69353843 0.1353347
628000000 -0.67869061 0.14080386 0.00026809197 -0.0015147926 6.5702749e-005 -0.0015311094 -0.69304168 0.13591199
629000000 -0.67951536 0.14224866 -0.00056024163 -0.0021740529 -0.0013900647 -0.0013011951 -0.69296861 0.13602199
630000000 -0.67820948 0.14133281 -0.00024347952 -0.0013793961 -9.8438859e-006 -0.0018809254 -0.6940639 0.1362512
631000000 -0.6794228 0.14179988 -0.00022104257 -0.0021757099 -0.00076624559 -0.0016977765 -0.6938557 0.13658808
632000000 -0.68010044 0.14182875 -0.0002485642 -0.0010047782 -0.00031372611 -0.0018502228 -0.69411242 0.13676278
633000000 -0.6792199 0.14257482 -0.00025666165 -0.0018603073 -0.00072298734 -0.0014165604 -0.69368851 0.13601831
634000000 -0.67938393 0.14267381 9.4257681e-005 -0.0021812641 -0.00061147707 -0.0017816122 -0.69361842 0.13747403
635000000 -0.67917019 0.14316723 -0.0014196705 -0.0018163063 -0.00072194904 -0.0018058439 -0.69329578 0.13689536
636000000 -0.67787248 0.14296986 -0.0004757499 -0.0025215365 -0.00051905611 -0.0016275995 -0.69293982 0.13691762
637000000 -0.6792202 0.14276893 -0.00013109516 -0.0013922605 0.00016969151 -0.0012521796 -0.69354314 0.13706818
638000000 -0.6785869 0.14320634 -0.001004538 -0.0014724575 -0.00071056391 -0.0015588894 -0.69298768 0.13709657
639000000 -0.67896658 0.14328741 -0.00057957083 -0.0021515412 7.2588227e-005 -0.0015638733 -0.69282299 0.13784456
640000000 -0.67799777 0.1447078 -5.1624676e-005 -0.0014574064 -0.00086476363 -0.0017269972 -0.69277525 0.1376949
641000000 -0.67822897 0.14473955 6.8093184e-005 -0.0022685227 -0.0004196041 -0.0017475167 -0.69299078 0.13799082
642000000 -0.67735612 0.14475907 -0.00065754144 -0.0021021967 -0.00061301811 -0.001597959 -0.69368786 0.13875501
643000000 -0.67882293 0.14506063 -0.00061215629 -0.0022557902 -0.00015002213 -0.0020767744 -0.69335562 0.13843478
644000000 -0.67833024 0.14551117 -0.00029030116 -0.0016657317 -0.00014841855 -0.001472578 -0.69257098 0.13981283
645000000 -0.67805928 0.14524789 -0.00055693893 -0.0013209642 -0.00029291061 -0.0012457879 -0.69369793 0.13875201
646000000 -0.67822438 0.14621127 -0.00036413941 -0.0011666362 -0.00038462511 -0.0011421572 -0.69248396 0.13967277
647000000 -0.67877853 0.14589356 -0.00074088247 -0.002280927 -0.00036190607 -0.0015007739 -0.69376206 0.13915108
648000000 -0.67790478 0.1457642 -0.00012664837 -0.0014061549 -0.00012108756 -0.0017342431 -0.69330442 0.13987863
649000000 -0.67887819 0.14712438 -0.0008796989 -0.0011840996 -0.00038505069 -0.0019497592 -0.69295239 0.14073871
650000000 -0.67859018 0.14622118 -0.0010662059 -0.0017056698 -0.00042040521 -0.0016429735 -0.69294882 0.14054962
651000000 -0.67845422 0.14786959 -0.00033831876 -0.0015844536 -0.00039797876 -0.001651147 -0.69245982 0.14053479
652000000 -0.67802483 0.14614819 -0.00073641154 -0.0018517004 -0.00048994686 -0.0020833458 -0.69261569 0.14086202
653000000 -0.67807758 0.14706242 -0.00084394007 -0.0023372867 0.00034653299 -0.0023163226 -0.69258732 0.14053518
654000000 -0.67833412 0.14806977 -0.00029588063 -0.0016229444 -0.00050116127 -0.0018552949 -0.69314325 0.14012982
655000000 -0.67758465 0.14707674 -0.00099802436 -0.0021124443 -0.00019908621 -0.0017050653 -0.6919769 0.14082398
656000000 -0.67795771 0.14737061 -0.00056264875 -0.0016011023 -0.0005217162 -0.0016851347 -0.69255358 0.14206912
657000000 -0.67828143 0.14807433 7.7381541e-005 -0.0013350862 -0.00054393639 -0.0025788189 -0.69289643 0.14231399
658000000 -0.67874414 0.14863662 -0.001134934 -0.0013469537 -0.00087451196 -0.0018376705 -0.69225514 0.14175035
659000000 -0.67732006 0.14799789 -0.0005538062 -0.0017196555 -0.00071473152 -0.001135746 -0.69105011 0.14127566
660000000 -0.67760807 0.14980504 -0.00063658599 -0.0014317053 5.3899232e-005 -0.0015380337 -0.69221109 0.14268342
661000000 -0.67756641 0.14967628 4.2361247e-005 -0.0015130074 -0.00031348472 -0.0012086268 -0.69222546 0.14350632
662000000 -0.67817557 0.14873675 -0.0010666141 -0.0019501958 -0.00050721847 -0.0020276124 -0.69217277 0.14344026
663000000 -0.67710596 0.14873253 0.00013097106 -0.0015057139 -6.39383e-005 -0.0016434593 -0.69330698 0.14279595
664000000 -0.67713916 0.14932783 9.4917334e-007 -0.0012124778 -0.00070330082 -0.0017724672 -0.69275469 0.14241834
665000000 -0.67772019 0.14926478 0.00046255556 -0.0012184639 -0.00035734498 -0.0011792142 -0.69208837 0.14318369
666000000 -0.67723781 0.1500376 -0.00050268526 -0.0017201001 -0.00084250269 -0.0021185668 -0.6925801 0.14322898
667000000 -0.67749232 0.15032093 -0.00018140511 -0.0023239353 -0.00046639304 -0.0018914498 -0.69295502 0.14311987
668000000 -0.67791867 0.1500299 0.00018631849 -0.0020299454 0.00043518111 -0.0021933347 -0.69201624 0.14270823
669000000 -0.67731529 0.15025063 -0.00054475997 -0.0015495381 -0.00059554918 -0.0014116747 -0.69134778 0.14321226
670000000 -0.67775196 0.15178961 -0.0010660981 -0.0015948173 -0.0007263255 -0.0013300786 -0.69177073 0.14393353
671000000 -0.67670703 0.15083365 -0.00070443121 -0.0021944726 -0.00042562766 -0.0018351421 -0.6922397 0.14392841
672000000 -0.67726052 0.15107399 -0.00066789694 -0.0019119515 -0.00083764008 -0.0022200332 -0.69157249 0.14431015
673000000 -0.6763835 0.15106341 -0.00051552907 -0.0014195435 -0.00092674518 -0.0014897273 -0.69146752 0.14494029
