!Keysight Technologies,M9374A,MY55442783,A.12.55.05
!Date: Thursday, May 20, 2021 13:18:51
!Correction: S11(Full 2 Port(1,2)) 
!S21(Full 2 Port(1,2)) 
!S12(Full 2 Port(1,2)) 
!S22(Full 2 Port(1,2)) 
!S2P File: Measurements: S11, S21, S12, S22:
# Hz S  RI   R 50
500000000 -0.68691778 0.10044765 -0.00088345527 -0.0020252804 -0.00026679802 -0.0012860879 -0.70010918 0.095990792
501000000 -0.68789375 0.1003852 0.00014470376 -0.0012218852 -0.00029791266 -0.0011983515 -0.70204568 0.096090026
502000000 -0.68765825 0.10113031 -0.00071121601 -0.0010425637 -0.00024595266 -0.0016427048 -0.7004568 0.097063169
503000000 -0.68698722 0.10055838 -0.00068893156 -0.00065052224 -0.00029746225 -0.0010801761 -0.70088494 0.096242674
504000000 -0.68783003 0.10157695 -0.00012691721 -0.0011147937 0.00028796389 -0.0009403844 -0.70234579 0.097009078
505000000 -0.68675172 0.10091496 -8.5968881e-005 -0.001093803 0.00014078122 -0.0014649533 -0.70133913 0.096689075
506000000 -0.68749636 0.10233726 -0.00084791752 -0.0012282118 -0.00025922665 -0.0015647771 -0.70033604 0.096472271
507000000 -0.68724787 0.10219541 -0.00046081987 -0.0010628357 -0.00037319743 -0.0023096078 -0.70038092 0.097344279
508000000 -0.6877901 0.10242265 0.00030302061 -0.0013481968 -0.00072267425 -0.0015009652 -0.70083767 0.09759964
509000000 -0.6880089 0.10271916 -0.00059874513 -0.0014074491 -0.000422207 -0.0017150693 -0.70107001 0.098503806
510000000 -0.68802178 0.10309806 -0.0010980524 -0.001040285 -0.00052633561 -0.00058710779 -0.70105761 0.098191738
511000000 -0.68868095 0.10219987 -0.00017522114 -0.0022376648 -0.00010753649 -0.0014970209 -0.70126969 0.099547058
512000000 -0.68720508 0.10361706 0.00026876066 -0.0015691597 -0.00015212725 -0.0017371239 -0.70020086 0.098178059
513000000 -0.68776006 0.10423306 -0.00053792394 -0.0013696789 0.00013032637 -0.00033975876 -0.70127481 0.099809118
514000000 -0.68835253 0.1032002 -0.00028109652 -0.0011767908 -0.00027987559 -0.0010975642 -0.70079046 0.098985493
515000000 -0.6873576 0.1039385 -0.00052493735 -0.001759751 -0.00049247366 -0.000637369 -0.70000851 0.10093606
516000000 -0.68660903 0.10378506 -0.00024569174 -0.00058884494 -0.00015539004 -0.0013480681 -0.69982433 0.10025815
517000000 -0.6878612 0.10475903 -0.00095494319 -0.00094125047 -0.0014058782 -0.0012861629 -0.70044678 0.099508569
518000000 -0.68773395 0.10499366 0.00085263059 -0.0012858352 -5.2114348e-005 -0.001132258 -0.700315 0.10002249
519000000 -0.68716109 0.10530834 -0.00037878737 -0.0011525271 -0.00093600783 -0.0015285562 -0.70077139 0.1006548
520000000 -0.68745738 0.10522044 -0.00039877873 -0.0010945641 -6.1754516e-005 -0.0018085401 -0.70070142 0.10027485
521000000 -0.68793505 0.10519872 -0.0005345628 -0.0017124824 -0.00064271165 -0.0020639834 -0.70092022 0.10187519
522000000 -0.68829578 0.10513631 0.00020705722 -0.0019770195 -0.00051628402 -0.00077929936 -0.70049375 0.10173365
523000000 -0.68675184 0.10477433 -0.00043269683 -0.0013280086 -0.00051996828 -0.0013972244 -0.70008254 0.10154314
524000000 -0.68728101 0.10607938 -0.00090853288 -0.00176636 0.0003464217 -0.0016627909 -0.70054334 0.10197177
525000000 -0.68721735 0.10600483 -0.00041489513 -0.001638906 -0.00041055569 -0.0020401911 -0.69916242 0.1017813
526000000 -0.68641454 0.10576495 -0.00072431774 -0.0015124538 -0.0006434893 -0.0011632128 -0.69900697 0.10167593
527000000 -0.68835294 0.10603942 -0.00033549574 -0.0017039614 -0.00072325097 -0.0014068169 -0.70134121 0.10249058
528000000 -0.68728054 0.10676342 -5.466185e-006 -0.001450351 0.00010663448 -0.0017240419 -0.69981438 0.1029475
529000000 -0.68694574 0.10657293 -0.00066974602 -0.0017043011 -0.0006586556 -0.0014047758 -0.70034957 0.10279544
530000000 -0.68685138 0.10745507 -0.00046303048 -0.0015081081 -0.00031300081 -0.0014181525 -0.69998807 0.10237608
531000000 -0.68683147 0.1068366 -2.0552152e-005 -0.0021205638 1.2395608e-005 -0.0012645448 -0.70007139 0.10296507
532000000 -0.68710095 0.10682292 0.00016649911 -0.0019607428 0.00035156263 -0.0011943487 -0.69972825 0.10316371
533000000 -0.6872353 0.10730395 -0.00015065988 -0.0015726195 7.2630006e-005 -0.0019672727 -0.69965047 0.10304182
534000000 -0.68723887 0.10690893 -0.00017952162 -0.0017376755 -0.0005828829 -0.0016548327 -0.70035917 0.10329217
535000000 -0.68718058 0.10770199 -7.9207071e-005 -0.0009527767 0.00022507843 -0.0014927563 -0.69941574 0.10394903
536000000 -0.68732351 0.10763085 0.00051000575 -0.0017292609 -0.00054015813 -0.0013002789 -0.69851285 0.10475439
537000000 -0.68685937 0.10799206 -0.0006736358 -0.00079555891 -0.00061118841 -0.0011179416 -0.69973469 0.10426416
538000000 -0.6865443 0.10779434 0.00072987651 -0.0011060379 -0.0005089693 -0.0012615777 -0.70051694 0.10381012
539000000 -0.68737036 0.10856763 -0.00044459949 -0.0015391416 -0.00063465419 -0.001410805 -0.70060986 0.10494786
540000000 -0.68751442 0.10855245 9.3031129e-005 -0.0013245357 -0.00094508642 -0.001195336 -0.69926643 0.10434324
541000000 -0.68790948 0.10867851 0.00013673017 -0.0014850751 2.6100645e-006 -0.0012873299 -0.69942921 0.10490645
542000000 -0.68731362 0.10909022 -0.00063101156 -0.0013894144 -0.0003612501 -0.00091724371 -0.7004298 0.10474285
543000000 -0.68760908 0.1101045 -0.00044377064 -0.0014903023 -0.0002732721 -0.0016681706 -0.70003617 0.10608706
544000000 -0.68669063 0.10870603 -0.00043633473 -0.0016834514 -0.00061347667 -0.0022052675 -0.70045656 0.10501838
545000000 -0.6872319 0.10937573 -0.00092934631 -0.0016035206 -0.0002559557 -0.0012873184 -0.69924933 0.10587934
546000000 -0.68694568 0.10941149 -0.00059708435 -0.0012994595 -0.00028190474 -0.0020686949 -0.70044589 0.10557747
547000000 -0.68680221 0.10939647 2.7484917e-005 -0.00017281089 1.2099564e-005 -0.0020074965 -0.69955599 0.10584374
548000000 -0.68670571 0.10990115 -0.00041847097 -0.00058983127 -0.00048077755 -0.0010303247 -0.69912088 0.10656782
549000000 -0.68617368 0.109972 0.00011576526 -0.0016064331 -0.00078216585 -0.0011754977 -0.700037 0.10673815
550000000 -0.68650806 0.11071791 -0.00045621354 -0.0023290578 -0.00025958309 -0.0016352788 -0.69947618 0.10694048
551000000 -0.68657219 0.11013655 -0.00085075491 -0.0014022399 -0.000929448 -0.0010128001 -0.69971585 0.10653234
552000000 -0.68689889 0.10889104 -0.00023867477 -0.00090261607 -0.00091641542 -0.0013998091 -0.69975948 0.10658138
553000000 -0.6873076 0.11029084 -0.00040449802 -0.00086853886 -0.00031379407 -0.0012710827 -0.69973481 0.10625614
554000000 -0.68641657 0.11042558 -0.000502665 -0.0013695525 -8.2589315e-005 -0.001452088 -0.69991314 0.10699721
555000000 -0.68619078 0.11042146 0.00045891013 -0.0017884368 -0.00068737991 -0.0017746132 -0.6991151 0.10749682
556000000 -0.68747306 0.11019552 -0.00019721848 -0.0015032439 -8.4291176e-005 -0.0014118211 -0.69932902 0.1076738
557000000 -0.6863597 0.11089984 -0.00031885025 -0.0017257559 0.00042138118 -0.0020457115 -0.70023865 0.10721675
558000000 -0.68609732 0.11060838 -0.0003372661 -0.0011412477 -0.00033595372 -0.0016812125 -0.69943762 0.1070033
559000000 -0.68659717 0.11109045 -0.00044123415 -0.0013988168 4.8173941e-005 -0.0016815052 -0.69934398 0.10829622
560000000 -0.68558335 0.11188632 -0.00035479525 -0.0018346451 -0.00019361226 -0.0019101771 -0.69966662 0.10802614
561000000 -0.68626976 0.11136983 2.0206591e-005 -0.0013428942 -0.00039998605 -0.0013428661 -0.69950217 0.10764757
562000000 -0.68502235 0.11173338 -0.0004605533 -0.0012717716 -0.00047755448 -0.0018662928 -0.6996569 0.1075176
563000000 -0.68718368 0.11273915 -0.00034935551 -0.0013649804 -0.00038588321 -0.0013191369 -0.69929391 0.10834701
564000000 -0.68668592 0.1121653 -0.00054597016 -0.0013024781 -0.00052873767 -0.0016316263 -0.69949824 0.1082463
565000000 -0.68633401 0.11257073 -0.00044765568 -0.0014454012 -0.00060615561 -0.0010336315 -0.69959021 0.10871273
566000000 -0.68668789 0.11242659 -0.00016648469 -0.0013471034 -0.0002660215 -0.0018970544 -0.69949955 0.10922731
567000000 -0.68588597 0.11182871 -0.00042432969 -0.0019745245 -0.00077114382 -0.0017233348 -0.69832575 0.10893509
568000000 -0.68587935 0.11248986 -0.00047649321 -0.0011745284 -0.00039056118 -0.0014778321 -0.69930226 0.10841046
569000000 -0.6858924 0.11333343 -0.00025745781 -0.0014755442 -0.00023486871 -0.0018514374 -0.69971645 0.10934252
570000000 -0.68640947 0.11303477 -0.00062634173 -0.0010733994 -0.00030790776 -0.0011044781 -0.69986457 0.10885232
571000000 -0.68600196 0.11305416 -8.1631661e-005 -0.00099860458 0.00045062441 -0.0012100956 -0.69939512 0.10902639
572000000 -0.68480885 0.11285042 -0.00031221053 -0.0016461284 -0.00039287168 -0.0017256186 -0.69917321 0.10977411
573000000 -0.68606323 0.11287089 -0.00054621056 -0.0017686759 -0.00040919281 -0.0014962693 -0.69871062 0.10989527
574000000 -0.68546307 0.11361143 -0.00062198611 -0.0013663028 -0.00055754418 -0.0018809481 -0.69983536 0.10847966
575000000 -0.68596733 0.11381301 -0.00046108896 -0.0013300385 -0.00024883158 -0.0018787211 -0.7003355 0.11037054
576000000 -0.6858176 0.11373484 0.0001577893 -0.0012135289 -0.00038933186 -0.0019644047 -0.69981974 0.11088998
577000000 -0.6856696 0.11421348 -0.00020078935 -0.0014873478 -0.00085797004 -0.0019466385 -0.69928819 0.1111004
578000000 -0.68644881 0.11423566 -0.00074298511 -0.0013543817 -0.00062226033 -0.0017946576 -0.69948471 0.10951108
579000000 -0.68567836 0.11461427 -0.00047797259 -0.0010503798 -0.00026137914 -0.0013967762 -0.6990056 0.11022224
580000000 -0.68527603 0.11461819 -0.0003253684 -0.0014383197 -0.00045420884 -0.00091258582 -0.69918114 0.11020354
581000000 -0.68600285 0.1146284 -0.00051870913 -0.0014134621 -0.00035060593 -0.0019123645 -0.69955128 0.11079771
582000000 -0.68586934 0.11485286 -0.00056357507 -0.00067650049 -0.00013035996 -0.0020422831 -0.69985837 0.11084224
583000000 -0.68532199 0.1157513 -0.00036376665 -0.0014117251 -0.00075984962 -0.0021195237 -0.6992839 0.11127285
584000000 -0.68486643 0.11604639 -0.00083760259 -0.0016731116 -0.00057892897 -0.0014612586 -0.69936663 0.11196495
585000000 -0.68465376 0.1157122 -0.00045616925 -0.0011951552 -0.00070759881 -0.0016132185 -0.69863564 0.11224721
586000000 -0.68552709 0.11536234 -0.00078501535 -0.0013495854 0.00017918578 -0.0012032103 -0.69905204 0.11241555
587000000 -0.68562073 0.11631141 0.00059260539 -0.0015494104 -0.00051597564 -0.0014049321 -0.69854695 0.11223622
588000000 -0.6849196 0.11538827 -3.1546897e-005 -0.0010685206 -0.00039854 -0.0019800838 -0.69906682 0.11236209
589000000 -0.68410325 0.11684538 -0.0010276751 -0.0011491515 -0.00030035191 -0.00085795193 -0.69887823 0.11215684
590000000 -0.684295 0.11669008 -0.0005112958 -0.00078980217 -0.00069112482 -0.0017763855 -0.69832361 0.11219019
591000000 -0.68506157 0.11575299 -0.00049541611 -0.001874211 -4.4985769e-005 -0.0017727963 -0.69854885 0.11373551
592000000 -0.68521321 0.11690121 -0.00029118749 -0.0015425982 -8.7442902e-005 -0.0014094987 -0.69889015 0.11313952
593000000 -0.68467814 0.1166072 0.00029373256 -0.001712107 -0.00053795805 -0.0016116299 -0.69819057 0.11335084
594000000 -0.68565577 0.11735223 -0.00076471851 -0.0024561752 -8.4849591e-005 -0.001232891 -0.69869655 0.11347455
595000000 -0.68478382 0.11791651 0.00018040196 -0.0011359518 -0.00076506456 -0.001844727 -0.69839144 0.11366232
596000000 -0.68459558 0.11790019 0.00019327113 -0.0016422546 -0.00041607762 -0.0012489631 -0.69719857 0.11319361
597000000 -0.68528277 0.11808391 0.00033522199 -0.0011914163 -0.00065570546 -0.0014106319 -0.69828403 0.1135735
598000000 -0.68485266 0.11853852 8.7007254e-005 -0.0013852873 -0.00026132932 -0.00012015607 -0.69885868 0.1139112
599000000 -0.68395585 0.11944368 -0.00039694336 -0.0018208729 -0.00018372266 -0.0021954328 -0.69882417 0.11422096
600000000 -0.68504155 0.11889677 -0.0005424578 -0.0024330108 -0.00046932744 -0.0022002116 -0.6982792 0.11407663
601000000 -0.68444932 0.11842745 -4.2490476e-005 -0.0015413929 -4.3329786e-005 -0.002808451 -0.69929659 0.11517397
602000000 -0.68385333 0.11901794 -0.00033881923 -0.00035400607 0.00051664532 -0.0011280496 -0.69840509 0.11559405
603000000 -0.68436426 0.11943836 -0.00042272746 -0.00087431446 -0.0010144133 -0.0013641851 -0.69802731 0.11422884
604000000 -0.68291271 0.12018633 -1.6623928e-006 -0.0018025931 -0.00034050975 -0.0017349462 -0.69835407 0.11559301
605000000 -0.68415761 0.12045959 -3.1618354e-005 -0.0020433567 -0.00074469816 -0.001230053 -0.69846874 0.11570337
606000000 -0.68488175 0.11913434 -3.1170057e-005 -0.0012146133 -1.999131e-005 -0.0015728541 -0.69757223 0.11535093
607000000 -0.68365657 0.12014201 -0.0008429882 -0.001692217 -0.00025904289 -0.0016311335 -0.69801325 0.11562449
608000000 -0.68583333 0.12056959 0.00034809232 -0.0016466327 -0.0012180558 -0.0024444154 -0.69775069 0.11569211
609000000 -0.68306196 0.12229967 -9.1050504e-005 -0.0017253326 -0.00090360286 -0.0016037333 -0.69727612 0.11584061
610000000 -0.68446249 0.12089345 -0.00045995085 -0.0011959308 -0.00059107965 -0.0016241827 -0.69714355 0.11764211
611000000 -0.68345177 0.12157614 -0.0010511903 -0.0010804951 -0.00077335525 -0.0013175993 -0.69764841 0.11691225
612000000 -0.68355298 0.1218156 -0.00010987764 -0.0012017414 -0.00015558455 -0.0015354591 -0.69769239 0.11671898
613000000 -0.68357354 0.12226017 -0.00051372434 -0.0014059718 -0.00043374742 -0.0017904136 -0.69703317 0.1168396
614000000 -0.68342924 0.12236029 -6.4142521e-005 -0.0016773666 -0.00014497315 -0.001939528 -0.6981923 0.1170938
615000000 -0.68393207 0.12315989 -0.00088622799 -0.0018831642 -0.00035026329 -0.0014978992 -0.69664007 0.1184269
616000000 -0.68368471 0.12359373 0.00074517727 -0.00083558809 -0.00050507108 -0.0021831223 -0.69812143 0.11780307
617000000 -0.68276155 0.12357315 -3.2186112e-005 -0.00011719598 -0.00027637053 -0.0018820937 -0.6977796 0.1183252
618000000 -0.6844359 0.12303235 9.5604533e-005 -0.0014737301 -9.2024129e-005 -0.0010806647 -0.69720054 0.11860771
619000000 -0.68401605 0.12443677 -0.0002409177 -0.0011059204 -0.00049635279 -0.0018636207 -0.69829178 0.11805705
620000000 -0.68306637 0.1235235 -9.353325e-005 -0.0013237231 -0.00027573117 -0.0023872608 -0.69699442 0.11868975
621000000 -0.68354392 0.12367739 -0.00054557883 -0.0010566199 -0.00030273042 -0.0020794307 -0.69772255 0.11882728
622000000 -0.68341422 0.12478264 -0.00082394731 -0.0015539428 -0.00063485908 -0.00088353833 -0.69780642 0.11873832
623000000 -0.68207401 0.12405281 -2.8583494e-005 -0.0015058584 -0.00027944901 -0.0010962266 -0.69765782 0.11969776
624000000 -0.68322647 0.12503402 -0.00015372608 -0.0009754377 -0.0010014195 -0.0017048342 -0.69782013 0.11986912
625000000 -0.68331003 0.1260085 0.00017816022 -0.00097061304 -0.00096892205 -0.0016377559 -0.69709754 0.11811371
626000000 -0.68280697 0.12525162 -0.0002362872 -0.0013381132 -0.00056490413 -0.0015915207 -0.69700533 0.11961291
627000000 -0.68360716 0.12655422 -0.00035449667 -0.0014928218 -0.00059439964 -0.0020701375 -0.69734305 0.12007064
628000000 -0.68258858 0.12537822 -0.00092295208 -0.0018003937 -0.00053358084 -0.0015580923 -0.69727588 0.11988186
629000000 -0.68278927 0.12621409 -0.00040463364 -0.0024024495 0.00041826148 -0.002082373 -0.69688129 0.12124204
630000000 -0.68240011 0.1262062 -0.0010984919 -0.0013125136 -0.00089818507 -0.0013293128 -0.69618714 0.1205739
631000000 -0.68257171 0.12657398 -0.00031573474 -0.0013724873 -0.00046018485 -0.00091170374 -0.69608366 0.12174205
632000000 -0.68312538 0.12686549 -0.00083920197 -0.0021272788 9.1594178e-005 -0.0020131059 -0.69648814 0.12058363
633000000 -0.68338126 0.12658328 -0.00068938232 -0.0014998481 -0.00058034953 -0.0018717535 -0.69683063 0.12144557
634000000 -0.68359137 0.12805326 -0.00040191057 -0.0011938901 -0.0004209693 -0.0015349264 -0.69680619 0.12219955
635000000 -0.6828469 0.12755105 -0.00087896589 -0.0020735292 -0.00014896145 -0.0010787983 -0.69750845 0.1209449
636000000 -0.68337125 0.12729536 -0.00050511269 -0.0016462433 -0.00099575392 -0.0012226996 -0.69820738 0.12220269
637000000 -0.68309218 0.12680161 -4.0945193e-005 -0.0020113082 -0.0012084794 -0.0018183285 -0.6964795 0.12100767
638000000 -0.6821264 0.12840343 -0.00073026313 -0.002118472 -0.00036956489 -0.0015585523 -0.6965645 0.12238846
639000000 -0.68391305 0.12875208 6.5503984e-005 -0.0021598192 0.00059351756 -0.0017294451 -0.69723713 0.12254529
640000000 -0.68193305 0.12875773 -0.00030548769 -0.0015041964 -0.0013255258 -0.0017317155 -0.69757372 0.12221175
641000000 -0.68298173 0.12812912 -0.00043562788 -0.0022870668 -0.00018180675 -0.0015449779 -0.69603902 0.12299668
642000000 -0.68287396 0.1295042 -0.00039491832 -0.001940201 -0.0010290736 -0.0021219992 -0.69703615 0.12288187
643000000 -0.6824438 0.12991101 -0.00062076224 -0.0011306641 -0.00054697454 -0.0017006061 -0.69653291 0.12271313
644000000 -0.68292606 0.12889558 -0.00038613149 -0.0010221519 -0.00034051493 -0.0018609574 -0.69695759 0.12337728
645000000 -0.68288046 0.12948181 0.0003890791 -0.0017768807 0.00030985213 -0.0018234766 -0.69783032 0.12219458
646000000 -0.68250871 0.12943004 -0.00034378888 -0.0020673578 -0.00037851467 -0.0019349012 -0.69668442 0.12442871
647000000 -0.68292111 0.12996413 -0.00028564825 -0.0027102735 -0.00084827089 -0.001642415 -0.69733411 0.12366741
648000000 -0.6820246 0.13021846 -0.00077865814 -0.0016418127 -0.0008299122 -0.0016179737 -0.69661772 0.12331682
649000000 -0.68192589 0.13094087 -0.00032826595 -0.0017460493 -0.0011805097 -0.0016624131 -0.69641393 0.12491319
650000000 -0.68236333 0.13057297 -0.00048984814 -0.001865886 -0.00066394196 -0.00081569748 -0.6965605 0.12455214
651000000 -0.6823324 0.13027154 -0.00010786189 -0.0018917484 -0.00080880825 -0.0017309993 -0.69558871 0.12495435
652000000 -0.68303102 0.13111784 -0.00038191664 -0.00084614527 -0.00066661905 -0.0019538952 -0.69615424 0.12491515
653000000 -0.68243247 0.1316589 -0.00031142097 -0.0014427514 -0.00066922593 -0.0015806754 -0.69657582 0.12429626
654000000 -0.68205279 0.13141954 -0.00030678915 -0.0021537624 -0.00066742604 -0.0013562524 -0.6969434 0.12463018
655000000 -0.68230748 0.13203971 -0.00039026869 -0.0025280458 -4.1483723e-005 -0.00087380584 -0.69646603 0.12505838
656000000 -0.68142003 0.13241553 -0.0010384599 -0.001906443 -0.00045399551 -0.0017910914 -0.69600916 0.12552693
657000000 -0.68173879 0.13195561 -0.00011515374 -0.0020243989 -0.0010465324 -0.0020034434 -0.69700444 0.12541731
658000000 -0.68275154 0.13247186 -0.00088372361 -0.0016391112 -0.00046621982 -0.0016930772 -0.69523573 0.12690623
659000000 -0.68235344 0.13185221 -0.0011859001 -0.0017185661 -5.5843728e-005 -0.0014829331 -0.6965872 0.12611751
660000000 -0.68232167 0.13249394 -0.00043022085 -0.0019213068 -0.00084924232 -0.0016506106 -0.69576263 0.12503213
661000000 -0.68274528 0.13304186 -0.00053248875 -0.0016850857 -0.00046811232 -0.0014251977 -0.69708395 0.12621543
662000000 -0.68186772 0.13268036 -0.00076476327 -0.0021826325 -0.00015562183 -0.0020720256 -0.69611371 0.12631477
663000000 -0.68296391 0.13255814 -0.00097076863 -0.0019410414 -0.00010804726 -0.001590543 -0.6961773 0.12574349
664000000 -0.68172199 0.13265945 -0.0012866649 -0.001837223 -0.00025888821 -0.0020919093 -0.69593179 0.12663074
665000000 -0.68136936 0.13336095 -0.00069494121 -0.0014810798 -0.00024008247 -0.0017831062 -0.69668651 0.12773858
666000000 -0.68241411 0.13312419 -0.00075333862 -0.0022186621 -0.00066690921 -0.00126877 -0.69714439 0.12818432
667000000 -0.68209386 0.13366748 -0.00035305312 -0.0017574436 -0.00092970493 -0.0013819935 -0.69626719 0.12696449
668000000 -0.68374461 0.13373959 -0.00079658837 -0.0019174111 -0.00026081139 -0.0019081731 -0.69643593 0.12724112
669000000 -0.68239188 0.1337173 -0.00034626352 -0.001790434 -0.0011170963 -0.0020225486 -0.69518101 0.12683427
670000000 -0.682621 0.13439192 -0.00017536465 -0.0015930852 -0.00030012109 -0.001974253 -0.69596928 0.1289874
671000000 -0.68187946 0.1353717 -0.00026944684 -0.0014146589 -0.00043045892 -0.0021646766 -0.69667739 0.12795441
672000000 -0.68180233 0.13348062 -0.00059348717 -0.0027257018 0.00032753649 -0.0011491681 -0.69579005 0.12787172
673000000 -0.68230587 0.13500658 -0.00035500762 -0.0017768709 -0.00020359288 -0.0016098035 -0.69589841 0.12842634
