!Keysight Technologies,M9374A,MY55442783,A.12.55.05
!Date: Thursday, May 20, 2021 13:34:49
!Correction: S11(Full 2 Port(1,2)) 
!S21(Full 2 Port(1,2)) 
!S12(Full 2 Port(1,2)) 
!S22(Full 2 Port(1,2)) 
!S2P File: Measurements: S11, S21, S12, S22:
# Hz S  RI   R 50
500000000 -0.68802756 0.098887868 -4.7172503e-005 -0.0011555681 0.00018458326 -0.0020131788 -0.70127726 0.094170839
501000000 -0.68729967 0.099479415 0.00039575962 -0.0013013599 -0.00014423885 -0.0019090208 -0.70134085 0.094640628
502000000 -0.68804783 0.098233417 0.000968954 -0.0018034625 -0.00025122889 -0.00077891961 -0.70137382 0.094824478
503000000 -0.68778312 0.099380411 0.00011674281 -0.0016970123 -0.00052376947 -0.0021139216 -0.70028454 0.09534274
504000000 -0.68743372 0.099202491 0.0004475126 -0.0015808392 -0.00036990311 -0.00091042253 -0.70106804 0.095425576
505000000 -0.68712866 0.099583797 0.00055540708 -0.0014887851 5.0269904e-005 -0.0018271764 -0.70258069 0.095639043
506000000 -0.68665963 0.10018318 4.2633663e-005 -0.00098513451 -0.00052939059 -0.0011670458 -0.70086139 0.094530158
507000000 -0.6871562 0.099610977 0.00022778337 -0.0011809923 -0.00014788588 -0.001349739 -0.69978631 0.095798232
508000000 -0.68810117 0.1003913 -0.0010973137 -0.0014310615 -0.00064420846 -0.0010561727 -0.70145339 0.095377125
509000000 -0.68763733 0.10091741 -0.0004239204 -0.0015143105 0.00014904662 -0.001231059 -0.70118392 0.096124761
510000000 -0.68701684 0.10146657 -0.00079199439 -0.0022121675 0.00077369425 -0.0017047962 -0.70029163 0.096744753
511000000 -0.68725008 0.10037988 -0.00012714867 -0.0017742746 0.00021007896 -0.0020212752 -0.70196259 0.097193889
512000000 -0.68687785 0.10124329 -0.00022522667 -0.0012169736 -0.00048187823 -0.0011343218 -0.70139849 0.09696579
513000000 -0.68682778 0.10087775 0.00034478592 -0.0006370389 -5.8575723e-005 -0.0016628824 -0.70096564 0.097734876
514000000 -0.68609726 0.10071297 -0.0001542399 -0.0016312875 -0.00078687083 -0.0013011702 -0.70148188 0.09738297
515000000 -0.68815422 0.1006972 0.00014744299 -0.0011753606 -0.00077786203 -0.0014489302 -0.70034003 0.097735122
516000000 -0.68676364 0.10353284 -0.00010332029 -0.0010504917 -0.00027744548 -0.00087768259 -0.70044363 0.097943604
517000000 -0.68635279 0.10264957 0.0001305706 -0.0010951132 -0.00067813817 -0.0010724058 -0.70102733 0.09834259
518000000 -0.68693805 0.10295606 0.00072782679 -0.0013725142 -0.00027110236 -0.0013648294 -0.7009241 0.098256469
519000000 -0.68680459 0.1023861 -0.0002132128 -0.00082284957 -0.0004849328 -0.0016053333 -0.7008968 0.098909214
520000000 -0.68627203 0.10184111 8.0760801e-005 -0.0018318265 -0.00046713452 -0.0016221143 -0.70094675 0.099463657
521000000 -0.68619293 0.10340652 0.00018098058 -0.0013912299 -0.00010714414 -0.0011737243 -0.70186681 0.098908074
522000000 -0.68692791 0.10334378 -0.0006442084 -0.0012738785 -0.00088414026 -0.00067864754 -0.70070487 0.099822126
523000000 -0.6873585 0.10287326 -0.00076542387 -0.0022158339 -0.0011996207 -0.00086549792 -0.7010299 0.099137574
524000000 -0.68648857 0.10427318 -0.00064626156 -0.0011448452 -0.00060231099 -0.0021527314 -0.70009297 0.1004562
525000000 -0.68542379 0.10397492 -0.00036260285 -0.0015856181 -0.0003143379 -0.0020783381 -0.70057726 0.099507228
526000000 -0.686845 0.10347458 -0.0006272606 -0.0013164693 -0.00058651791 -0.00090456376 -0.70080018 0.10025391
527000000 -0.68762028 0.10454433 0.00064462883 -0.0016006344 0.00012896115 -0.0012097906 -0.70093799 0.10041168
528000000 -0.68619263 0.10482582 -0.00012905506 -0.0018275371 -0.00065184757 -0.0017275321 -0.69996387 0.10114373
529000000 -0.68570429 0.10413329 -0.0011195311 -0.0018903679 -0.00080492004 -0.0011507369 -0.6993615 0.10112993
530000000 -0.68634593 0.10429416 -0.0003795907 -0.0014059372 -0.00058722339 -0.0015150087 -0.70120972 0.1012614
531000000 -0.68542612 0.1047634 -8.1020284e-005 -0.001487955 -0.00030096568 -0.0011445307 -0.70011914 0.10149986
532000000 -0.68744534 0.1047665 7.9410202e-005 -0.0016266879 -0.00042737933 -0.0016919017 -0.70016927 0.10129486
533000000 -0.68619007 0.10554633 -0.00016725161 -0.0014135815 -5.7132311e-005 -0.001009707 -0.70012307 0.1025812
534000000 -0.68642008 0.10482107 -0.00060650939 -0.0014204286 0.00019597667 -0.0020638839 -0.70096111 0.10112888
535000000 -0.68654078 0.10598464 -0.00064918096 -0.0019044789 -8.8624853e-005 -0.0010898798 -0.69977105 0.10197315
536000000 -0.68661618 0.10568791 -0.00034646358 -0.0019533429 -0.00010372282 -0.0013144838 -0.69985163 0.10239572
537000000 -0.68648499 0.10577407 -0.00044907679 -0.001637229 -0.00051455759 -0.0018587395 -0.70043409 0.10157374
538000000 -0.68598723 0.10581466 -0.00021061508 -0.0016482369 -0.00062043365 -0.0014147628 -0.70063686 0.10236561
539000000 -0.686562 0.10665848 7.1576796e-005 -0.0014408297 -0.00038611129 -0.0012453742 -0.70016515 0.10301377
540000000 -0.68583935 0.1064402 -0.00024506639 -0.0015657273 -0.0010819173 -0.0015490416 -0.70090765 0.1033204
541000000 -0.68629444 0.10696923 -0.00059346651 -0.00094549666 0.00033076393 -0.0015251315 -0.70020652 0.10250635
542000000 -0.68582225 0.10727906 -0.00032249151 -0.0012977527 -0.00060390704 -0.0011919582 -0.69995904 0.10287117
543000000 -0.68711257 0.10687172 -0.00055253832 -0.001472839 -0.00087690703 -0.0011078245 -0.69968891 0.1030755
544000000 -0.68655396 0.10709871 -0.00056467351 -0.0013117837 -0.00085710455 -0.0011062104 -0.7006737 0.10364828
545000000 -0.68722618 0.10713854 -0.00063800719 -0.0015688515 7.6063436e-005 -0.0020286189 -0.69986999 0.10343508
546000000 -0.68643302 0.10843074 -0.00089516712 -0.00082677352 -0.00089660636 -0.001559119 -0.70058161 0.10333303
547000000 -0.68612397 0.10745352 -0.00034538555 -0.0015864964 1.9691217e-006 -0.00086704886 -0.70110172 0.10377763
548000000 -0.68523765 0.10782041 -0.00023126551 -0.0012968094 -0.00034897932 -0.0013574966 -0.70088398 0.10315713
549000000 -0.68678367 0.10856698 -0.00057041564 -0.0013787611 -0.00040292571 -0.0012912648 -0.7009657 0.10451256
550000000 -0.68622994 0.10708623 7.305789e-005 -0.0013317639 -0.00025079679 -0.0013784597 -0.70043397 0.10473509
551000000 -0.68622023 0.10782801 -0.00069135695 -0.0012751496 0.00056875672 -0.0012032799 -0.70096117 0.10444431
552000000 -0.68566829 0.1078731 -0.0013147134 -0.0019946485 2.0936077e-005 -0.0018753253 -0.70001239 0.10386189
553000000 -0.68576056 0.10953364 -0.00055860932 -0.0010614818 -0.00050326041 -0.0011261301 -0.69995761 0.10472499
554000000 -0.68599069 0.10756426 -0.00097970699 -0.0010437755 -0.00019233132 -0.0015861364 -0.70018405 0.10405249
555000000 -0.68554926 0.10921746 -0.00079247041 -0.0020148661 -0.00022958785 -0.0015677497 -0.69921434 0.10482905
556000000 -0.68704766 0.10842724 -0.00047117099 -0.0018946825 -0.00047678681 -0.0016065323 -0.70010185 0.10542697
557000000 -0.68595648 0.10942052 -0.00090194825 -0.0007786075 -0.00019159944 -0.0015986934 -0.70020169 0.10493249
558000000 -0.68603468 0.10991754 -0.00045822575 -0.001610775 -0.00076053489 -0.0014539099 -0.69971055 0.10518324
559000000 -0.68525898 0.10869393 -0.00070878497 -0.0010651269 0.00018313246 -0.0015911615 -0.7004922 0.10713422
560000000 -0.68487871 0.10989362 -0.00065900374 -0.001528426 -0.00060907495 -0.0018245539 -0.70025808 0.10595924
561000000 -0.68704212 0.10880267 -0.00098502124 -0.0013931125 -0.00078144995 -0.0014621818 -0.70035744 0.10550935
562000000 -0.68616498 0.10954904 8.1640443e-005 -0.001535608 -0.0002432309 -0.00080699235 -0.69983834 0.10751843
563000000 -0.68568188 0.10957775 0.00042676768 -0.001576706 -0.0001039022 -0.0017873103 -0.69972193 0.1066815
564000000 -0.68534058 0.10949908 -0.00043107051 -0.001073038 -0.00097608793 -0.001847519 -0.70084441 0.10557698
565000000 -0.68620008 0.1097519 -0.00031642106 -0.0012677852 4.9436279e-005 -0.0017778327 -0.70068836 0.10682534
566000000 -0.68506092 0.10982192 -8.5624386e-005 -0.0012527332 -0.00074100296 -0.0014494677 -0.70041537 0.10682935
567000000 -0.68558979 0.10994646 -0.00077784347 -0.0011498472 -0.00037012147 -0.0016539604 -0.69977993 0.10619552
568000000 -0.68524128 0.11078551 0.00067486486 -0.0011318523 -0.00064693601 -0.0013434222 -0.69946861 0.10604611
569000000 -0.68637621 0.11093096 0.00030621671 -0.0015893253 -0.0002201462 -0.0016811801 -0.69944447 0.10587382
570000000 -0.6856398 0.110269 -0.00041946731 -0.0012964172 -3.7863105e-005 -0.0010954982 -0.69916892 0.10751969
571000000 -0.68575674 0.11164802 0.00016471157 -0.0017945273 -4.298854e-005 -0.0015970679 -0.70023012 0.10766563
572000000 -0.68572742 0.11061017 -0.00041833747 -0.0014672903 -0.00050896627 -0.0017117489 -0.69984931 0.10812113
573000000 -0.68545127 0.11100525 -0.00061124674 -0.0020969145 -0.00060700992 -0.0018055104 -0.69998533 0.10759317
574000000 -0.68463475 0.11164794 -0.00066599005 -0.00089441147 1.336913e-005 -0.0011227609 -0.70068455 0.10876543
575000000 -0.68458521 0.11159892 7.6025106e-005 -0.0018435256 -0.00058498565 -0.0014403097 -0.69906151 0.10832409
576000000 -0.68505216 0.11014967 -0.0006188245 -0.00095595367 -0.00048633412 -0.0013956032 -0.70005268 0.109175
577000000 -0.68521023 0.11107115 -0.00083343132 -0.0012778309 0.00016986152 -0.001986454 -0.69985336 0.10897442
578000000 -0.68529499 0.1111648 -0.00025719835 -0.0020407494 0.00012855651 -0.00093291356 -0.70087427 0.1097181
579000000 -0.68460315 0.11254022 -0.00031442108 -0.0013832024 -0.00042354886 -0.0013851507 -0.69954681 0.1091762
580000000 -0.6843257 0.11230669 -0.00047434901 -0.0015522558 -0.00081728637 -0.0016111012 -0.69993639 0.10880537
581000000 -0.68445301 0.11179586 -0.00027034496 -0.001751875 -3.9359504e-005 -0.0018594734 -0.69981921 0.10897148
582000000 -0.68470126 0.11265756 -0.00028174772 -0.0015993648 -0.0009550738 -0.0019431514 -0.69953895 0.10809135
583000000 -0.68526304 0.11251087 -0.00052969536 -0.0018816642 0.00018663747 -0.0011568706 -0.70023173 0.1093867
584000000 -0.68499827 0.11254711 -0.00051261386 -0.0015078478 -0.00025645393 -0.0013707308 -0.69936454 0.11066283
585000000 -0.68470287 0.11316416 -0.00019044064 -0.001655295 -0.00067592185 -0.0013025801 -0.69914466 0.11055921
586000000 -0.68464017 0.11359301 -0.00037797863 -0.0016887187 -0.0006081576 -0.0022066161 -0.69933718 0.11053581
587000000 -0.68506819 0.11383029 -0.00055636605 -0.001620448 -0.00092806423 -0.002177956 -0.69925845 0.11087934
588000000 -0.6843012 0.11416616 -0.00021580068 -0.0014260047 -0.0002226348 -0.001731436 -0.699821 0.1104767
589000000 -0.68435049 0.11424788 -0.00058914279 -0.0013974761 -0.00074220949 -0.0012317187 -0.70013309 0.11106732
590000000 -0.68358344 0.1140764 -0.00029127175 -0.0017487713 0.00011109684 -0.0021930097 -0.69878882 0.10987891
591000000 -0.68404341 0.11502174 -0.00075338193 -0.0017512678 -0.00073744397 -0.0012154476 -0.69935346 0.11140841
592000000 -0.6842103 0.11482587 -0.00059393188 -0.0012682914 -0.0005452265 -0.0016558792 -0.69959223 0.10990303
593000000 -0.68427223 0.11443324 0.00028107708 -0.0010298792 -0.00048483085 -0.0014478724 -0.69944125 0.11094005
594000000 -0.68443584 0.11538652 -7.935497e-005 -0.0014540757 0.00030394443 -0.0012443434 -0.69966871 0.11231672
595000000 -0.68386281 0.11497009 -8.4912019e-005 -0.0013374169 -0.00039432713 -0.0013347899 -0.69949663 0.11121913
596000000 -0.6837765 0.11548499 -0.0001709191 -0.0014559305 -6.050089e-005 -0.0018626654 -0.69852084 0.11240645
597000000 -0.68331814 0.11604103 0.00015328724 -0.00095779786 3.0708488e-005 -0.0019792572 -0.69877279 0.11108425
598000000 -0.68498719 0.11632883 -8.6087966e-005 -0.0013236211 -0.00079986104 -0.0015721066 -0.69927508 0.11194831
599000000 -0.68331218 0.11651221 -0.00046772184 -0.0017886154 -0.00041775583 -0.0015442448 -0.69960183 0.11249069
600000000 -0.68436486 0.11619937 -0.00079016248 -0.0011111222 -0.00072634895 -0.0021294157 -0.69788736 0.11208479
601000000 -0.68430632 0.1170096 -0.00012375606 -0.0015493127 -0.00065339694 -0.0017263693 -0.69781816 0.11257681
602000000 -0.68372029 0.11750817 -0.0012046433 -0.0015530287 -0.00050205376 -0.0015989923 -0.69902903 0.11256456
603000000 -0.68366969 0.11756202 -0.00021964546 -0.00083990896 -8.1641258e-005 -0.0015660288 -0.69949508 0.11370775
604000000 -0.68280041 0.11750528 -1.9242352e-005 -0.0010941854 0.00038584488 -0.0016536569 -0.69849658 0.11372253
605000000 -0.68353456 0.11843316 0.00021291382 -0.0013951012 -0.0005897939 -0.0012579919 -0.69818288 0.11303999
606000000 -0.68481785 0.1178019 -0.00078480656 -0.0011468517 -0.00040688782 -0.0022288149 -0.6977312 0.11394056
607000000 -0.68407196 0.11784976 -0.0012766093 -0.0014533644 -0.0003812658 -0.0024779858 -0.69942153 0.11344367
608000000 -0.68473864 0.11816515 -0.00057324331 -0.0024856494 -0.0005633877 -0.0014170283 -0.69870275 0.1146808
609000000 -0.68340051 0.11776799 5.0258463e-005 -0.0014967973 5.9557038e-005 -0.0020134994 -0.69850326 0.11429469
610000000 -0.68380022 0.11864788 0.00011731347 -0.0019697363 -0.00045301323 -0.0015384267 -0.69841415 0.11355781
611000000 -0.68337411 0.1197576 -0.00045804979 -0.0011650386 0.00038234226 -0.0022008908 -0.69818419 0.11413813
612000000 -0.68278533 0.11907537 -0.00095880916 -0.0017466642 0.00019368145 -0.0018660391 -0.69880927 0.11512253
613000000 -0.68284374 0.12064068 -0.00099210138 -0.0019466598 -0.00029280238 -0.0017411766 -0.69851971 0.11449312
614000000 -0.68142349 0.12073819 -0.00030493666 -0.0017425085 -0.00041438657 -0.0012016335 -0.69811189 0.11553835
615000000 -0.68322229 0.12019648 -0.0002332452 -0.0020222079 0.00024406188 -0.0020407182 -0.69776779 0.11470236
616000000 -0.68303275 0.1202132 -0.0010505007 -0.0018628577 -0.00082974863 -0.0023940383 -0.69792998 0.11580566
617000000 -0.68273228 0.12118299 -0.00026165874 -0.0014336613 8.3123763e-005 -0.0010751139 -0.69838315 0.11684541
618000000 -0.68279284 0.12045176 -0.00097064959 -0.0022103216 -0.00058644265 -0.0011822307 -0.69776744 0.11667771
619000000 -0.68336231 0.12181779 -0.001521425 -0.0011968933 -0.00055413297 -0.0010260505 -0.69750166 0.11635701
620000000 -0.68296576 0.12082021 -0.00054224924 -0.0012963196 -0.00036265576 -0.0011344276 -0.69773978 0.11623413
621000000 -0.68287158 0.12124174 -0.00010788054 -0.0012291586 -0.00022587796 -0.001397396 -0.69715047 0.11676761
622000000 -0.68228555 0.12124508 -3.5178295e-005 -0.0016278585 2.5257204e-005 -0.0019810752 -0.69814616 0.11645667
623000000 -0.68256003 0.12235373 -0.00080399087 -0.00138427 -0.00049996108 -0.0011940869 -0.69718623 0.11644743
624000000 -0.6832245 0.12275642 -0.00017714901 -0.0014724693 0.0004588727 -0.0019042556 -0.69802558 0.11745313
625000000 -0.68332994 0.12302274 -0.00078205339 -0.0021088966 0.00016287506 -0.00082371524 -0.69795847 0.1175759
626000000 -0.68315417 0.12299916 2.2831668e-005 -0.00166672 -0.00023726816 -0.0015466025 -0.69702977 0.11812987
627000000 -0.68162477 0.12295699 -4.7523525e-005 -0.0019738672 0.00015889999 -0.00096843066 -0.69715315 0.11855885
628000000 -0.68238711 0.1230763 -0.0006482125 -0.0015999345 -0.000352156 -0.0022106175 -0.69815236 0.11876327
629000000 -0.68296671 0.12412924 -0.00029684129 -0.0014156847 0.00020663149 -0.0015230119 -0.69730514 0.1185865
630000000 -0.68122208 0.12421867 -3.5151763e-005 -0.00082446734 -0.00057409878 -0.0020259984 -0.69821012 0.1185312
631000000 -0.68235379 0.12444287 -0.00072698639 -0.0010673817 -0.00010727102 -0.0014662766 -0.69835871 0.11945832
632000000 -0.68182552 0.12517203 3.9495029e-005 -0.0011171864 -0.00036298734 -0.0015228468 -0.69838601 0.1182213
633000000 -0.68250602 0.12386449 -5.2389634e-005 -0.0016394091 -0.00029134989 -0.0014364284 -0.69765633 0.11883406
634000000 -0.6830309 0.12463761 0.00036334048 -0.0013861182 -0.00036464506 -0.0016037528 -0.69789493 0.11895167
635000000 -0.68349952 0.12479764 -9.0298963e-005 -0.001974623 -0.00054541929 -0.0019520636 -0.69816399 0.11967667
636000000 -0.68146086 0.12499385 -0.00060044246 -0.0016338344 -0.0013644989 -0.00185984 -0.69778526 0.12012941
637000000 -0.68237996 0.12510854 0.00041617017 -0.0013613368 -0.00033537991 -0.0018216472 -0.69727719 0.11993933
638000000 -0.68184865 0.12523727 -0.001079865 -0.0012928725 0.0001611612 -0.0019701717 -0.69849467 0.1206324
639000000 -0.68239272 0.12630244 -0.00067190919 -0.0020538336 -0.0007846572 -0.00075188116 -0.69709879 0.11995577
640000000 -0.68211627 0.12593888 0.0005510078 -0.0016782173 -0.00063243433 -0.0016383191 -0.69762969 0.12036927
641000000 -0.68155521 0.12633494 6.121066e-005 -0.0012469182 -0.00085549819 -0.0012583031 -0.69635695 0.12053528
642000000 -0.681027 0.12712051 -0.00067154336 -0.0017888467 -0.0013338159 -0.0017651765 -0.6968348 0.12055929
643000000 -0.6820398 0.1271058 -0.00040029275 -0.0011658801 -0.00013695637 -0.0014209076 -0.69840419 0.12046593
644000000 -0.68176025 0.12717731 -0.00059719995 -0.00078151282 -0.00019904236 -0.0024952728 -0.69762379 0.12162183
645000000 -0.68236536 0.1272613 -0.00010703567 -0.0010504273 -0.00060006243 -0.00087044737 -0.69805616 0.12126599
646000000 -0.68224126 0.1269778 -0.00035149287 -0.0023266203 -0.00074010465 -0.0012064374 -0.69652849 0.1221054
647000000 -0.68214989 0.12776415 -0.00075674261 -0.0010749033 -0.00067422644 -0.0022437219 -0.69710481 0.12161262
648000000 -0.68166006 0.12795649 -0.00040976447 -0.0013017422 -0.0007029025 -0.0020978262 -0.69718117 0.12194671
649000000 -0.68218195 0.1270998 -0.00014974416 -0.0016622284 -7.9181518e-005 -0.0018504008 -0.69788307 0.12319793
650000000 -0.68183041 0.12840812 0.00027903853 -0.0014722312 -0.00023905095 -0.001735431 -0.6969853 0.12297948
651000000 -0.68163836 0.12865062 -0.00042333579 -0.0022460879 -0.00046686476 -0.001410105 -0.6968739 0.12190035
652000000 -0.68268275 0.128555 -0.00090315501 -0.0016527605 0.00028546437 -0.0019806526 -0.69791281 0.12340323
653000000 -0.6820029 0.12820205 -0.00075158552 -0.00098534639 -0.00020241772 -0.0017095651 -0.69720984 0.12293222
654000000 -0.68183178 0.12861593 -0.00018968848 -0.0012724686 -0.00059015647 -0.00082990038 -0.69694263 0.12335564
655000000 -0.68285608 0.12851165 -0.00037204634 -0.0015701317 -0.00060270127 -0.0014103062 -0.69613355 0.12299515
656000000 -0.6817947 0.12878436 -0.00063999806 -0.0023557364 -0.00040915838 -0.0015725975 -0.69597524 0.12283537
657000000 -0.68220884 0.13018848 -0.00031700992 -0.0023646362 -6.0289687e-005 -0.0022927984 -0.69706833 0.12314554
658000000 -0.6832183 0.12930073 -0.00061585754 -0.0013007547 -0.00027599884 -0.0017181811 -0.69611037 0.12384069
659000000 -0.68199962 0.12985757 -2.38461e-005 -0.0024604027 -0.00065032975 -0.0022193464 -0.69654775 0.12331444
660000000 -0.68098044 0.12973028 0.00022691448 -0.0015500812 -0.0004566742 -0.00096619799 -0.6962499 0.12385859
661000000 -0.68250388 0.13037196 -0.00034536605 -0.0018938966 -0.00045380922 -0.0021271242 -0.69794548 0.12429824
662000000 -0.68196696 0.13059215 9.5739924e-005 -0.00083789788 -0.00036668731 -0.0018154123 -0.6969313 0.12428891
663000000 -0.68196207 0.13023573 -0.00051634165 -0.0024119632 9.1061425e-005 -0.0010833574 -0.69612473 0.12459753
664000000 -0.68155015 0.13070309 -0.0010496647 -0.0017611387 -9.5214993e-005 -0.00082106853 -0.69701791 0.1245
665000000 -0.68147892 0.13072324 -0.00034457847 -0.0013699324 -0.00045999608 -0.0016947003 -0.69630343 0.12542285
666000000 -0.68223745 0.13206133 -0.00061718991 -0.0011102137 -0.00068960729 -0.0020510592 -0.69769096 0.12526485
667000000 -0.68114024 0.13142754 -0.00047229588 -0.0014032113 -0.0012822666 -0.0018350435 -0.69690293 0.12558177
668000000 -0.68235791 0.13184147 -0.00055644411 -0.0011265363 -0.0013532965 -0.0016269423 -0.69652313 0.12483583
669000000 -0.68140101 0.1308427 -0.001551714 -0.0010486192 -0.0003972078 -0.0021434771 -0.69586998 0.12447438
670000000 -0.68174148 0.13184761 -0.00050872756 -0.0022500835 -0.00094996952 -0.0017173197 -0.69458532 0.12558588
671000000 -0.68136531 0.13271718 -0.00040615661 -0.0015860515 -0.00017894304 -0.0024703543 -0.69625109 0.12543339
672000000 -0.68160802 0.13152121 -0.00077421794 -0.0017842789 -0.00070167845 -0.0019803997 -0.69587153 0.12586585
673000000 -0.68118793 0.13188671 0.00062380772 -0.0015399383 0.00022464406 -0.0019662958 -0.6958757 0.12703353
