!Keysight Technologies,M9374A,MY55442783,A.12.55.05
!Date: Thursday, May 20, 2021 13:08:13
!Correction: S11(Full 2 Port(1,2)) 
!S21(Full 2 Port(1,2)) 
!S12(Full 2 Port(1,2)) 
!S22(Full 2 Port(1,2)) 
!S2P File: Measurements: S11, S21, S12, S22:
# Hz S  RI   R 50
500000000 -0.6877076 0.10205764 0.00076304871 -0.0015509116 -0.0004679102 -0.00093312032 -0.6992805 0.096748024
501000000 -0.68802816 0.10262764 -0.00055453717 -0.00097460079 -7.1367045e-005 -0.0012210242 -0.69992155 0.09811274
502000000 -0.68746632 0.10330415 -0.00041584732 -0.0021376307 2.433937e-005 -0.0010126631 -0.70044082 0.09783645
503000000 -0.68700784 0.10215408 -0.0006212701 -0.00039923383 -0.00032407188 -0.0018411456 -0.70018804 0.098596275
504000000 -0.6869297 0.1032736 0.00021888732 -0.0015921883 -0.00017238742 -0.00090547465 -0.70099175 0.097899765
505000000 -0.68806344 0.10333519 -0.00036404919 -0.0014111863 -0.00023612576 -0.0010637539 -0.70014101 0.098966338
506000000 -0.68735367 0.10361538 -0.00017398308 -0.002110777 -0.00076397281 -0.0020577868 -0.70006186 0.098581761
507000000 -0.68688035 0.10345495 -0.00047449156 -0.0015055697 -0.00012560339 -0.0016076578 -0.70095527 0.09972629
508000000 -0.68646729 0.10357101 -0.00067267305 -0.0011611163 -0.0011140555 -0.0010987666 -0.70008999 0.099335939
509000000 -0.68696219 0.10440297 -0.00023615894 -0.00093067699 -0.00058109115 -0.0012515455 -0.69944066 0.10025542
510000000 -0.68598074 0.10524873 -0.00046052053 -0.0012587063 -8.586108e-005 -0.0017956482 -0.69905162 0.10072526
511000000 -0.68628448 0.10447349 -0.00036772346 -0.0015589431 -0.00083961838 -0.0014844923 -0.70001763 0.10066639
512000000 -0.68627691 0.10310915 0.00014288085 -0.0020555616 -0.00046289389 -0.00066588534 -0.69961202 0.10093116
513000000 -0.68788606 0.10583016 -0.00069125113 -0.00043508291 -0.00097483012 -0.0010941306 -0.70086086 0.10075726
514000000 -0.68726104 0.10573411 -0.00071326812 -0.00094802579 0.00096407277 -0.0020120502 -0.70040727 0.10131269
515000000 -0.68823415 0.10580017 7.6855307e-005 -0.0013394483 -0.00038703496 -0.0016837515 -0.70092833 0.10115758
516000000 -0.68809009 0.10540926 -0.0014972917 -0.0019601088 -9.6440526e-005 -0.0012316635 -0.70081037 0.10146302
517000000 -0.68684882 0.10690266 -0.00010213687 -0.0018727853 -0.00035907057 -0.0018811035 -0.69935024 0.1019759
518000000 -0.68712455 0.10601137 -0.00044975954 -0.001485981 -0.00086286286 -0.001898689 -0.70103037 0.1014853
519000000 -0.68736291 0.10710601 -0.00044032754 -0.0017122383 2.957152e-005 -0.0015255567 -0.6994949 0.102309
520000000 -0.68599963 0.10659354 -0.00012947306 -0.0010494458 -0.0002895529 -0.0017417385 -0.69958252 0.10358807
521000000 -0.68771327 0.10698863 3.5944315e-005 -0.0012627927 -0.00053029344 -0.0018432293 -0.70001858 0.10322077
522000000 -0.68725783 0.10786381 -0.00087792811 -0.00097189011 -0.00053481234 -0.00065643771 -0.7007795 0.10353244
523000000 -0.68674815 0.10640734 -0.00030288182 -0.0015857179 -0.00074542064 -0.0014588683 -0.69985783 0.1036971
524000000 -0.68638647 0.10731263 -0.00047889809 -0.0006139091 -0.00042282313 -0.0013392936 -0.69974965 0.10351145
525000000 -0.68621618 0.10751484 5.3493382e-005 -0.0013964801 0.00021773827 -0.00082040112 -0.69972521 0.10406091
526000000 -0.6859237 0.1084557 -0.0003713608 -0.0017228685 0.0005652351 -0.0015298631 -0.69996202 0.10428873
527000000 -0.68625623 0.10787944 -0.00043698782 -0.00021760188 -0.0010866846 -0.0014738891 -0.69978994 0.10430093
528000000 -0.68596125 0.10851529 -0.00058634236 -0.0018960076 -0.00048408358 -0.0010245885 -0.69839138 0.10407491
529000000 -0.68639666 0.10939379 -1.7822334e-005 -0.0017206297 -0.00037296035 -0.0014985007 -0.69960374 0.10528769
530000000 -0.68660712 0.10966998 0.00015476382 -0.0022191901 -0.00056221546 -0.0013960408 -0.69952685 0.10389894
531000000 -0.68602532 0.10915894 -0.00035030983 -0.0010372951 -4.0429335e-005 -0.0012081974 -0.69991165 0.10529892
532000000 -0.68751538 0.10970879 -3.9378054e-005 -0.001133333 -0.00013413973 -0.0010728576 -0.69958097 0.10492247
533000000 -0.68575132 0.10955342 -0.00091128348 -0.0018102238 -0.00015530399 -0.0016932529 -0.69880027 0.10562877
534000000 -0.68634903 0.1086812 -0.00037488595 -0.0011976088 -0.00012055179 -0.00083902868 -0.70035219 0.10500375
535000000 -0.68587017 0.1103315 -0.00024116119 -0.0018510298 -0.00048196875 -0.0013732421 -0.6986782 0.10554209
536000000 -0.68596363 0.10979044 -0.0010205584 -0.0019528692 -0.00032763078 -0.0012006883 -0.69906664 0.10622997
537000000 -0.68617696 0.10972662 -0.00011275375 -0.0018624115 -0.00042338713 -0.0022569045 -0.69994068 0.10540607
538000000 -0.68569881 0.11014272 -0.0002810701 -0.0012803465 -0.00044544466 -0.0015752688 -0.69934362 0.10687962
539000000 -0.68589038 0.10985632 -0.00045638572 -0.00097375549 -0.00086855376 -0.0014372524 -0.69947052 0.1067747
540000000 -0.68624836 0.11112627 0.00020632557 -0.0015637905 -0.00022077483 -0.0017763665 -0.69943315 0.10575037
541000000 -0.68644857 0.11157634 -7.3151787e-005 -0.0012890727 -0.00020736866 -0.00039693146 -0.69852406 0.10636377
542000000 -0.68717164 0.11057445 5.8489972e-005 -0.001491309 -0.00016976809 -0.0015572431 -0.6992377 0.10702345
543000000 -0.68577343 0.11108898 1.7153139e-005 -0.0013954591 -0.0001308721 -0.0013736185 -0.69993007 0.1073797
544000000 -0.68613642 0.11146306 -0.00044669979 -0.0016228337 -6.3902684e-005 -0.00052130438 -0.69889086 0.10769595
545000000 -0.68603522 0.11158714 -0.00041388717 -0.0015118128 0.00014875135 -0.0011290559 -0.69873083 0.10733784
546000000 -0.68570876 0.1111937 -0.00055774971 -0.0014154359 0.00019977757 -0.0014504122 -0.69903404 0.10787502
547000000 -0.6871559 0.11107723 -1.6817376e-005 -0.00085474562 -0.00040965961 -0.0011685978 -0.69904035 0.10800729
548000000 -0.68629622 0.11244501 -2.6450454e-005 -0.00086619187 -0.00059976918 -0.001065568 -0.69920707 0.10787351
549000000 -0.68555361 0.11230639 -0.00024683328 -0.00072466594 -0.00051095034 -0.0016673367 -0.69963324 0.10852143
550000000 -0.68535358 0.1116975 -0.00011537903 -0.0014178578 -0.00020745062 -0.0016495812 -0.69916368 0.10869054
551000000 -0.68520069 0.11220047 -0.00038020802 -0.0014761152 -0.00011023918 -0.001737138 -0.69888061 0.10847034
552000000 -0.68652171 0.11222573 -0.00028590372 -0.0010539667 4.9311384e-005 -0.0016469542 -0.69883496 0.10884256
553000000 -0.68600446 0.11280025 -0.00020516345 -0.0013475502 0.00018261431 -0.0024985301 -0.70037401 0.10812856
554000000 -0.6860345 0.11336751 -0.00022630858 -0.0010072945 -5.9917344e-005 -0.00170227 -0.70073432 0.10817845
555000000 -0.68570876 0.11229734 -0.00060224941 -0.0010309728 -0.00051136618 -0.0010902707 -0.69902998 0.10919809
556000000 -0.68602669 0.11144764 -0.00084352592 -0.0015379746 -0.00012603239 -0.0022385982 -0.69843966 0.10835139
557000000 -0.6851005 0.11383975 0.00014937826 -0.0022091395 -4.9572292e-005 -0.0013589786 -0.69832015 0.1083709
558000000 -0.68601793 0.11290316 -0.0005081665 -0.0009747236 -0.00074139575 -0.0012264409 -0.69901311 0.10958615
559000000 -0.68523276 0.11324482 -0.00040108341 -0.0018311981 0.00035682984 -0.0019449316 -0.69893122 0.11002651
560000000 -0.68613285 0.11420623 -0.00030631266 -0.0018759521 -0.00023943768 -0.00097436138 -0.69922036 0.10908901
561000000 -0.68495208 0.11281227 -0.00050976418 -0.0014537214 -0.00094612065 -0.0010571145 -0.69780022 0.11021717
562000000 -0.68488622 0.11419326 -0.00061333308 -0.0012675959 -0.00080147362 -0.00095619314 -0.69950688 0.10997518
563000000 -0.68563509 0.11467975 -7.4184354e-005 -0.0013095504 -0.00062532106 -0.0012748133 -0.69844282 0.10989855
564000000 -0.68491679 0.1139463 -0.00019167177 -0.001130587 9.4102135e-005 -0.0015162661 -0.69932652 0.11068901
565000000 -0.68644196 0.11383165 -0.00051570724 -0.0017942402 -0.00020585583 -0.0014552083 -0.6993196 0.11018932
566000000 -0.68517089 0.11347266 -0.00041679063 -0.0009946489 -0.00013218036 -0.0015493314 -0.69786114 0.10991392
567000000 -0.6855787 0.11410206 -0.00045146691 -0.0007276471 -0.00034996422 -0.0017192368 -0.69995308 0.11115939
568000000 -0.68496102 0.11534172 -0.00062463537 -0.0013669526 -0.00045717214 -0.00070722221 -0.69823623 0.11022419
569000000 -0.68570417 0.11458472 -0.0010004814 -0.0013732738 -0.0006454406 -0.0015849738 -0.69873881 0.11052311
570000000 -0.68568063 0.11534204 -0.00044265683 -0.0016123992 5.79814e-005 -0.0016492694 -0.69877273 0.11186246
571000000 -0.68521339 0.11541188 -0.001441702 -0.0015916744 0.0002311065 -0.0012715244 -0.69907993 0.11203156
572000000 -0.68433762 0.11568682 -0.000660502 -0.0014795768 -0.00037608898 -0.0011667468 -0.69857055 0.11178135
573000000 -0.68490696 0.11642067 -0.00059868 -0.0016805799 -0.00046694613 -0.0018027087 -0.69828928 0.11215841
574000000 -0.68489027 0.11527806 -0.001020365 -0.0018354686 -0.00040820552 -0.0011603009 -0.69864559 0.11317185
575000000 -0.68554544 0.11599043 -0.0013131768 -0.0015687791 -0.00035551717 -0.0013198247 -0.69997263 0.11243133
576000000 -0.68461269 0.117235 -0.00015768794 -0.0014224394 -0.00038992669 -0.0016152041 -0.69843107 0.11373237
577000000 -0.68497574 0.1170942 -0.00047772238 -0.0011577164 -0.0007702607 -0.0010659379 -0.69878811 0.11272195
578000000 -0.68416649 0.1165192 -0.00014295981 -0.0016815609 -0.00052189117 -0.00071227696 -0.69913471 0.11352505
579000000 -0.68532282 0.11661193 -0.00069256133 -0.0012050293 0.00014415348 -0.0018365955 -0.69860172 0.11276782
580000000 -0.68460417 0.11674288 0.00014580367 -0.0016544907 0.00027445942 -0.001740713 -0.69831365 0.1128194
581000000 -0.68523622 0.11731198 -0.00046143521 -0.0020598094 0.00012746421 -0.0009453661 -0.69888049 0.11344018
582000000 -0.68525082 0.11667041 -0.00078947737 -0.0012698718 1.9111452e-005 -0.0017732716 -0.69951624 0.11314589
583000000 -0.68505502 0.11738646 -0.00063774624 -0.0013941214 -0.00010544433 -0.001729164 -0.69803149 0.11342482
584000000 -0.68467164 0.11792052 -0.00011768381 -0.001574853 0.00012376023 -0.0020275093 -0.69920856 0.11351337
585000000 -0.68381011 0.11760174 -0.00089022669 -0.001887537 -0.00053680775 -0.00088420056 -0.69802445 0.11417489
586000000 -0.68520486 0.11841018 -0.0003403927 -0.0015503947 0.0002908216 -0.0021299555 -0.6986087 0.11349191
587000000 -0.68393964 0.11957647 -8.651059e-005 -0.0014074135 -0.00081283628 -0.0012415936 -0.69822347 0.1135284
588000000 -0.6831345 0.11779018 -0.00077863759 -0.00075163128 -0.00098481122 -0.0015548022 -0.69832462 0.11526314
589000000 -0.68458998 0.11863481 0.00018124688 -0.0012115204 -0.0005989261 -0.0015630203 -0.69797462 0.11456896
590000000 -0.68400121 0.11891352 -0.00029081394 -0.0017567263 -0.00029427177 -0.0015612824 -0.69786477 0.11455803
591000000 -0.68389481 0.11848637 -0.0008539324 -0.0008491631 -0.00074983062 -0.00089968066 -0.69933581 0.11432512
592000000 -0.6853013 0.11927602 -0.00016590414 -0.0014822719 -0.00029445149 -0.0017800073 -0.69786578 0.11540725
593000000 -0.68468451 0.11868793 -0.00039014974 -0.0013635152 -0.00065815821 -0.0016690968 -0.69880176 0.11599988
594000000 -0.68426013 0.11943095 0.00037864616 -0.0015287958 -0.00077653991 -0.0019212391 -0.69827151 0.11615722
595000000 -0.68311441 0.12022903 -0.00058669678 -0.0015220568 0.00011094149 -0.0015694539 -0.69783586 0.11547086
596000000 -0.68380564 0.118901 -0.00050196401 -0.00055793807 -0.00081019331 -0.0008245557 -0.69848168 0.11623049
597000000 -0.68490565 0.12130755 -0.00081055361 -0.0014003707 -0.00070879119 -0.0021623785 -0.69758111 0.11568433
598000000 -0.68330377 0.12066575 -4.3624132e-005 -0.0015305049 -0.00037961392 -0.0014785809 -0.69878793 0.11625244
599000000 -0.68351543 0.12141199 -0.0012302761 -0.0012293983 -0.00019863431 -0.0013391287 -0.69819528 0.11620715
600000000 -0.68348455 0.12167881 -0.00022048294 -0.0015773772 -0.00048243519 -0.0012707968 -0.69796878 0.11726961
601000000 -0.68302357 0.12123841 -0.0001236275 -0.0014005923 -0.00083798479 -0.00077036797 -0.69855613 0.11647099
602000000 -0.68421674 0.1214354 -0.00060319353 -0.0015971947 -0.00021065427 -0.0013971064 -0.69824368 0.11781715
603000000 -0.68351573 0.12202016 -0.00023552249 -0.00099996256 -0.00030906286 -0.00074857153 -0.69863021 0.11784151
604000000 -0.68276286 0.12237899 -0.00096424314 -0.0010352043 -0.00096182467 -0.0011525615 -0.69691092 0.11832138
605000000 -0.68304008 0.12263764 -0.00072843145 -0.002212266 -0.00011765809 -0.0019074916 -0.69692177 0.11669044
606000000 -0.68388158 0.12266674 -0.00076662411 -0.0020828249 -0.00052643678 -0.0015698919 -0.69740617 0.11800911
607000000 -0.68357837 0.12357193 -0.00081384229 -0.0014968846 -0.00034147437 -0.00164511 -0.69840169 0.11765648
608000000 -0.68351299 0.12302729 -0.0004017051 -0.0019566419 -0.00019731359 -0.0020890019 -0.69819093 0.11795004
609000000 -0.68401706 0.12389785 -0.0005996133 -0.0014457853 -0.0001202498 -0.0021173586 -0.69705433 0.11899741
610000000 -0.68259251 0.12412658 -0.00036676647 -0.0019887546 -0.00012454261 -0.001519087 -0.69743681 0.11924869
611000000 -0.68213177 0.12454622 -0.0010187926 -0.0021509102 -0.0005509968 -0.0018413417 -0.69671392 0.11794284
612000000 -0.68351644 0.12502192 -0.00057667837 -0.0016489475 -0.00085792935 -0.0016984475 -0.69726717 0.11870141
613000000 -0.68205142 0.12426826 -0.00068356073 -0.001160866 0.00024168537 -0.001777671 -0.69775999 0.11906271
614000000 -0.68199718 0.1253366 -0.00057877554 -0.0017769467 -0.00045109709 -0.0013707591 -0.69761354 0.12041262
615000000 -0.68298721 0.12489986 -0.00051761419 -0.0013875507 -0.0005425844 -0.001724979 -0.69687653 0.11930192
616000000 -0.68336433 0.1259139 -0.00019870988 -0.0014898236 -0.00091555034 -0.0014508105 -0.6960426 0.12097887
617000000 -0.68376535 0.1248933 4.1031315e-005 -0.0020381189 -0.00078498328 -0.0016781858 -0.69664931 0.12130559
618000000 -0.68248957 0.1249161 -8.2548722e-005 -0.0019255582 -1.5517769e-005 -0.0017005291 -0.69648027 0.1207114
619000000 -0.68261319 0.12649159 -0.00055529561 -0.0019127373 -0.00011937909 -0.0014478059 -0.69800776 0.12066135
620000000 -0.68384272 0.12764834 -0.00077851844 -0.0021912216 -0.00057684811 -0.0011774132 -0.69628304 0.12111937
621000000 -0.68313235 0.12758821 -0.00037532518 -0.001170236 -0.00058458775 -0.0014747895 -0.69609189 0.12142951
622000000 -0.68301368 0.12633987 -0.00050728902 -0.0014504244 -0.00079831056 -0.0016994198 -0.69656396 0.1219526
623000000 -0.68254757 0.12804037 3.8613874e-005 -0.00077595195 -0.00059010793 -0.002367723 -0.69706398 0.12208085
624000000 -0.68283415 0.12768388 -0.00078211667 -0.0016352255 -0.0006413649 -0.0018303257 -0.69689834 0.12265684
625000000 -0.68178368 0.12830243 -0.00098862988 -0.00092133845 5.3863288e-005 -0.0017496274 -0.69617444 0.12218664
626000000 -0.68278545 0.12802772 -0.00052062009 -0.0022064627 -0.0012547062 -0.0017661803 -0.69622242 0.12254285
627000000 -0.68252182 0.12738064 -0.00031907545 -0.0019119453 -0.00021480973 -0.0017055194 -0.69674188 0.12242848
628000000 -0.68273503 0.12852249 -0.00038183073 -0.0014155544 -0.00032802654 -0.0017379887 -0.69620222 0.12350173
629000000 -0.68295389 0.12890971 -0.00026162376 -0.0011765484 -9.8510689e-005 -0.0009534157 -0.69655085 0.12238988
630000000 -0.68142444 0.12832345 -0.0006477951 -0.0015630275 -0.00086559361 -0.0018741617 -0.69628584 0.12313962
631000000 -0.68246251 0.12885778 -9.4096208e-007 -0.0013886474 6.0579667e-005 -0.0021469304 -0.69630545 0.12402311
632000000 -0.68311244 0.12942468 -0.0010432152 -0.0014429657 -0.00020623898 -0.0014504408 -0.69578397 0.12314573
633000000 -0.68173516 0.12877476 -0.00050991081 -0.0012384014 -0.00079560315 -0.0015826613 -0.69586545 0.12322167
634000000 -0.68275082 0.13024554 -6.9178568e-005 -0.0016781986 -0.00026756819 -0.001629923 -0.6970318 0.12346669
635000000 -0.68261737 0.1296224 -0.00028447559 -0.0013986607 -0.00046174548 -0.0014591224 -0.69668257 0.12369052
636000000 -0.68264574 0.13040453 -0.0002532439 -0.0026315756 -0.00053903338 -0.0015115846 -0.69614089 0.12407375
637000000 -0.68172002 0.13020664 -0.00073350512 -0.002560619 -0.00023867188 -0.00082107028 -0.69575363 0.12338129
638000000 -0.68089443 0.13017122 -0.00020046803 -0.0028139376 7.3955183e-005 -0.0018797426 -0.69477534 0.12500794
639000000 -0.68268347 0.13187474 -0.00090231962 -0.0016514629 0.00061208889 -0.0013888722 -0.69620603 0.12410841
640000000 -0.68126237 0.13069575 -0.00074495107 -0.0015742653 -0.00054635142 -0.0017588323 -0.69607162 0.12536712
641000000 -0.68223739 0.13088851 -0.001134662 -0.0014559662 -0.00018599626 -0.00094308687 -0.69608438 0.12474916
642000000 -0.68233842 0.1316348 -0.00035175437 -0.0019142462 -0.00023863321 -0.0012935203 -0.69637525 0.12559418
643000000 -0.68141329 0.13170294 -0.00038278694 -0.00167429 -6.9786744e-005 -0.0015650416 -0.69662905 0.12581834
644000000 -0.68131989 0.13213514 -0.0009150813 -0.0017294022 -0.00059712061 -0.0021711539 -0.69615698 0.12597334
645000000 -0.68195844 0.13241933 0.00023807102 -0.001509638 -0.00028606705 -0.0020150456 -0.69638687 0.12563087
646000000 -0.6818859 0.13304037 -0.00046178119 -0.001563148 -5.4447384e-005 -0.0018432039 -0.69555217 0.12662475
647000000 -0.68171465 0.13263094 0.00016116547 -0.0018294479 -0.0011709208 -0.0021644486 -0.69600338 0.12650634
648000000 -0.68145013 0.13332798 4.129234e-005 -0.0017310005 -0.0004239305 -0.0021802587 -0.69594097 0.12643643
649000000 -0.68224949 0.13223554 -0.00026800335 -0.0016763189 -0.00029492477 -0.0018714031 -0.6952849 0.12766102
650000000 -0.68188316 0.13359527 -0.00093530532 -0.0018330715 -0.00074555929 -0.0022931737 -0.69552273 0.12625347
651000000 -0.68203878 0.13393809 -0.00056954951 -0.0016486726 -0.00073573005 -0.0017901434 -0.69522023 0.12716585
652000000 -0.68163532 0.13367954 -0.0010575427 -0.001869808 -0.00054212078 -0.001509123 -0.69576544 0.12680613
653000000 -0.68132299 0.13412982 -0.00038584121 -0.001161793 0.00032268462 -0.0016088991 -0.69521701 0.12763637
654000000 -0.68112087 0.13455361 -0.0004836689 -0.0019380237 -5.6885809e-005 -0.0010153047 -0.69577664 0.12794654
655000000 -0.68167651 0.13379996 -4.0161899e-006 -0.001757612 -0.00033878663 -0.00095327391 -0.69455844 0.1283042
656000000 -0.68117565 0.13492987 -0.00078359141 -0.0016145098 6.7608409e-005 -0.0016303147 -0.69578272 0.12755491
657000000 -0.6813339 0.13443913 -8.8015986e-005 -0.0021993963 -0.00073069223 -0.0014392997 -0.6960848 0.12834272
658000000 -0.68160522 0.13434964 -0.00062937487 -0.001162018 -0.00028036532 -0.0018241435 -0.69596976 0.12694791
659000000 -0.68080091 0.1343763 -0.00021705453 -0.0017882007 -2.6266773e-005 -0.0012807298 -0.69592184 0.12917775
660000000 -0.68114841 0.1354274 -0.0011059865 -0.001467186 -0.0004238429 -0.0018114754 -0.69574988 0.12879194
661000000 -0.68125629 0.1353085 -0.00080181158 -0.0016748955 -0.00087377842 -0.0016067504 -0.69475138 0.12854695
662000000 -0.68142807 0.13449948 -0.00046160203 -0.0019603032 0.00038267666 -0.001685721 -0.6952796 0.12950762
663000000 -0.68257767 0.13608706 -0.0004103799 -0.0013555193 -3.653274e-005 -0.001513756 -0.69501907 0.12762116
664000000 -0.68098503 0.13605776 -0.00041061774 -0.0016011981 -0.00071498466 -0.0016527473 -0.69463784 0.12931143
665000000 -0.68071556 0.13568714 -0.00038076635 -0.0014221265 -0.0012651241 -0.0014469367 -0.69538236 0.1295487
666000000 -0.68185389 0.13548185 -0.0005525045 -0.0020110882 -0.0006626884 -0.0014758466 -0.69595838 0.12839742
667000000 -0.68122864 0.13669562 -0.00044805201 -0.0018614022 -0.00066827773 -0.0023014885 -0.6953699 0.12900256
668000000 -0.6809662 0.13614255 -0.00021746456 -0.0021149747 -0.00046931251 -0.0015485756 -0.69599915 0.12953076
669000000 -0.68266958 0.13694853 -0.0003762267 -0.0010710311 -0.00043961598 -0.0019998578 -0.69537717 0.12934484
670000000 -0.68129939 0.13543653 6.5103552e-005 -0.0016651532 -0.0013944374 -0.0014841137 -0.69458407 0.13069944
671000000 -0.68043959 0.13626128 -0.00027831894 -0.0021832339 -0.00097789161 -0.0012379495 -0.69437319 0.13047983
672000000 -0.68070525 0.13716902 0.0001306842 -0.001778755 -0.00054990564 -0.0019249253 -0.69456857 0.13033082
673000000 -0.68120235 0.13766782 0.00038755956 -0.0012418241 -0.00052114832 -0.0020902932 -0.69521964 0.1305277
