!Keysight Technologies,M9374A,MY55442783,A.12.55.05
!Date: Thursday, May 20, 2021 13:40:08
!Correction: S11(Full 2 Port(1,2)) 
!S21(Full 2 Port(1,2)) 
!S12(Full 2 Port(1,2)) 
!S22(Full 2 Port(1,2)) 
!S2P File: Measurements: S11, S21, S12, S22:
# Hz S  RI   R 50
500000000 -0.68268901 0.097926445 -0.00034509506 -0.001736121 -0.00017763815 -0.001761917 -0.70246285 0.0941936
501000000 -0.68454152 0.098198041 -0.00010811866 -0.00088555703 -4.3001055e-005 -0.0015183141 -0.70211738 0.094450176
502000000 -0.6843617 0.09903726 -0.00040088236 -0.0015175521 -0.00035445628 -0.0015097333 -0.70194358 0.094686307
503000000 -0.6842379 0.097743586 0.00074856385 -0.0013943847 6.9456153e-005 -0.0010554558 -0.70082814 0.09424419
504000000 -0.68422967 0.098863482 -0.00026902335 -0.0013473885 -0.00057504844 -0.0013507608 -0.70059913 0.094395064
505000000 -0.68332922 0.09760379 -0.00052992051 -0.0017342467 -3.8901591e-005 -0.00045928729 -0.69984674 0.09484043
506000000 -0.68415946 0.098841071 -0.0012014778 -0.0013475531 -0.0010347984 -0.00079084974 -0.70150709 0.095560469
507000000 -0.68297452 0.098628268 0.00021530253 -0.00056681153 -0.0010634665 -0.001130151 -0.70208514 0.095105849
508000000 -0.68428296 0.09920156 -0.00031667529 -0.0011854182 -0.00032584145 -0.0015481468 -0.70144153 0.095425256
509000000 -0.68391967 0.10001238 2.2119262e-005 -0.0011554136 -0.0010013155 -0.00086558453 -0.70038313 0.096180663
510000000 -0.68330187 0.10093329 0.00012140531 -0.0017021137 -0.0005749042 -0.0012929173 -0.70131391 0.096367121
511000000 -0.68306357 0.10122168 -0.00032023634 -0.00029020724 -0.0013776921 -0.0009160937 -0.70169944 0.097713917
512000000 -0.68308735 0.099984206 -0.00031124183 -0.001396161 -0.00020800919 -0.0012010748 -0.70159537 0.097070754
513000000 -0.68318743 0.10009906 -0.00020305153 -0.0013387091 -0.00020798422 -0.001112841 -0.70138705 0.096750185
514000000 -0.68347138 0.10045001 5.6198685e-005 -0.0011849218 -0.0004792689 -0.0012829313 -0.70118868 0.096861877
515000000 -0.68339747 0.10107742 0.00025263263 -0.00090525241 -0.0005013395 -0.0014667448 -0.70166707 0.097909704
516000000 -0.68349981 0.10159404 -0.00015465732 -0.0014794322 -0.00029948945 -0.0012920639 -0.70084333 0.097872719
517000000 -0.68371743 0.10212798 -0.00024354181 -0.0011278056 -0.00072294613 -0.00055607595 -0.70167452 0.098118298
518000000 -0.68396938 0.10115647 -0.00012700877 -0.0015406162 -0.00070465828 -0.0016611457 -0.7016601 0.097858123
519000000 -0.68395799 0.1017138 -0.00084131194 -0.0013964748 -0.00012659574 -0.0011469717 -0.70115435 0.099189647
520000000 -0.68375582 0.10133023 -0.00040750418 -0.0012646031 -0.00070611661 -0.0013080051 -0.70091128 0.098697066
521000000 -0.68324625 0.10276239 -0.00054429629 -0.0012778981 -0.0001834101 -0.0013504126 -0.70037651 0.098188266
522000000 -0.68401283 0.10249825 -0.00081049587 -0.0014003349 -0.00031748449 -0.0013887134 -0.70089138 0.098385684
523000000 -0.68325996 0.10168751 -0.00024478743 -0.0011923923 -0.00023877708 -0.0010151664 -0.7007401 0.099325001
524000000 -0.68284923 0.10185394 -0.00081159343 -0.00086201081 -0.00029182449 -0.0017142015 -0.70088369 0.099474035
525000000 -0.68305856 0.10347626 -0.00022301888 -0.0021816418 -0.00063954917 -0.0011527261 -0.69985783 0.09952303
526000000 -0.6830979 0.10173193 -0.00058851758 -0.0014576743 -0.00017915257 -0.0016865944 -0.70012349 0.10051072
527000000 -0.68246686 0.10290475 -0.00091232231 -0.0014749778 -0.00055076188 -0.00071323419 -0.70054477 0.10032314
528000000 -0.68254519 0.10483567 -0.00015197985 -0.0016099615 -0.00054297858 -0.00086715649 -0.70041108 0.10059599
529000000 -0.6822986 0.10330072 -0.00011541297 -0.0010119941 -0.00066874095 -0.0014031755 -0.70007128 0.099226929
530000000 -0.68287182 0.10481427 -0.00031322677 -0.0009171436 -0.00035196074 -0.0011820348 -0.70051348 0.1003601
531000000 -0.68270028 0.10440821 4.615392e-005 -0.0020007165 -0.00027765261 -0.00084166555 -0.70123631 0.10086314
532000000 -0.68203694 0.10465211 9.8142926e-005 -0.0014358992 -0.0005025976 -0.0016757307 -0.6996997 0.10162092
533000000 -0.68294847 0.10368265 -0.00076000835 -0.0013261397 -0.00073935982 -0.0017585399 -0.70059586 0.10114862
534000000 -0.6829983 0.1043178 -0.0003966541 -0.0013105711 -0.00067797757 -0.0015491775 -0.70053494 0.10052942
535000000 -0.68337554 0.10458034 -9.2231719e-005 -0.00091907551 -0.0004486934 -0.0012225263 -0.69980913 0.10173316
536000000 -0.68313098 0.10486382 0.00021445403 -0.0012573247 -0.00079454237 -0.001437046 -0.69989246 0.10246086
537000000 -0.68226832 0.1049182 -0.00014443189 -0.0016501439 -0.00090779655 -0.0016058119 -0.70047563 0.10243486
538000000 -0.68194032 0.10616452 -0.00014504325 -0.0011052277 -4.3990083e-005 -0.0013367925 -0.70057899 0.10142348
539000000 -0.68200916 0.10594068 -0.0010167754 -0.0010159785 0.00042680168 -0.0010895061 -0.69988918 0.10173517
540000000 -0.68265539 0.10543666 0.00018753103 -0.001229885 -0.00078510138 -0.0020739289 -0.70032972 0.10269903
541000000 -0.68224329 0.10534322 -0.00067915913 -0.0010974846 -0.0014130207 -0.0015227345 -0.70056653 0.10372425
542000000 -0.68260747 0.10619093 -4.8235594e-005 -0.0013652795 0.00039828062 -0.0011824659 -0.70030016 0.10243691
543000000 -0.68390906 0.10571095 0.00035293147 -0.001983389 -0.00032322775 -0.0010968845 -0.70004052 0.10336329
544000000 -0.68297791 0.10606501 -0.0007883666 -0.0014945066 2.6368363e-005 -0.0016625621 -0.70022357 0.1026803
545000000 -0.68312865 0.10601731 -0.00011140521 -0.0019906089 -0.00079619751 -0.0020695252 -0.69972521 0.10335138
546000000 -0.68455082 0.10615325 -0.0010443326 -0.00097192015 -0.000977666 -0.0020454451 -0.70025373 0.10358476
547000000 -0.68301576 0.10649401 -0.00099683588 -0.0019051136 0.00014969513 -0.0013877029 -0.69988769 0.10418162
548000000 -0.68263441 0.10668608 -0.0006516811 -0.0012779046 -0.00014093169 -0.00098007603 -0.69971305 0.10351009
549000000 -0.68287408 0.10679822 -0.00011693827 -0.0016385289 -3.9066483e-005 -0.0017645789 -0.69946694 0.1048347
550000000 -0.68178958 0.10679601 -0.00091162696 -0.0019868093 -0.00029659367 -0.0015311313 -0.70048857 0.10367457
551000000 -0.68262547 0.10633247 0.00021348175 -0.0010918578 -1.6804455e-005 -0.0014129453 -0.70049596 0.10417651
552000000 -0.68334901 0.10668918 -0.00086779235 -0.0010147133 -0.00069335173 -0.0013376344 -0.70058984 0.10367282
553000000 -0.68164623 0.107557 -0.0010014208 -0.0014723241 -5.3118001e-005 -0.0010735547 -0.70019364 0.10478064
554000000 -0.68268877 0.10770281 -0.00048399303 -0.0013779104 -0.00017723918 -0.0018737292 -0.70062262 0.10478513
555000000 -0.68278593 0.10760804 -0.00010304831 -0.00067447545 -7.3346062e-005 -0.0012400532 -0.70028383 0.10507763
556000000 -0.682266 0.10663667 -0.00090379652 -0.00077433966 -0.00021650906 -0.0010387049 -0.70048982 0.10569821
557000000 -0.68306994 0.10871524 -0.00070660166 -0.00075338449 -0.00044189041 -0.0014523076 -0.70084375 0.10465437
558000000 -0.68315184 0.10749571 -0.0004212897 -0.0014452341 -0.0005767711 -0.0011684141 -0.70049131 0.1051155
559000000 -0.681979 0.10730868 0.00060349837 -0.0015512175 -0.00022744438 -0.0015597414 -0.70040554 0.10576203
560000000 -0.68166292 0.10828734 0.00037657455 -0.0017046427 0.00019870025 -0.0010277844 -0.70021832 0.10593066
561000000 -0.68359768 0.10829086 0.00040591415 -0.0013488276 -0.00018884016 -0.0014503913 -0.70013493 0.1048201
562000000 -0.68235177 0.10951277 -0.0005772484 -0.0011378278 -0.000904758 -0.00029629594 -0.70030808 0.10619166
563000000 -0.68349725 0.1095914 -0.00084166694 -0.0014125677 -0.00040551132 -0.00099897955 -0.70010501 0.10599644
564000000 -0.6825245 0.10931183 -0.0012134783 -0.0016047984 -0.00038297655 -0.0016530061 -0.6998207 0.10588454
565000000 -0.68171543 0.10942917 -0.00047108476 -0.0014731823 -0.00067491597 -0.0015204417 -0.69912732 0.10705543
566000000 -0.68266523 0.10947452 -9.1746675e-005 -0.0021122207 -7.6263706e-005 -0.0019187748 -0.7004106 0.10651851
567000000 -0.68206108 0.11016703 -0.00066475273 -0.0015713497 -0.00032685362 -0.00088485709 -0.69917238 0.10636051
568000000 -0.68203753 0.10931438 6.1135725e-005 -0.001687753 0.00019958778 -0.0019101193 -0.70026976 0.10499639
569000000 -0.68225306 0.11049769 0.00028666202 -0.0014859581 -0.00042917283 -0.0017484542 -0.70069194 0.10636738
570000000 -0.68218595 0.1100548 0.000159926 -0.0010229211 0.00020234739 -0.0015093804 -0.6995613 0.10651015
571000000 -0.6824832 0.11012715 5.6424673e-005 -0.001321037 -0.00024943054 -0.00096961035 -0.70154768 0.10709348
572000000 -0.68132806 0.11102254 -0.00014466907 -0.0023718998 -0.00042848263 -0.0020580955 -0.69886076 0.10715769
573000000 -0.68177962 0.11029551 -0.00011471111 -0.0016500738 0.00023964279 -0.0014506856 -0.70066035 0.10709795
574000000 -0.68183374 0.11046295 -1.9585003e-005 -0.0019810558 -0.00042344473 -0.0020469523 -0.70048195 0.10805584
575000000 -0.68147302 0.1106925 -0.00091379788 -0.00094840897 -0.00054009946 -0.0020348055 -0.69950867 0.10797034
576000000 -0.68128365 0.11070022 -0.00031150837 -0.0015269746 -0.00071939942 -0.0015385795 -0.70014608 0.10821686
577000000 -0.68121797 0.11047369 -0.00026984239 -0.0013164488 -0.00031001357 -0.0016778283 -0.69876498 0.10737371
578000000 -0.68203688 0.1110926 -0.00031379104 -0.0018926426 -0.00010690653 -0.0011529932 -0.70080495 0.10845388
579000000 -0.68126041 0.11203551 -0.00026318105 -0.0018829351 0.00025401814 -0.0015166812 -0.70057172 0.10845272
580000000 -0.68175727 0.11063789 -0.00091460277 -0.0013755324 0.00037899401 -0.0010073626 -0.69933569 0.1091941
581000000 -0.6814931 0.1119622 -0.00070011034 -0.00098995422 0.00010201828 -0.0010246894 -0.69990128 0.10896268
582000000 -0.68265295 0.11249314 -0.00059009111 -0.0016200948 -0.00061014388 -0.0017059847 -0.69893086 0.10900672
583000000 -0.68110335 0.11235506 9.2981856e-005 -0.0010328621 -0.00016440071 -0.0013631666 -0.69954705 0.10933637
584000000 -0.68157983 0.11163346 -0.00017719717 -0.0014321478 -0.00068735168 -0.0012441748 -0.69957513 0.10962215
585000000 -0.6796574 0.11220926 -0.00037024231 -0.0014218083 -0.00067082414 -0.0018723705 -0.70012468 0.10939037
586000000 -0.68229669 0.11299748 -7.8250152e-005 -0.0015894911 -0.0008275556 -0.0014677525 -0.70006514 0.11081517
587000000 -0.68054903 0.11230276 -0.00027912436 -0.0022225045 -0.00081900257 -0.0015488528 -0.69935936 0.11044023
588000000 -0.68139917 0.11217096 -0.00020154896 -0.0020102516 -0.00069387868 -0.0012149455 -0.69901872 0.11008202
589000000 -0.68156725 0.11267656 -0.00027040133 -0.0018375032 0.00048723162 -0.0015991216 -0.69968569 0.11014513
590000000 -0.6810081 0.11326658 -0.0004827193 -0.0021703613 0.00031114562 -0.00098815234 -0.70039791 0.10980859
591000000 -0.68012297 0.11439542 -0.0009647113 -0.0013606424 0.0001011395 -0.0013519742 -0.69943303 0.11071564
592000000 -0.68047518 0.11382543 0.00060753961 -0.0014295359 -7.8663215e-005 -0.0015334565 -0.70046413 0.11068127
593000000 -0.68180305 0.11369766 -0.00079394848 -0.0018128207 -0.00059561973 -0.0017683343 -0.69964176 0.11102702
594000000 -0.68042254 0.11382964 -0.00053378864 -0.0019975684 -0.00018344064 -0.0013685706 -0.69914526 0.11097357
595000000 -0.68026847 0.11431387 -0.00061977078 -0.00095411541 -1.7002165e-005 -0.0022545697 -0.69971728 0.11135997
596000000 -0.68000716 0.11465155 -0.0011348394 -0.0018693341 -0.001034097 -0.0015580849 -0.69833559 0.11068233
597000000 -0.67986715 0.11462294 -0.00083876704 -0.0011831905 -0.0013054964 -0.0013288398 -0.69901812 0.11055809
598000000 -0.68051106 0.11589432 -0.00066827406 -0.0024804662 -0.00048250673 -0.0016831616 -0.69842678 0.11272617
599000000 -0.68075043 0.11544956 -0.0001606649 -0.001686116 -0.00036105551 -0.0015842695 -0.69906211 0.11276521
600000000 -0.68203151 0.11567808 -1.9304842e-005 -0.0022356955 -0.00050165557 -0.0010942532 -0.69916129 0.11183152
601000000 -0.68003756 0.11620831 -0.00064076029 -0.0013871542 0.00016105795 -0.0010418802 -0.69949663 0.11179124
602000000 -0.68053675 0.11596879 -0.0011292606 -0.0018322418 -0.00044267191 -0.0015191683 -0.69849896 0.11228393
603000000 -0.67972863 0.11652943 -0.00022573814 -0.0013575671 -0.00072594872 -0.0015095612 -0.69939977 0.11188977
604000000 -0.68039256 0.11729603 0.00010960064 -0.0011447943 -0.00079846045 -0.0014930479 -0.69829798 0.11186115
605000000 -0.68072885 0.11720116 -0.00050805963 -0.0012899591 -0.00018376741 -0.00072676549 -0.6982317 0.11265061
606000000 -0.68076748 0.11705568 -0.00040960478 -0.001135582 -8.7339904e-005 -0.0015887569 -0.69769526 0.11377519
607000000 -0.68077731 0.11722023 0.00013249682 -0.0012603371 4.6519635e-005 -0.001223388 -0.6987952 0.1129538
608000000 -0.68103153 0.11720609 -0.0012785068 -0.0011676362 4.0454372e-005 -0.0018767091 -0.69856137 0.11374503
609000000 -0.67927802 0.11766183 -0.00014917682 -0.0018469354 -0.00051583856 -0.0011317781 -0.69874692 0.11330913
610000000 -0.67878461 0.11821065 -0.00013083016 -0.0016315723 0.00030056637 -0.0016213889 -0.69795567 0.11453102
611000000 -0.6792872 0.11844731 -0.0011366114 -0.0013922871 -0.00049523736 -0.0023209355 -0.69856143 0.11455889
612000000 -0.68060893 0.11870445 -0.00028612674 -0.0013006945 -0.00044872548 -0.0018462637 -0.69846684 0.11382654
613000000 -0.67935514 0.1186541 0.00013153306 -0.0018392428 -0.00073609542 -0.002080116 -0.69852948 0.11489394
614000000 -0.67951697 0.11838703 0.0002266088 -0.0013363081 -0.0017576661 -0.0020098062 -0.6997323 0.11562182
615000000 -0.67931062 0.11974133 0.00019177144 -0.0014887828 -0.00032416053 -0.0018632474 -0.69769824 0.11559955
616000000 -0.68018132 0.11934637 -0.00078872382 -0.0021586909 -0.00056615513 -0.00089339499 -0.69629443 0.11534791
617000000 -0.68020123 0.11904766 -0.00036823013 -0.0019034869 -0.00043649628 -0.0018199263 -0.69743586 0.11548374
618000000 -0.67954636 0.11950721 0.00018325675 -0.0012091347 -8.028873e-005 -0.001616271 -0.6979416 0.11495757
619000000 -0.67888451 0.12005878 -0.00014287609 -0.0018864373 -0.00023113207 -0.00073538866 -0.69782656 0.11626045
620000000 -0.67932987 0.12045656 -0.00039520851 -0.0014607018 -0.00053489872 -0.0016384168 -0.69787627 0.11614241
621000000 -0.68039298 0.12048829 -0.00018845753 -0.0019396154 -0.00023807165 -0.0010434894 -0.69746017 0.11581384
622000000 -0.67970872 0.12125335 -0.00029546404 -0.0016135246 -0.00040524206 -0.0016952185 -0.69847083 0.11694907
623000000 -0.67946243 0.12051307 -0.00025348127 -0.0016450271 -0.00069480581 -0.002016729 -0.69841087 0.11730143
624000000 -0.67993671 0.12045144 -0.00031988695 -0.0016205922 -0.00031295305 -0.001935483 -0.69764501 0.11732503
625000000 -0.67943519 0.12140739 -0.00036159015 -0.0010712112 -0.00089281861 -0.00140036 -0.69789934 0.11736105
626000000 -0.67876834 0.12312164 -0.0011976771 -0.0019980259 -0.00020539385 -0.0015674356 -0.69738084 0.11781514
627000000 -0.67930579 0.12250431 -0.00042950819 -0.0017274547 -0.00070280506 -0.002201301 -0.6972661 0.11781128
628000000 -0.67914683 0.12240887 -0.00067882816 -0.0014169043 -4.0369991e-006 -0.0015060389 -0.69822991 0.11753339
629000000 -0.67924631 0.1225306 -0.0010042239 -0.002098029 -8.2787461e-005 -0.0016508149 -0.6978122 0.11789365
630000000 -0.67886055 0.12247261 -0.00043011791 -0.0016545696 -0.00041640026 -0.0018270859 -0.69822818 0.11797377
631000000 -0.67917341 0.12236867 0.00018200288 -0.0022010922 -0.0011661713 -0.001423502 -0.69742459 0.11894785
632000000 -0.67903554 0.12420096 -0.00045957451 -0.0018694453 -6.3154439e-005 -0.001036103 -0.69703954 0.11755159
633000000 -0.67924166 0.12331542 0.00021969587 -0.0018863821 -0.00077779545 -0.002071036 -0.69728053 0.11873573
634000000 -0.68028373 0.12439496 -0.0011825925 -0.0025700957 -0.00047389293 -0.0016403032 -0.69795585 0.11837907
635000000 -0.67871106 0.12378435 -0.00042595449 -0.0012212794 -0.00094744901 -0.0017424338 -0.69795507 0.11898406
636000000 -0.679138 0.12482239 -0.0010904408 -0.0014137242 -0.0012417438 -0.0010017254 -0.69764799 0.11959436
637000000 -0.67948115 0.12501255 -0.00016876005 -0.001628007 -0.00037368562 -0.0021821549 -0.69725424 0.11978424
638000000 -0.67784268 0.12504221 -0.0011728245 -0.0013741443 -0.00054068142 -0.001858035 -0.69701278 0.11988521
639000000 -0.67838764 0.12506276 -0.00034398775 -0.001674203 -0.00063183793 -0.0013767972 -0.69670647 0.11896873
640000000 -0.67859828 0.12581812 -0.00014770831 -0.0023106034 -0.00049639045 -0.0013066831 -0.69680822 0.11951746
641000000 -0.67870933 0.12499328 -0.0008833732 -0.0020719562 -0.00074681814 -0.0017784092 -0.69749963 0.12087934
642000000 -0.67836368 0.1254047 3.5834681e-005 -0.0014064976 -0.00074461167 -0.0013933871 -0.69821244 0.12138684
643000000 -0.67859799 0.12631027 -0.00025201749 -0.0017829543 -0.00063484709 -0.001310155 -0.69725984 0.12068882
644000000 -0.67879164 0.12543544 -0.00035599599 -0.001328525 -0.00032556598 -0.0019543474 -0.69761276 0.12179793
645000000 -0.67851806 0.12613529 -0.00040131164 -0.0019020295 0.00016909203 -0.00098950556 -0.69750333 0.12016369
646000000 -0.67831838 0.12613684 -0.00057934911 -0.0019783399 -0.00038687955 -0.0020196943 -0.69722742 0.12071084
647000000 -0.67864865 0.12675674 0.00051795674 -0.0011828456 -0.00085382356 -0.0019998234 -0.69740438 0.12065597
648000000 -0.67890298 0.1271262 -0.00030888981 -0.0013316053 -0.00068938505 -0.0016474148 -0.69728976 0.12132516
649000000 -0.67857409 0.12748326 -1.0573953e-006 -0.0011407199 -0.00058265968 -0.0013499007 -0.69726604 0.12214871
650000000 -0.67799723 0.12677893 4.9621522e-005 -0.0015102825 -0.0006385743 -0.0016615521 -0.69653261 0.12191738
651000000 -0.67771232 0.12685724 -0.0002254428 -0.0013994087 2.4863264e-005 -0.001714043 -0.69653922 0.12183484
652000000 -0.67767084 0.12750661 -0.00019328442 -0.0017455395 -0.00014531346 -0.0012928307 -0.69659543 0.12181139
653000000 -0.67837864 0.12752171 -0.00021967357 -0.0015518969 6.0508286e-005 -0.0013189607 -0.69646198 0.12211316
654000000 -0.67903471 0.12838189 -0.0009113659 -0.00090344704 -0.00049817329 -0.0020799546 -0.69750303 0.12191621
655000000 -0.67772633 0.12802391 -0.00036604164 -0.0014718963 -5.8457066e-005 -0.0016362987 -0.69677323 0.12305935
656000000 -0.67867404 0.12830269 -0.00038855453 -0.0022921285 -0.00030271694 -0.0013790744 -0.69678879 0.12312501
657000000 -0.67777443 0.12882622 -0.00036599435 -0.0016376671 -0.00046647844 -0.0013856743 -0.69737017 0.12188343
658000000 -0.67911226 0.12894394 -0.00013725023 -0.0011629727 -4.5396107e-005 -0.0011890299 -0.69658667 0.12360606
659000000 -0.67971087 0.12908454 -0.00081874389 -0.0019626075 -3.9626426e-005 -0.0024256606 -0.69749457 0.12373413
660000000 -0.67877799 0.12921828 -0.0010057333 -0.0012917696 -0.00096812932 -0.0011452425 -0.69706732 0.12352444
661000000 -0.67878431 0.12991793 -0.00091909914 -0.0019861392 -0.0006986559 -0.0024358733 -0.6958167 0.12314171
662000000 -0.67841017 0.12846899 -0.00048401553 -0.0012955687 -0.00071208016 -0.0015917057 -0.69644117 0.12522312
663000000 -0.67826289 0.12822947 -0.00082483608 -0.0013142126 -0.00044303201 -0.001215664 -0.69682992 0.1229068
664000000 -0.67811418 0.12952572 -0.0002908184 -0.0016286767 -0.00075585343 -0.0013133439 -0.69706881 0.12400047
665000000 -0.67796218 0.12986708 -0.00079061545 -0.0018391884 -0.00050747476 -0.0019730756 -0.69707829 0.12484124
666000000 -0.6787467 0.13036355 -0.00076541887 -0.0017279676 -0.001166485 -0.0016025002 -0.69696432 0.12357732
667000000 -0.67799813 0.12914051 -0.00010136022 -0.0018649761 -0.0008465781 -0.0015374529 -0.69640547 0.1245565
668000000 -0.67912298 0.12974845 -0.0003566888 -0.0013685743 -0.00038530244 -0.0014841696 -0.69653863 0.12457971
669000000 -0.67863154 0.12970738 4.0704119e-005 -0.0014800461 -0.00021703572 -0.0022389032 -0.69702238 0.12284965
670000000 -0.67814285 0.1303834 -0.00042782773 -0.0023907381 -0.00074206479 -0.0023146239 -0.69745475 0.12501076
671000000 -0.67733622 0.12963915 8.8275236e-005 -0.0019380812 -0.00078959542 -0.0019242035 -0.69753253 0.12386152
672000000 -0.67764479 0.13079464 -0.0004755331 -0.001736347 -0.00017729611 -0.0014527865 -0.69614911 0.12539476
673000000 -0.67834419 0.13099298 -6.8138703e-005 -0.0018816042 -0.00076388003 -0.0018372863 -0.69639838 0.12485095
