!Keysight Technologies,M9374A,MY55442783,A.12.55.05
!Date: Thursday, May 20, 2021 13:24:11
!Correction: S11(Full 2 Port(1,2)) 
!S21(Full 2 Port(1,2)) 
!S12(Full 2 Port(1,2)) 
!S22(Full 2 Port(1,2)) 
!S2P File: Measurements: S11, S21, S12, S22:
# Hz S  RI   R 50
500000000 -0.68771088 0.099142656 -0.00053029775 -0.00094659021 -4.8682447e-005 -0.0012314734 -0.70101196 0.095200129
501000000 -0.68790197 0.1002334 -0.00081717153 -0.0011425853 3.6305551e-005 -0.0011361773 -0.70149952 0.096286915
502000000 -0.68931472 0.1013465 -0.00034530912 -0.00024831801 -0.00091616355 -0.0008830328 -0.70080239 0.095476113
503000000 -0.68838429 0.10019996 0.00010765559 -0.0006307789 -0.00068224873 -0.0019311875 -0.70112932 0.097015202
504000000 -0.68816692 0.10100447 -8.9093453e-005 -0.0019093541 -0.00068031647 -0.00097825017 -0.70107257 0.095708989
505000000 -0.68777698 0.10089404 -0.00072897307 -0.00068792776 0.00010331294 -0.0012917026 -0.70068139 0.095665924
506000000 -0.68828261 0.10053559 0.0002453585 -0.001233872 -2.3120523e-005 -0.00075460377 -0.70064861 0.096250832
507000000 -0.68831742 0.10196092 -0.00020843686 -0.0013311002 -0.00011586022 -0.0012543598 -0.70090556 0.096735291
508000000 -0.68738145 0.10104385 0.00015888526 -0.00047992929 -0.0002548401 -0.0011576983 -0.70073134 0.096259043
509000000 -0.6879974 0.10150418 -0.00022027139 -0.001043267 -0.00012119159 -0.0014379049 -0.70084363 0.097304918
510000000 -0.68815094 0.1030155 -0.00038022682 -0.0014520308 -0.00039031391 -0.0013543866 -0.70090568 0.096522339
511000000 -0.68766457 0.10292284 5.2296655e-005 -0.00046174997 -3.9685707e-005 -0.0014955843 -0.70009005 0.097500384
512000000 -0.68795133 0.10188144 -5.1329211e-005 -0.0012434159 -0.00069322711 -0.0015531033 -0.70016658 0.098988898
513000000 -0.68786144 0.1023512 7.152991e-005 -0.0013600115 -0.00044423001 -0.0015048292 -0.70101839 0.097250164
514000000 -0.68756157 0.10270826 -0.00086301868 -0.0012442931 -0.00042924788 -0.00065281068 -0.70239484 0.098896548
515000000 -0.68738884 0.10364173 0.00020925193 -0.0011273569 -4.8892271e-005 -0.0018922507 -0.69992757 0.099358514
516000000 -0.68810421 0.10335799 -0.00021420114 -0.0015028931 -0.00094460411 -0.0017030312 -0.7006042 0.098688446
517000000 -0.68816489 0.10400765 3.3114015e-005 -0.00098906877 -0.00019157481 -0.0021384966 -0.69989008 0.097500078
518000000 -0.68847245 0.1029066 -0.00096907472 -0.0019121201 -0.00018267383 -0.0013055298 -0.70084065 0.09941902
519000000 -0.68786138 0.10316444 -2.1991176e-005 -0.0015079688 -0.00034889314 -0.001174432 -0.70052284 0.10009814
520000000 -0.68731803 0.10399988 -0.0010065933 -0.0017769939 -0.00083144731 -0.0016207417 -0.70062989 0.10010818
521000000 -0.68704402 0.10445856 6.6988083e-005 -0.00096384902 -0.00079233537 -0.0012612375 -0.69991225 0.10006522
522000000 -0.6891607 0.10408144 0.0001396936 -0.0013544225 9.8372009e-005 -0.0011831344 -0.69977862 0.10053753
523000000 -0.6871525 0.10373774 -0.00037469799 -0.0012118972 4.2885753e-005 -0.0011060006 -0.70072001 0.10102011
524000000 -0.68729591 0.10420851 0.00027262824 -0.00050852 -0.00063443941 -0.00040391285 -0.70016086 0.10064853
525000000 -0.6868757 0.10546328 -0.00085334445 -0.001416838 -0.00041059894 -0.0010868823 -0.69954443 0.10130387
526000000 -0.68739349 0.10660189 -0.0005839463 -0.0011214274 -0.00063572038 -0.0010161099 -0.70037585 0.10122302
527000000 -0.68722773 0.10562705 -0.00031242301 -0.0020534571 0.00067932432 -0.0014483623 -0.7005015 0.10219845
528000000 -0.68720359 0.10640158 -0.00016732734 -0.0018781339 -0.0001809339 -0.00049323967 -0.69928467 0.10173979
529000000 -0.68771237 0.10584846 -0.00057395676 -0.0014505786 2.7915918e-005 -0.0016620059 -0.70046496 0.10251848
530000000 -0.68741679 0.10673922 -0.00039674444 -0.0013939221 -7.3795374e-005 -0.0012622884 -0.69989371 0.10247329
531000000 -0.68773365 0.10610276 0.00049840141 -0.0013453318 -0.00036178439 -0.0016182099 -0.70024365 0.10202763
532000000 -0.68662077 0.10595961 -0.00092927518 -0.00090239273 -1.041645e-005 -0.0013115451 -0.69957846 0.10241459
533000000 -0.68730682 0.10553768 0.00034882993 -0.00062614062 7.3577234e-005 -0.0014660134 -0.69990033 0.10295287
534000000 -0.6872831 0.10640004 -0.00043736116 -0.00081536127 -0.00050147617 -0.0018318507 -0.70077896 0.10218132
535000000 -0.6886546 0.10725693 -0.00056260033 -0.0018507792 -0.00073382183 -0.0017305614 -0.70052725 0.10319497
536000000 -0.68797731 0.10706574 0.00038616484 -0.0010463638 -5.7748312e-006 -0.0011799557 -0.69901532 0.10334292
537000000 -0.68683732 0.10740335 -4.0988449e-005 -0.0017153161 -0.00058202737 -0.0014115534 -0.70094359 0.10328627
538000000 -0.68699539 0.10785401 -9.9922057e-005 -0.0010819841 -0.0013494054 -0.0012898144 -0.70039827 0.10383835
539000000 -0.68707967 0.10836983 -0.00038535552 -0.0018650439 -0.00077983097 -0.001996343 -0.69961464 0.10399904
540000000 -0.68688458 0.10709134 0.00080839655 -0.0021956668 -7.1662485e-005 -0.0018667518 -0.69947231 0.10315857
541000000 -0.68675828 0.10848614 -6.0893042e-005 -0.0016678153 -0.000296363 -0.0015019606 -0.70048898 0.10382889
542000000 -0.68781829 0.10874078 1.7285203e-005 -0.0011863284 -0.00039882399 -0.0015582361 -0.69999439 0.10485248
543000000 -0.68717331 0.1079244 -0.00017773488 -0.0010941045 -0.00037923187 -0.0015902253 -0.6999315 0.10463672
544000000 -0.68669438 0.10844275 -0.00085446209 -0.001561121 -9.7028533e-005 -0.0019219304 -0.70043534 0.10497976
545000000 -0.68719023 0.10873868 -0.00072129222 -0.0014954418 -0.00040526825 -0.0013871532 -0.69937313 0.10449656
546000000 -0.68669218 0.10918501 -0.0005920871 -0.001409253 -0.00052232284 -0.00043819877 -0.70029336 0.10426904
547000000 -0.68810368 0.10889956 -0.00037003512 -0.0017460453 0.00013371518 -0.0012884531 -0.70047259 0.10513484
548000000 -0.68669802 0.1082258 -0.00065906229 -0.0015805658 -0.00025820654 -0.0018126833 -0.70014119 0.10501719
549000000 -0.68765718 0.109542 -3.61739e-005 -0.0014679051 -0.0005853764 -0.00045196395 -0.70059705 0.10592047
550000000 -0.6855787 0.10916243 0.00020433003 -0.0014096142 -0.00054175151 -0.0010566048 -0.70017302 0.10551916
551000000 -0.68705499 0.1090562 -0.00023862615 -0.0016145137 -8.9215471e-005 -0.0021844283 -0.69931406 0.10556921
552000000 -0.68733549 0.10930035 -0.00045146438 -0.0014213262 7.7335069e-005 -0.0017621096 -0.70027131 0.10619191
553000000 -0.68625504 0.1099481 0.0003368943 -0.0013586408 -0.00035470229 -0.0010917798 -0.70018625 0.10555431
554000000 -0.68729436 0.10877337 -0.00016904711 -0.0014620567 -0.00061320438 -0.001322549 -0.70041156 0.10677891
555000000 -0.68709958 0.11027399 -0.00057618291 -0.0012682787 -0.00052647118 -0.0010295805 -0.70019376 0.10669631
556000000 -0.68714786 0.10925034 -0.00027566217 -0.0010090492 -0.00020756248 -0.0015238251 -0.6992684 0.10703841
557000000 -0.68662965 0.11062735 -0.00045226439 -0.001539913 -0.0016758885 -0.0009475351 -0.70028472 0.10604464
558000000 -0.68671238 0.11054921 -0.00012828343 -0.00093450025 -0.00025746896 -0.0012965444 -0.70048249 0.10655237
559000000 -0.68650043 0.11138012 -9.118444e-005 -0.00099332328 -0.00059443316 -0.0018028381 -0.69921756 0.10759009
560000000 -0.68650836 0.11119753 -0.00069904665 -0.0010462726 -0.00070009206 -0.00094664976 -0.69976497 0.10694438
561000000 -0.68655747 0.11144186 0.00032790145 -0.0019026109 -0.0013019163 -0.00072384556 -0.69973218 0.10793756
562000000 -0.68661565 0.11145011 -0.00042795026 -0.0013563576 -0.00087711983 -0.0012127017 -0.70030671 0.10808406
563000000 -0.68660736 0.11219026 -0.00028191929 -0.0018181219 -0.00052632444 -0.0017532348 -0.7007497 0.10721999
564000000 -0.68594867 0.111391 -0.00081759802 -0.0007518839 -0.00091925415 -0.0019289504 -0.69947594 0.10694146
565000000 -0.68683863 0.11164927 -0.00044501538 -0.00086943462 3.569858e-005 -0.0016129975 -0.69992769 0.10841994
566000000 -0.68761945 0.11009641 8.420353e-005 -0.0012187649 -0.00012469063 -0.0013928096 -0.69995093 0.10708727
567000000 -0.68561977 0.11248747 0.00071370328 -0.0010892375 -0.00025358476 -0.0022047008 -0.70002759 0.1082026
568000000 -0.68591362 0.11270047 -0.00017136705 -0.0012826379 -0.0012662049 -0.0015204342 -0.69970912 0.10855692
569000000 -0.6864233 0.1124631 -0.00027493821 -0.0011880843 -0.00068189146 -0.001472458 -0.69981819 0.10791501
570000000 -0.68537742 0.11230252 -0.00067831896 -0.0011392456 -0.00070413452 -0.0007796695 -0.70018792 0.10806397
571000000 -0.68752092 0.11367657 0.0002157352 -0.0015773517 -0.00043359096 -0.0011960692 -0.69946104 0.10887533
572000000 -0.68593282 0.11266239 2.8831428e-005 -0.00090684131 -0.00013844676 -0.00087383599 -0.69905496 0.10982721
573000000 -0.68602926 0.11270399 0.00010531585 -0.0011015019 -0.00047981096 -0.0017292214 -0.70120215 0.10936057
574000000 -0.68635887 0.11281402 -0.00034819986 -0.00063642749 0.00041018307 -0.0011713663 -0.69924998 0.10948908
575000000 -0.6856969 0.11363379 2.0426804e-005 -0.001818475 -0.00051347725 -0.0019133036 -0.69936764 0.10943806
576000000 -0.68522549 0.11274086 -0.00053686561 -0.0015815085 0.00013108863 -0.0010957168 -0.70012218 0.10938886
577000000 -0.68593609 0.11243028 3.1390518e-005 -0.0021542327 -0.00059209124 -0.0020889556 -0.69918507 0.10949106
578000000 -0.68522364 0.11388692 0.00035933015 -0.0016783982 0.00018476984 -0.0015753304 -0.70025492 0.11051105
579000000 -0.68539667 0.11282866 9.3780058e-005 -0.0021775945 -0.00056143041 -0.0014301172 -0.70023429 0.1099371
580000000 -0.68557733 0.11265957 -0.0010196069 -0.0016876975 -0.00043448177 -0.0010055542 -0.6990456 0.11120546
581000000 -0.6853444 0.11391866 -0.00017073905 -0.0020419767 0.00054935389 -0.0014676251 -0.70082146 0.11065176
582000000 -0.68555892 0.11341099 -0.00046517872 -0.0013032459 0.00053013326 -0.0011505878 -0.69927871 0.11051647
583000000 -0.68474388 0.11475339 -0.00015590309 -0.0020445772 -0.00066832686 -0.0012821084 -0.69966549 0.10973649
584000000 -0.68518412 0.11454859 -0.00062464736 -0.0017099872 -4.3025451e-005 -0.0010340185 -0.69901377 0.11094612
585000000 -0.68547678 0.1146697 -0.00031954056 -0.0015010438 -0.00027392589 -0.0017341957 -0.69846529 0.11126612
586000000 -0.68625325 0.11516404 -0.00010304754 -0.0012207753 -0.00032192571 -0.0012821478 -0.69868433 0.1121347
587000000 -0.68510342 0.11565462 -0.00050275587 -0.0011223521 0.00036072891 -0.0014837338 -0.69833231 0.11148427
588000000 -0.68557644 0.11639895 0.00051656232 -0.0017102261 -0.001059046 -0.001484719 -0.69936097 0.11264069
589000000 -0.68591702 0.11541822 0.00038508786 -0.0011362956 -0.00077518693 -0.00083113275 -0.69892269 0.11298804
590000000 -0.68481612 0.1159744 -0.00028666502 -0.0013665648 -0.00054250751 -0.0019523283 -0.69821572 0.11121574
591000000 -0.68515903 0.11680156 0.00040804347 -0.0012992285 8.6145708e-005 -0.0013202109 -0.69919467 0.11261755
592000000 -0.68524712 0.11536126 -0.00017133255 -0.0014617332 0.00016119034 -0.0017610133 -0.69793701 0.11176582
593000000 -0.68467343 0.1170041 -0.00064110511 -0.00080508325 -0.00024484191 -0.001208056 -0.70048994 0.11263881
594000000 -0.68447477 0.11786037 -0.0007774898 -0.001807044 -0.00026499617 -0.0010557387 -0.69862026 0.11240584
595000000 -0.68531477 0.11665259 -0.00017804405 -0.0010800909 -0.00074527116 -0.0021176285 -0.69938785 0.11291776
596000000 -0.68419337 0.11696476 -0.0005152066 -0.0016015102 2.3239705e-005 -0.0014927689 -0.69835508 0.11249878
597000000 -0.68544632 0.11701793 -0.00037502646 -0.0020613996 -0.00024572364 -0.0016112311 -0.69793874 0.11337972
598000000 -0.68467486 0.11744455 -0.00095305074 -0.0018813326 0.00018341224 -0.0010102207 -0.69923586 0.11281103
599000000 -0.68540478 0.1181979 -0.00070807169 -0.0018545031 -6.7190267e-005 -0.0019344317 -0.69849694 0.11328373
600000000 -0.68463022 0.11867392 -0.00042847364 -0.0016439763 -0.00099740527 -0.0022833471 -0.69820499 0.1134821
601000000 -0.68564194 0.11785783 4.5998142e-005 -0.0017513084 -0.00076123868 -0.0015368559 -0.69829673 0.11422894
602000000 -0.6852001 0.11886384 -0.00040342327 -0.0019066499 0.00024912658 -0.0020170901 -0.69816804 0.11431917
603000000 -0.68586254 0.11843004 -0.00024062247 -0.0018629795 -0.0004834453 -0.001560161 -0.6986596 0.11471027
604000000 -0.68358672 0.11818863 -0.00019678315 -0.001875455 -0.00060931745 -0.0022876044 -0.69834006 0.1151375
605000000 -0.68415999 0.11970185 0.00029939064 -0.0013399029 -8.0223013e-005 -0.0013328784 -0.69789672 0.11476681
606000000 -0.6837334 0.11952119 0.00014861263 -0.0016036516 0.00028966388 -0.0012828695 -0.69814885 0.11588981
607000000 -0.68455422 0.11969697 -0.00078197755 -0.0013638657 -0.00013620481 -0.0012220956 -0.69784909 0.11518941
608000000 -0.68438673 0.119753 -0.00017745126 -0.0014447517 -0.00033944548 -0.0011979248 -0.69851369 0.1145938
609000000 -0.68454194 0.12031743 -0.00075110811 -0.001351439 -0.00061010726 -0.0011668592 -0.69764704 0.11631291
610000000 -0.68419117 0.12112702 -0.00010141577 -0.002138555 -0.00037177608 -0.0012741666 -0.69803625 0.11642289
611000000 -0.683348 0.12079158 -0.00079204171 -0.001024526 -4.8584752e-005 -0.0013796585 -0.69842088 0.11620221
612000000 -0.68407875 0.12068485 -0.00021406067 -0.0021256139 -0.0012544743 -0.0015226664 -0.69847757 0.11535801
613000000 -0.68376505 0.12126201 -0.00097692048 -0.0013473592 -0.00071753201 -0.0016642563 -0.69933432 0.11698879
614000000 -0.68428171 0.1216181 -0.00027652073 -0.0013519145 -0.00085429143 -0.0019025491 -0.69859219 0.11668626
615000000 -0.68460184 0.12096136 -0.00044294371 -0.0020040069 0.00023707229 -0.0011743385 -0.69765377 0.1172011
616000000 -0.68349028 0.12208074 -0.0010119979 -0.0010986511 -0.00060321885 -0.0010521801 -0.69814575 0.11759959
617000000 -0.68375748 0.1220585 -0.00068769598 -0.0015330849 -0.00038113675 -0.0016645225 -0.6978519 0.1171146
618000000 -0.68335336 0.12279347 -0.00030590457 -0.0015257625 -0.00032960385 -0.0016163929 -0.69787639 0.11768994
619000000 -0.68425715 0.12308399 -0.0004541821 -0.0012267324 -0.00088622078 -0.0014664362 -0.69753426 0.11803051
620000000 -0.68332171 0.12289666 -0.00093625503 -0.0015163705 -0.0011944049 -0.0014148707 -0.69797367 0.11856578
621000000 -0.68425047 0.12452427 -0.0001825855 -0.0010705352 9.4331896e-005 -0.0012337684 -0.69758773 0.11771856
622000000 -0.6845082 0.12265077 -0.00064049283 -0.00125188 2.156861e-005 -0.0013280964 -0.69775498 0.11802684
623000000 -0.68342626 0.12443773 -0.00060054148 -0.0016507512 -0.00014628889 -0.0017371163 -0.6966415 0.11832982
624000000 -0.68391311 0.12424641 0.00013668906 -0.0019243048 -0.00086328562 -0.0015668774 -0.69836915 0.11827251
625000000 -0.68303549 0.12448855 0.00032402776 -0.0014356209 -0.00050352403 -0.0016300976 -0.69730693 0.11837713
626000000 -0.68361193 0.12449656 -6.496079e-005 -0.001823015 -0.00013489318 -0.0017307115 -0.69690007 0.11952854
627000000 -0.68463129 0.12457285 -0.00058242108 -0.00094482739 -0.00051267323 -0.0015434411 -0.69664294 0.11807931
628000000 -0.68326193 0.12455146 0.00070053397 -0.00097709079 -0.0007214924 -0.0014955393 -0.69592083 0.11926569
629000000 -0.68364662 0.12484404 -0.00026607618 -0.0017058037 -0.00073107082 -0.0014300557 -0.69805449 0.1204862
630000000 -0.68178272 0.12562282 -0.00066704932 -0.0014892477 -0.00051667867 -0.0016465039 -0.6982041 0.12025167
631000000 -0.68276227 0.12573525 0.00022806774 -0.00125144 -0.00057892618 -0.0019264544 -0.69755018 0.12005726
632000000 -0.68413228 0.12555155 -0.00020704526 -0.0021593706 -0.0010252574 -0.0013956793 -0.6970669 0.11991341
633000000 -0.6841473 0.12618858 -0.00013532898 -0.0019668224 -0.00035325967 -0.0010239198 -0.69691426 0.12026858
634000000 -0.68255097 0.12680873 -0.00069899531 -0.0016636135 -0.00085815322 -0.0016922388 -0.69711322 0.12081034
635000000 -0.68350136 0.1259912 -0.00057913095 -0.0013811276 -0.00063953514 -0.0022290226 -0.69779974 0.12066711
636000000 -0.68309408 0.12557371 -0.00021525854 -0.0028195293 -0.0003694878 -0.0021081141 -0.69664097 0.12099766
637000000 -0.68360692 0.12710623 -0.00099228392 -0.0018349459 -0.00095081923 -0.0020138766 -0.69688195 0.12175464
638000000 -0.68268436 0.12734373 4.3762178e-005 -0.0023817851 4.4252898e-005 -0.0016376155 -0.69718719 0.12100758
639000000 -0.68277931 0.12793805 -0.0005010087 -0.0013171068 -0.0011346088 -0.0020690951 -0.6965912 0.12130825
640000000 -0.68290925 0.12819271 0.00046464492 -0.0019930983 0.00019147052 -0.0016600165 -0.69614679 0.12150288
641000000 -0.68360656 0.1279155 4.8051634e-006 -0.0017586756 -0.0014056662 -0.001600084 -0.69672525 0.12210168
642000000 -0.68247342 0.12738203 -0.00024491324 -0.0014060863 -9.8820819e-005 -0.00098666339 -0.69696325 0.12231031
643000000 -0.68311304 0.12841801 -0.00078225118 -0.0012891766 -0.00043263327 -0.0023325405 -0.69637537 0.12189336
644000000 -0.68359852 0.1292842 -0.00090917555 -0.0016416201 -0.00017205335 -0.0010352188 -0.69768268 0.12276264
645000000 -0.68270743 0.12904464 -0.00013418005 -0.0021993683 -0.0006038408 -0.0018157542 -0.69805008 0.12249075
646000000 -0.68272704 0.12838681 -0.00073061383 -0.0015104307 -0.0001427203 -0.0018434805 -0.69534057 0.12307219
647000000 -0.68380606 0.1293024 -0.00076068274 -0.0015967955 0.00010576907 -0.0015261313 -0.69672662 0.12259638
648000000 -0.68350184 0.12954122 0.00012653763 -0.001810995 -0.00048235431 -0.001760256 -0.69634765 0.12343996
649000000 -0.68313515 0.12999523 -0.00086658564 -0.0018088792 -0.0008021195 -0.0020270478 -0.69692862 0.12383708
650000000 -0.68220371 0.12903073 -0.00091067777 -0.0020009226 -0.00018206547 -0.0018559195 -0.69746631 0.12293381
651000000 -0.68226308 0.13115755 -0.00055714004 -0.0018853245 -0.00068771647 -0.0019675894 -0.69669658 0.12374425
652000000 -0.68239659 0.13015217 -0.00075122569 -0.0022009558 -0.00044153226 -0.00062840304 -0.69638944 0.12421072
653000000 -0.68255353 0.13053122 -0.00010038514 -0.0018436294 -0.00075327361 -0.001264611 -0.69578743 0.12365708
654000000 -0.6828391 0.13128731 -6.0597409e-005 -0.0018647003 -0.00011092381 -0.00080100429 -0.69647622 0.12343709
655000000 -0.68178058 0.1298777 -0.00055114634 -0.0013836167 0.00041989068 -0.001402194 -0.69597048 0.12406702
656000000 -0.68201649 0.13043343 0.00073874899 -0.0019862049 -0.00064609433 -0.0022161778 -0.69647986 0.12485279
657000000 -0.68211651 0.13112521 -0.000611739 -0.0010906361 -0.00075481803 -0.0019997831 -0.69589138 0.12471808
658000000 -0.68294561 0.13059974 -0.00043724643 -0.0024781504 -0.00043124921 -0.001092994 -0.69606036 0.12355587
659000000 -0.68236744 0.13135666 -2.6443879e-005 -0.0016433214 -0.00069567392 -0.0018663532 -0.69565403 0.1246751
660000000 -0.68246454 0.13258168 5.0191869e-005 -0.0018927727 0.00010041095 -0.0017203646 -0.69575244 0.12474934
661000000 -0.68172085 0.13197486 -0.000481633 -0.0022003546 -0.0014672914 -0.0011777089 -0.69586593 0.12514631
662000000 -0.68222862 0.13155903 -0.00024722825 -0.001924227 -0.00026377689 -0.0016935067 -0.69600135 0.12562348
663000000 -0.68283474 0.13148643 -0.00013517107 -0.0014184798 -0.00063003605 -0.0014550077 -0.69569594 0.12556604
664000000 -0.68218493 0.13136935 -0.00019605533 -0.0011785077 -0.0010041742 -0.001569279 -0.69657463 0.12622252
665000000 -0.68198919 0.13219362 0.00011174316 -0.0018399811 -0.00066783658 -0.0021446478 -0.69632709 0.12644468
666000000 -0.68245494 0.13171105 -0.00060174672 -0.001406546 -0.00065306149 -0.0011239678 -0.69653183 0.12645863
667000000 -0.68308246 0.13309346 -0.00016558617 -0.0017072463 -0.00071390747 -0.0018789064 -0.69711864 0.1261856
668000000 -0.68312424 0.1327264 -0.00049619767 -0.0019649467 -8.1259488e-005 -0.001755319 -0.69653785 0.12505558
669000000 -0.68298531 0.13284631 -0.00051716651 -0.0019407324 -0.00061305705 -0.0019758972 -0.6956827 0.12545291
670000000 -0.68254793 0.13388568 -0.00059690478 -0.0017071082 -0.00087972247 -0.0019394266 -0.69571638 0.12633942
671000000 -0.68215919 0.13336764 -0.00082417642 -0.0019861062 -0.00067280675 -0.001442617 -0.69661093 0.12647553
672000000 -0.68231016 0.13395549 -0.00075113424 -0.0020970763 -0.00084016239 -0.0012327386 -0.69499528 0.12710817
673000000 -0.6826092 0.1327267 -0.0005670542 -0.0017903456 -0.00030448046 -0.0018997575 -0.69576687 0.12774739
