!Keysight Technologies,M9374A,MY55442783,A.12.55.05
!Date: Thursday, May 20, 2021 13:13:32
!Correction: S11(Full 2 Port(1,2)) 
!S21(Full 2 Port(1,2)) 
!S12(Full 2 Port(1,2)) 
!S22(Full 2 Port(1,2)) 
!S2P File: Measurements: S11, S21, S12, S22:
# Hz S  RI   R 50
500000000 -0.68853408 0.10004341 -9.8392382e-005 -0.00089311239 -0.00027285246 -0.0010764089 -0.70106506 0.096565314
501000000 -0.68763214 0.10116826 -0.00031798103 -0.0013862426 -7.1832801e-005 -0.0014957301 -0.70028478 0.097032025
502000000 -0.68860596 0.10185716 -0.00037722642 -0.0018982978 -0.00066740694 -0.0016240488 -0.70092535 0.096311919
503000000 -0.68793076 0.10182903 -1.193746e-005 -0.00065262424 -0.00016222103 -0.0014554755 -0.70130348 0.097722545
504000000 -0.68744153 0.10129331 0.00028793243 -0.0013730547 -0.00012100401 -0.0019103242 -0.70003849 0.097475737
505000000 -0.68720925 0.10139203 0.00029429828 -0.0018593057 -0.00057701609 -0.0021074719 -0.69958222 0.097523674
506000000 -0.68739754 0.10233672 -0.00065438641 -0.0012280378 -0.00011293255 -0.0014560723 -0.70024991 0.098627418
507000000 -0.6880098 0.10260937 -0.00023911076 -0.0016606086 0.00043533344 -0.0012584369 -0.70068169 0.099267535
508000000 -0.68747646 0.10291987 -0.00053895009 -0.0010297589 0.00047463889 -0.00086833973 -0.70019025 0.098329388
509000000 -0.68785572 0.10284316 0.00023491502 -0.00094138709 -0.0002193687 -0.0010271368 -0.70094514 0.098673634
510000000 -0.68728614 0.10327022 -0.00036663283 -0.0013291505 -0.00049488834 -0.0016771613 -0.70048088 0.099777557
511000000 -0.68691272 0.10413835 -0.00022659243 -0.0009921852 0.00034216946 -0.0013075146 -0.7001369 0.099713109
512000000 -0.6874404 0.10329422 -0.00056108116 -0.0015209414 0.0004013461 -0.0013807191 -0.70063263 0.098834321
513000000 -0.68728316 0.10390548 -0.00060954673 -0.0020867209 -0.00051677861 -0.0013439993 -0.70043093 0.098619238
514000000 -0.68759674 0.10422352 -0.0010062333 -0.0014652124 -0.00035149354 -0.0017082079 -0.70012933 0.10001354
515000000 -0.68750912 0.10418586 -0.00030564095 -0.0019071131 -0.00039817527 -0.001540276 -0.70044971 0.1000564
516000000 -0.68686271 0.10546162 -3.8698108e-005 -0.001210512 -0.00044642962 -0.0014525533 -0.70023197 0.10048412
517000000 -0.68735772 0.10593206 3.6338195e-005 -0.0012292936 -0.00066898024 -0.00051510264 -0.69918168 0.10087907
518000000 -0.68731725 0.10542314 -0.00062281446 -0.0021720293 -0.00016917889 -0.0018042495 -0.69984156 0.10036997
519000000 -0.68756109 0.1052699 -0.00070370082 -0.0012963493 -0.00072036934 -0.0010599188 -0.6988675 0.10106802
520000000 -0.68707377 0.10508455 -0.00022450603 -0.0012542269 -0.00012547035 -0.00089787476 -0.70055532 0.10093762
521000000 -0.68705422 0.10579925 -0.00019819643 -0.00086496811 -0.00012514852 -0.001640958 -0.69981998 0.10258962
522000000 -0.68783236 0.10660423 -0.00027750587 -0.0011232188 -0.0004754437 -0.0017002687 -0.70055604 0.10231376
523000000 -0.68725139 0.10528078 7.7437275e-005 -0.0015402216 -2.5899813e-005 -0.0015613971 -0.69902378 0.10165378
524000000 -0.68650156 0.10667013 0.00023279656 -0.00098705455 -0.00025952567 -0.00093072047 -0.70023012 0.10310693
525000000 -0.68642783 0.1063372 -0.00053552911 -0.0016440256 -0.00063910655 -0.0019480026 -0.69955975 0.10244593
526000000 -0.68800741 0.10777331 -0.00043139802 -0.00041301679 -0.0011064982 -0.0016138959 -0.70042139 0.10223507
527000000 -0.68722808 0.10776427 -0.00017728283 -0.00084072578 9.6701078e-005 -0.0010611126 -0.69948155 0.10307528
528000000 -0.6877231 0.10738678 -0.00059324142 -0.00096800009 -0.00054164528 -0.00090567447 -0.69934779 0.10329329
529000000 -0.68695307 0.10748395 -0.00031631184 -0.0014347751 -0.00049911108 -0.00090529927 -0.69958574 0.10316668
530000000 -0.68690366 0.1075064 -0.00064710452 -0.0014354484 -0.0010343172 -0.00093640131 -0.70002103 0.10262626
531000000 -0.68622863 0.10764009 -0.00083687808 -0.00069361087 -0.00032931136 -0.0013292321 -0.69964856 0.10392062
532000000 -0.68680394 0.1088034 -0.00023754536 -0.0019487119 -0.0001417883 -0.00075778918 -0.69908738 0.10401992
533000000 -0.68617874 0.10779418 2.4215704e-005 -0.0011127269 -0.00093710917 -0.0010583643 -0.6998024 0.10412997
534000000 -0.68751115 0.10803631 0.00018022218 -0.001568942 -0.0005229637 -0.00075833098 -0.70040917 0.1034935
535000000 -0.68668282 0.10887919 4.5578425e-005 -0.0017542362 1.3383617e-005 -0.001414746 -0.69894928 0.10531895
536000000 -0.68661147 0.10954344 -0.00063569524 -0.0015056807 -0.00054913538 -0.0018117003 -0.69982934 0.10424088
537000000 -0.68672794 0.1088116 -0.0010144315 -0.0012695814 0.00048107622 -0.0016089008 -0.69938976 0.10401446
538000000 -0.68711388 0.10866041 -0.00041548096 -0.0010102738 -0.00090487674 -0.0013315165 -0.69917661 0.10531258
539000000 -0.68752778 0.1095676 -0.00083454855 -0.00085289608 5.5555156e-005 -0.0013845199 -0.69988072 0.10588872
540000000 -0.68702251 0.10953931 -1.5441229e-006 -0.0017625048 -0.0010244928 -0.00092023512 -0.69929051 0.10532559
541000000 -0.68622929 0.1104669 -0.00026527196 -0.00088003185 -0.00048838381 -0.00145207 -0.69977564 0.10503979
542000000 -0.68657148 0.1100501 -0.0011401445 -0.00095647539 -0.00082033576 -0.0013474597 -0.69870752 0.10619167
543000000 -0.68687636 0.10946313 -6.6309796e-005 -0.00072259927 -0.0006276159 -0.0013273947 -0.69901735 0.10666174
544000000 -0.68558943 0.11012463 -0.00069427415 -0.00099860574 -0.00029157862 -0.00076396228 -0.69977999 0.10575232
545000000 -0.68568367 0.11026366 0.0005013675 -0.00098537141 -0.0005358276 -0.0016422342 -0.69909376 0.10667572
546000000 -0.68707818 0.11007385 -0.00050565304 -0.0018527179 -0.00023839559 -0.0013644282 -0.70025671 0.10656095
547000000 -0.68744314 0.11051994 -0.001119721 -0.0012058587 0.0001019915 -0.0011436269 -0.70018095 0.10613616
548000000 -0.68601286 0.11049305 -0.00027739583 -0.0014474294 -0.00055717683 -0.00082144921 -0.69963789 0.10634765
549000000 -0.6867193 0.11176169 -0.0002121147 -0.0014121743 -0.00059446308 -0.0011900711 -0.69980377 0.10838092
550000000 -0.68546891 0.11177038 -0.00040568996 -0.0014920862 -4.1806972e-005 -0.0015514186 -0.69954181 0.10679985
551000000 -0.68654853 0.11116092 -0.00014865155 -0.0016103346 -0.00068454177 -0.0010755484 -0.69959682 0.10837047
552000000 -0.68639809 0.11076286 -0.00045300732 -0.0021432743 -0.00073656329 -0.0015903871 -0.69953853 0.10789511
553000000 -0.68667734 0.11208425 -0.00098076323 -0.0012780078 -0.00075544295 -0.0005494004 -0.69951254 0.10748294
554000000 -0.68645406 0.11106517 -0.00077592186 -0.001284353 -0.00050551491 -0.001090826 -0.69944876 0.10747088
555000000 -0.68548989 0.11183071 -0.00088012428 -0.0017569035 -0.00015564897 -0.0014804619 -0.69950634 0.10822576
556000000 -0.68674368 0.11140709 -0.00033413831 -0.0015392374 0.00035393692 -0.00076240575 -0.69883513 0.10886326
557000000 -0.68672967 0.11185858 -0.0001435008 -0.0011407515 -0.00067478459 -0.0013449313 -0.69908231 0.10807753
558000000 -0.68568796 0.1117342 -0.00021062029 -0.0019518801 -0.00020992263 -0.0018714563 -0.70000213 0.10824449
559000000 -0.68518949 0.11303949 -0.00086092553 -0.0016456818 -0.00014267072 -0.001365471 -0.69957799 0.10852031
560000000 -0.68578154 0.11304268 -0.000709738 -0.0013742243 -0.00057644903 -0.0015912774 -0.69942796 0.10972422
561000000 -0.68606043 0.11251727 0.00068927917 -0.0013966885 -0.0006778923 -0.0019530837 -0.69904852 0.10818007
562000000 -0.68677115 0.11409446 -0.00015916412 -0.00096305239 -6.1629813e-005 -0.0014596519 -0.69891906 0.10932463
563000000 -0.68611354 0.11276352 -0.00058954343 -0.0014423397 -0.00010278689 -0.0010274091 -0.69951802 0.10927424
564000000 -0.68538141 0.11265127 -0.00042359874 -0.00064050179 -0.00024133177 -0.0007040319 -0.69966447 0.10807123
565000000 -0.68564236 0.11356019 -0.00062064338 -0.0020535733 0.00014251798 -0.0015525073 -0.70077229 0.10986193
566000000 -0.68534678 0.11293588 -0.0005189408 -0.0017949683 1.2293877e-005 -0.00074864115 -0.70045787 0.10942937
567000000 -0.68566841 0.11406298 -0.00081791932 -0.00096908526 -8.9899971e-005 -0.0017855095 -0.6989677 0.10951045
568000000 -0.68587661 0.11363682 -6.9796246e-005 -0.0011836661 -6.6847519e-005 -0.0010275898 -0.69944626 0.10927552
569000000 -0.6860851 0.11390138 -0.00036016732 -0.0011953319 -0.00035527843 -0.0017629963 -0.70018184 0.10984605
570000000 -0.68583089 0.11422157 -0.00042266454 -0.00089458626 -0.00070231489 -0.0015117188 -0.69879293 0.11069857
571000000 -0.68571997 0.11442846 -5.4781056e-005 -0.0014113097 -0.0011800796 -0.0017323825 -0.69912285 0.1097025
572000000 -0.6848768 0.11431668 -0.00065046595 -0.0014147187 -4.6307923e-005 -0.00092794729 -0.6994639 0.11036164
573000000 -0.68556261 0.11375066 -0.00049941835 -0.00033345949 -0.00028909204 -0.00096229621 -0.69838536 0.11071223
574000000 -0.68578732 0.1142806 -0.00049125735 -0.0009458132 -0.00035795747 -0.0012207471 -0.69891012 0.11095793
575000000 -0.68561459 0.11466776 -0.00050930085 -0.0018828388 -0.00036064189 -0.00075647369 -0.69888425 0.11142115
576000000 -0.68510878 0.11477119 -0.00062748761 -0.0015227768 -0.00038497525 -0.00065495347 -0.69935787 0.11120706
577000000 -0.68440843 0.11504846 -0.00053828693 -0.0012560561 -0.0003645613 -0.0011605271 -0.69906104 0.11150592
578000000 -0.68492377 0.11534657 -0.00011260972 -0.0022082732 -0.00069396372 -0.0015019851 -0.69820648 0.11087249
579000000 -0.6843164 0.11448931 -6.7730944e-005 -0.0022461284 -0.00068376353 -0.0014446015 -0.69902205 0.11106655
580000000 -0.68617988 0.1154827 -0.00014971457 -0.0017302067 0.0001079404 -0.00097859919 -0.69848722 0.11139011
581000000 -0.68514484 0.11620168 -0.00054119021 -0.0015394053 -0.00012207701 -0.00084297417 -0.69918627 0.11270908
582000000 -0.68450236 0.11621801 -0.00056803587 -0.0016912926 -0.00096230698 -0.00051222777 -0.69891536 0.11233846
583000000 -0.68488497 0.11653327 -0.0008856089 -0.0022944203 6.0069975e-005 -0.0020012751 -0.7002424 0.11218746
584000000 -0.68485099 0.11727557 8.1831182e-005 -0.0021308598 -0.00035978819 -0.001037266 -0.69915426 0.11309661
585000000 -0.68416196 0.11625253 -0.00019577214 -0.0010484621 0.00011279847 -0.001928316 -0.69894552 0.1131383
586000000 -0.68438625 0.1166282 -0.00042094273 -0.0015909949 -0.00060767331 -0.0013856909 -0.69890594 0.11210721
587000000 -0.68416274 0.11737414 -0.00032349187 -0.0010865731 -0.00042482375 -0.0017340346 -0.69917279 0.11243937
588000000 -0.68431437 0.11748347 -0.000581289 -0.0015253846 -2.2548325e-005 -0.0012779601 -0.69769102 0.11404303
589000000 -0.68451798 0.11717941 -0.00031761982 -0.0013568699 -0.00060263515 -0.0018890393 -0.69831949 0.11370277
590000000 -0.68486583 0.11744785 -3.0275745e-005 -0.0018689889 -0.00015338327 -0.0013617851 -0.69793946 0.11296231
591000000 -0.68490899 0.11891387 -0.0011777744 -0.001123348 0.00026179667 -0.0018667035 -0.69823676 0.11378443
592000000 -0.6851356 0.1185212 -0.00087906228 -0.0010854511 -0.00038826105 -0.00089352159 -0.69895333 0.11442928
593000000 -0.68409628 0.11696499 -0.00098076288 -0.0012704404 -0.00048796012 -0.0022820423 -0.69951695 0.11409608
594000000 -0.68397516 0.11886069 -0.00085752137 -0.0013664073 -0.00060806808 -0.0013062379 -0.69964641 0.11476561
595000000 -0.68410635 0.11804203 -0.00046533422 -0.0025347432 -0.0005794664 -0.0020947603 -0.69845384 0.114337
596000000 -0.68454218 0.11911714 -0.00041354724 -0.0011384439 -0.00074035657 -0.0017229815 -0.69789869 0.11458315
597000000 -0.68401992 0.11836362 -0.00039392669 -0.0014597593 -9.8468241e-005 -0.0015795341 -0.69900042 0.11421072
598000000 -0.6837135 0.12038071 -0.00075530662 -0.0016141237 -0.00031949306 -0.0014231261 -0.69871765 0.11502832
599000000 -0.68394226 0.11865496 -0.00090812886 -0.0013763236 -0.00076865801 -0.0019372442 -0.69824588 0.11483119
600000000 -0.68314642 0.11992597 -0.00027414795 -0.0013433306 -0.00014980225 -0.00248558 -0.69816232 0.11638237
601000000 -0.68471092 0.12024049 -0.00088435697 -0.0019066351 -0.00028606344 -0.0014778121 -0.69924772 0.11631797
602000000 -0.68439358 0.11970605 -0.00097739429 -0.0019411779 -0.001080911 -0.0014254468 -0.69881952 0.11720778
603000000 -0.6843524 0.12131504 -0.00057650224 -0.0016319737 -0.00059158518 -0.0016426274 -0.69782823 0.11633465
604000000 -0.68455368 0.12113579 -0.00027868617 -0.0017763735 -0.00070183148 -0.0016856549 -0.69763285 0.1166194
605000000 -0.68313527 0.12076536 -0.00015867328 -0.0012354818 -0.00036560165 -0.0012972141 -0.6977883 0.11667158
606000000 -0.6848231 0.12077259 0.00038239645 -0.0014314387 -0.00068994163 -0.0011667145 -0.69703794 0.11683372
607000000 -0.68384641 0.12060954 -0.00046928102 -0.0020057163 0.00051226252 -0.0021114545 -0.69701815 0.11648872
608000000 -0.68475711 0.12257572 0.00018678233 -0.0014236345 -0.00055989373 -0.0018858598 -0.69837338 0.11702534
609000000 -0.68301284 0.12278815 -0.00072679744 -0.00082214567 -0.00074382767 -0.0010624419 -0.69802606 0.11780088
610000000 -0.68359393 0.12179539 -0.00022267837 -0.0022142846 -0.000412922 -0.0019627106 -0.69687092 0.11836664
611000000 -0.68320966 0.12220912 -0.00036863767 -0.001141252 -0.0004561097 -0.0018099553 -0.69615322 0.11749102
612000000 -0.68351197 0.1235856 -0.00077417202 -0.0017334806 -0.00016340236 -0.0025283208 -0.6979866 0.11758059
613000000 -0.68293262 0.12302665 -0.00011536787 -0.0015498991 -6.719165e-005 -0.0010341866 -0.697074 0.11772043
614000000 -0.68355656 0.1242174 -0.00053946627 -0.0014412687 -0.00062420114 -0.0020460177 -0.69792956 0.11824976
615000000 -0.68418062 0.12355502 -0.00061566359 -0.0014063582 -0.00046253717 -0.0013179029 -0.69723129 0.11904376
616000000 -0.68411428 0.12386648 -0.00042337002 -0.0012519414 0.00014380254 -0.0012317342 -0.69715011 0.11767147
617000000 -0.68370891 0.12443106 -0.00042356577 -0.0025122175 -0.0011742628 -0.0016100004 -0.69698071 0.12011968
618000000 -0.68421841 0.12373763 -0.00026601885 -0.00027637102 -0.00042787418 -0.0018589559 -0.69687754 0.11907423
619000000 -0.68232065 0.12529199 -0.00049701968 -0.0013117526 -0.00096386083 -0.0016506034 -0.69791085 0.11940714
620000000 -0.68311197 0.12529013 -0.00017821115 -0.0017800196 -0.0008668215 -0.002033792 -0.69742721 0.11997285
621000000 -0.68397498 0.12493823 -0.00063909567 -0.0016614627 -0.00077392173 -0.0017034436 -0.6968587 0.11938734
622000000 -0.6825285 0.12507965 -0.00061031344 -0.001483717 -0.00073676126 -0.0017014607 -0.69654489 0.11974889
623000000 -0.68356371 0.1256523 -0.00027099327 -0.0014253438 0.00019472399 -0.0010713853 -0.69755173 0.11982411
624000000 -0.68271863 0.12547544 -0.0007723702 -0.0014332505 -0.00069150113 -0.0016545714 -0.69628739 0.1209694
625000000 -0.68255216 0.12660044 -0.00024843629 -0.0013777448 0.00046919071 -0.0017880664 -0.69671571 0.11966872
626000000 -0.68387711 0.12648869 -0.00019305453 -0.0014963923 -0.00046305649 -0.0020881761 -0.69604254 0.12104373
627000000 -0.68287373 0.12673554 -0.00058753131 -0.0019610098 -0.00040694678 -0.0020485306 -0.69679618 0.12026691
628000000 -0.68301058 0.12794138 -0.00021414158 -0.0014374577 -0.00050647819 -0.0006354191 -0.69675851 0.1218999
629000000 -0.68381608 0.12723114 -0.00015750245 -0.00092540763 -0.00050176639 -0.0011002521 -0.69643217 0.12161434
630000000 -0.68296134 0.12724088 -0.0010224654 -0.0016321042 -0.00089597539 -0.0019035008 -0.69727707 0.1220376
631000000 -0.68248338 0.12696187 -0.00080747175 -0.0012136099 -0.00047663006 -0.00094013702 -0.69719404 0.12160283
632000000 -0.68208718 0.12797096 -0.00065534544 -0.0014387029 -5.6772144e-005 -0.0011913865 -0.69591904 0.12181254
633000000 -0.68305945 0.12897623 -0.00096504739 -0.0013640415 -0.0002039665 -0.0014679453 -0.69625866 0.12182886
634000000 -0.68314534 0.12853946 -0.0010629221 -0.0015465082 -0.00032755962 -0.001449303 -0.6963076 0.12204444
635000000 -0.68319046 0.12846862 -0.0002342113 -0.0017361168 -0.00060306309 -0.0011169401 -0.69669724 0.12270179
636000000 -0.68248218 0.12903979 -0.00051757548 -0.0020538336 -0.00055117678 -0.0021244676 -0.69631767 0.12408178
637000000 -0.68212634 0.12883443 -0.00017579632 -0.0014461402 -6.352886e-005 -0.0019462417 -0.69610161 0.1226163
638000000 -0.68302894 0.12878683 -0.00015970512 -0.0016433495 -0.00030686797 -0.0019920066 -0.69683301 0.122789
639000000 -0.68250942 0.12943548 -0.00079364958 -0.0015154348 -0.0011960339 -0.00086431473 -0.69648391 0.12381826
640000000 -0.68224937 0.1289676 -0.0004808628 -0.0016782767 -0.00042172128 -0.0021162273 -0.69684201 0.12394094
641000000 -0.68231004 0.12994269 -0.00022773295 -0.0019881437 -0.00069715816 -0.0020138696 -0.69578665 0.12374184
642000000 -0.68238413 0.13043039 -0.00056489004 -0.0012051577 -1.7898001e-005 -0.0017791714 -0.69724524 0.1235382
643000000 -0.68230754 0.13043168 -0.00056039036 -0.0024785956 -0.00053127302 -0.001283375 -0.69630623 0.12399802
644000000 -0.68149561 0.13036406 -0.00091268535 -0.0017848909 0.00028863436 -0.0010118249 -0.69690913 0.12381604
645000000 -0.68140423 0.1307991 -0.00068488246 -0.0026261981 -0.0010771417 -0.00066793041 -0.6955623 0.12562327
646000000 -0.68218267 0.1317381 -0.00080919079 -0.00078942225 -0.00062693394 -0.0015727013 -0.69724232 0.1246205
647000000 -0.68305886 0.13143758 0.00046945023 -0.0022838651 -0.00072305644 -0.0018117743 -0.69621611 0.12544367
648000000 -0.68176407 0.13201603 -0.00091053505 -0.0018941348 -0.00065323163 -0.0011353099 -0.6960575 0.12569441
649000000 -0.68148828 0.13138279 -0.00028236158 -0.0018734755 -0.00037904509 -0.0020939845 -0.69643277 0.12608218
650000000 -0.68196279 0.13299574 -0.0004890511 -0.0016814267 0.00015607214 -0.0019247357 -0.69574451 0.12565583
651000000 -0.68136305 0.13244334 -0.00027836385 -0.001947282 -0.00012691086 -0.0021802126 -0.69600195 0.1242962
652000000 -0.68208885 0.13233286 -0.00046714922 -0.00193745 -0.00028867237 -0.0011337237 -0.69507778 0.12557437
653000000 -0.68212354 0.13241927 -0.00042281768 -0.0014437285 -0.00057383592 -0.0019400446 -0.69600219 0.12657818
654000000 -0.68205321 0.13260953 -0.00069946144 -0.0018313057 0.00015402326 -0.00099974056 -0.69593489 0.12581362
655000000 -0.68175572 0.13153781 -0.00095518772 -0.0018766677 0.00021969437 -0.0018438086 -0.69567937 0.12631096
656000000 -0.6812914 0.13299674 -0.00063012133 -0.0015431353 8.0861661e-005 -0.0020163998 -0.69530505 0.1273654
657000000 -0.68172383 0.1332131 -0.00030652733 -0.00079793989 -0.00027934604 -0.0019092531 -0.69616491 0.12578304
658000000 -0.68206239 0.13310823 -0.0006055659 -0.0019980303 5.0968767e-005 -0.0021884155 -0.69537842 0.12664995
659000000 -0.68174738 0.13296629 -0.00061699358 -0.0018475453 -0.00063035835 -0.0014653653 -0.69581473 0.1266388
660000000 -0.68175238 0.13258664 -0.00037925725 -0.0013983161 -0.00043841745 -0.0015218991 -0.69570106 0.12744249
661000000 -0.68086779 0.13385232 -5.9248359e-005 -0.0014629996 -0.00053851382 -0.0019199234 -0.69578773 0.12642504
662000000 -0.68172348 0.1338554 -0.00019961057 -0.0014970119 -0.00058748631 -0.0013854416 -0.69511515 0.12792408
663000000 -0.68146676 0.13292296 -0.0011834705 -0.0014627096 -0.0005589787 -0.0019621362 -0.6958223 0.12734495
664000000 -0.68140006 0.13359988 -0.00073040219 -0.0018673145 -0.00025609971 -0.0020374069 -0.69574273 0.12791403
665000000 -0.68205875 0.13560584 -0.00043669 -0.0018989788 -0.0011310425 -0.0013125824 -0.69504452 0.12903035
666000000 -0.68122065 0.13432822 -0.00096764555 -0.0020834419 -0.00086469267 -0.0019408256 -0.69627744 0.12744141
667000000 -0.68125474 0.13491236 0.0004827267 -0.0018438882 0.00081421796 -0.00099916081 -0.6953541 0.12785113
668000000 -0.68226373 0.13449708 -0.00034899931 -0.0016833901 -0.0006336692 -0.001769622 -0.6959312 0.12863013
669000000 -0.68234164 0.13505846 -0.0010518031 -0.0025855245 -0.00048364012 -0.0020809961 -0.69487441 0.1277629
670000000 -0.68099475 0.13472062 -7.3802898e-005 -0.00061518198 -0.00058996747 -0.0019310027 -0.69561058 0.12885824
671000000 -0.68082708 0.1361828 -2.587937e-005 -0.0015446015 -0.00047595092 -0.0016704189 -0.69667345 0.12877886
672000000 -0.68200392 0.13571319 -0.00085609563 -0.001907295 -0.00019743793 -0.0017385278 -0.69500268 0.12910734
