!Keysight Technologies,M9374A,MY55442783,A.12.55.05
!Date: Thursday, May 20, 2021 12:41:36
!Correction: S11(Full 2 Port(1,2)) 
!S21(Full 2 Port(1,2)) 
!S12(Full 2 Port(1,2)) 
!S22(Full 2 Port(1,2)) 
!S2P File: Measurements: S11, S21, S12, S22:
# Hz S  RI   R 50
500000000 -0.68443429 0.11907339 -0.00018670956 -0.00098501658 -0.00081925077 -0.0013742627 -0.69699305 0.11447483
501000000 -0.68462318 0.12005697 -0.0001177302 -0.0010017446 -0.00077853532 -0.0020216773 -0.6975261 0.11399388
502000000 -0.68306202 0.11977725 -0.00020840674 -0.0017136646 -0.00051093439 -0.0011544165 -0.69774652 0.11549126
503000000 -0.68400997 0.12074462 0.00089670351 -0.001590671 -0.00017936141 -0.00062620116 -0.69658726 0.11558866
504000000 -0.68327039 0.12081466 -0.00085960893 -0.00116112 -0.00096934533 -0.0013163452 -0.69608712 0.11566877
505000000 -0.68315548 0.12132038 -0.00037008568 -0.0015823315 7.3079559e-006 -0.00095456198 -0.69711155 0.11545734
506000000 -0.68377852 0.11990953 -0.00079186208 -0.0010946202 -1.1233386e-006 -0.0012618224 -0.69661641 0.1159779
507000000 -0.68288416 0.12043295 -0.00070782821 -0.0011597654 -0.00069275283 -0.0011482778 -0.69712067 0.11734653
508000000 -0.68318772 0.12284672 -0.00030725819 -0.0010642164 -0.00023797704 -0.0011006605 -0.69785106 0.11786727
509000000 -0.68317991 0.1217301 -0.00066431123 -0.00091322302 -0.0004750654 -0.0012475566 -0.69629687 0.11686053
510000000 -0.68343806 0.12202881 -0.00091167103 -0.0008174759 -0.00079340534 -0.0011644607 -0.69645613 0.11674681
511000000 -0.68381327 0.1227171 2.3020108e-005 -0.0013266131 -0.00030791786 -0.0011541647 -0.69719446 0.11736957
512000000 -0.68352604 0.12229612 -0.00015648011 -0.00052689016 -0.00010155485 -0.0015350628 -0.69753683 0.11841974
513000000 -0.68323821 0.12278037 -0.00071556977 -0.0010693829 -0.00030265044 -0.0010113467 -0.69757158 0.11813652
514000000 -0.68248123 0.12214691 -0.0005153637 -0.0012936967 -0.0002613781 -0.0017203396 -0.69662201 0.11895425
515000000 -0.68309557 0.12331741 -0.0005017845 -0.00094446843 -0.00013878918 -0.0010439996 -0.69700617 0.11879076
516000000 -0.68355465 0.12330993 -0.0011210805 -0.0012884487 4.6666359e-005 -0.001098586 -0.6969431 0.11867518
517000000 -0.68261665 0.12345339 -0.0007924058 -0.0014283122 0.00060493755 -0.0016788519 -0.69641232 0.11986221
518000000 -0.68293858 0.12367237 4.159638e-005 -0.0011393444 -0.00084007374 -0.0013941857 -0.69599867 0.11910059
519000000 -0.68260038 0.12421612 -0.00040392816 -0.00098109478 -0.0005221531 -0.0010808908 -0.69633555 0.12102652
520000000 -0.68245322 0.12385881 -0.00026103179 -0.0015825988 -0.0011242965 -0.00095912878 -0.6966337 0.11994877
521000000 -0.68300933 0.12470669 -5.291637e-005 -0.0019403578 -0.00012551932 -0.0012629055 -0.6968109 0.12037372
522000000 -0.6820693 0.12635449 3.6141209e-005 -0.00175414 -0.00051854068 -0.0012209195 -0.69670331 0.12063376
523000000 -0.68346912 0.12492083 -6.2542778e-005 -0.0011978423 -0.0013468857 -0.0021033038 -0.69546539 0.12106913
524000000 -0.68238568 0.12523928 -0.00059288717 -0.0011054429 -6.9132155e-005 -0.0013937408 -0.69590729 0.12065627
525000000 -0.68195045 0.1257958 -0.00036109623 -0.0015363196 0.00013996364 -0.0016015576 -0.69581503 0.12142216
526000000 -0.68264872 0.12569512 -0.00022269238 -0.0015891106 -0.00089074566 -0.0014474961 -0.69625741 0.12156145
527000000 -0.68228048 0.12592342 -0.00034874122 -0.0014922755 -0.00051177439 -0.0021326693 -0.69675994 0.12233083
528000000 -0.68240076 0.12703791 -0.00013728459 -0.00097835506 -0.00060835032 -0.00084667973 -0.69604105 0.12213106
529000000 -0.68246257 0.12653685 -0.0006900325 -0.00092480256 -0.00031440367 -0.0013649452 -0.69537598 0.12176587
530000000 -0.68253988 0.12653811 9.1123839e-005 -0.0010121586 -0.00048584389 -0.0013448918 -0.69592899 0.12263021
531000000 -0.68252772 0.12717284 -0.00061814074 -0.0010749605 -0.00044497015 -0.00087641587 -0.69649869 0.12261863
532000000 -0.68253922 0.12659185 0.00035409504 -0.0010331743 -0.00028925203 -0.0012272948 -0.69513953 0.12372936
533000000 -0.68229574 0.12741449 -0.00028047783 -0.0014557065 -7.7303906e-005 -0.0013823904 -0.69517958 0.12377486
534000000 -0.6816712 0.12712467 7.1043694e-005 -0.0017762393 -0.0013447674 -0.001056558 -0.69569767 0.1227366
535000000 -0.68214726 0.12762515 -0.00083554472 -0.0020726433 -0.00082248327 -0.0015105132 -0.69567609 0.12337241
536000000 -0.68250042 0.12810308 -0.00087465352 -0.0010308827 0.00020670163 -0.0011536807 -0.69529593 0.12344819
537000000 -0.68310732 0.12853535 -0.00039580395 -0.0013807992 -0.00072482385 -0.00091813051 -0.69464338 0.12385584
538000000 -0.68158579 0.12898263 0.00013646246 -0.00066938432 -0.00052522187 -0.0017978327 -0.6946972 0.12412779
539000000 -0.68208081 0.12990624 4.217379e-005 -0.0015307911 -0.00062678667 -0.0013993589 -0.69577008 0.12498596
540000000 -0.68169385 0.12871562 -0.00037487494 -0.0016748973 -0.00046973652 -0.0012465729 -0.69512624 0.12525432
541000000 -0.68289953 0.12903495 0.00010768025 -0.00067398697 -0.00034365014 -0.00080624141 -0.69545746 0.12546103
542000000 -0.68234092 0.12957005 -0.00063421438 -0.00061594334 -4.0580231e-005 -0.0013227122 -0.69523293 0.1248099
543000000 -0.68220562 0.13009018 -0.00019087149 -0.0012464948 -0.00062032905 -0.00094911229 -0.6949026 0.1258696
544000000 -0.68219209 0.13082507 -0.0007185936 -0.0013824856 -0.00028946588 -0.0010783968 -0.69551957 0.12616734
545000000 -0.68183815 0.13023248 -0.00013258355 -0.0014332638 -5.9215148e-005 -0.00075235509 -0.6954335 0.12554225
546000000 -0.68127346 0.13161278 -0.00045458777 -0.002050624 -0.00069837266 -0.0012658186 -0.69574034 0.1263911
547000000 -0.68197083 0.13087951 -0.00034484448 -0.0019089285 -0.0010330357 -0.0017917489 -0.69573921 0.12643157
548000000 -0.68198317 0.13095652 -0.0004574456 -0.0010617685 -0.00021443286 -0.0014265449 -0.69487202 0.12708908
549000000 -0.68135482 0.13065676 -0.00066721748 -0.0013234679 -0.00038395528 -0.0010409317 -0.69606727 0.12641773
550000000 -0.68174911 0.13145085 -0.00059225503 -0.0013327439 -0.00075429777 -0.001579012 -0.69589692 0.12773485
551000000 -0.68158126 0.13086967 -0.0003094128 -0.0016454752 0.00014193506 -0.0016068728 -0.69493723 0.1271905
552000000 -0.68143517 0.13071039 -0.0005528318 -0.0012124305 -0.00066624169 -0.0011446631 -0.69538724 0.1277778
553000000 -0.6812712 0.13106196 0.0004420444 -0.0010110223 -2.3929174e-006 -0.0018590806 -0.69441622 0.12739332
554000000 -0.68174106 0.13144635 -1.4662432e-005 -0.0011874328 -0.0011313709 -0.0010246895 -0.69554549 0.12775135
555000000 -0.68163687 0.13223752 -0.00047338614 -0.0012418396 -0.00054371345 -0.0006777363 -0.69458193 0.12824774
556000000 -0.68163884 0.13266286 -0.00013709228 -0.0013366963 7.5727854e-005 -0.0013457405 -0.69575256 0.12890032
557000000 -0.68158722 0.13256246 -0.00021183796 -0.0014866284 2.7065478e-005 -0.0014201569 -0.69516081 0.12746689
558000000 -0.68259001 0.13340715 -0.0010394844 -0.0017882367 -0.0006185699 -0.0013039308 -0.69511431 0.12911032
559000000 -0.68063915 0.13246912 -0.0012192281 -0.00070959376 -4.4973793e-005 -0.001678737 -0.69519639 0.13006556
560000000 -0.6806494 0.13387719 -0.00058202678 -0.0013402592 -0.00028526914 -0.0015160857 -0.69564044 0.12970576
561000000 -0.68180126 0.13319944 -0.00052075845 -0.0016736106 -0.00077805266 -0.0014923111 -0.69521314 0.12974744
562000000 -0.68111217 0.13352625 -3.8823218e-005 -0.0018949226 -0.00083311572 -0.0013885611 -0.69518656 0.12904891
563000000 -0.68084228 0.13323079 -0.00024181958 -0.0012545026 0.00016368805 -0.0014089134 -0.69442719 0.12926692
564000000 -0.68037921 0.13341324 -0.00044942359 -0.0013800496 -0.00089453993 -0.0017318764 -0.69501799 0.1298888
565000000 -0.68074781 0.13433452 -0.00055248407 -0.001021785 -0.00020399677 -0.0021506697 -0.69493741 0.12956929
566000000 -0.68046927 0.13428308 -0.0010109806 -0.0011114664 0.00011192873 -0.0015396571 -0.69488984 0.12985663
567000000 -0.68093818 0.13463926 -0.00021124209 -0.0010354536 0.00019494284 -0.0017662082 -0.69525409 0.13078624
568000000 -0.68033975 0.13485457 -0.00057669234 -0.0011189725 -0.0014114445 -0.0009690884 -0.69351882 0.12964502
569000000 -0.68041706 0.13509044 -0.00074209954 -0.0012349407 -0.00075239886 -0.0014622809 -0.6946457 0.12983385
570000000 -0.68066204 0.13601536 -0.00086585147 -0.0015648787 -0.00046333222 -0.0014537454 -0.69515979 0.13187215
571000000 -0.68108159 0.13488147 -0.00096897926 -0.0017769148 -0.0011929547 -0.0010090555 -0.69477868 0.13182406
572000000 -0.6808517 0.13513376 -0.00041489897 -0.0019112383 -0.0011352591 -0.0014195343 -0.69442821 0.13180672
573000000 -0.67942941 0.13575426 -0.00054797169 -0.0013301832 -0.00062316103 -0.0010557004 -0.69491202 0.13167483
574000000 -0.67958462 0.13585481 -0.00012250981 -0.0019637898 -0.00079427153 -0.0014372324 -0.69430822 0.13218839
575000000 -0.6798259 0.13546361 -0.0011679793 -0.0014778106 -0.00019044131 -0.0019175147 -0.69491941 0.13194461
576000000 -0.6798259 0.13549544 -0.00035505282 -0.0017347969 -0.00084357144 -0.0014613648 -0.69538695 0.13372524
577000000 -0.68016714 0.13580392 0.00033437114 -0.0011402434 -0.00091510679 -0.0015092513 -0.69432539 0.13194513
578000000 -0.67963636 0.13653548 -0.00034453691 -0.0010816577 -0.00052307872 -0.0010579085 -0.69460309 0.13178016
579000000 -0.6787073 0.13633202 -0.00013280376 -0.0016801904 -0.00034976221 -0.002252032 -0.6947782 0.13346733
580000000 -0.68010896 0.13696232 -0.00087281049 -0.00146068 -0.0014444242 -0.001164612 -0.69459343 0.1340168
581000000 -0.68009984 0.13673924 0.00010574752 -0.0017848073 -0.00087572163 -0.0018293271 -0.69464821 0.13322048
582000000 -0.67985588 0.13736606 -0.00024931767 -0.0014753038 -0.00048155698 -0.0009477791 -0.69506353 0.13409877
583000000 -0.6798988 0.13810498 -0.00051764864 -0.0012151552 -0.00030563198 -0.0017125579 -0.69471288 0.13341661
584000000 -0.67908603 0.13728142 -0.00045974102 -0.00071327249 -0.00027523501 -0.0015631615 -0.69384658 0.13438076
585000000 -0.67997688 0.13879134 -0.00018400242 -0.0012312522 -0.0009444945 -0.0013976197 -0.6938861 0.13430607
586000000 -0.67954713 0.13871111 -0.00053902104 -0.0015950382 -0.00042479386 -0.0014017165 -0.69317561 0.13440144
587000000 -0.67839175 0.14044414 -0.00047159559 -0.0018366934 -8.764767e-005 -0.0014837205 -0.69345599 0.13460311
588000000 -0.67860472 0.13812958 -0.00014543741 -0.0015772631 -0.00084738317 -0.0014263106 -0.6935631 0.13577373
589000000 -0.67939293 0.13827851 -0.00029350354 -0.0013124937 -0.00021992747 -0.001625324 -0.69473583 0.13456897
590000000 -0.67810774 0.13903327 -0.00030799935 -0.0013516551 -0.00063184684 -0.0019984171 -0.69426125 0.13510196
591000000 -0.67929637 0.14003862 -0.00028419128 -0.0012086806 -0.00057731161 -0.0016821279 -0.69398594 0.13547291
592000000 -0.67953914 0.14080931 -0.0004700344 -0.0011706158 -3.2724711e-005 -0.0015148651 -0.69384372 0.13590668
593000000 -0.67938989 0.13934791 -0.00084084005 -0.0016842588 -0.0012114944 -0.001613462 -0.69302058 0.13640876
594000000 -0.6790641 0.14037937 -0.00076568866 -0.0013369625 -0.0007464668 -0.0017626587 -0.69336373 0.13634233
595000000 -0.67854631 0.14053509 -0.00011172572 -0.0011619031 -0.00024087852 -0.0015236277 -0.69347644 0.13715729
596000000 -0.68025041 0.1401481 -0.00069092179 -0.00099085527 -0.00056330598 -0.0017963431 -0.6937955 0.13731386
597000000 -0.67910349 0.14175859 -1.2530048e-005 -0.0012410715 -0.0006858072 -0.0010571232 -0.693829 0.13622001
598000000 -0.67793947 0.14183216 -0.00023862206 -0.0019234382 -0.0005568472 -0.0026718441 -0.69368094 0.13695957
599000000 -0.67921793 0.14216147 0.00028086003 -0.001859693 -0.00089203735 -0.0018160975 -0.69368273 0.13741532
600000000 -0.67953783 0.14242227 -0.0002042533 -0.0019372755 -7.8790275e-005 -0.0015445116 -0.69338906 0.13791752
601000000 -0.67857134 0.14222503 -0.00043144971 -0.00099199428 -6.8903333e-005 -0.0010554754 -0.69299304 0.13813984
602000000 -0.67811549 0.1423592 -0.00034196512 -0.00094535924 -0.00023099863 -0.0018079724 -0.6931901 0.13824116
603000000 -0.67892176 0.14310655 -0.0002154573 -0.0016053136 -0.00024117617 -0.0017147086 -0.69336039 0.1376113
604000000 -0.67747867 0.14473799 -0.00050669874 -0.0021449425 6.1769042e-006 -0.0019459894 -0.69219965 0.13954151
605000000 -0.67838711 0.14419994 -0.00057785399 -0.0013488707 -0.00039376607 -0.00069877558 -0.691791 0.13853379
606000000 -0.6782043 0.14468329 -0.0009604342 -0.0023495199 -0.00039415451 -0.0020293698 -0.69260287 0.13886987
607000000 -0.67811441 0.14367935 4.9761835e-005 -0.0019441665 -0.00045906243 -0.0022730171 -0.69305587 0.13978808
608000000 -0.67899662 0.14558835 -0.00092673645 -0.0021952162 -0.00060234871 -0.00159617 -0.69217348 0.14007334
609000000 -0.67829984 0.14550363 0.00011910297 -0.0018632761 -0.00074637367 -0.0021424198 -0.6926617 0.13989213
610000000 -0.67823696 0.14536761 0.00011728141 -0.0021771174 -0.00093652244 -0.0012805355 -0.6915108 0.14009842
611000000 -0.67779773 0.14579399 -0.00037876907 -0.0015517904 -0.000933595 -0.0010090644 -0.6924473 0.13972531
612000000 -0.67741764 0.14651223 -0.00038034539 -0.0021017399 -0.00036019529 -0.0017171043 -0.69200289 0.14125639
613000000 -0.67705363 0.14637856 -0.00056230347 -0.0025349213 -0.00031121148 -0.0017647039 -0.69250786 0.14047088
614000000 -0.67720807 0.14623433 -0.0006069474 -0.0016654072 -0.00070641137 -0.0021067408 -0.69332409 0.14203358
615000000 -0.67713785 0.14643055 -0.00073787582 -0.0015100859 -0.00074200041 -0.0011888562 -0.69254977 0.14113328
616000000 -0.67781174 0.14703934 -0.00035323692 -0.0012427194 -0.00018415203 -0.0023084143 -0.69148135 0.14202945
617000000 -0.67841178 0.14753303 -0.00072298449 -0.001495825 -0.00015236474 -0.0017643776 -0.69204813 0.14251828
618000000 -0.67777032 0.14761423 -0.00033262235 -0.002546045 -0.00060430466 -0.001871784 -0.69149643 0.14258899
619000000 -0.67693025 0.14776433 4.1312927e-005 -0.0015988689 -0.00043171726 -0.0015448041 -0.69133782 0.14214706
620000000 -0.67744887 0.14856601 -0.00033932773 -0.0020408502 -8.0530226e-005 -0.0018861865 -0.69181937 0.14212872
621000000 -0.67757922 0.14822668 -0.00063074281 -0.0017615778 -0.00066428143 -0.0017152228 -0.69149685 0.14364809
622000000 -0.6769619 0.14771809 -0.00049248134 -0.0014132496 -0.00057714625 -0.001440778 -0.6912418 0.14324778
623000000 -0.67714691 0.1490965 0.00014794696 -0.0021175509 -0.00046846655 -0.0011563641 -0.69210035 0.14389454
624000000 -0.67689365 0.14958434 -9.2141483e-005 -0.0014819483 -0.00031444154 -0.0026410767 -0.69167048 0.14464299
625000000 -0.67649478 0.14955705 -0.0012188146 -0.0020151136 -0.00061382982 -0.0015608297 -0.69212568 0.14411192
626000000 -0.67668867 0.14890678 -0.00035393596 -0.0018953043 -0.00020679568 -0.0017375808 -0.69156599 0.14418988
627000000 -0.67660147 0.15056163 -0.00025771567 -0.00094105129 -0.00096432312 -0.0013622879 -0.69194275 0.14410867
628000000 -0.67700106 0.1497695 -0.00067286118 -0.0017302148 -0.0010968065 -0.001687655 -0.69201726 0.1448077
629000000 -0.67802471 0.15133263 -0.00050192088 -0.0014518519 -0.0015712641 -0.0013269061 -0.6915369 0.14473911
630000000 -0.67614216 0.15151626 -0.00086458173 -0.0014267354 -0.00030613047 -0.001720936 -0.69126111 0.14621803
631000000 -0.67763543 0.15142262 -0.00048259314 -0.0012715025 -0.00039385937 -0.0018518675 -0.6917696 0.14656895
632000000 -0.67685294 0.15262434 -0.00016280476 -0.00099051045 -0.00088249723 -0.0014480626 -0.68980181 0.14525777
633000000 -0.67721826 0.15120776 -0.00059012824 -0.0013922544 -0.00018965798 -0.0010274915 -0.69141257 0.145978
634000000 -0.67679757 0.15260431 -0.00042110027 -0.0020569409 -0.00094425323 -0.0018594905 -0.69146359 0.14621121
635000000 -0.67654377 0.15328184 -0.00038647273 -0.0014994702 -0.0011492308 -0.00098617247 -0.69151992 0.14675467
636000000 -0.67616004 0.15288404 -0.00010581021 -0.0013390103 -0.00059675367 -0.0018220694 -0.69149917 0.14706601
637000000 -0.67677635 0.15293662 -0.00081449328 -0.0017025489 -0.0016378221 -0.0021115099 -0.69155651 0.14712527
638000000 -0.67527151 0.1533761 -0.00099870889 -0.0014690288 -0.00035479997 -0.0022449112 -0.69042909 0.14769104
639000000 -0.67656386 0.15320027 -0.00068470644 -0.002035378 -0.001080716 -0.001479247 -0.69085824 0.14776511
640000000 -0.67565578 0.15389512 -0.00055390672 -0.0015853916 -0.00089623634 -0.0025267841 -0.69134563 0.14795063
641000000 -0.67652285 0.15432617 -0.00053680839 -0.0020721629 -0.00050371763 -0.0017509575 -0.69021547 0.14754348
642000000 -0.67595541 0.15446372 -0.00056140439 -0.0021767525 -0.0011226938 -0.0015176655 -0.69093162 0.14816684
643000000 -0.67610133 0.15391247 -0.00069332775 -0.0012644812 -0.00035351186 -0.0014656718 -0.69114703 0.1475603
644000000 -0.67501956 0.15461388 -5.2382271e-005 -0.0021440168 -0.00047545703 -0.0016338545 -0.69155025 0.14777306
645000000 -0.67589378 0.15540326 -0.00061531417 -0.0013806522 -0.00042299385 -0.002264491 -0.69196653 0.14933479
646000000 -0.67601866 0.15553673 0.00010076066 -0.0019117248 -0.00029998031 -0.00072789018 -0.69026357 0.14937401
647000000 -0.67593598 0.15599799 -6.7673573e-005 -0.00096540456 -0.00077334372 -0.0018136511 -0.69135463 0.14929071
648000000 -0.67559654 0.15561992 -0.0004760584 -0.0018247347 -0.00029980377 -0.0016915691 -0.69028878 0.1493046
649000000 -0.6766566 0.15570576 -0.00023882363 -0.0016979844 -0.00049415918 -0.0014128757 -0.68968844 0.15093991
650000000 -0.67561305 0.1558539 -0.00034460466 -0.0017581183 0.00012999368 -0.0014227505 -0.68968099 0.15106413
651000000 -0.67620063 0.15615164 -0.00071314722 -0.00081878674 -0.00012907288 -0.0017076184 -0.6912508 0.15107021
652000000 -0.67557758 0.15670355 -0.00068875309 -0.0015485698 -0.00077671843 -0.0019001698 -0.68968093 0.15082045
653000000 -0.67568505 0.15676095 -0.0003209858 -0.001098375 -0.00064206083 -0.0017730634 -0.690139 0.15020368
654000000 -0.67644346 0.15633503 -0.00024554081 -0.0020557393 -0.00018581076 -0.0010883876 -0.69075906 0.15074797
655000000 -0.67558026 0.1577455 -0.00016494317 -0.00094458525 -0.00010067186 -0.0023822482 -0.68982464 0.15135854
656000000 -0.67544538 0.1583821 -0.00040566197 -0.0014037887 -0.00065522047 -0.0014464869 -0.68938196 0.15151086
657000000 -0.67537874 0.15832122 -9.3733892e-005 -0.0019995801 -0.00013020697 -0.0020506505 -0.69036442 0.1514051
658000000 -0.67637146 0.15810405 8.2544058e-005 -0.0011867501 -0.00070535741 -0.0016336938 -0.69026828 0.15231796
659000000 -0.67520273 0.15903628 0.00032315147 -0.0014037071 -0.00037667967 -0.0021270539 -0.69034725 0.15233535
660000000 -0.67414951 0.15937288 -0.0012110054 -0.0023316517 -0.00053490681 -0.0016851182 -0.69045997 0.15198912
661000000 -0.67621666 0.15882105 -0.00018659614 -0.0017441293 0.00019381786 -0.0021930658 -0.68920684 0.15322362
662000000 -0.67494696 0.15844102 -0.00043631348 -0.001667646 -0.0016797361 -0.0016920664 -0.69077134 0.15365638
663000000 -0.67485857 0.15960218 -0.00079590926 -0.001369631 -0.00042173226 -0.0016364716 -0.69021809 0.15306443
664000000 -0.67626554 0.15947947 -0.00049751892 -0.0021245263 -0.00070750189 -0.0011514997 -0.68915403 0.15418603
665000000 -0.67523909 0.16001062 -0.00044099477 -0.0015951118 -0.00099744578 -0.0013096675 -0.69051218 0.15386239
666000000 -0.67524105 0.15963973 -0.0003830253 -0.0018661178 -0.0005931271 -0.00097746053 -0.69052732 0.15331832
667000000 -0.67489064 0.1606188 -0.00041068721 -0.0021019569 -0.00078421016 -0.0013152948 -0.68983543 0.15381595
668000000 -0.67495871 0.15976046 -0.00020211354 -0.0019825769 -0.0004567916 -0.0009905902 -0.69104111 0.15428995
669000000 -0.67494875 0.16055644 -0.00059672381 -0.0020391305 -0.0010157169 -0.0018223489 -0.68906742 0.15303469
670000000 -0.67466098 0.16029845 -0.00015430062 -0.0019956417 -0.00082220521 -0.0014814945 -0.68823856 0.15436485
671000000 -0.67530149 0.1613939 2.4615534e-005 -0.0020397305 -0.00060413446 -0.001485814 -0.6895349 0.15523155
672000000 -0.67410165 0.16071971 -0.0017875276 -0.0019787005 -0.00089698023 -0.0011779445 -0.68969876 0.15510543
673000000 -0.67491698 0.16155165 -9.2242648e-005 -0.0027122011 -0.00069986266 -0.0017924136 -0.68898767 0.15487763
