!Keysight Technologies,M9374A,MY55442783,A.12.55.05
!Date: Thursday, May 20, 2021 12:52:15
!Correction: S11(Full 2 Port(1,2)) 
!S21(Full 2 Port(1,2)) 
!S12(Full 2 Port(1,2)) 
!S22(Full 2 Port(1,2)) 
!S2P File: Measurements: S11, S21, S12, S22:
# Hz S  RI   R 50
500000000 -0.68635666 0.10881457 0.00076158618 -0.0016877175 -0.0011205834 -0.0012085976 -0.69827193 0.10312936
501000000 -0.68640333 0.10863532 -0.00057088019 -0.0017879666 -0.00076663826 -0.0016129517 -0.69937658 0.10464349
502000000 -0.68675649 0.10853025 -0.00017961675 -0.001751783 -0.00022333012 -0.00075523742 -0.69869047 0.10381916
503000000 -0.68594766 0.10870882 0.00034136802 -0.001247435 4.4939326e-005 -0.00073424418 -0.69961244 0.10405129
504000000 -0.68617743 0.10885561 -5.3141968e-005 -0.0016193105 6.8764079e-005 -0.0014606719 -0.69865209 0.10483105
505000000 -0.68468642 0.10844716 -0.00066198281 -0.0017452275 -9.8578552e-005 -0.001137126 -0.69863594 0.10445287
506000000 -0.68635368 0.10961454 -0.00075218466 -0.00053561095 -0.00039707514 -0.0011392895 -0.69860828 0.10514627
507000000 -0.68499309 0.10982865 -3.1147094e-005 -0.0010647292 -0.00088668423 -0.00077005278 -0.69956082 0.1058802
508000000 -0.68622649 0.11047674 -0.00068753806 -0.00099358277 -0.00050469587 -0.001151947 -0.69933814 0.10639927
509000000 -0.68629599 0.11159495 -0.00073702121 -0.0011417548 -0.00013055446 -0.00096103566 -0.69959641 0.10580671
510000000 -0.68529278 0.11086803 -0.00033873186 -0.00057400391 -0.00080260169 -0.0012043128 -0.69880378 0.10664659
511000000 -0.68527013 0.11149988 -0.00052779599 -0.0014756329 2.5801157e-005 -0.0014327818 -0.69969726 0.10710778
512000000 -0.68433398 0.11084718 -0.0009867606 -0.0013459229 -0.00017649749 -0.0019231514 -0.69847131 0.10670004
513000000 -0.68533957 0.1110719 -0.00061176193 -0.00068382965 -0.00098441902 -0.0016422683 -0.69893152 0.10569467
514000000 -0.68545723 0.11159386 -0.00026665456 -0.0010959344 -0.00022698707 -0.0020863728 -0.69859362 0.10692132
515000000 -0.6845901 0.11282969 -0.00045136854 -0.0013167456 -0.00079431839 -0.0013859877 -0.69982731 0.10712777
516000000 -0.68511164 0.11242393 -0.00048030316 -0.00087148137 -0.00037582504 -0.0014691633 -0.69940883 0.10859009
517000000 -0.68577355 0.11291711 -3.6298523e-005 -0.0015186018 0.00016138604 -0.0012821666 -0.69769019 0.10840338
518000000 -0.68526429 0.11309341 -1.4550244e-005 -0.0017208511 -9.0696514e-005 -0.00067129626 -0.69773769 0.10817806
519000000 -0.68524879 0.11273314 -0.00056857214 -0.0014685062 -0.00047546803 -0.0020708086 -0.69833171 0.10965811
520000000 -0.68372566 0.1130807 -0.00016430899 -0.0025066496 -0.00031425356 -0.0015440611 -0.69770819 0.10859947
521000000 -0.68566006 0.11415923 -7.780936e-005 -0.00054046663 -8.496151e-005 -0.00041663813 -0.69899517 0.10889206
522000000 -0.68636173 0.11396014 -0.00072366046 -0.0021559999 -0.00021810488 -0.0013493305 -0.69800591 0.11015529
523000000 -0.68469471 0.11313945 -0.00025465467 -0.0011328547 -0.00014879458 -0.001840561 -0.69826531 0.1088321
524000000 -0.68521512 0.1139717 5.1183222e-005 -0.0010442287 7.0175796e-005 -0.00166179 -0.69823736 0.10920597
525000000 -0.68532199 0.1146727 -0.00053699227 -0.00070527272 -0.0001212131 -0.0014690529 -0.69822794 0.11031033
526000000 -0.68592572 0.11532625 -0.00023648169 -0.0018137671 -0.00077337172 -0.0015674937 -0.69834131 0.10999078
527000000 -0.68464792 0.11489463 -0.00062045001 -0.0019764134 0.0001385651 -0.0013728064 -0.69737732 0.1101172
528000000 -0.6850791 0.11548761 0.00028334212 -0.0016774462 -0.00030696247 -0.0012180421 -0.69742644 0.11179683
529000000 -0.68489426 0.11467916 -0.0001722163 -0.0016043658 0.00056132965 -0.0017951756 -0.69875342 0.1101672
530000000 -0.68465906 0.11548262 -0.00013700312 -0.0013451602 -9.4035306e-005 -0.0014340706 -0.69873154 0.11087415
531000000 -0.68483281 0.11554012 -0.00090925576 -0.00080084131 -0.00054703502 -0.0015989059 -0.69839579 0.11149403
532000000 -0.68512785 0.11511953 -0.00059398753 -0.0010631381 -0.00019497905 -0.0016606345 -0.69823432 0.1110842
533000000 -0.68491387 0.1153175 -0.0007659088 -0.0015520643 -0.00040582818 -0.0013599853 -0.69761181 0.1124773
534000000 -0.68459243 0.11502894 0.00063904666 -0.0010037601 -0.00023599902 -0.0015614794 -0.69786936 0.11094817
535000000 -0.68465954 0.11646053 -0.00058915181 -0.0016320338 -0.00073619338 -0.0013382434 -0.69776791 0.11164952
536000000 -0.68421173 0.11606151 -0.00056673458 -0.0010942158 -0.00029835201 -0.0013885489 -0.69766754 0.11209804
537000000 -0.68484026 0.11698146 8.4420237e-005 -0.0010039187 -0.00017881939 -0.001300017 -0.69845444 0.11196683
538000000 -0.68440366 0.11684664 -0.00049981143 -0.0018337769 -0.0005237764 -0.0014189753 -0.69863164 0.11325009
539000000 -0.68562001 0.11628368 -0.00058254704 -0.0011822798 0.00024086052 -0.0011559278 -0.69782799 0.11284476
540000000 -0.68488312 0.11706204 -0.00099797128 -0.0015348266 -0.00090345729 -0.0012703752 -0.69817793 0.11391792
541000000 -0.68560809 0.11706746 -0.00071159552 -0.0017144574 -9.005732e-006 -0.0015819111 -0.69756955 0.11254001
542000000 -0.68428296 0.11647275 -8.5515851e-005 -0.0012932677 0.0004003733 -0.001019144 -0.69719189 0.11330225
543000000 -0.6847226 0.11677334 -0.00039729665 -0.0015591565 -0.00047564175 -0.0017982379 -0.69752276 0.11477745
544000000 -0.68563008 0.11812855 -0.00071973033 -0.0010382194 -0.00074192707 -0.0014412666 -0.69799811 0.11409685
545000000 -0.68452865 0.11906274 -3.6091151e-005 -0.0011708646 -0.00013900483 -0.0015841511 -0.69634807 0.11363077
546000000 -0.6844312 0.11940069 3.5931371e-005 -0.0012360181 -0.00051468168 -0.0017457791 -0.69784701 0.11438071
547000000 -0.68417966 0.11848118 0.00023524248 -0.0012275412 -5.3830718e-005 -0.0011393895 -0.69817919 0.11480736
548000000 -0.68413919 0.11884764 0.00030312716 -0.0018550255 -0.00020100035 -0.0013726758 -0.69868326 0.11475326
549000000 -0.68482023 0.11965308 -0.0008694682 -0.0011197802 -0.0002657501 -0.0016922503 -0.69759077 0.1149242
550000000 -0.68331957 0.12017112 -0.0010196749 -0.0020279684 -0.0011990003 -0.0013630994 -0.69810587 0.11468533
551000000 -0.68410838 0.11958679 -7.7255781e-006 -0.0015205839 -0.00020089645 -0.001418627 -0.69848055 0.11517254
552000000 -0.6839422 0.12002398 -0.00019776731 -0.0017447437 -0.00074080389 -0.0017626506 -0.69624335 0.11498281
553000000 -0.6843099 0.11856651 -0.00047882416 -0.00062956061 -6.1051833e-005 -0.0019040448 -0.69775039 0.11527759
554000000 -0.68436664 0.11930069 -0.00071470119 -0.001668248 -0.00033876894 -0.00099077611 -0.69809371 0.1157636
555000000 -0.68505472 0.11978585 -0.00053867331 -0.0019626322 -0.00018705826 -0.0019920592 -0.69698906 0.11508951
556000000 -0.68343472 0.11841217 -0.00044186096 -0.0011484169 -0.00072646263 -0.0017589249 -0.69819814 0.11625692
557000000 -0.68403137 0.1199263 -0.00046898457 -0.0013979864 -0.00049710774 -0.00059168669 -0.69850183 0.11704995
558000000 -0.68353635 0.1203474 -0.00087799714 -0.0013757299 -0.0010413096 -0.0014307374 -0.69815165 0.11744852
559000000 -0.68410194 0.12017874 0.00010112351 -0.0013298801 -0.0003546825 -0.0014349798 -0.6979813 0.11701699
560000000 -0.68325663 0.12045255 -0.00043632273 -0.0014322626 -7.1590839e-005 -0.0013949844 -0.69788176 0.11572801
561000000 -0.68314952 0.12016795 -0.00079550373 -0.001646317 -0.00090027152 -0.001911576 -0.69857031 0.11674638
562000000 -0.68369061 0.12198538 -0.00071564713 -0.0018353452 -0.00064520154 -0.001489629 -0.69795215 0.11715444
563000000 -0.68314785 0.12182147 -0.00083614036 -0.0010843552 -0.00098259177 -0.0013491465 -0.69703925 0.11798866
564000000 -0.68382835 0.12123656 0.00032727036 -0.002300095 -0.00025298432 -0.0011309317 -0.69835407 0.11689501
565000000 -0.68394774 0.12184825 0.00025044431 -0.0020508729 -0.0005165785 -0.0010746577 -0.69787496 0.11716743
566000000 -0.68443513 0.12149996 0.00044807399 -0.0020510149 -0.00087384414 -0.0014872248 -0.69738072 0.11649927
567000000 -0.68335694 0.12183239 -0.00036443456 -0.0018463231 -0.00041128788 -0.0015772337 -0.69762468 0.11747849
568000000 -0.68411195 0.12158998 -0.0011717434 -0.0019452652 -0.00057142298 -0.0015106652 -0.69722599 0.11822297
569000000 -0.68344837 0.12124424 -0.00044241766 -0.00096211134 -0.00058514759 -0.00084299129 -0.69819427 0.11765946
570000000 -0.68345356 0.12197667 -0.00087678706 -0.0014853434 -0.00089071586 -0.0014238828 -0.69745106 0.11748241
571000000 -0.684416 0.12243318 -0.00092955242 -0.00055847655 -0.00050134549 -0.001605914 -0.69811976 0.11956697
572000000 -0.68310285 0.12184263 -0.00054143113 -0.0017610552 0.00023181876 -0.0015027391 -0.69642717 0.11905532
573000000 -0.68322223 0.12246624 -5.9748977e-006 -0.001105266 -0.00039060312 -0.0009828679 -0.69762057 0.11889252
574000000 -0.68400884 0.12325104 -0.00019902017 -0.0016765522 -0.00067430636 -0.0019442394 -0.697896 0.11928495
575000000 -0.68254977 0.12339818 -0.00017552997 -0.0011020366 -0.00050198962 -0.0017207325 -0.69682217 0.11968307
576000000 -0.68361044 0.12285411 -0.00104409 -0.0013707816 -0.00058569445 -0.0016784776 -0.69663024 0.11915646
577000000 -0.6823504 0.12332863 -0.00059025612 -0.00096756825 -0.00024599509 -0.0014681756 -0.69819629 0.11872929
578000000 -0.68232465 0.12408021 -0.00081548159 -0.0017720016 -0.00070502632 -0.0019085282 -0.69712853 0.11954814
579000000 -0.68248838 0.12377775 -0.00043844181 -0.0020705378 -0.00010782357 -0.001994865 -0.69755083 0.11882675
580000000 -0.68372214 0.12444898 -0.00016704331 -0.0015554772 -0.00064104318 -0.001791907 -0.69688779 0.11987757
581000000 -0.68353462 0.12393424 -5.5733253e-005 -0.000650934 -0.0010420737 -0.0011747888 -0.69720864 0.12001395
582000000 -0.68261933 0.1237682 -0.00019102746 -0.0015160388 -0.00011231036 -0.0014676504 -0.69727975 0.12168591
583000000 -0.68262064 0.12499793 -0.00069119211 -0.0021278011 -0.00042594399 -0.0018268796 -0.69640005 0.12163746
584000000 -0.68157178 0.12466761 -0.00056898105 -0.0011453148 -0.00021326319 -0.0016407093 -0.69749421 0.12149363
585000000 -0.68321645 0.12501325 -0.00053123024 -0.0011767825 -0.00057555211 -0.0019696909 -0.6985333 0.12152505
586000000 -0.68279904 0.12517358 -0.00037163714 -0.0015362018 -0.00015138737 -0.0014856142 -0.69662976 0.12068809
587000000 -0.68282562 0.12650068 -0.00067930354 -0.0013678945 -0.00035087392 -0.0016460689 -0.69548464 0.12053024
588000000 -0.68145919 0.12582184 6.1541861e-005 -0.0011828787 -0.0009088426 -0.0019738965 -0.69705182 0.12195992
589000000 -0.68277097 0.12570745 -0.0012528291 -0.0010190967 -3.6269263e-005 -0.0013655911 -0.69721365 0.1224679
590000000 -0.68340427 0.12681289 3.8322676e-005 -0.0016628122 -0.00062284304 -0.0018206465 -0.6960358 0.12144283
591000000 -0.68132246 0.12564591 -0.00028245948 -0.0018767028 0.00071960705 -0.0017380051 -0.6968357 0.12161288
592000000 -0.68279111 0.12705439 -0.00073187839 -0.0013407544 -0.0004138269 -0.00095519063 -0.6966812 0.12178608
593000000 -0.68239778 0.12734537 -0.0009162834 -0.0012050119 -0.00035075532 -0.0019519776 -0.69762897 0.12253687
594000000 -0.68190342 0.12773557 -0.00060652866 -0.0013689878 -0.00030247815 -0.001437138 -0.69734168 0.1234347
595000000 -0.6813783 0.12695065 -0.00046286889 -0.0016272251 -0.00022699231 -0.0016646495 -0.69632268 0.12350473
596000000 -0.68208945 0.12687016 -0.00037454444 -0.0020317885 -0.00056040206 -0.0015996894 -0.69616127 0.12333746
597000000 -0.68143219 0.12793216 -0.00067632034 -0.0012214595 -0.00015530866 -0.0012158767 -0.69717014 0.12220612
598000000 -0.6824472 0.12870754 -0.00060830469 -0.0015849596 -0.00038275978 -0.0019576952 -0.69621974 0.1231272
599000000 -0.68273002 0.12847896 -0.00082162791 -0.0020013559 -0.0014922224 -0.0017796914 -0.69682294 0.12253468
600000000 -0.68174618 0.12881802 -0.000452982 -0.0018611762 -0.00024208968 -0.0010724172 -0.69605607 0.12413743
601000000 -0.68174851 0.12867995 -0.00062630523 -0.0013883132 -0.00035789155 -0.0012352461 -0.69609874 0.12431978
602000000 -0.68139315 0.12947194 -0.00022497351 -0.0022051695 -0.00081036199 -0.0011131868 -0.69524968 0.12450528
603000000 -0.6810261 0.12993781 -0.0005705934 -0.0020581004 -0.0010158736 -0.00091780291 -0.69671798 0.12456796
604000000 -0.68138224 0.12938085 0.00050753 -0.00069204497 -0.0003936562 -0.0011850973 -0.69458741 0.12521435
605000000 -0.68219602 0.12946808 -0.00042999908 -0.0022505613 -0.0007811627 -0.0011585579 -0.69711202 0.12501481
606000000 -0.68084908 0.13001174 0.00038845834 -0.0016839734 -0.00052009861 -0.0010982184 -0.69592655 0.12447345
607000000 -0.68226027 0.12942742 -0.00058406655 -0.0018088995 -0.0013841372 -0.002041006 -0.69619811 0.12462411
608000000 -0.68187177 0.13164811 -0.00028770184 -0.0019994059 -0.00061301823 -0.0015308851 -0.69548935 0.12616067
609000000 -0.68173432 0.1305656 -0.00020477406 -0.0010516677 0.00021643093 -0.0016187411 -0.69670701 0.12563336
610000000 -0.68105441 0.13125427 -0.00045949843 -0.00094569952 -0.00088167976 -0.0017580832 -0.69487613 0.12633544
611000000 -0.68058133 0.1321957 -0.00018366145 -0.0015247954 -0.00055806583 -0.0012687175 -0.69506669 0.12675081
612000000 -0.68126595 0.13227625 -0.00043249884 -0.0015278568 -0.00071737438 -0.0011570053 -0.69585967 0.12617826
613000000 -0.6810112 0.13091062 -0.00058839476 -0.0015310269 -0.00038744378 -0.0014158689 -0.69523865 0.12698303
614000000 -0.6809535 0.13280088 -0.00072215818 -0.0019571031 -0.00019321068 -0.0013304353 -0.69634908 0.12704051
615000000 -0.68050116 0.13221687 0.00026630657 -0.0017252425 -8.9189583e-005 -0.0022152183 -0.69522029 0.127257
616000000 -0.68081045 0.13259223 1.0703817e-006 -0.0015978728 -0.00065572618 -0.00099305261 -0.69556046 0.12874982
617000000 -0.6806947 0.1332057 -0.00016621278 -0.0010403185 -0.00054620882 -0.0020040262 -0.69518226 0.12855145
618000000 -0.68020791 0.13310796 0.00016575388 -0.0021989353 -0.00063611433 -0.0019602794 -0.69642532 0.12779231
619000000 -0.6800918 0.13443322 -0.0003055358 -0.002074979 -0.00069818209 -0.0017802791 -0.69587219 0.12818341
620000000 -0.6814124 0.13345854 0.00016652182 -0.0010353503 -0.00031670448 -0.0022966615 -0.69500208 0.12757796
621000000 -0.6810925 0.13415274 -0.00060645828 -0.0017448106 -0.00079443469 -0.0016229092 -0.69545174 0.12956755
622000000 -0.67959219 0.13440213 -0.00022651152 -0.0012229973 -0.00048859994 -0.001903805 -0.69492447 0.12823109
623000000 -0.68095714 0.13484953 -0.0003934837 -0.001321418 -0.00039156718 -0.0017006025 -0.69566655 0.12843376
624000000 -0.68052769 0.1356506 0.00012463944 -0.001041327 -0.00067761401 -0.002152585 -0.69466311 0.12891206
625000000 -0.68068522 0.13521668 0.00015098017 -0.0010890389 -0.00056244474 -0.0015378068 -0.69536513 0.12967142
626000000 -0.6806497 0.13509643 3.3492823e-005 -0.0014982307 -0.0016161087 -0.0016313851 -0.69486779 0.13019393
627000000 -0.68037033 0.13588417 -0.00049741351 -0.0019038101 -0.00094587478 -0.001548496 -0.69503021 0.13023631
628000000 -0.67973799 0.13608089 -8.0561629e-005 -0.0013435826 -0.00033942665 -0.0011505749 -0.69471741 0.130731
629000000 -0.68062115 0.13647299 -0.00036069457 -0.0013390017 -0.00090076693 -0.0011991155 -0.69415408 0.13097438
630000000 -0.68045837 0.13613841 -0.00041524574 -0.0012951923 -0.0012664574 -0.0011442798 -0.69385433 0.13100637
631000000 -0.68074429 0.13682187 -0.00031606949 -0.0016942669 -0.00018996983 -0.0018431458 -0.69473755 0.13107963
632000000 -0.68097299 0.13737912 -0.00075614074 -0.0020402814 -0.00043337035 -0.0015865866 -0.69408035 0.13123634
633000000 -0.68073773 0.13784976 -3.3042528e-005 -0.001460646 -0.00035250466 -0.0010759506 -0.6953491 0.13174707
634000000 -0.67989802 0.13792913 -0.00047205412 -0.0010621548 -0.000423285 -0.0014809591 -0.69523716 0.13134213
635000000 -0.67986542 0.1381488 -0.0008245628 -0.0015601737 4.7562877e-005 -0.0014072524 -0.69486642 0.13050915
636000000 -0.67865765 0.1375411 -0.00038188815 -0.0011007774 -0.00010098592 -0.00085892045 -0.69499654 0.13192275
637000000 -0.67994428 0.13824248 -0.00087436824 -0.0017473609 -0.0010563749 -0.0014246302 -0.69362777 0.1319591
638000000 -0.68059057 0.1378931 -0.00068978587 -0.0021191856 -0.0003732162 -0.0016437268 -0.69497657 0.1326922
639000000 -0.68087626 0.14004289 -0.0002357513 -0.00056817941 -0.0011141426 -0.0021802823 -0.6942988 0.13261142
640000000 -0.67875105 0.13912584 -0.00058162585 -0.0011744899 -0.0004787239 -0.0012771772 -0.6949203 0.13278314
641000000 -0.68059993 0.13967912 -4.9835398e-005 -0.0013433081 -0.00081890519 -0.0017326693 -0.69427955 0.13288948
642000000 -0.68031263 0.13878959 0.0001595692 -0.0015675817 0.00013477429 -0.0020069589 -0.69520068 0.13356474
643000000 -0.67969608 0.14028615 -2.2149343e-005 -0.0014457356 -0.00017709869 -0.0016433961 -0.69435239 0.13254526
644000000 -0.6798684 0.13966547 -0.00067807164 -0.0014759987 -0.00038168332 -0.0017091867 -0.6943664 0.13353373
645000000 -0.68019724 0.13968459 -0.00051720295 -0.0014226291 -0.00099743833 -0.0014553183 -0.69506526 0.13344719
646000000 -0.68007439 0.13916366 -0.00052263978 -0.0013189371 -0.0007664829 -0.0017046272 -0.69324052 0.13499781
647000000 -0.67991084 0.13946931 -0.00028016334 -0.0015840795 4.2135318e-005 -0.0011032103 -0.69512093 0.13447267
648000000 -0.67975104 0.14124762 -0.00012286153 -0.0018886445 -0.00015902716 -0.0017832568 -0.69441515 0.13496141
649000000 -0.68068737 0.14054412 -0.00026923663 -0.0018354513 -0.00072601618 -0.0014566092 -0.69344985 0.13493063
650000000 -0.67922896 0.14077853 -0.00098042376 -0.0020869428 -0.00039220185 -0.0013682229 -0.69289809 0.13539261
651000000 -0.67920542 0.14126162 -0.00029080681 -0.0016795847 -0.00073148165 -0.0019380176 -0.69423044 0.13530403
652000000 -0.67954069 0.14115115 -0.00010769893 -0.0012977256 -0.00079126749 -0.001640531 -0.69398272 0.13467827
653000000 -0.67982882 0.1417297 -0.00073063216 -0.0017976665 0.00017362941 -0.0016383798 -0.69385988 0.13461499
654000000 -0.6794852 0.14171456 0.00016262257 -0.0011571866 -0.00099430291 -0.0016617563 -0.69340831 0.13569421
655000000 -0.6794889 0.14231928 -0.00042940173 -0.0014345882 -0.0010793216 -0.0019313395 -0.69343364 0.13604197
656000000 -0.67958307 0.14325052 -0.00045490474 -0.0019425731 -0.00068350777 -0.0018601469 -0.69400895 0.13678211
657000000 -0.67936879 0.14234456 -0.00034383789 -0.0016398522 -0.00051958708 -0.001656938 -0.69310838 0.13589185
658000000 -0.67907465 0.14318302 -0.00083785772 -0.001508394 -0.00038727382 -0.0016105992 -0.69337183 0.13638443
659000000 -0.67946905 0.14373377 -0.0010603495 -0.0016438427 -0.00054349919 -0.00068508979 -0.69376522 0.13611718
660000000 -0.67929941 0.14302392 -0.00081863697 -0.0020837625 -0.001030339 -0.0013765 -0.69358283 0.13618097
661000000 -0.67946881 0.14371561 -0.00061655173 -0.0024408756 -0.0011692485 -0.00205798 -0.69454712 0.13686059
662000000 -0.67966616 0.14374672 -0.001009663 -0.0018111801 -0.0011283137 -0.0015789398 -0.69402808 0.13654825
663000000 -0.67989397 0.14293131 -0.0010779869 -0.0019284452 -0.0004842183 -0.0020379224 -0.69319868 0.13667279
664000000 -0.67876029 0.14321722 -4.7715821e-005 -0.001745005 -0.00062410417 -0.0014202987 -0.69318402 0.13769279
665000000 -0.6787793 0.14368625 -0.00060344348 -0.0017622643 -0.00070051261 -0.0023562408 -0.69255471 0.13793541
666000000 -0.67994374 0.14366427 -0.00050703541 -0.0014995057 -0.00060615659 -0.0016178826 -0.69317496 0.13810241
667000000 -0.67802918 0.1448129 3.1009527e-005 -0.0016441087 0.00024211554 -0.0019694304 -0.69402277 0.13756487
668000000 -0.67971158 0.14411893 -2.9672819e-005 -0.0019998318 -0.00070511876 -0.0018964523 -0.69380766 0.13833115
669000000 -0.67983764 0.14497046 -8.7572109e-005 -0.0016086944 -0.0001509453 -0.0020116032 -0.69306582 0.13803881
670000000 -0.67945296 0.14473835 -0.00026506744 -0.0008332532 -0.0004326232 -0.0017366199 -0.69431788 0.13937375
671000000 -0.67876112 0.1455064 -0.00096098887 -0.0019154317 -0.00077653048 -0.0014377891 -0.69347322 0.13874802
672000000 -0.67898083 0.14530745 -0.00049523334 -0.0013755331 -0.00061331969 -0.0019079077 -0.69347703 0.13816549
673000000 -0.6784026 0.14485405 -0.00056002574 -0.0020674819 -0.0018478562 -0.0019218791 -0.69242072 0.13906252
