!Keysight Technologies,M9374A,MY55442783,A.12.55.05
!Date: Thursday, May 20, 2021 13:45:27
!Correction: S11(Full 2 Port(1,2)) 
!S21(Full 2 Port(1,2)) 
!S12(Full 2 Port(1,2)) 
!S22(Full 2 Port(1,2)) 
!S2P File: Measurements: S11, S21, S12, S22:
# Hz S  RI   R 50
500000000 -0.68303072 0.097395442 -0.00035422941 -0.0021099523 -0.00052350841 -0.0010597663 -0.70157564 0.093908928
501000000 -0.6837272 0.097403295 0.00016965637 -0.0014557455 -0.0007017621 -0.0009845898 -0.70067894 0.094494097
502000000 -0.68422097 0.096866705 -0.00076126691 -0.00085470662 -0.00038724951 -0.001654965 -0.70096982 0.094314866
503000000 -0.68432325 0.09816052 -5.6429966e-005 -0.0015216663 -0.0008279914 -0.00099407369 -0.70175415 0.095004871
504000000 -0.68306673 0.098691382 0.00015382045 -0.0009718106 -0.00064729131 -0.0014038853 -0.70178759 0.094805837
505000000 -0.68447191 0.098002523 0.00012843149 -0.0021301936 -2.5338333e-005 -0.00048442808 -0.70162797 0.093555667
506000000 -0.68333864 0.097963415 -0.00085371931 -0.0014843092 -0.0002168049 -0.00089496508 -0.7017293 0.094465964
507000000 -0.68297666 0.098778367 -0.0003231088 -0.0007412337 -8.9208268e-005 -0.0015092668 -0.70093465 0.095645264
508000000 -0.68310046 0.098381162 -0.00028602479 -0.0015000365 0.00019270864 -0.0016608853 -0.70184392 0.095919289
509000000 -0.68321419 0.098876923 -0.00022222188 -0.00079070294 -0.00035206974 -0.0017713698 -0.7007609 0.09518797
510000000 -0.68310887 0.099221237 -0.00045450436 -0.0014636231 -9.7244032e-005 -0.00068252743 -0.70206666 0.096358225
511000000 -0.68311048 0.099131659 -0.00023728103 -0.0015226201 0.00022082774 -0.0011226485 -0.70036578 0.095086932
512000000 -0.68240654 0.10003114 0.00027706646 -0.00094851817 -0.00063200307 -0.0019219234 -0.70171732 0.096124254
513000000 -0.68358713 0.099345736 -0.00016927226 -0.00066027045 -0.00044150915 -0.00088619516 -0.70042664 0.096411601
514000000 -0.68292278 0.098966837 -0.00014377396 -0.0015948565 -0.00047584713 -0.0016107192 -0.70123082 0.097127303
515000000 -0.68212646 0.1006043 -0.00051942136 -0.0010144991 -0.00054458663 -0.00084738998 -0.70123369 0.097109586
516000000 -0.68358028 0.10036767 6.0473554e-005 -0.00095611304 3.1109157e-005 -0.0012591787 -0.70121413 0.096138306
517000000 -0.68227428 0.10179108 -0.00031529131 -0.0010660344 -0.00029628741 -0.0020525695 -0.70126522 0.096991666
518000000 -0.68461609 0.10100695 0.00035677539 -0.0016170836 0.0002306549 -0.0012651248 -0.70066595 0.0985194
519000000 -0.68284506 0.10069513 -0.00034763044 -0.00086855266 -7.1537557e-005 -0.00088133838 -0.70047927 0.098149553
520000000 -0.68231636 0.10086337 -0.00065692893 -0.0018399345 -0.00096493913 -0.0019932913 -0.70065415 0.098806538
521000000 -0.68199944 0.1031943 -0.00047141602 -0.0012469793 -0.00059020537 -0.0020779341 -0.70095289 0.097466491
522000000 -0.68336636 0.10214363 -0.00030633211 -0.0016318571 -0.00093961466 -0.00094783155 -0.70138621 0.098941527
523000000 -0.683599 0.10144953 6.2546974e-006 -0.00086715841 -0.0008979555 -0.0014623789 -0.70030594 0.098764874
524000000 -0.6836006 0.10186289 -0.00020157176 -0.0014047415 0.00014893482 -0.0011030748 -0.70153815 0.098805867
525000000 -0.68131232 0.10269668 -0.00015733199 -0.0012739871 -0.00030782394 -0.0015434208 -0.70089799 0.098839097
526000000 -0.68320715 0.10259356 -0.00087237637 -0.0016591056 -0.00016019851 -0.0011700073 -0.70052427 0.099389888
527000000 -0.68234223 0.10355788 -0.00025760668 -0.0015315335 -0.00082874048 -0.00080670509 -0.70110238 0.10006611
528000000 -0.68344289 0.10295809 5.4552776e-005 -0.0016552219 -0.00067136704 -0.0012442818 -0.69999498 0.09955281
529000000 -0.68337512 0.1036874 -0.000237199 -0.0018174091 -0.00052091031 -0.00093736569 -0.6993736 0.10011015
530000000 -0.68310809 0.10329188 -0.00043055648 -0.0017533306 -0.00091926346 -0.00074006879 -0.70103002 0.098891914
531000000 -0.6835655 0.10382375 -0.00011550979 -0.0011244578 -0.00085554912 -0.00098487979 -0.70008707 0.10139369
532000000 -0.68266845 0.10397463 -0.00044982671 -0.0013198653 -0.00057825609 -0.0020204817 -0.70083046 0.10091984
533000000 -0.68259287 0.10347528 -0.00052753568 -0.0020588899 -0.00021889567 -0.0019043389 -0.70003599 0.10121845
534000000 -0.68317908 0.10263858 -8.4265033e-005 -0.0016136167 -0.00060969131 -0.0015994015 -0.70054978 0.1005457
535000000 -0.68294382 0.10413084 -0.00030226514 -0.0019591015 0.00013404802 -0.0020701378 -0.70071137 0.10230946
536000000 -0.68244761 0.10373124 0.00015622465 -0.00093536655 -0.000262813 -0.0013493507 -0.70066512 0.10105015
537000000 -0.68228549 0.10481086 -0.00026950816 -0.0017485182 5.6080189e-005 -0.001695392 -0.70081729 0.10157295
538000000 -0.68270814 0.10421414 -0.00055036321 -0.0016361007 -0.00058191904 -0.0015896271 -0.70067525 0.10200761
539000000 -0.68378282 0.10551998 -0.00041072856 -0.0015480648 0.00011638058 -0.0016633291 -0.7006253 0.10202185
540000000 -0.68249899 0.10520542 -0.0011040672 -0.00087549118 -0.00038529883 -0.0009747463 -0.70010871 0.10145781
541000000 -0.68318558 0.10567587 1.1019231e-005 -0.0012669275 -0.00023210273 -0.0011418905 -0.70053524 0.10198217
542000000 -0.68308067 0.10637761 -0.00050521502 -0.0012639483 -4.8294431e-005 -0.0011458098 -0.70081359 0.10194642
543000000 -0.68295467 0.10561387 -0.00061788742 -0.0015581738 -0.00034810681 -0.0021745269 -0.70061588 0.10283694
544000000 -0.68347955 0.10630371 -0.00045565405 -0.0014396326 -0.001162964 -0.0020217244 -0.7012769 0.1027858
545000000 -0.6818608 0.10560374 -0.00072138332 -0.0014499858 0.00036388065 -0.00099560036 -0.69997859 0.10254424
546000000 -0.68268239 0.10532933 -0.00021858835 -0.0019387892 -0.00040772371 -0.001254704 -0.70164156 0.10246128
547000000 -0.68255359 0.10639245 -0.00081594568 -0.0016016723 0.00046374029 -0.0021245803 -0.70034599 0.10411067
548000000 -0.68198878 0.10603207 1.8581593e-005 -0.0019453324 8.8183187e-005 -0.0011232733 -0.69980097 0.10407095
549000000 -0.68309516 0.10579589 -0.00074505963 -0.0013848532 -0.00026055923 -0.0018232546 -0.70039022 0.10391261
550000000 -0.68222249 0.10649393 0.00016226398 -0.0013760634 0.00035020174 -0.0016663139 -0.70013106 0.10366898
551000000 -0.68262297 0.10598885 -0.00049787783 -0.00087930373 -0.00035589063 -0.0017995968 -0.70002162 0.1029817
552000000 -0.68254799 0.10630228 -0.00033155861 -0.001736483 -0.00046158966 -0.0014145083 -0.70044076 0.10451626
553000000 -0.68303394 0.10712077 -0.00016659191 -0.0010965696 -0.00069373444 -0.0013614467 -0.69933641 0.10339183
554000000 -0.68349564 0.10705428 -0.00012183621 -0.0013499936 0.00022584845 -0.0012755436 -0.70064843 0.10438351
555000000 -0.68197536 0.10629721 -0.00077217468 -0.0019335011 -0.00034211128 -0.0010893213 -0.70000058 0.10465584
556000000 -0.6829651 0.10665503 0.00022966936 -0.00083307957 -0.0003036588 -0.0011942521 -0.70071733 0.10403045
557000000 -0.68230367 0.10717719 -0.0003524741 -0.0013809559 -0.00050215836 -0.0014402999 -0.70097941 0.10536806
558000000 -0.68175739 0.10702997 -0.00089809037 -0.0010851781 0.0003895548 -0.0011364256 -0.69954616 0.10435347
559000000 -0.68236226 0.10764099 -0.00028706124 -0.0021380053 7.56087e-006 -0.0021006542 -0.70064181 0.1058922
560000000 -0.68261266 0.10757096 -5.9536698e-005 -0.0018178021 -0.00051229313 -0.0017734728 -0.7001121 0.10497447
561000000 -0.68202806 0.10832113 -0.0005553923 -0.0022394946 -0.0002889889 -0.0011124436 -0.70007712 0.10462355
562000000 -0.68177825 0.10912581 -0.00048492118 -0.00076563261 -0.00056818826 -0.0013066455 -0.70012993 0.10431246
563000000 -0.68088305 0.10808059 -7.0711816e-005 -0.0015240487 0.00019293364 -0.0020333875 -0.70106941 0.10482684
564000000 -0.68217397 0.10766049 -0.0002982803 -0.001779221 -0.00087149866 -0.0013948625 -0.70030648 0.10596752
565000000 -0.68175375 0.10895205 -0.00028200742 -0.00083632988 -0.00091842702 -0.0014406295 -0.7006585 0.10599887
566000000 -0.68202883 0.10864955 -0.00014265286 -0.0014698474 -0.00044612729 -0.0015377388 -0.70014966 0.10623076
567000000 -0.6814239 0.10771719 0.0002069481 -0.0012536235 -0.00026837573 -0.00094386243 -0.70049888 0.10496704
568000000 -0.68100345 0.10799822 -0.00021123415 -0.0015234629 -0.00021633366 -0.0015003949 -0.70018548 0.10602564
569000000 -0.6822781 0.10927974 -0.0012516266 -0.00098947273 -0.0001284321 -0.0020751473 -0.70117337 0.1062172
570000000 -0.68158305 0.10911192 -0.0006096529 -0.0013661146 -0.0010743032 -0.001590948 -0.69984436 0.10657158
571000000 -0.68195742 0.10940098 -0.00055799878 -0.0012810404 -0.0003694302 -0.0011188249 -0.70053858 0.10714997
572000000 -0.68172908 0.10986941 0.00010742662 -0.0013997547 -0.00059635891 -0.0018530345 -0.69940001 0.10633393
573000000 -0.68225908 0.11037541 -1.2363787e-005 -0.0018806371 -0.000508464 -0.0015155694 -0.69990247 0.10864471
574000000 -0.6815179 0.10993666 -0.0006215084 -0.00074933667 -0.00011361675 -0.0014499995 -0.70058477 0.10663897
575000000 -0.68148011 0.11028744 0.00034180854 -0.0013807847 7.0458045e-005 -0.0011442151 -0.70035058 0.10767911
576000000 -0.68154496 0.10910045 -0.00051872735 -0.0015169397 0.00046049032 -0.0023805876 -0.70033967 0.10751835
577000000 -0.68056446 0.10960402 2.9365581e-005 -0.0013758612 -0.00090858829 -0.0011737617 -0.7001186 0.10735386
578000000 -0.68174779 0.10990645 -0.00096810871 -0.0013567944 -0.00062167924 -0.0011562402 -0.69913399 0.10756926
579000000 -0.68077976 0.11064091 -0.00041203536 -0.0018044297 -0.00022675136 -0.0014854213 -0.70011824 0.10741829
580000000 -0.68195087 0.11020575 0.00046833153 -0.0021651578 6.1772148e-006 -0.0010723595 -0.69989765 0.10821334
581000000 -0.68174255 0.11091486 -0.00093084574 -0.00069463206 0.00030804696 -0.0015793581 -0.70043087 0.10836441
582000000 -0.68071479 0.11117896 -0.00036253524 -0.0014321205 -0.0010091438 -0.0012193043 -0.70075351 0.10907617
583000000 -0.68125093 0.11118694 -0.00028848738 -0.0013593202 -0.0002696586 -0.0014858361 -0.70035368 0.10821427
584000000 -0.68162727 0.11166032 -0.0011171727 -0.0014866188 -0.00086582085 -0.0018919036 -0.69945121 0.10955547
585000000 -0.68085957 0.11098773 -0.0012442826 -0.0018925124 -0.00032074263 -0.0006639979 -0.69984639 0.10940699
586000000 -0.68108976 0.1117757 -0.0010789761 -0.0025497978 -0.00082303979 -0.00096529565 -0.69955552 0.10883112
587000000 -0.6808815 0.11201876 1.3309219e-005 -0.0016224437 -0.00029178229 -0.0014270433 -0.70041811 0.10950211
588000000 -0.68058932 0.11285062 -0.00034032247 -0.001588505 5.5164288e-005 -0.0014283244 -0.70004743 0.11000614
589000000 -0.68097407 0.11234981 0.0003383763 -0.0010829272 -1.3177251e-005 -0.001800576 -0.69975567 0.10993708
590000000 -0.67995352 0.11213171 -0.00041819498 -0.0014545121 -7.1857576e-005 -0.0010932705 -0.69816762 0.10997631
591000000 -0.68086445 0.11342904 -0.00050755043 -0.0020563223 0.0004100576 -0.00080988358 -0.69962656 0.11015967
592000000 -0.68081456 0.11266387 -0.00020117762 -0.0014928901 -0.00059453712 -0.0017662825 -0.69965833 0.10867997
593000000 -0.6799466 0.11280952 -0.00049966341 -0.0018870207 -0.00021401605 -0.0017576187 -0.69976586 0.11081613
594000000 -0.67983192 0.11389274 -0.0010674925 -0.0013539107 0.00018794263 -0.0015426901 -0.69881773 0.11079098
595000000 -0.68087083 0.11307631 -0.0002986246 -0.0011927605 -0.0010321002 -0.0011427919 -0.6997003 0.11102693
596000000 -0.6807282 0.1135933 -0.00010639001 -0.0012258642 -0.00058844395 -0.00074973889 -0.7000913 0.11109935
597000000 -0.68105268 0.1141016 -0.00033740405 -0.0021190085 0.00015122187 -0.0018105035 -0.69918334 0.11093691
598000000 -0.68085986 0.11498551 -0.00049532478 -0.0011939631 0.00066709332 -0.0017336742 -0.69944513 0.11109389
599000000 -0.68049252 0.11459399 0.00056329509 -0.0014185532 -0.00079670071 -0.0015919373 -0.69996536 0.11092226
600000000 -0.68094629 0.1151586 0.00025362 -0.0011946921 -4.4790508e-005 -0.0015732028 -0.69967961 0.11216192
601000000 -0.68057007 0.11566978 -0.00059770612 -0.0015244046 -0.00019630455 -0.0020460295 -0.69948202 0.11088528
602000000 -0.68008757 0.1156038 -0.00049051584 -0.0025220735 -0.0007156998 -0.0014703188 -0.69932818 0.11278065
603000000 -0.68121004 0.11550288 -0.00037609463 -0.0017913379 -0.00036635422 -0.0017183882 -0.69871163 0.11275075
604000000 -0.68083155 0.11659909 -0.00039479553 -0.0021342672 0.0010001867 -0.0015322166 -0.6981461 0.11250644
605000000 -0.67952633 0.11598711 -0.0010503583 -0.0017122355 -0.00076268526 -0.00096628536 -0.69957989 0.11257335
606000000 -0.68029577 0.11648619 0.0002763021 -0.0017915294 0.00023508864 -0.0012391943 -0.69827211 0.11333056
607000000 -0.67984116 0.11492705 0.00012416451 -0.0019256513 -0.00061204872 -0.0017748468 -0.69894254 0.11211109
608000000 -0.67991382 0.11637218 -0.0001055363 -0.0010992247 -0.00014082986 -0.0013139527 -0.69945556 0.11263948
609000000 -0.67973262 0.11755541 -0.00030939397 -0.0016151161 -0.00054083497 -0.0016630313 -0.69832397 0.1126687
610000000 -0.67864531 0.1170857 0.00015287205 -0.0015523202 -0.00041274252 -0.0019581753 -0.69752699 0.11288507
611000000 -0.68020439 0.1168331 -0.0011187695 -0.0015616604 -0.00082955806 -0.0014588729 -0.69987518 0.11362381
612000000 -0.67964941 0.11799783 -0.00024338154 -0.0020895116 0.00014845432 -0.0017494723 -0.69966096 0.11417574
613000000 -0.6796205 0.11820917 -0.00061729673 -0.00092212757 -0.00025577558 -0.0018758785 -0.69819677 0.1125825
614000000 -0.67978823 0.11843625 -0.00071002851 -0.0013858919 -0.0003859938 -0.0022451428 -0.69978672 0.11388365
615000000 -0.67969674 0.11875153 -3.125842e-005 -0.0010733544 -0.00022630516 -0.001498622 -0.69833988 0.11456739
616000000 -0.68008393 0.11890499 -0.00084358221 -0.0015029057 -0.00067862775 -0.00083815499 -0.69726598 0.11564894
617000000 -0.67948079 0.11945358 -0.00089620682 -0.0013642461 -0.00092656456 -0.0011121596 -0.69747025 0.1159388
618000000 -0.67929369 0.12043581 -0.00059934368 -0.001271478 -0.00049962715 -0.0011555871 -0.69803387 0.11474992
619000000 -0.68010557 0.1206665 -0.00015615988 -0.0014895521 -0.00034396182 -0.0013016424 -0.69806892 0.11621553
620000000 -0.67916423 0.1199781 8.6288652e-005 -0.0022140956 -0.0008516293 -0.00056055078 -0.69756609 0.11565134
621000000 -0.67942756 0.1209128 -0.00019694019 -0.0016310985 -0.00033977992 -0.0018171383 -0.69794291 0.11645769
622000000 -0.67911232 0.12054034 -0.00061547779 -0.0012756806 -0.00036449076 -0.0020035899 -0.69761926 0.11689193
623000000 -0.67958999 0.12085001 -0.00030619223 -0.0010911853 0.00035991022 -0.0012399518 -0.69889194 0.11659855
624000000 -0.67857248 0.12079228 -0.0005604559 -0.0010582275 -0.00068699196 -0.0012029997 -0.69719219 0.11650178
625000000 -0.6788252 0.12168111 -4.3952921e-005 -0.0017037016 -9.679194e-005 -0.0019144363 -0.69723839 0.1160478
626000000 -0.6788547 0.12120883 -0.00045776481 -0.0010414339 -0.00033766209 -0.0013623863 -0.69787043 0.11637635
627000000 -0.67872119 0.12261972 -0.00047895842 -0.0019255987 -0.00089497643 -0.0016866262 -0.69728976 0.11684827
628000000 -0.67896324 0.12047733 0.0004078795 -0.0016601072 -0.00066316192 -0.0019353542 -0.69819087 0.11710373
629000000 -0.67888349 0.12167002 -0.00044918252 -0.0019122774 0.0011407213 -0.0015161249 -0.69793767 0.1177108
630000000 -0.67938071 0.12265084 -0.0002296129 -0.0010057604 -0.0009119818 -0.0011359431 -0.69731766 0.11926395
631000000 -0.67864943 0.12298423 -0.00057279674 -0.0019461858 -0.00099363481 -0.0021037327 -0.6980617 0.11825217
632000000 -0.67970914 0.12272099 -0.00078577717 -0.0019323793 -0.00071449077 -0.001912828 -0.69762653 0.11763354
633000000 -0.67914969 0.12305453 -0.00058524526 -0.0014862661 -0.00019899552 -0.002307825 -0.69783461 0.11798169
634000000 -0.67910278 0.12340751 -0.00026677825 -0.00074074051 -0.000392694 -0.0012392772 -0.69864351 0.11755768
635000000 -0.67915356 0.12299442 -0.0010547806 -0.0027015386 0.00025736299 -0.0014303265 -0.69745433 0.11806553
636000000 -0.67758983 0.12417605 -0.00065934914 -0.0014534196 -0.00082179043 -0.0011888248 -0.6984542 0.11830161
637000000 -0.6794259 0.12358428 -0.00097605004 -0.0016175669 -0.00034935461 -0.0012911293 -0.6977663 0.11943577
638000000 -0.67836463 0.1237654 -7.8555771e-005 -0.0024291647 -0.001133405 -0.0010751634 -0.69766951 0.11952306
639000000 -0.68033648 0.12321684 -0.00039263355 -0.0024752151 -0.00023593217 -0.00088428211 -0.69755399 0.11994777
640000000 -0.67814505 0.12440097 -0.00046807696 -0.0023646133 -0.0010145543 -0.0021167512 -0.6976679 0.11968344
641000000 -0.67958218 0.12449088 -0.00047401598 -0.001512215 4.5792716e-005 -0.0015515212 -0.69627583 0.12124276
642000000 -0.67806673 0.1244399 0.00010707691 -0.00076594774 -0.00080385921 -0.002362282 -0.69733179 0.11937258
643000000 -0.67844748 0.12499337 -0.00037740861 -0.0015722073 0.00035265682 -0.0012811088 -0.69764537 0.11982425
644000000 -0.67829269 0.12490214 0.00023458709 -0.0020161057 -0.001294218 -0.0014129844 -0.69798523 0.11972235
645000000 -0.67883587 0.12582219 4.2301501e-005 -0.0014590424 -0.00062451675 -0.0020923216 -0.69765586 0.12128253
646000000 -0.67890441 0.12638931 -0.00055057718 -0.0016825092 -0.00065064064 -0.0020216445 -0.69812244 0.12065414
647000000 -0.67919451 0.12642397 -0.00027593737 -0.001456244 -0.00063627906 -0.0016501537 -0.69816434 0.12066001
648000000 -0.67804164 0.12580501 -0.00042696876 -0.0013962372 9.4868062e-007 -0.0018140324 -0.69716209 0.12066907
649000000 -0.67828965 0.12666179 -0.00052858808 -0.0020087652 -0.00054799055 -0.0016478531 -0.69797599 0.12148428
650000000 -0.6776529 0.12568365 -0.00022844906 -0.0022807654 0.00071419589 -0.0012887364 -0.69709259 0.12151092
651000000 -0.67905891 0.12693091 -0.00062894548 -0.001743222 -0.00091816287 -0.0024422118 -0.69673473 0.12121888
652000000 -0.67909193 0.12620501 -0.00087871507 -0.001127737 -0.00066782045 -0.0020425974 -0.69664592 0.12161497
653000000 -0.67877263 0.12684025 -0.00071729219 -0.0017305567 0.00026164608 -0.0016652102 -0.69632524 0.12114947
654000000 -0.67823619 0.12730907 -0.0003658201 -0.0013543576 -0.00079100346 -0.0012966609 -0.69695616 0.12149012
655000000 -0.67798197 0.12718409 -0.00022487891 -0.0018800271 -0.00043907366 -0.0014299615 -0.69637918 0.12196936
656000000 -0.67745143 0.1286791 -0.00034027707 -0.0017172587 -0.00045731865 -0.0013945771 -0.69664943 0.12286636
657000000 -0.67825383 0.12811475 -0.00039217409 -0.0014373687 0.00020209391 -0.0012671942 -0.69697827 0.12314676
658000000 -0.67831427 0.1279978 -0.00028981359 -0.001656558 -0.0001435266 -0.0017532873 -0.69645363 0.12318
659000000 -0.67817283 0.12841068 -0.000464243 -0.0016819942 -0.00035204209 -0.0019636732 -0.69743717 0.1222012
660000000 -0.67675126 0.12934986 -0.00057494425 -0.0013872521 -0.001320345 -0.0013729874 -0.6967957 0.12313329
661000000 -0.6778391 0.12801884 -0.00030488419 -0.00095964404 -0.00047843024 -0.0019809804 -0.69708461 0.12364818
662000000 -0.67832053 0.12801194 -0.00067572913 -0.001226663 -0.00087906671 -0.001757448 -0.69759941 0.12339159
663000000 -0.67784542 0.12874007 0.00013960214 -0.0012950795 -0.0010692811 -0.0015379827 -0.6969077 0.12270083
664000000 -0.67870277 0.12890384 2.4802635e-005 -0.0021297862 -0.00027853157 -0.0016077049 -0.69718242 0.12340202
665000000 -0.67794883 0.12884015 -0.00079350179 -0.0019580259 -0.0008845281 -0.001227488 -0.69661999 0.12440734
666000000 -0.6774559 0.12930448 -0.00075186673 -0.0014844632 -0.0010309458 -0.0021065173 -0.69695222 0.12255341
667000000 -0.67886126 0.12917913 -0.00093860307 -0.0013106329 -0.00092983054 -0.0022874384 -0.69756812 0.12421652
668000000 -0.67872006 0.12970713 -0.00010576226 -0.0021856984 -0.00026127277 -0.0015519875 -0.69697648 0.12469749
669000000 -0.67931551 0.12957028 -0.00065390981 -0.0023793054 -0.00099550269 -0.0018658215 -0.69678009 0.12381887
670000000 -0.67796391 0.13004853 3.4624962e-005 -0.0016986204 -2.5576366e-005 -0.0013326745 -0.69600922 0.12508516
671000000 -0.67882431 0.12946977 0.00020188987 -0.0014630859 -0.00053438905 -0.001495127 -0.69733053 0.12458043
672000000 -0.67767459 0.12895432 -0.00039255794 -0.0015048437 -0.00080938841 -0.0018063443 -0.69678271 0.12441455
673000000 -0.67861015 0.13006559 -0.00077266723 -0.0018570394 -0.00092431123 -0.0015646805 -0.69657445 0.12490907
