!Keysight Technologies,M9374A,MY55442783,A.12.55.05
!Date: Thursday, May 20, 2021 12:57:34
!Correction: S11(Full 2 Port(1,2)) 
!S21(Full 2 Port(1,2)) 
!S12(Full 2 Port(1,2)) 
!S22(Full 2 Port(1,2)) 
!S2P File: Measurements: S11, S21, S12, S22:
# Hz S  RI   R 50
500000000 -0.68657625 0.10568932 -0.0006322405 -0.0010968255 -0.0006268869 -0.00087277475 -0.6997003 0.10194561
501000000 -0.68642575 0.10683628 -0.00028260989 -0.00092454685 -0.0010405146 -0.0011608269 -0.69996148 0.10028992
502000000 -0.68706524 0.10625926 -0.00011477031 -0.0010528645 -0.0012175001 -0.0021015122 -0.70058489 0.10144342
503000000 -0.68583059 0.10609396 -0.00050977443 -0.0014971818 -0.0004648726 -0.0015534788 -0.70021796 0.10209589
504000000 -0.68575686 0.10664769 -0.00035713273 -0.0017510668 -0.00042481752 -0.001717517 -0.69977713 0.10207464
505000000 -0.68477178 0.10678546 -6.0002221e-005 -0.0015815657 2.7784721e-005 -0.0012842991 -0.699884 0.10282719
506000000 -0.68634528 0.10728771 -0.0007852299 -0.0015210456 -0.00020946529 -0.0011610028 -0.69948769 0.10139421
507000000 -0.6857022 0.10715459 -0.0012447851 -0.0011365945 -0.00044632633 -0.0014059615 -0.69972205 0.10219023
508000000 -0.68538445 0.10799906 -0.00027403166 -0.0012959441 -0.00064768957 -0.001662798 -0.70053101 0.1031674
509000000 -0.68646914 0.10786684 -0.00055831176 -0.0013855211 -0.00012741593 -0.00091385184 -0.69972962 0.10366943
510000000 -0.68460894 0.10853134 -0.00053539913 -0.0018792666 -0.00034841601 -0.0011999939 -0.69901991 0.10349669
511000000 -0.6851967 0.10865885 -0.00030569089 -0.0011449419 -0.00043722871 -0.0013367994 -0.69862711 0.10483567
512000000 -0.6864903 0.10787127 -8.597247e-006 -0.0012585579 -0.00041300181 -0.0010453279 -0.70061868 0.10394825
513000000 -0.68684322 0.10802217 -0.00048874761 -0.0013777828 -0.00088522094 -0.00099984033 -0.69835681 0.10323439
514000000 -0.68638659 0.10911214 -0.001080562 -0.00093442592 0.00018055194 -0.001435584 -0.69947481 0.10435236
515000000 -0.68511063 0.1091104 -0.00031913098 -0.0013581207 -0.0005215428 -0.001244167 -0.69943887 0.10411963
516000000 -0.68662393 0.10954058 -4.2025054e-005 -0.00076279702 -4.7184112e-005 -0.0012771604 -0.69931871 0.10523929
517000000 -0.68603039 0.11030211 -6.0004353e-005 -0.001329449 -0.00040906342 -0.0015912327 -0.69888335 0.10513537
518000000 -0.68515295 0.10935008 -0.00029231451 -0.00088917691 -0.00010571055 -0.0015052275 -0.69930613 0.10566641
519000000 -0.68601608 0.11039393 -0.00018528447 -0.0015593948 -0.00027547707 -0.0012197255 -0.69860494 0.10613645
520000000 -0.68530858 0.10903869 -0.00036300963 -0.0018357824 -0.00037979108 -0.0013295099 -0.69849551 0.10697071
521000000 -0.6855318 0.11128067 -0.00076611363 -0.001652998 -0.0005217038 -0.0017792684 -0.70022577 0.10636687
522000000 -0.68554592 0.11107341 -0.00024176107 -0.001797141 0.00010864224 -0.0019953388 -0.69924909 0.10720461
523000000 -0.68512136 0.11059595 -0.0002371062 -0.00087991561 -0.00021717376 -0.0009919022 -0.69887972 0.10618207
524000000 -0.68566757 0.11137994 -0.00040821233 -0.0015961957 -0.00048555026 -0.0014343051 -0.69923681 0.1067651
525000000 -0.68464762 0.11089631 0.00023915592 -0.0015462346 -0.00057628285 -0.0014952095 -0.69872397 0.10718852
526000000 -0.68605673 0.11185225 0.00017708947 -0.0011062709 7.83785e-005 -0.0012334081 -0.69844061 0.10758477
527000000 -0.68567467 0.11260884 -0.00093307684 -0.0015489524 -5.5820754e-005 -0.0009341152 -0.69930166 0.10797825
528000000 -0.68619949 0.11215743 -0.00087764044 -0.0015629877 -0.00064427638 -0.0012945166 -0.69795918 0.1081698
529000000 -0.68511719 0.11219858 -0.00082384277 -0.0011710828 -0.00033674634 -0.0017221313 -0.69807768 0.10778136
530000000 -0.68570131 0.11209843 -0.00032971718 -0.0014807745 0.00014007583 -0.0019970411 -0.69875342 0.10747745
531000000 -0.68504798 0.11248288 0.00026778333 -0.0011734249 -0.00074979122 -0.0014877081 -0.69905001 0.10917164
532000000 -0.68507975 0.11291834 -0.00030589721 -0.0012226707 -0.00076700147 -0.00087381032 -0.6993174 0.1090493
533000000 -0.68524241 0.11350866 -0.0013094953 -0.0018630715 -0.00010607309 -0.0016702722 -0.69751745 0.10813038
534000000 -0.6854772 0.11307641 -0.0012413074 -0.0012953269 -0.00073095341 -0.0015393212 -0.69855255 0.10880666
535000000 -0.68533075 0.11275018 0.00076484092 -0.0012913366 -0.00043724116 -0.0018159066 -0.6983552 0.10945234
536000000 -0.68529546 0.11394395 -0.00017395124 -0.0018271403 -0.00039378487 -0.001682173 -0.69885045 0.10912261
537000000 -0.68477893 0.11289761 -0.0012580723 -0.00126783 -0.00045674641 -0.0011259873 -0.69877285 0.1098997
538000000 -0.68580514 0.11364666 -0.00059784931 -0.0024438056 0.00011102366 -0.0012829466 -0.69860756 0.10990486
539000000 -0.68513244 0.11467538 -0.00042654463 -0.0014864557 -0.00062770769 -0.0012931004 -0.69875491 0.11002751
540000000 -0.68459123 0.1135302 0.00022113285 -0.0012511521 -0.00016784642 -0.0012799421 -0.69743001 0.10989446
541000000 -0.68519419 0.11460754 -0.0005235998 -0.0018323227 -0.00012542849 -0.0015147107 -0.69890916 0.1107777
542000000 -0.68471128 0.11409681 8.9143621e-005 -0.0013030005 -0.00073406909 -0.0017331028 -0.698713 0.1111805
543000000 -0.68510067 0.11310777 -0.00030478337 -0.0016105577 -0.0014410859 -0.0007508627 -0.69803071 0.11047684
544000000 -0.68545836 0.11463849 0.00030727862 -0.0017268012 -5.1011921e-005 -0.0012044923 -0.69902229 0.1117481
545000000 -0.68464482 0.11409245 -0.00057492044 -0.00074662454 -0.00053589768 -0.0018622781 -0.69909322 0.1109649
546000000 -0.68571484 0.11612797 -0.00052375207 -0.0013319165 -0.00022961909 -0.0016254189 -0.69871891 0.11125667
547000000 -0.68558025 0.11597571 -0.00034058784 -0.00050335465 -0.00061991741 -0.0012841476 -0.69958085 0.11156423
548000000 -0.68409222 0.1164809 -0.00017050546 -0.0020109573 -0.00024839089 -0.001541129 -0.6984418 0.11277342
549000000 -0.68401885 0.11518335 -0.00075597753 -0.0017402559 -0.00030780723 -0.0014151619 -0.69879013 0.11283742
550000000 -0.68377799 0.11587142 -0.00041391418 -0.0014791251 -0.0004962096 -0.0012097273 -0.69762701 0.11268413
551000000 -0.68428373 0.116227 -0.00079639198 -0.0014166603 0.0001871611 -0.0013960219 -0.69906104 0.11240499
552000000 -0.68573725 0.11593645 -0.0009916689 -0.0014437917 -0.00080602005 -0.0021549801 -0.69804376 0.11237484
553000000 -0.68538964 0.11590729 -0.00030350877 -0.0011216141 -0.00035861298 -0.00084729306 -0.6988647 0.11143681
554000000 -0.68513334 0.11679314 9.5586045e-005 -0.0016679075 -0.00043493445 -0.00087701849 -0.69863468 0.11405855
555000000 -0.68504745 0.11771315 -0.00091312989 -0.0014950982 8.0753955e-005 -0.001891095 -0.69796091 0.11311217
556000000 -0.68522233 0.11645997 -0.0013916843 -0.0014448045 -0.00072402286 -0.00066112936 -0.69865316 0.1127961
557000000 -0.68446177 0.11639141 -0.00054139295 -0.00080855907 0.00018965176 -0.0012318118 -0.69871992 0.11332206
558000000 -0.6852147 0.11715261 -0.0010347846 -0.0005778615 -0.00038021788 -0.0010559945 -0.69830978 0.11292424
559000000 -0.68542588 0.11699825 0.00018661816 -0.00098635652 -0.00012889234 -0.00080443034 -0.69874525 0.11378814
560000000 -0.6838991 0.1179262 -0.00087089301 -0.0017587186 2.1829464e-005 -0.0014261769 -0.69909072 0.11403587
561000000 -0.68474078 0.1173977 -0.00019579733 -0.0024508606 0.00026727025 -0.00077468494 -0.69869471 0.11370325
562000000 -0.68445015 0.11793228 -0.00045968848 -0.0011001801 -0.00017531576 -0.0013843207 -0.69834936 0.11438943
563000000 -0.6841948 0.11876815 -0.00091232685 -0.0010910995 2.2238299e-005 -0.00096271583 -0.69751662 0.11356943
564000000 -0.6836198 0.11786678 -0.00030470986 -0.0017964263 -0.00069913937 -0.0009589562 -0.69892788 0.11439328
565000000 -0.68495256 0.11823644 -0.00018773564 -0.00089165196 -0.0010940519 -0.00067111326 -0.6983825 0.11413562
566000000 -0.68388176 0.11847308 -0.00025301246 -0.0018162266 -0.00038835825 -0.0011536651 -0.69813401 0.11466596
567000000 -0.68449938 0.1193376 0.0001702822 -0.00070339651 -0.00067788304 -0.001930645 -0.6977281 0.11535683
568000000 -0.68344665 0.11889174 -0.00058835244 -0.00040343148 -0.00019486899 -0.0010299416 -0.69796902 0.11451898
569000000 -0.68440062 0.11871489 -0.00060895766 -0.0011316407 0.00020029843 -0.0014230184 -0.69844425 0.11540773
570000000 -0.68323904 0.1186075 -0.00048147357 -0.0012400758 -0.00044857321 -0.0022210644 -0.69862342 0.11604427
571000000 -0.68399543 0.11934284 -0.00073602312 -0.0014448231 -0.00026307636 -0.0010839114 -0.69853705 0.11554177
572000000 -0.68340635 0.11984808 0.00080344896 -0.0014672788 -0.00062039832 -0.0016400168 -0.69776648 0.11516173
573000000 -0.68343127 0.11832803 7.2796451e-005 -0.00063498563 -0.00028744657 -0.0016311627 -0.6976738 0.11513019
574000000 -0.68407184 0.12053672 -0.00022102658 -0.0024320085 -4.0495916e-006 -0.0011846127 -0.69738078 0.116336
575000000 -0.68349516 0.1196642 -0.001176193 -0.0012445536 -0.0009759058 -0.0012492522 -0.69774497 0.1169554
576000000 -0.68278402 0.12014069 -8.7769324e-005 -0.0018261459 -0.00064962154 -0.0019457716 -0.69890922 0.11627968
577000000 -0.68409669 0.12088639 -5.1636067e-005 -0.0018409417 -0.00052519748 -0.0015811137 -0.69809026 0.11676305
578000000 -0.68237072 0.12053514 -0.00059885549 -0.0014257104 -0.00069778116 -0.0020400302 -0.69773871 0.11560416
579000000 -0.68252838 0.12028378 -0.00096607831 -0.0015539726 -0.00058481609 -0.0016094104 -0.69811612 0.11717162
580000000 -0.68409175 0.1202058 -0.00015141262 -0.0018724193 0.00013760803 -0.0012137458 -0.69800931 0.11871768
581000000 -0.68339592 0.12058572 -0.00023209352 -0.0013571258 -0.00077579223 -0.0020879377 -0.69814509 0.11711369
582000000 -0.6838268 0.1213629 -6.7621222e-005 -0.00060194719 -0.00059718749 -0.0011968828 -0.69811511 0.11623251
583000000 -0.68349183 0.12209853 -0.0006542636 -0.0019316543 -0.00025732134 -0.0016345477 -0.69869846 0.11774417
584000000 -0.68285418 0.12151 -0.0012263051 -0.0023460318 -0.0010821876 -0.0015627689 -0.69766593 0.1183962
585000000 -0.68335086 0.12215028 0.00020485563 -0.0019135696 -0.00012176611 -0.0019022061 -0.69735825 0.11869678
586000000 -0.68409711 0.12167051 -0.00078217813 -0.00089368812 -0.00068725902 -0.0015995445 -0.69886982 0.11725206
587000000 -0.68343234 0.12232242 -0.00085640355 -0.0014607253 -0.00090680999 -0.0017552756 -0.69709659 0.11908032
588000000 -0.68320113 0.12273993 -0.00072031841 -0.0015899241 -0.00067261409 -0.0013026446 -0.69733149 0.11827761
589000000 -0.68256927 0.12301328 -0.00059269037 -0.0013098252 -0.00027042424 -0.00241736 -0.69737315 0.11909602
590000000 -0.68177265 0.12272406 -0.00050960213 -0.0014936898 -0.00067847833 -0.0010323221 -0.69804198 0.11908091
591000000 -0.68331045 0.12197696 -0.00018447897 -0.00096230116 -3.0559368e-005 -0.0021527547 -0.69738895 0.11868839
592000000 -0.68313783 0.12269621 -0.0011923206 -0.0013642554 -0.00069511659 -0.0017977185 -0.69767964 0.11899102
593000000 -0.68290937 0.12305339 -0.0002730639 -0.0013003889 3.2576663e-005 -0.0010855231 -0.69782752 0.11948062
594000000 -0.68281794 0.12430418 -0.00052723935 -0.0015401728 -0.00064467225 -0.0017957493 -0.69787729 0.11944241
595000000 -0.68239921 0.12371341 -5.6269673e-005 -0.0013850075 -0.00028139545 -0.0018645951 -0.69726354 0.11978994
596000000 -0.68221271 0.1240944 -0.00018794945 -0.0014499457 -0.0010864385 -0.0013011781 -0.69702703 0.11893203
597000000 -0.68321836 0.12484794 -0.00048057697 -0.0018834705 -0.00090100785 -0.00092210545 -0.6970287 0.1199434
598000000 -0.68315458 0.12471233 -0.00011481789 -0.0014243332 6.8957423e-005 -0.0016598799 -0.69670022 0.12040428
599000000 -0.68283051 0.1247827 -0.00050751009 -0.0018503206 -0.00032005025 -0.0021435723 -0.6962049 0.12098889
600000000 -0.68255603 0.12515256 -9.520202e-005 -0.0014483754 -0.00014881486 -0.0012291456 -0.69703996 0.12143318
601000000 -0.68188953 0.12500055 -0.000376916 -0.0011944307 8.650266e-005 -0.0015573757 -0.69732136 0.12053511
602000000 -0.68341202 0.12522215 -0.00090254052 -0.0016659618 5.0013121e-005 -0.00078832306 -0.69658417 0.12196136
603000000 -0.6821388 0.12557644 -5.40611e-005 -0.0014146377 -0.00051035685 -0.0013190561 -0.69706541 0.12053232
604000000 -0.68200392 0.12776978 -0.00085464516 -0.0013864035 -0.00074794621 -0.0017665491 -0.69646424 0.12160955
605000000 -0.68172115 0.12652606 -0.00081926893 -0.0017852201 -0.0008399575 -0.0014216483 -0.69718051 0.12225763
606000000 -0.68116659 0.12670544 -0.00079190201 -0.0016257714 -0.00047854672 -0.0013830857 -0.69606268 0.12290157
607000000 -0.68177515 0.12696262 -0.00053230394 -0.0015485492 -0.00023944429 -0.0010707633 -0.69585931 0.12208102
608000000 -0.68227971 0.12781055 -0.0002721659 -0.0021257836 -0.000250421 -0.0016160896 -0.69668484 0.12352998
609000000 -0.68153197 0.12778471 -0.0004672771 -0.0016625285 -0.00054357236 -0.001380826 -0.69587642 0.1230261
610000000 -0.68067002 0.12846091 -1.3218736e-005 -0.0011469927 -0.00082866626 -0.0012347831 -0.6955021 0.12324087
611000000 -0.68041551 0.12801974 -0.00054659444 -0.0015116213 -0.00013611169 -0.0017928499 -0.69593734 0.12294146
612000000 -0.68188149 0.12777284 -0.00029316888 -0.0020663899 -0.00083693536 -0.0015490354 -0.6968261 0.12264097
613000000 -0.6824463 0.12824585 -0.00043186799 -0.0013309085 -0.00037626078 -0.0022027681 -0.69640315 0.12319904
614000000 -0.68088686 0.1292993 -0.00030687521 -0.0021463477 -0.00057174597 -0.0013278568 -0.6968627 0.12531285
615000000 -0.68099922 0.12774178 -0.0007169352 -0.0014550078 -0.00034309522 -0.0016693204 -0.69628966 0.12416682
616000000 -0.68143773 0.13018204 -0.0011152083 -0.0015831781 0.00017716452 -0.00099615788 -0.69669008 0.12494971
617000000 -0.6829136 0.12989941 -0.00045873882 -0.0022359078 -0.0008689987 -0.0021479146 -0.69640416 0.12529825
618000000 -0.68118548 0.13069956 -0.0010261531 -0.0008755367 -0.00083671481 -0.0008609689 -0.69580162 0.12472979
619000000 -0.68208432 0.13073044 -9.6147603e-005 -0.0018329183 -0.00057773502 -0.0018014587 -0.69592965 0.12553883
620000000 -0.68138647 0.13027582 -0.00075256877 -0.0016190803 -0.00035146845 -0.0012571575 -0.69654733 0.12525596
621000000 -0.68266702 0.13095289 0.00043938868 -0.0019049657 -0.00047981946 -0.001097447 -0.69535446 0.12681238
622000000 -0.68182075 0.13087498 -0.00075600774 -0.0010551569 -0.0001074371 -0.0012956371 -0.69596899 0.12603633
623000000 -0.68163574 0.13100338 -0.00046661039 -0.001227899 -0.00046654904 -0.0017379352 -0.69502145 0.12520175
624000000 -0.68144143 0.1313782 -0.00030872991 -0.0023980911 -0.0010940814 -0.0017860606 -0.69581074 0.12584734
625000000 -0.68071765 0.13167441 8.4503808e-006 -0.0019590058 -0.00058034825 -0.0021249708 -0.69619149 0.12624696
626000000 -0.68145084 0.13226138 -0.00064445194 -0.0012915913 -8.390021e-005 -0.0021706501 -0.69475377 0.12584351
627000000 -0.68107343 0.13213812 -0.00075534557 -0.001513613 -8.0270132e-005 -0.0013245846 -0.69653964 0.12642826
628000000 -0.68034887 0.13281238 -0.00032101755 -0.0017470559 -0.00031951864 -0.0011645565 -0.69509816 0.12623748
629000000 -0.68129748 0.13245803 -0.00070254097 -0.0014224096 -0.00047961582 -0.0015483191 -0.69573367 0.1280451
630000000 -0.68126911 0.13317059 -0.00016709104 -0.0022530558 -0.00073612964 -0.001923272 -0.69575 0.12742934
631000000 -0.68140775 0.13207893 -0.00084639707 -0.0020230592 -0.00086487678 -0.001768234 -0.69610798 0.12711665
632000000 -0.68107772 0.13432348 -0.00057664822 -0.0016891322 0.00033241161 -0.0014396764 -0.69503176 0.12761119
633000000 -0.68085635 0.13370767 -0.00011464435 -0.0013760712 -0.00028733641 -0.00061376888 -0.69608659 0.12675843
634000000 -0.68102843 0.13436064 -0.00053346407 -0.0014104886 -0.00099162059 -0.0013537516 -0.69550204 0.12768897
635000000 -0.68114805 0.13400963 -9.0637564e-005 -0.0024948739 -0.00058478722 -0.0016045637 -0.69530588 0.12869483
636000000 -0.68020177 0.13437426 -0.00043489522 -0.001601672 -0.00019323725 -0.0021104333 -0.69603831 0.12822656
637000000 -0.68054825 0.13475864 -0.00048306168 -0.0018557222 0.0005006289 -0.0016153051 -0.6951974 0.1284956
638000000 -0.68098694 0.13458204 -0.00088675413 -0.002385861 -0.00040005514 -0.0018838044 -0.69522792 0.12897535
639000000 -0.68089592 0.13600291 4.0115694e-005 -0.0015303879 -0.00039221562 -0.0018568599 -0.69419056 0.12952507
640000000 -0.68072599 0.13553068 -0.00016902982 -0.0018502044 -0.0012969509 -0.0017889895 -0.69457054 0.12926188
641000000 -0.68043691 0.13534683 -0.00038683967 -0.001280215 -0.00023909316 -0.0017996826 -0.69554543 0.1297062
642000000 -0.68066412 0.13600819 -0.0002799232 -0.0020666402 -0.00078650261 -0.0016766328 -0.6957463 0.1301156
643000000 -0.68138289 0.13531142 -0.00039965732 -0.0014153494 -0.0003680212 -0.0014076894 -0.69559085 0.12957859
644000000 -0.68052852 0.13630703 -0.00010514766 -0.0021429458 -0.00016018777 -0.0016278725 -0.69456589 0.12990732
645000000 -0.68091208 0.13637191 0.00011784142 -0.0013687327 -0.00047175583 -0.0024065766 -0.69398957 0.12949616
646000000 -0.68050814 0.13714668 -0.00071232358 -0.0018252494 -0.00077321724 -0.0014465117 -0.69460213 0.13047904
647000000 -0.6806199 0.13636832 -0.00040652932 -0.0014977648 -4.7394995e-005 -0.0016885131 -0.69505924 0.13063179
648000000 -0.67998576 0.13682501 -0.00060778228 -0.0015524086 -0.00073115149 -0.0020479935 -0.69488573 0.1310426
649000000 -0.67950857 0.13775712 -0.00073833443 -0.0011560498 -0.00052988972 -0.0014127346 -0.69434726 0.13086084
650000000 -0.68009764 0.13653204 -0.00081852928 -0.0018435994 -0.00044671621 -0.0013394163 -0.69545645 0.13173093
651000000 -0.68088871 0.13739106 -0.00047353329 -0.0011670836 -0.0011876336 -0.0019784186 -0.69457555 0.1314759
652000000 -0.68034333 0.13739395 -0.00031340486 -0.0020120596 0.00030701028 -0.0020396491 -0.69472945 0.13242766
653000000 -0.68070894 0.13800283 -0.00042318279 -0.001401586 -0.00085963774 -0.0014780057 -0.69437701 0.13138947
654000000 -0.6800366 0.13842177 -2.7165563e-005 -0.0019400157 -0.00041857484 -0.0025380598 -0.69541508 0.13227469
655000000 -0.68037963 0.13865541 -5.9686066e-005 -0.0017813044 -0.00023295241 -0.0017393539 -0.69405079 0.13184188
656000000 -0.67983019 0.13875011 -0.00072493107 -0.0017288113 -0.00088095688 -0.0013457509 -0.69455111 0.13188338
657000000 -0.68120193 0.13872455 -0.00015374317 -0.0015112822 7.9043028e-005 -0.0013745873 -0.69502044 0.13273731
658000000 -0.68008602 0.13983905 -0.00081505702 -0.0022011849 -0.00047776039 -0.0017580827 -0.69445318 0.1324168
659000000 -0.6803866 0.13918574 -0.00066180778 -0.0016878986 -0.00066972402 -0.002061638 -0.69532162 0.13284016
660000000 -0.67911333 0.1409905 -0.00099146191 -0.0022156197 -0.00026531148 -0.0010250745 -0.6947906 0.13260342
661000000 -0.68025619 0.13994654 -0.001020594 -0.0011833261 6.3219755e-005 -0.00090824068 -0.69542605 0.13250439
662000000 -0.68053383 0.13975385 -0.00067728228 -0.0016841553 2.2756763e-005 -0.0017237423 -0.69502866 0.13343811
663000000 -0.67964137 0.14038678 -0.00049127318 -0.0020138298 6.85614e-005 -0.0011450268 -0.69442773 0.13285877
664000000 -0.67978889 0.14052039 -0.00028362242 -0.0021619331 -0.00055892923 -0.0020497392 -0.69445312 0.13431333
665000000 -0.68004644 0.13954809 -0.00027843137 -0.0013540523 -0.00091842213 -0.0017403427 -0.69406295 0.13389686
666000000 -0.68014443 0.14090234 -0.00095625856 -0.0018761435 2.5984738e-005 -0.0011616243 -0.69449615 0.13424441
667000000 -0.68012017 0.14101085 -0.00092329783 -0.0018352135 -0.00049759704 -0.0016373773 -0.69484001 0.13367146
668000000 -0.67918497 0.14111656 -0.00053083035 -0.0018233772 -0.0010535434 -0.0018209084 -0.69406962 0.13467786
669000000 -0.6803022 0.13997968 -0.00041114545 -0.001896846 -0.00067771954 -0.0018247777 -0.69463819 0.13490349
670000000 -0.679658 0.14073046 -3.8276823e-005 -0.0017170376 -0.00011216407 -0.0016890476 -0.69447207 0.13376531
671000000 -0.68030751 0.14215644 -0.00065625214 -0.0019037878 -0.0012629839 -0.0018838907 -0.69433153 0.13576411
672000000 -0.68007404 0.14211924 -0.00025691968 -0.0018250287 -0.0010524392 -0.001449043 -0.69502306 0.13501625
673000000 -0.68018329 0.14174539 0.00015645857 -0.0010663994 -0.00048927631 -0.0019444982 -0.69351625 0.13540588
