!Keysight Technologies,M9374A,MY55442783,A.12.55.05
!Date: Thursday, May 20, 2021 13:02:53
!Correction: S11(Full 2 Port(1,2)) 
!S21(Full 2 Port(1,2)) 
!S12(Full 2 Port(1,2)) 
!S22(Full 2 Port(1,2)) 
!S2P File: Measurements: S11, S21, S12, S22:
# Hz S  RI   R 50
500000000 -0.68767369 0.10460683 1.4752944e-005 -0.00091317471 -0.00013749431 -0.0015265439 -0.7004804 0.099476658
501000000 -0.68621993 0.10399192 -0.00037855859 -0.0015563923 -3.2509994e-005 -0.00022916798 -0.70097536 0.099337794
502000000 -0.6867246 0.10428516 -0.00028082173 -0.0011790567 0.00026636914 -0.0015581974 -0.70105255 0.098900273
503000000 -0.68632799 0.10419258 -0.00029183764 -0.00081004528 -0.00031066342 -0.0011216488 -0.70004094 0.1002676
504000000 -0.68729568 0.10440865 0.00045057715 -0.0015096492 -0.00030693732 -0.00052949152 -0.70025772 0.10042019
505000000 -0.68669248 0.10524242 -0.00021627145 -0.00078615156 -0.00099982659 -0.00070100481 -0.69996405 0.099517994
506000000 -0.68579757 0.10476425 -0.0005629001 -0.0018992055 -0.0005683605 -0.0013961577 -0.69980013 0.10016024
507000000 -0.68557656 0.1057414 -9.025639e-006 -0.0012839077 -0.00074436562 -0.0011080622 -0.69939119 0.10143795
508000000 -0.68796569 0.10579093 -0.00053741189 -0.0010200053 -0.00028141448 -0.00098286325 -0.70003486 0.10097761
509000000 -0.68644607 0.10607158 -0.00083717873 -0.0011826828 -0.00030207561 -0.0012448343 -0.69936448 0.10052542
510000000 -0.68631685 0.10674466 -0.00056781777 -0.0016361786 -0.00018345694 -0.0006259809 -0.69926077 0.10171526
511000000 -0.68619514 0.10661351 -0.00042359479 -0.0015844009 -0.00096991798 -0.0010201959 -0.69981652 0.10180003
512000000 -0.68649876 0.10636698 -0.00071596133 -0.001679034 -0.00060801784 -0.0012978796 -0.6994828 0.10300741
513000000 -0.68795907 0.10724492 -8.1899248e-005 -0.0011977676 -0.00026266178 -0.0017915285 -0.69963044 0.10233721
514000000 -0.68646097 0.10680499 -0.00055732415 -0.0010046262 -1.0972421e-005 -0.001811352 -0.70002174 0.10243852
515000000 -0.68705785 0.10822061 0.00027419548 -0.00098034507 -9.930582e-005 -0.00070945447 -0.69915915 0.10209145
516000000 -0.68719524 0.10807785 -0.00035767799 -0.0015594957 -0.00059292844 -0.0020616576 -0.70013696 0.10316766
517000000 -0.68722838 0.10839913 0.00016201158 -0.00070028089 -0.00061497925 -0.0017727514 -0.69963354 0.10272005
518000000 -0.686876 0.10865348 -0.00022851562 -0.0016414411 -0.0005104664 -0.0023443238 -0.69921356 0.10259221
519000000 -0.68680131 0.10845632 -0.00049839204 -0.0017736194 -6.3950087e-005 -0.0015477046 -0.69936663 0.10387304
520000000 -0.68518376 0.10771145 -0.0005980187 -0.0015673493 0.0002177026 -0.0011278561 -0.69891685 0.10403287
521000000 -0.68698567 0.10909191 -0.00025862167 -0.0012970874 -0.00096113258 -0.0012910179 -0.69899982 0.10552771
522000000 -0.68651551 0.10938685 -0.00084593316 -0.0015636513 -0.00034798193 -0.00081754045 -0.70016646 0.10504813
523000000 -0.68640363 0.1087587 -0.00051456294 -0.0012146888 -0.0001893833 -0.00083724974 -0.70038015 0.10381313
524000000 -0.68595588 0.10883971 0.00016688395 -0.0011382943 -0.0007527768 -0.0018592564 -0.69828707 0.1045734
525000000 -0.68674004 0.10901652 -0.00071508001 -0.0016673673 -0.00029180048 -0.0022366077 -0.69950974 0.1054558
526000000 -0.68519551 0.10911822 -0.00035715319 -0.0017432021 4.4055316e-005 -0.0016642453 -0.69908071 0.1056051
527000000 -0.68602121 0.11020462 -0.00054749008 -0.001067906 -0.00067464705 -0.0014735381 -0.69973123 0.1058001
528000000 -0.68698347 0.11074894 2.5180154e-005 -0.0012603581 -0.00038642736 -0.0017932256 -0.698165 0.10604237
529000000 -0.68604553 0.10987696 -0.00057999266 -0.0017307624 -0.0009395089 -0.0016139027 -0.69897807 0.10594521
530000000 -0.68688822 0.11012039 -0.00024094002 -0.0018526011 -0.00044765227 -0.0022901401 -0.69844186 0.10654408
531000000 -0.68641597 0.10996722 -0.00054951443 -0.0013103572 -0.0009488606 -0.0011992686 -0.69964308 0.10815062
532000000 -0.68612337 0.11010432 -0.00088631088 -0.0008682179 -0.00073194236 -0.001525758 -0.69802159 0.10650092
533000000 -0.68649715 0.11145246 -0.00034392503 -0.0015049486 -0.0004187751 -0.0011906575 -0.69835979 0.10676508
534000000 -0.68601722 0.11107071 -0.00057819829 -0.0012325685 -0.00026649935 -0.001301472 -0.69899881 0.10714365
535000000 -0.68580866 0.11083615 -0.0006486933 -0.0014139556 -0.00085318775 -0.0014447798 -0.69967598 0.10821023
536000000 -0.68641949 0.11095789 2.4527712e-005 -0.0010831194 -3.8564598e-005 -0.001078535 -0.69891429 0.107533
537000000 -0.68594903 0.11121001 -0.00023371483 -0.0017408184 -0.00088883389 -0.0021037194 -0.70020401 0.10745592
538000000 -0.68606997 0.11261734 -0.00016123656 -0.0011724745 8.969893e-005 -0.001609374 -0.69875246 0.10783327
539000000 -0.68649769 0.11202887 -0.0005744762 -0.0017370681 -0.00014245293 -0.0012390206 -0.6994074 0.10789265
540000000 -0.68685144 0.11204825 0.00032915178 -0.0019717203 -0.00048161094 -0.001348077 -0.69932872 0.10741279
541000000 -0.68552613 0.11242128 -0.00024145603 -0.0010650938 -0.0004245466 -0.0019467124 -0.69923246 0.10740668
542000000 -0.68578124 0.11225904 -0.00055992114 -0.0010969867 2.6559444e-005 -0.0018998146 -0.69867224 0.10853931
543000000 -0.6858567 0.11201398 -0.00083704176 -0.00063029421 -0.00080506469 -0.0012467715 -0.69957751 0.10842927
544000000 -0.68578559 0.1129941 0.00032413026 -0.001310999 -0.00033570806 -0.0020779569 -0.69980371 0.10908069
545000000 -0.68661672 0.11285221 4.6679001e-005 -0.001784755 -0.00040985917 -0.001423289 -0.69760245 0.10830176
546000000 -0.68572724 0.11298835 -0.00023452492 -0.0014447808 -0.00095242431 -0.0015102037 -0.69887507 0.10870317
547000000 -0.68637294 0.11310163 -0.00055371004 -0.001741286 -0.00013409235 -0.0012750006 -0.69877237 0.10978706
548000000 -0.68528312 0.1138099 0.00043806844 -0.0011839687 -0.00031138278 -0.0012281471 -0.69765347 0.10996416
549000000 -0.68543637 0.11297459 -0.00043442761 -0.0013404796 0.00010545595 -0.0016818306 -0.69867456 0.11035976
550000000 -0.68436199 0.11363643 -0.00036210366 -0.00100114 -0.00096234749 -0.0012201222 -0.699597 0.11082363
551000000 -0.68527251 0.11444858 -0.0015322268 -0.0012352363 -0.00017359343 -0.0013523741 -0.69898546 0.1105143
552000000 -0.68616605 0.11376101 -0.00025526516 -0.0015402292 -0.00040235819 -0.0011389117 -0.69832897 0.11080997
553000000 -0.68565822 0.11455245 -3.7276099e-005 -0.0020996428 -0.00051994977 -0.0014649951 -0.69819558 0.10990372
554000000 -0.68447292 0.11371461 -0.0007018373 -0.0018188932 0.00038337545 -0.0013399876 -0.69900888 0.11043779
555000000 -0.6845637 0.11421806 -0.00064781192 -0.001573998 -0.00039253925 -0.0017347659 -0.69919533 0.11066385
556000000 -0.68517005 0.11556232 -0.00040268005 -0.0022775938 -0.00028670268 -0.0011512634 -0.69892365 0.11144868
557000000 -0.6861605 0.11403638 -0.00067756634 -0.0012783026 -0.00025342719 -0.00095850712 -0.69808322 0.11014129
558000000 -0.68439656 0.11513197 -0.00010959766 -0.00085517165 -0.00081135792 -0.0010174775 -0.69781482 0.11106995
559000000 -0.68480784 0.11522169 -0.00021037228 -0.001114825 -0.00030845392 -0.001451602 -0.69857782 0.11152287
560000000 -0.68550861 0.11631781 -0.00095099612 -0.0011939356 -0.00072095433 -0.0013892034 -0.69925892 0.11230515
561000000 -0.68553799 0.11540303 -0.00045266113 -0.0014288153 -0.00032055037 -0.0012624266 -0.69878632 0.11126576
562000000 -0.68458974 0.11465143 -0.0007250153 -0.0015656255 -0.00042704321 -0.0018796028 -0.69816697 0.1116394
563000000 -0.68507922 0.11675197 -0.00045083938 -0.0013766609 -0.00028777501 -0.00075231033 -0.69838893 0.11203016
564000000 -0.68456864 0.11651676 -0.00070296047 -0.0015478398 -0.00070086919 -0.0019113775 -0.69909227 0.11190663
565000000 -0.6847446 0.11566548 -8.0073805e-005 -0.0021301771 -0.00061773404 -0.001220516 -0.69906551 0.11240415
566000000 -0.68422204 0.11574242 -0.00018309212 -0.0013375964 -0.00070927653 -0.001162252 -0.69806433 0.11246435
567000000 -0.68536627 0.11562787 -3.0883395e-005 -0.0016269775 -0.00084647589 -0.0019619917 -0.69851416 0.11162534
568000000 -0.68467146 0.11673573 -0.00028429145 -0.0010168335 -0.0010765928 -0.0011461596 -0.69942039 0.11276094
569000000 -0.68526375 0.11750634 -0.0003724843 -0.0015307422 -0.00034255354 -0.0015836947 -0.69830281 0.11210311
570000000 -0.68434894 0.11635429 0.00023743906 -0.0018694982 0.00033678417 -0.0013468199 -0.69834608 0.11344539
571000000 -0.68461931 0.11659569 -0.00062509347 -0.0020679152 -0.00081083237 -0.00090730062 -0.69912785 0.11349593
572000000 -0.68413395 0.11765138 -0.00019469585 -0.001720142 -0.00042652697 -0.0021144163 -0.69782096 0.11377449
573000000 -0.68482417 0.11748654 -0.00067591236 -0.0015173208 -0.00053558493 -0.001423394 -0.69874185 0.11471884
574000000 -0.68433738 0.11807434 -0.00023731744 -0.0017144755 9.6407537e-005 -0.0015265272 -0.69953656 0.11463093
575000000 -0.68380481 0.11823853 -0.00078358437 -0.00090080063 -0.00059882412 -0.0014930757 -0.69913805 0.11328756
576000000 -0.68351877 0.11830294 -0.0003813316 -0.0017733113 -0.00051882438 -0.0014003679 -0.69841325 0.11439834
577000000 -0.6841045 0.11751985 -0.00054406741 -0.0017616582 -0.0013553991 -0.0014708301 -0.69883704 0.11345118
578000000 -0.68481666 0.11878758 -0.00024812765 -0.001592249 -0.00022816549 -0.0011082971 -0.69923568 0.11360937
579000000 -0.68389189 0.11869136 0.00013972928 -0.0017266315 -0.000377002 -0.00072756497 -0.69875038 0.11373181
580000000 -0.68479472 0.11731901 -6.4765918e-005 -0.0015615296 -0.00026613422 -0.0013069854 -0.69786799 0.11483773
581000000 -0.68470132 0.11950733 -0.00052785577 -0.0011094096 -0.00030254386 -0.0015577322 -0.70018572 0.11465234
582000000 -0.68478274 0.1198486 -0.0010487516 -0.0010868341 -0.00012365459 -0.0015901454 -0.69765234 0.11535058
583000000 -0.68461764 0.12014339 -8.9814355e-005 -0.001646001 0.00036297465 -0.0018306171 -0.69872749 0.11458729
584000000 -0.68408632 0.11930245 0.00020972708 -0.0015280043 -0.00021812506 -0.0013517587 -0.69734132 0.1159962
585000000 -0.6831426 0.1209233 0.00016191383 -0.00091798761 -0.00074088579 -0.0016346517 -0.69823033 0.11540162
586000000 -0.6848104 0.12033836 -0.00015326979 -0.00128242 -0.00087740039 -0.0012533345 -0.69748169 0.1160514
587000000 -0.68375254 0.11959494 -0.00050449767 -0.0021766517 0.00068492547 -0.0013476192 -0.69708258 0.11721477
588000000 -0.6839608 0.12081464 -0.00083215476 -0.0011166271 -0.0012209333 -0.0012976064 -0.69749063 0.117483
589000000 -0.68346965 0.12026936 -0.00067253096 -0.0011658319 -0.00072013546 -0.0015678079 -0.69849837 0.11655641
590000000 -0.6824066 0.12095803 2.1616706e-006 -0.00083885522 -0.00012917738 -0.001892921 -0.69701767 0.11643791
591000000 -0.6827209 0.12105191 -0.00037485693 -0.0019531662 2.6029971e-005 -0.0017766423 -0.69807845 0.11730357
592000000 -0.684484 0.1210807 -0.00077242305 -0.0012652196 -0.00032938467 -0.0019338283 -0.69934875 0.11602585
593000000 -0.68411583 0.12075912 -0.00034999498 -0.0019046856 -0.00067799783 -0.0019464905 -0.69793725 0.11776187
594000000 -0.68319356 0.1225874 -0.00027330744 -0.0020411201 -0.00038374297 -0.0010576573 -0.69692922 0.11837853
595000000 -0.68344784 0.12095341 -0.0004048163 -0.0010152227 -0.00014341614 -0.0019119601 -0.69702655 0.1176094
596000000 -0.68344969 0.12146454 -0.00089060515 -0.0017578178 -0.0011753363 -0.001733386 -0.69770658 0.11825228
597000000 -0.68299782 0.12198637 -1.1328196e-005 -0.0015747509 1.0082351e-005 -0.0015765841 -0.6974197 0.11740486
598000000 -0.68290532 0.12288024 -0.00060974195 -0.0016717252 -0.00032173883 -0.0021603713 -0.69864947 0.11779887
599000000 -0.68331856 0.1220432 0.00017899454 -0.0018417067 -0.00017567702 -0.0017574524 -0.69765055 0.11791106
600000000 -0.68284374 0.12362535 -0.00025352408 -0.001205323 -0.00032536132 -0.0012282836 -0.69679862 0.11882648
601000000 -0.68258977 0.12315754 -0.00089682319 -0.0015837137 0.00031203195 -0.0016686184 -0.69791514 0.11783529
602000000 -0.68365556 0.12390547 0.000401792 -0.00073075574 -0.00038418488 -0.00091237313 -0.69678706 0.11782265
603000000 -0.68278599 0.12358391 -0.00058009336 -0.0020954707 0.00015045221 -0.002273578 -0.69770682 0.11999483
604000000 -0.68220603 0.12381568 -5.5565302e-005 -0.0019045185 -0.00091751257 -0.0019658913 -0.69716418 0.12050584
605000000 -0.68305343 0.12435385 -0.00025196755 -0.0012747623 -0.0002878391 -0.0013596812 -0.69796175 0.11960176
606000000 -0.68358755 0.12392195 0.00018281989 -0.0012000952 -0.001017963 -0.0014248166 -0.6966092 0.11944059
607000000 -0.68251622 0.12483799 -0.00048252553 -0.0016539923 -0.00051016227 -0.0014060444 -0.6972838 0.11869868
608000000 -0.68263876 0.12508614 -0.00023113369 -0.0017177722 -0.00030965463 -0.0016007022 -0.69713986 0.11984736
609000000 -0.68210852 0.12516502 3.5702447e-005 -0.001349928 0.00062197522 -0.0018904954 -0.69708824 0.12066609
610000000 -0.68265939 0.12563361 -0.00081928435 -0.001597173 -0.00042502317 -0.0017528161 -0.69605547 0.12078121
611000000 -0.68117225 0.12625474 -9.1142843e-005 -0.001837929 0.00023501816 -0.00093766721 -0.69652832 0.12056333
612000000 -0.6828137 0.12671305 -0.0014417669 -0.0019382555 -0.0012718808 -0.001736848 -0.69652957 0.12109978
613000000 -0.68292087 0.12632686 -0.00084931351 -0.00094054179 -0.0011896269 -0.0016570251 -0.69571906 0.12073251
614000000 -0.68207914 0.12694645 0.00017128409 -0.0014888857 -0.0003264141 -0.0022575781 -0.69771749 0.12195773
615000000 -0.68208742 0.12648998 -0.00056674017 -0.0019259044 -0.00032069627 -0.0022353986 -0.69682664 0.12182668
616000000 -0.68218863 0.12774874 -0.00070772046 -0.001377619 -0.00087188522 -0.0022942822 -0.69687617 0.12128491
617000000 -0.68203354 0.12687905 -0.0010319236 -0.0011254211 -0.00098722044 -0.0017670663 -0.69718397 0.12220685
618000000 -0.68146271 0.12683995 -0.00023141698 -0.0017771587 -0.00027715228 -0.0017096917 -0.69656664 0.12251092
619000000 -0.68208182 0.12900999 -0.00047064267 -0.00068713073 -9.6119438e-005 -0.0013671574 -0.69688481 0.12356105
620000000 -0.68208325 0.12828501 -0.00084525684 -0.0012582894 -0.00030842604 -0.0021823999 -0.69696623 0.12359234
621000000 -0.68222237 0.1288885 -0.00076012895 -0.00165043 -0.00027828143 -0.0014042594 -0.69662523 0.1231591
622000000 -0.68277472 0.12838377 -0.00055543188 -0.0017241907 -0.00034729604 -0.0013184797 -0.69584543 0.12364703
623000000 -0.68202579 0.12943566 -0.0006173228 -0.0013045574 -0.00015369021 -0.0012774479 -0.69573522 0.12385838
624000000 -0.68145776 0.12836321 -0.00043928574 -0.001214784 -1.5444204e-005 -0.00064044533 -0.69595885 0.12501974
625000000 -0.68245095 0.13027048 0.00027814583 -0.0015227258 -0.00056632672 -0.001362192 -0.69689101 0.12389764
626000000 -0.68276846 0.129857 -0.0004859294 -0.0010120176 -0.00032253802 -0.0011498327 -0.6960336 0.12330409
627000000 -0.68215483 0.12960155 -5.4849195e-005 -0.0015810196 -0.00057241175 -0.0013913729 -0.69654149 0.12317143
628000000 -0.68256742 0.13069382 -0.0004216393 -0.001387328 -0.0010263129 -0.0016604764 -0.69654202 0.12439352
629000000 -0.68102479 0.13010621 -0.00042889969 -0.0014142074 -0.00060339464 -0.00021943927 -0.6962387 0.12529156
630000000 -0.6821723 0.12977415 -0.00099957583 -0.0015085478 -0.00042693719 -0.0011091328 -0.69510269 0.1246204
631000000 -0.68131101 0.13117239 6.1475381e-005 -0.0012452077 -0.0010530376 -0.0018773372 -0.69726598 0.12531026
632000000 -0.6815291 0.13135482 -7.5684358e-005 -0.001346052 -0.00070503826 -0.001633878 -0.69527304 0.1245201
633000000 -0.68159992 0.13067935 -0.00077534484 -0.0013454063 -0.0010176954 -0.0021426103 -0.69618064 0.12519628
634000000 -0.68211776 0.13158756 -0.00015214625 -0.0012681441 7.8735233e-005 -0.0016890061 -0.69578397 0.12550187
635000000 -0.68200266 0.13128808 -0.00025843256 -0.0012077262 0.00019292493 -0.0015104865 -0.69604486 0.12630241
636000000 -0.68123156 0.13157284 -0.00099817023 -0.0015712884 -0.00027068722 -0.0017442557 -0.69680798 0.12612374
637000000 -0.68209463 0.13193007 -0.00011157452 -0.0015369996 -8.2773862e-005 -0.0021662794 -0.69492894 0.12644592
638000000 -0.68053234 0.13172819 1.6745598e-005 -0.0016627334 -0.00013169923 -0.0016188512 -0.69559944 0.12566637
639000000 -0.68196988 0.13291147 -0.00025090831 -0.0014586545 -0.001862584 -0.0016348958 -0.69593257 0.12636788
640000000 -0.6811378 0.13291495 -0.00013899129 -0.0022734783 -0.00069283531 -0.0016621317 -0.69549978 0.12709887
641000000 -0.68037218 0.13357426 -7.3484061e-006 -0.0018745464 6.1004361e-005 -0.0018392154 -0.69579947 0.12616773
642000000 -0.68067938 0.1335457 -0.00037958103 -0.0019745345 -0.00044945456 -0.0013876829 -0.69602674 0.127243
643000000 -0.68170178 0.13404988 7.5442003e-005 -0.0018414417 -0.00080856372 -0.0016550078 -0.69592053 0.12703641
644000000 -0.68118709 0.13398419 -0.00017384315 -0.001343931 -0.0006135166 -0.0016923537 -0.6959399 0.12772161
645000000 -0.68242925 0.13509315 -0.00018992971 -0.0012554707 -0.00025531568 -0.0015118619 -0.69584197 0.12769102
646000000 -0.68120521 0.13399424 -0.00036284581 -0.002023933 -0.00098576862 -0.0022588735 -0.69587016 0.1285405
647000000 -0.68134844 0.13402463 -0.00071866077 -0.0022030564 -0.00019053795 -0.0018331409 -0.69555455 0.12823597
648000000 -0.68113929 0.13516159 -7.6040014e-005 -0.0016960083 0.00022095218 -0.0018567378 -0.69509751 0.12830369
649000000 -0.68077499 0.13528435 -0.00025333292 -0.0021503998 -0.00065537408 -0.0016527874 -0.6953966 0.12918855
650000000 -0.68017882 0.13460802 -0.00087423774 -0.0011587502 -0.00058216316 -0.0006133081 -0.6942625 0.129188
651000000 -0.68077803 0.13492687 -0.0007559915 -0.0017140568 -0.0004774392 -0.0016662379 -0.69482982 0.12874028
652000000 -0.68101627 0.1347817 0.00015483817 -0.0017263516 -0.00030254974 -0.0017976785 -0.69454539 0.12912279
653000000 -0.68099403 0.13539733 -0.00067594624 -0.0017293358 -6.6320623e-005 -0.0023448761 -0.69546199 0.12815443
654000000 -0.68081135 0.13630886 -0.00091452862 -0.0019872217 -0.00083068328 -0.0015157616 -0.69525665 0.12939391
655000000 -0.68088382 0.13621198 -0.00044419616 -0.0022675439 -0.001422552 -0.0011637746 -0.69520521 0.1292486
656000000 -0.6815334 0.13656963 -0.00077581895 -0.0023726341 7.4341973e-005 -0.0023173676 -0.69536114 0.13000396
657000000 -0.68135798 0.13704345 -0.00091630511 -0.0017751236 -0.0011732103 -0.0013641842 -0.69554895 0.1303505
658000000 -0.68083137 0.13723715 -0.0011389238 -0.0016692305 7.6916302e-005 -0.0018621974 -0.69428617 0.13088092
659000000 -0.68107951 0.13699886 -0.00085727999 -0.00096162228 -0.00067400531 -0.0020005137 -0.69460034 0.13010216
660000000 -0.6815654 0.13704979 -0.00015830633 -0.0015058739 -0.00029702828 -0.0013295066 -0.69454646 0.12960392
661000000 -0.68184209 0.13793506 -0.00093627768 -0.0021817761 -0.00084169453 -0.0019832454 -0.69474727 0.13074134
662000000 -0.68132883 0.137594 -0.00069852168 -0.0024143751 0.00019686016 -0.0018774718 -0.69502741 0.13093901
663000000 -0.68105227 0.13719571 -0.00043948981 -0.0021121637 -0.00036671158 -0.0019462749 -0.69420826 0.13081957
664000000 -0.68083793 0.13712619 -0.0010372307 -0.0012322548 -0.0010361092 -0.0019106178 -0.69432658 0.13195498
665000000 -0.68081826 0.13790965 -0.00056053221 -0.0016214753 -0.00060347607 -0.0021446808 -0.69454795 0.13252357
666000000 -0.67972618 0.13805555 -0.0004707289 -0.0012878749 -0.00069625722 -0.0019242677 -0.69461721 0.13122936
667000000 -0.68091595 0.13787158 -0.00029008972 -0.0017572661 -0.00075117312 -0.0024644877 -0.69562912 0.13099678
668000000 -0.68044323 0.13749732 0.00029435026 -0.0016709213 -0.00043527555 -0.0014553437 -0.69442189 0.13096216
669000000 -0.68156582 0.13858975 -0.00027721049 -0.002105586 -0.00043816937 -0.0019239517 -0.69468975 0.13065106
670000000 -0.68044752 0.13857444 -0.0009902087 -0.0024543873 -0.00056072872 -0.0018890784 -0.69515687 0.13340388
671000000 -0.68040431 0.13806684 -0.00046227418 -0.001416511 -0.0011087427 -0.0015865378 -0.69570386 0.13179383
672000000 -0.68080986 0.13831811 -0.00082958909 -0.0016505015 -0.00022851903 -0.0013604712 -0.69482404 0.13255586
673000000 -0.68034995 0.13971467 -0.00025402446 -0.0015675437 -0.00037509139 -0.0012774853 -0.69424671 0.13206445
