Frequency	 |S11|	 Phase(S11)	 ExtPh(S11)	 |S21|	 Phase(S21)	 ExtPh(S21)	 |S12|	 Phase(S12)	 ExtPh(S12)	 |S22|	 Phase(S22)	 ExtPh(S22) 
5.000000e-001	-2.310115e-001	-2.024334e+000	-2.024334e+000	-6.304088e+001	7.570710e+001	7.570710e+001	-6.505105e+001	-3.744465e+001	-3.744465e+001	-1.775946e-001	-1.598587e+000	-1.598587e+000	
5.010000e-001	-2.252268e-001	-2.005696e+000	-2.005696e+000	-5.584844e+001	4.704112e+001	4.704112e+001	-5.775744e+001	7.861335e+001	7.861335e+001	-1.628428e-001	-1.560071e+000	-1.560071e+000	
5.020000e-001	-2.366748e-001	-2.012297e+000	-2.012297e+000	-6.123893e+001	-8.999764e+001	-8.999764e+001	-6.592152e+001	4.533705e+001	4.533705e+001	-1.695171e-001	-1.640927e+000	-1.640927e+000	
5.030000e-001	-2.387813e-001	-1.981327e+000	-1.981327e+000	-6.862729e+001	2.644842e+001	2.644842e+001	-6.914317e+001	-5.231592e+001	-5.231592e+001	-1.742562e-001	-1.563575e+000	-1.563575e+000	
5.040000e-001	-2.273323e-001	-2.037319e+000	-2.037319e+000	-6.445866e+001	-8.972823e+001	-8.972823e+001	-5.807530e+001	-3.913384e+001	-3.913384e+001	-1.603176e-001	-1.658916e+000	-1.658916e+000	
5.050000e-001	-2.352975e-001	-2.000620e+000	-2.000620e+000	-6.295391e+001	2.154190e+001	2.154190e+001	-7.472324e+001	-5.342820e+001	-5.342820e+001	-1.721412e-001	-1.568008e+000	-1.568008e+000	
5.060000e-001	-2.356960e-001	-1.999246e+000	-1.999246e+000	-6.761507e+001	6.171378e+001	6.171378e+001	-6.790805e+001	1.524530e+001	1.524530e+001	-1.760028e-001	-1.660053e+000	-1.660053e+000	
5.070000e-001	-2.262081e-001	-1.975149e+000	-1.975149e+000	-6.560835e+001	8.781898e+001	8.781898e+001	-6.421350e+001	7.998657e+001	7.998657e+001	-1.627271e-001	-1.692769e+000	-1.692769e+000	
5.080000e-001	-2.290605e-001	-2.027570e+000	-2.027570e+000	-6.483314e+001	8.058392e+000	8.058392e+000	-6.623248e+001	-2.424189e+001	-2.424189e+001	-1.633814e-001	-1.637705e+000	-1.637705e+000	
5.090000e-001	-2.272103e-001	-1.981055e+000	-1.981055e+000	-6.095575e+001	7.093911e+000	7.093911e+000	-7.065834e+001	-2.451517e+001	-2.451517e+001	-1.751616e-001	-1.712029e+000	-1.712029e+000	
5.100000e-001	-2.269838e-001	-2.062630e+000	-2.062630e+000	-6.242472e+001	6.001094e+001	6.001094e+001	-6.337164e+001	-2.001679e+000	-2.001679e+000	-1.699115e-001	-1.669043e+000	-1.669043e+000	
5.110000e-001	-2.418238e-001	-2.108952e+000	-2.108952e+000	-6.861862e+001	-3.411912e+001	-3.411912e+001	-6.187031e+001	2.947413e+001	2.947413e+001	-1.745997e-001	-1.679317e+000	-1.679317e+000	
5.120000e-001	-2.368406e-001	-1.997413e+000	-1.997413e+000	-5.780412e+001	-7.673435e+001	-7.673435e+001	-6.324334e+001	5.337547e+001	5.337547e+001	-1.723409e-001	-1.665449e+000	-1.665449e+000	
5.130000e-001	-2.296694e-001	-2.067554e+000	-2.067554e+000	-6.060273e+001	3.161236e+001	3.161236e+001	-6.374034e+001	-7.470384e+001	-7.470384e+001	-1.678544e-001	-1.636823e+000	-1.636823e+000	
5.140000e-001	-2.277828e-001	-2.063074e+000	-2.063074e+000	-6.954831e+001	3.130599e+001	3.130599e+001	-6.173567e+001	5.696265e+001	5.696265e+001	-1.676670e-001	-1.728128e+000	-1.728128e+000	
5.150000e-001	-2.276695e-001	-2.061425e+000	-2.061425e+000	-5.974907e+001	6.694024e+001	6.694024e+001	-5.692839e+001	5.299138e+001	5.299138e+001	-1.754367e-001	-1.747624e+000	-1.747624e+000	
5.160000e-001	-2.309261e-001	-2.129297e+000	-2.129297e+000	-6.614181e+001	-4.012008e+001	-4.012008e+001	-6.070756e+001	8.046578e+001	8.046578e+001	-1.643244e-001	-1.734501e+000	-1.734501e+000	
5.170000e-001	-2.357756e-001	-2.070549e+000	-2.070549e+000	-6.852107e+001	-2.563125e+001	-2.563125e+001	-6.180000e+001	6.622987e+001	6.622987e+001	-1.769894e-001	-1.713622e+000	-1.713622e+000	
5.180000e-001	-2.363197e-001	-2.080606e+000	-2.080606e+000	-5.838966e+001	6.504939e+001	6.504939e+001	-6.747127e+001	-7.181500e+001	-7.181500e+001	-1.751925e-001	-1.682890e+000	-1.682890e+000	
5.190000e-001	-2.330749e-001	-2.093159e+000	-2.093159e+000	-6.235157e+001	2.968902e+001	2.968902e+001	-6.256418e+001	-6.565322e+001	-6.565322e+001	-1.695478e-001	-1.820994e+000	-1.820994e+000	
5.200000e-001	-2.210894e-001	-2.023150e+000	-2.023150e+000	-5.942450e+001	-6.243621e+001	-6.243621e+001	-6.741336e+001	6.021816e+001	6.021816e+001	-1.779342e-001	-1.771277e+000	-1.771277e+000	
5.210000e-001	-2.304059e-001	-2.104872e+000	-2.104872e+000	-6.840647e+001	-7.393031e+001	-7.393031e+001	-7.065418e+001	-8.056573e+000	-8.056573e+000	-1.752702e-001	-1.766378e+000	-1.766378e+000	
5.220000e-001	-2.347327e-001	-2.090180e+000	-2.090180e+000	-5.860537e+001	-4.924243e+001	-4.924243e+001	-6.930973e+001	1.503803e+001	1.503803e+001	-1.717943e-001	-1.802169e+000	-1.802169e+000	
5.230000e-001	-2.312374e-001	-2.034770e+000	-2.034770e+000	-7.238191e+001	-1.404265e+001	-1.404265e+001	-5.940605e+001	1.117922e-001	1.117922e-001	-1.731347e-001	-1.748091e+000	-1.748091e+000	
5.240000e-001	-2.374515e-001	-2.100146e+000	-2.100146e+000	-6.662730e+001	-4.488397e+001	-4.488397e+001	-6.428446e+001	8.853300e+001	8.853300e+001	-1.744182e-001	-1.735593e+000	-1.735593e+000	
5.250000e-001	-2.352439e-001	-2.133290e+000	-2.133290e+000	-6.779832e+001	8.858926e+001	8.858926e+001	-6.510643e+001	-6.154951e+001	1.184505e+002	-1.760664e-001	-1.754302e+000	-1.754302e+000	
5.260000e-001	-2.287102e-001	-2.153355e+000	-2.153355e+000	-7.823546e+001	6.580621e+001	6.580621e+001	-6.248666e+001	8.589844e+001	8.589844e+001	-1.786759e-001	-1.838247e+000	-1.838247e+000	
5.270000e-001	-2.326428e-001	-2.074361e+000	-2.074361e+000	-6.700476e+001	-6.293757e+001	-6.293757e+001	-6.295618e+001	6.642121e+001	6.642121e+001	-1.713096e-001	-1.748141e+000	-1.748141e+000	
5.280000e-001	-2.383615e-001	-2.116655e+000	-2.116655e+000	-5.984106e+001	-6.742246e+001	-6.742246e+001	-7.065562e+001	-6.043732e+000	-6.043732e+000	-1.767759e-001	-1.786329e+000	-1.786329e+000	
5.290000e-001	-2.310030e-001	-2.128572e+000	-2.128572e+000	-6.961671e+001	3.892649e+001	3.892649e+001	-5.740948e+001	3.707007e+001	3.707007e+001	-1.755637e-001	-1.791933e+000	-1.791933e+000	
5.300000e-001	-2.272312e-001	-2.136953e+000	-2.136953e+000	-7.001452e+001	-1.878654e+000	-1.878654e+000	-6.359409e+001	2.040475e+001	2.040475e+001	-1.619082e-001	-1.794066e+000	-1.794066e+000	
5.310000e-001	-2.220299e-001	-2.091479e+000	-2.091479e+000	-7.324859e+001	-3.725878e+001	-3.725878e+001	-6.087312e+001	6.051591e+001	6.051591e+001	-1.753931e-001	-1.807892e+000	-1.807892e+000	
5.320000e-001	-2.379883e-001	-2.054432e+000	-2.054432e+000	-7.101386e+001	-6.045038e+001	-6.045038e+001	-6.087385e+001	7.936422e+001	7.936422e+001	-1.773027e-001	-1.811918e+000	-1.811918e+000	
5.330000e-001	-2.337068e-001	-2.113010e+000	-2.113010e+000	-6.267241e+001	-2.828898e+001	-2.828898e+001	-6.151385e+001	-4.646611e+001	-4.646611e+001	-1.826270e-001	-1.816726e+000	-1.816726e+000	
5.340000e-001	-2.340156e-001	-2.144454e+000	-2.144454e+000	-7.220271e+001	2.328753e+001	2.328753e+001	-7.098336e+001	-6.972653e+001	-6.972653e+001	-1.699658e-001	-1.767770e+000	-1.767770e+000	
5.350000e-001	-2.262635e-001	-2.135331e+000	-2.135331e+000	-6.135515e+001	-7.420928e+001	-7.420928e+001	-6.450252e+001	3.986573e+001	3.986573e+001	-1.838699e-001	-1.841162e+000	-1.841162e+000	
5.360000e-001	-2.385956e-001	-2.149039e+000	-2.149039e+000	-6.646391e+001	-8.079943e+001	-8.079943e+001	-6.954679e+001	-4.669497e+001	-4.669497e+001	-1.843263e-001	-1.794596e+000	-1.794596e+000	
5.370000e-001	-2.366061e-001	-2.133580e+000	-2.133580e+000	-6.647859e+001	5.071418e+001	5.071418e+001	-6.636276e+001	-9.982978e+000	-9.982978e+000	-1.771583e-001	-1.863888e+000	-1.863888e+000	
5.380000e-001	-2.322163e-001	-2.120876e+000	-2.120876e+000	-7.829026e+001	-6.254681e+001	-6.254681e+001	-6.535172e+001	-9.181619e+000	-9.181619e+000	-1.768104e-001	-1.825769e+000	-1.825769e+000	
5.390000e-001	-2.169613e-001	-2.107685e+000	-2.107685e+000	-5.886983e+001	-8.591634e+001	-8.591634e+001	-7.287461e+001	4.071471e+001	4.071471e+001	-1.820777e-001	-1.811282e+000	-1.811282e+000	
5.400000e-001	-2.420532e-001	-2.129688e+000	-2.129688e+000	-6.020850e+001	6.372415e+000	6.372415e+000	-7.527952e+001	-9.758804e+000	-9.758804e+000	-1.711672e-001	-1.767074e+000	-1.767074e+000	
5.410000e-001	-2.459060e-001	-2.160125e+000	-2.160125e+000	-6.451864e+001	-3.882225e+001	-3.882225e+001	-6.104709e+001	-7.471517e+001	-7.471517e+001	-1.733462e-001	-1.722509e+000	-1.722509e+000	
5.420000e-001	-2.387522e-001	-2.153885e+000	-2.153885e+000	-7.185151e+001	2.015794e+001	2.015794e+001	-6.045891e+001	-9.365560e+000	-9.365560e+000	-1.884234e-001	-1.837862e+000	-1.837862e+000	
5.430000e-001	-2.407048e-001	-2.173388e+000	-2.173388e+000	-6.281556e+001	-8.786678e+001	-8.786678e+001	-6.415467e+001	-4.768164e+001	-4.768164e+001	-1.788119e-001	-1.891061e+000	-1.891061e+000	
5.440000e-001	-2.296599e-001	-2.146128e+000	-2.146128e+000	-6.520255e+001	-2.837673e+001	-2.837673e+001	-6.364238e+001	-1.570431e+001	-1.570431e+001	-1.676640e-001	-1.833843e+000	-1.833843e+000	
5.450000e-001	-2.261470e-001	-2.148934e+000	-2.148934e+000	-6.664119e+001	1.715176e+000	1.715176e+000	-6.487186e+001	-1.426568e+000	-1.426568e+000	-1.807631e-001	-1.880067e+000	-1.880067e+000	
5.460000e-001	-2.388938e-001	-2.233047e+000	-2.233047e+000	-6.209985e+001	8.426888e+001	8.426888e+001	-6.780072e+001	6.417023e+001	6.417023e+001	-1.733128e-001	-1.830310e+000	-1.830310e+000	
5.470000e-001	-2.341259e-001	-2.164768e+000	-2.164768e+000	-7.114733e+001	1.269015e+001	1.269015e+001	-6.345676e+001	7.103505e+001	7.103505e+001	-1.754455e-001	-1.842543e+000	-1.842543e+000	
5.480000e-001	-2.347141e-001	-2.153118e+000	-2.153118e+000	-5.762338e+001	-6.515494e+001	-6.515494e+001	-6.032364e+001	8.380626e+001	8.380626e+001	-1.785858e-001	-1.845133e+000	-1.845133e+000	
5.490000e-001	-2.402489e-001	-2.086963e+000	-2.086963e+000	-6.305222e+001	2.391580e+001	2.391580e+001	-7.123133e+001	5.185800e+001	5.185800e+001	-1.800949e-001	-1.812158e+000	-1.812158e+000	
5.500000e-001	-2.325048e-001	-2.075065e+000	-2.075065e+000	-6.170172e+001	-5.327430e+001	-5.327430e+001	-6.071765e+001	7.860647e+001	7.860647e+001	-1.755361e-001	-1.858053e+000	-1.858053e+000	
5.510000e-001	-2.413537e-001	-2.159893e+000	-2.159893e+000	-5.848570e+001	5.405150e+001	5.405150e+001	-6.406116e+001	-7.854336e+001	1.014566e+002	-1.681259e-001	-1.875731e+000	-1.875731e+000	
5.520000e-001	-2.280311e-001	-2.105400e+000	-2.105400e+000	-7.463695e+001	-3.607111e+001	-3.607111e+001	-6.925119e+001	8.989512e+001	8.989512e+001	-1.774320e-001	-1.866683e+000	-1.866683e+000	
5.530000e-001	-2.216197e-001	-2.197903e+000	-2.197903e+000	-6.601495e+001	-6.345941e+001	-6.345941e+001	-6.345142e+001	-3.982659e+001	-3.982659e+001	-1.759179e-001	-1.738052e+000	-1.738052e+000	
5.540000e-001	-2.347698e-001	-2.089834e+000	-2.089834e+000	-6.670074e+001	-2.167644e+001	-2.167644e+001	-6.672977e+001	8.715561e+001	8.715561e+001	-1.758416e-001	-1.879633e+000	-1.879633e+000	
5.550000e-001	-2.425710e-001	-2.116228e+000	-2.116228e+000	-7.984257e+001	-6.709321e+001	-6.709321e+001	-6.449197e+001	-8.866013e+001	9.133987e+001	-1.741441e-001	-1.786585e+000	-1.786585e+000	
5.560000e-001	-2.408721e-001	-2.207188e+000	-2.207188e+000	-5.996531e+001	-5.310547e+001	-5.310547e+001	-6.319534e+001	-3.335138e+001	1.466486e+002	-1.743984e-001	-1.788904e+000	-1.788904e+000	
5.570000e-001	-2.362673e-001	-2.146024e+000	-2.146024e+000	-6.720979e+001	7.592526e+001	7.592526e+001	-6.354573e+001	5.916882e+001	2.391688e+002	-1.743176e-001	-1.815501e+000	-1.815501e+000	
5.580000e-001	-2.305895e-001	-2.162504e+000	-2.162504e+000	-6.999667e+001	-1.117633e+001	-1.117633e+001	-6.419328e+001	-8.819272e+001	2.718073e+002	-1.787175e-001	-1.819051e+000	-1.819051e+000	
5.590000e-001	-2.356660e-001	-2.192253e+000	-2.192253e+000	-7.357194e+001	1.419715e+001	1.419715e+001	-7.177133e+001	-5.839645e+001	3.016035e+002	-1.763929e-001	-1.861389e+000	-1.861389e+000	
5.600000e-001	-2.373626e-001	-2.186755e+000	-2.186755e+000	-5.890358e+001	7.730785e+001	7.730785e+001	-6.522135e+001	1.785285e+001	3.778529e+002	-1.809854e-001	-1.814248e+000	-1.814248e+000	
5.610000e-001	-2.237752e-001	-2.147431e+000	-2.147431e+000	-6.212861e+001	6.031247e+001	6.031247e+001	-6.295151e+001	3.107123e+001	3.910712e+002	-1.843046e-001	-1.795581e+000	-1.795581e+000	
5.620000e-001	-2.244120e-001	-2.160963e+000	-2.160963e+000	-5.923271e+001	6.925292e+001	6.925292e+001	-6.164395e+001	3.587570e+001	3.958757e+002	-1.722042e-001	-1.877070e+000	-1.877070e+000	
5.630000e-001	-2.434104e-001	-2.150325e+000	-2.150325e+000	-7.186081e+001	-8.385717e+001	9.614283e+001	-5.922331e+001	-3.807183e+000	3.561928e+002	-1.789390e-001	-1.926913e+000	-1.926913e+000	
5.640000e-001	-2.380287e-001	-2.116645e+000	-2.116645e+000	-6.686955e+001	-1.662473e+000	1.783375e+002	-5.942945e+001	-6.700175e+001	2.929983e+002	-1.667776e-001	-1.751124e+000	-1.751124e+000	
5.650000e-001	-2.400178e-001	-2.154974e+000	-2.154974e+000	-5.858881e+001	4.637414e+001	2.263741e+002	-7.246829e+001	3.099174e+001	3.909917e+002	-1.766666e-001	-1.823703e+000	-1.823703e+000	
5.660000e-001	-2.392266e-001	-2.134673e+000	-2.134673e+000	-7.334979e+001	-4.774944e+001	1.322506e+002	-7.281662e+001	3.424703e+001	3.942470e+002	-1.725144e-001	-1.785142e+000	-1.785142e+000	
5.670000e-001	-2.445464e-001	-2.164711e+000	-2.164711e+000	-6.268316e+001	4.373833e+001	2.237383e+002	-6.118664e+001	7.929756e+001	4.392976e+002	-1.745941e-001	-1.867516e+000	-1.867516e+000	
5.680000e-001	-2.403460e-001	-2.213990e+000	-2.213990e+000	-6.746726e+001	4.402725e+001	2.240273e+002	-7.285087e+001	-3.240827e+001	3.275917e+002	-1.871851e-001	-1.786151e+000	-1.786151e+000	
5.690000e-001	-2.310576e-001	-2.190873e+000	-2.190873e+000	-6.965876e+001	8.484806e+001	2.648481e+002	-6.502129e+001	2.804760e+001	3.880476e+002	-1.823045e-001	-1.760032e+000	-1.760032e+000	
5.700000e-001	-2.400086e-001	-2.129741e+000	-2.129741e+000	-6.166832e+001	-2.921448e+000	1.770786e+002	-6.529602e+001	8.942556e+001	4.494256e+002	-1.771027e-001	-1.855085e+000	-1.855085e+000	
5.710000e-001	-2.424563e-001	-2.137835e+000	-2.137835e+000	-6.240879e+001	4.553197e+001	2.255320e+002	-5.705155e+001	-7.707329e+001	4.629267e+002	-1.669636e-001	-1.870520e+000	-1.870520e+000	
5.720000e-001	-2.446336e-001	-2.130424e+000	-2.130424e+000	-7.003644e+001	-3.711069e+001	1.428893e+002	-6.295517e+001	1.633316e+001	5.563332e+002	-1.847195e-001	-1.819893e+000	-1.819893e+000	
5.730000e-001	-2.356025e-001	-2.113629e+000	-2.113629e+000	-6.724502e+001	6.199395e+001	2.419939e+002	-5.798881e+001	-5.740883e+001	4.825912e+002	-1.681179e-001	-1.881255e+000	-1.881255e+000	
5.740000e-001	-2.426366e-001	-2.142852e+000	-2.142852e+000	-7.460198e+001	1.273388e+001	1.927339e+002	-7.713013e+001	-2.422486e+001	5.157751e+002	-1.754942e-001	-1.854518e+000	-1.854518e+000	
5.750000e-001	-2.455480e-001	-2.203016e+000	-2.203016e+000	-6.821649e+001	5.162062e+001	2.316206e+002	-6.191197e+001	4.258095e+001	5.825810e+002	-1.579430e-001	-1.892926e+000	-1.892926e+000	
5.760000e-001	-2.476050e-001	-2.183894e+000	-2.183894e+000	-6.406842e+001	6.022604e+001	2.402260e+002	-7.684030e+001	-3.752323e+001	5.024768e+002	-1.786715e-001	-1.877425e+000	-1.877425e+000	
5.770000e-001	-2.301583e-001	-2.148098e+000	-2.148098e+000	-7.316049e+001	-5.146727e+000	1.748533e+002	-6.705146e+001	-8.102684e+000	5.318973e+002	-1.668470e-001	-1.846545e+000	-1.846545e+000	
5.780000e-001	-2.390302e-001	-2.160798e+000	-2.160798e+000	-6.176863e+001	-6.419981e+001	1.158002e+002	-7.828751e+001	-4.655990e+001	4.934401e+002	-1.823939e-001	-1.830504e+000	-1.830504e+000	
5.790000e-001	-2.435078e-001	-2.164626e+000	-2.164626e+000	-6.607855e+001	8.636485e+001	8.636485e+001	-6.919409e+001	-8.384305e+001	4.561569e+002	-1.605316e-001	-1.837966e+000	-1.837966e+000	
5.800000e-001	-2.453796e-001	-2.168096e+000	-2.168096e+000	-5.994305e+001	-8.238167e+001	9.761833e+001	-6.977789e+001	-2.825036e+001	5.117496e+002	-1.751406e-001	-1.914604e+000	-1.914604e+000	
5.810000e-001	-2.378866e-001	-2.194184e+000	-2.194184e+000	-6.608020e+001	5.980902e+001	5.980902e+001	-6.642818e+001	-2.920565e+001	5.107944e+002	-1.643468e-001	-1.803104e+000	-1.803104e+000	
5.820000e-001	-2.397820e-001	-2.170678e+000	-2.170678e+000	-6.678066e+001	8.616154e+001	8.616154e+001	-6.314388e+001	6.496458e+001	6.049646e+002	-1.708424e-001	-1.884647e+000	-1.884647e+000	
5.830000e-001	-2.487761e-001	-2.183836e+000	-2.183836e+000	-6.237858e+001	8.810393e+001	8.810393e+001	-6.564438e+001	6.043971e+001	6.004397e+002	-1.703355e-001	-1.802983e+000	-1.802983e+000	
5.840000e-001	-2.427531e-001	-2.215582e+000	-2.215582e+000	-6.446333e+001	6.376607e+001	6.376607e+001	-7.151276e+001	-4.743440e+001	4.925656e+002	-1.807804e-001	-1.879465e+000	-1.879465e+000	
5.850000e-001	-2.403064e-001	-2.206100e+000	-2.206100e+000	-6.555127e+001	-6.856589e+001	-6.856589e+001	-5.844069e+001	7.415805e+001	6.141580e+002	-1.826930e-001	-1.877253e+000	-1.877253e+000	
5.860000e-001	-2.367390e-001	-2.156860e+000	-2.156860e+000	-6.749469e+001	-7.566418e+000	-7.566418e+000	-6.466490e+001	-7.227548e+001	6.477245e+002	-1.710618e-001	-1.811186e+000	-1.811186e+000	
5.870000e-001	-2.342085e-001	-2.205959e+000	-2.205959e+000	-6.777958e+001	1.880169e+001	1.880169e+001	-6.493999e+001	6.408890e+001	7.840889e+002	-1.830281e-001	-1.922034e+000	-1.922034e+000	
5.880000e-001	-2.378314e-001	-2.167595e+000	-2.167595e+000	-6.326637e+001	3.948706e+001	3.948706e+001	-6.607755e+001	-2.675877e+001	6.932412e+002	-1.696187e-001	-1.886088e+000	-1.886088e+000	
5.890000e-001	-2.353553e-001	-2.175443e+000	-2.175443e+000	-7.422557e+001	3.015280e+001	3.015280e+001	-6.592360e+001	8.779040e+001	8.077904e+002	-1.828930e-001	-1.846309e+000	-1.846309e+000	
5.900000e-001	-2.430765e-001	-2.215408e+000	-2.215408e+000	-6.951921e+001	2.576528e+001	2.576528e+001	-6.143162e+001	7.571603e+001	7.957160e+002	-1.671849e-001	-1.915399e+000	-1.915399e+000	
5.910000e-001	-2.423225e-001	-2.275645e+000	-2.275645e+000	-6.395387e+001	7.226533e+000	7.226533e+000	-6.470971e+001	7.567783e+001	7.956778e+002	-1.717561e-001	-1.881526e+000	-1.881526e+000	
5.920000e-001	-2.401961e-001	-2.196057e+000	-2.196057e+000	-6.562038e+001	1.860769e+001	1.860769e+001	-7.224425e+001	-8.302872e+001	8.169713e+002	-1.738110e-001	-1.843488e+000	-1.843488e+000	
5.930000e-001	-2.413337e-001	-2.143122e+000	-2.143122e+000	-6.236010e+001	6.826501e+001	6.826501e+001	-6.236336e+001	-4.922686e+001	8.507731e+002	-1.802724e-001	-1.789341e+000	-1.789341e+000	
5.940000e-001	-2.432797e-001	-2.220373e+000	-2.220373e+000	-6.615559e+001	-5.592762e+001	-5.592762e+001	-6.782241e+001	6.003095e+001	9.600309e+002	-1.861993e-001	-1.878452e+000	-1.878452e+000	
5.950000e-001	-2.369083e-001	-2.267527e+000	-2.267527e+000	-5.863161e+001	-7.266581e+001	-7.266581e+001	-6.362626e+001	1.189863e+001	9.118986e+002	-1.591298e-001	-1.875209e+000	-1.875209e+000	
5.960000e-001	-2.382019e-001	-2.235864e+000	-2.235864e+000	-6.311974e+001	-4.281450e+001	-4.281450e+001	-6.390286e+001	8.192828e+001	9.819283e+002	-1.779707e-001	-1.952681e+000	-1.952681e+000	
5.970000e-001	-2.406143e-001	-2.298662e+000	-2.298662e+000	-6.240875e+001	7.407989e+001	7.407989e+001	-6.058130e+001	4.420788e+001	9.442079e+002	-1.794812e-001	-1.856217e+000	-1.856217e+000	
5.980000e-001	-2.388187e-001	-2.235114e+000	-2.235114e+000	-6.354409e+001	5.009577e+001	5.009577e+001	-6.991556e+001	6.356532e+000	9.063565e+002	-1.822772e-001	-1.918627e+000	-1.918627e+000	
5.990000e-001	-2.309960e-001	-2.204933e+000	-2.204933e+000	-8.435615e+001	-5.218157e+001	-5.218157e+001	-6.030875e+001	-8.418933e+001	8.158107e+002	-1.692586e-001	-1.904691e+000	-1.904691e+000	
6.000000e-001	-2.494973e-001	-2.280149e+000	-2.280149e+000	-6.481969e+001	-8.609198e+001	-8.609198e+001	-6.278444e+001	-4.899843e+001	8.510016e+002	-1.835122e-001	-1.875488e+000	-1.875488e+000	
6.010000e-001	-2.444837e-001	-2.312415e+000	-2.312415e+000	-6.904320e+001	-6.560573e+001	-6.560573e+001	-7.331523e+001	2.507010e+001	9.250701e+002	-1.691949e-001	-1.927570e+000	-1.927570e+000	
6.020000e-001	-2.312060e-001	-2.273193e+000	-2.273193e+000	-6.511598e+001	-8.341335e+001	-8.341335e+001	-5.918807e+001	8.597684e+001	9.859768e+002	-1.738058e-001	-1.926736e+000	-1.926736e+000	
