Frequency	 |S11|	 Phase(S11)	 ExtPh(S11)	 |S21|	 Phase(S21)	 ExtPh(S21)	 |S12|	 Phase(S12)	 ExtPh(S12)	 |S22|	 Phase(S22)	 ExtPh(S22) 
5.000000e-001	-2.293026e-001	-2.051690e+000	-2.051690e+000	-7.314138e+001	-5.582490e+001	-5.582490e+001	-6.210880e+001	4.179627e+001	4.179627e+001	-1.758139e-001	-1.609779e+000	-1.609779e+000	
5.010000e-001	-2.217019e-001	-1.944465e+000	-1.944465e+000	-7.386100e+001	5.838675e+001	5.838675e+001	-6.426206e+001	8.498256e+001	8.498256e+001	-1.707036e-001	-1.625218e+000	-1.625218e+000	
5.020000e-001	-2.310472e-001	-1.968459e+000	-1.968459e+000	-6.360848e+001	-5.033082e+001	-5.033082e+001	-6.034508e+001	5.268910e+001	5.268910e+001	-1.743083e-001	-1.643043e+000	-1.643043e+000	
5.030000e-001	-2.260510e-001	-1.998542e+000	-1.998542e+000	-7.117456e+001	-5.609690e+000	-5.609690e+000	-7.352437e+001	8.653582e+001	8.653582e+001	-1.721486e-001	-1.662905e+000	-1.662905e+000	
5.040000e-001	-2.293160e-001	-1.983751e+000	-1.983751e+000	-6.781750e+001	4.588746e+001	4.588746e+001	-6.392536e+001	-5.067428e+001	-5.067428e+001	-1.684764e-001	-1.554962e+000	-1.554962e+000	
5.050000e-001	-2.317174e-001	-2.068647e+000	-2.068647e+000	-7.635565e+001	6.640059e+001	6.640059e+001	-6.115500e+001	-6.658210e+001	-6.658210e+001	-1.812975e-001	-1.639767e+000	-1.639767e+000	
5.060000e-001	-2.295756e-001	-1.947456e+000	-1.947456e+000	-7.350413e+001	4.268689e+001	4.268689e+001	-7.819688e+001	6.148036e+001	6.148036e+001	-1.705576e-001	-1.604254e+000	-1.604254e+000	
5.070000e-001	-2.282238e-001	-2.032537e+000	-2.032537e+000	-5.948477e+001	5.520091e+001	5.520091e+001	-6.537686e+001	-5.247910e+001	-5.247910e+001	-1.780379e-001	-1.670976e+000	-1.670976e+000	
5.080000e-001	-2.230502e-001	-2.056461e+000	-2.056461e+000	-6.969796e+001	7.223802e+001	7.223802e+001	-6.058204e+001	3.431600e+001	3.431600e+001	-1.819975e-001	-1.689995e+000	-1.689995e+000	
5.090000e-001	-2.312260e-001	-2.040236e+000	-2.040236e+000	-5.816558e+001	3.726138e+001	3.726138e+001	-6.593441e+001	1.230770e-001	1.230770e-001	-1.663991e-001	-1.603114e+000	-1.603114e+000	
5.100000e-001	-2.367427e-001	-2.027176e+000	-2.027176e+000	-6.368125e+001	-4.989607e+001	-4.989607e+001	-6.007058e+001	7.528829e+001	7.528829e+001	-1.903458e-001	-1.752139e+000	-1.752139e+000	
5.110000e-001	-2.342016e-001	-2.031258e+000	-2.031258e+000	-7.008115e+001	3.273692e+001	3.273692e+001	-6.520193e+001	6.249256e+001	6.249256e+001	-1.753333e-001	-1.686637e+000	-1.686637e+000	
5.120000e-001	-2.346229e-001	-2.021065e+000	-2.021065e+000	-7.765919e+001	2.740975e+001	2.740975e+001	-6.029474e+001	-6.897230e+001	-6.897230e+001	-1.652921e-001	-1.652858e+000	-1.652858e+000	
5.130000e-001	-2.276885e-001	-2.009415e+000	-2.009415e+000	-5.884275e+001	2.745788e+001	2.745788e+001	-7.727974e+001	1.653163e+001	1.653163e+001	-1.858880e-001	-1.703207e+000	-1.703207e+000	
5.140000e-001	-2.321070e-001	-2.025910e+000	-2.025910e+000	-5.871127e+001	-7.202237e+001	-7.202237e+001	-6.346942e+001	-2.848882e+001	-2.848882e+001	-1.722203e-001	-1.706567e+000	-1.706567e+000	
5.150000e-001	-2.287955e-001	-2.116991e+000	-2.116991e+000	-6.755557e+001	5.155439e+001	5.155439e+001	-5.966263e+001	-1.932057e+001	-1.932057e+001	-1.746645e-001	-1.652148e+000	-1.652148e+000	
5.160000e-001	-2.307196e-001	-2.005652e+000	-2.005652e+000	-6.339606e+001	1.848185e+001	1.848185e+001	-5.800836e+001	8.260215e+001	8.260215e+001	-1.777118e-001	-1.719495e+000	-1.719495e+000	
5.170000e-001	-2.343103e-001	-2.116737e+000	-2.116737e+000	-6.257903e+001	-7.488782e+001	-7.488782e+001	-5.846264e+001	5.691015e+001	5.691015e+001	-1.805633e-001	-1.739606e+000	-1.739606e+000	
5.180000e-001	-2.300193e-001	-2.098334e+000	-2.098334e+000	-6.085304e+001	6.804772e+001	-1.119523e+002	-6.714601e+001	6.079639e+001	6.079639e+001	-1.854834e-001	-1.690188e+000	-1.690188e+000	
5.190000e-001	-2.266769e-001	-2.001739e+000	-2.001739e+000	-6.289208e+001	-7.599133e+001	-7.599133e+001	-7.125537e+001	1.319397e+001	1.319397e+001	-1.773835e-001	-1.747378e+000	-1.747378e+000	
5.200000e-001	-2.355766e-001	-2.003894e+000	-2.003894e+000	-6.973285e+001	-1.481111e+001	-1.481111e+001	-6.106358e+001	7.720203e+001	7.720203e+001	-1.823357e-001	-1.681652e+000	-1.681652e+000	
5.210000e-001	-2.329499e-001	-2.075802e+000	-2.075802e+000	-6.406496e+001	2.855923e+001	2.855923e+001	-6.650458e+001	6.095683e+001	6.095683e+001	-1.771840e-001	-1.755207e+000	-1.755207e+000	
5.220000e-001	-2.239157e-001	-2.106142e+000	-2.106142e+000	-6.493026e+001	-4.456424e+001	-4.456424e+001	-7.243257e+001	-6.445637e+001	-6.445637e+001	-1.817543e-001	-1.721953e+000	-1.721953e+000	
5.230000e-001	-2.233684e-001	-2.099886e+000	-2.099886e+000	-6.862753e+001	8.870681e+001	8.870681e+001	-6.095430e+001	-7.589274e+001	-7.589274e+001	-1.780750e-001	-1.731777e+000	-1.731777e+000	
5.240000e-001	-2.374244e-001	-2.093137e+000	-2.093137e+000	-6.105423e+001	-8.077914e+001	9.922086e+001	-5.859828e+001	-1.038127e+000	-1.038127e+000	-1.783886e-001	-1.781455e+000	-1.781455e+000	
5.250000e-001	-2.331694e-001	-2.088590e+000	-2.088590e+000	-6.115493e+001	7.967634e+001	7.967634e+001	-7.430224e+001	-2.766933e+001	-2.766933e+001	-1.712181e-001	-1.749544e+000	-1.749544e+000	
5.260000e-001	-2.478376e-001	-2.123860e+000	-2.123860e+000	-6.693940e+001	-5.918728e+001	-5.918728e+001	-6.324969e+001	5.980704e+001	5.980704e+001	-1.745773e-001	-1.786511e+000	-1.786511e+000	
5.270000e-001	-2.279116e-001	-2.160016e+000	-2.160016e+000	-6.309868e+001	-2.429730e+001	-2.429730e+001	-6.617271e+001	2.894320e+000	2.894320e+000	-1.788068e-001	-1.753085e+000	-1.753085e+000	
5.280000e-001	-2.222949e-001	-2.111006e+000	-2.111006e+000	-6.737626e+001	4.274106e+001	4.274106e+001	-7.057315e+001	8.175819e+001	8.175819e+001	-1.841026e-001	-1.761286e+000	-1.761286e+000	
5.290000e-001	-2.315169e-001	-2.145336e+000	-2.145336e+000	-7.127829e+001	-1.332890e+001	-1.332890e+001	-7.290295e+001	5.438894e+001	5.438894e+001	-1.837034e-001	-1.777838e+000	-1.777838e+000	
5.300000e-001	-2.306852e-001	-2.120844e+000	-2.120844e+000	-6.173409e+001	8.315993e+001	8.315993e+001	-7.040546e+001	7.041414e+001	7.041414e+001	-1.762215e-001	-1.776202e+000	-1.776202e+000	
5.310000e-001	-2.428727e-001	-2.068485e+000	-2.068485e+000	-8.090965e+001	-7.351541e+001	1.064846e+002	-6.124046e+001	-4.139885e+001	-4.139885e+001	-1.743927e-001	-1.809742e+000	-1.809742e+000	
5.320000e-001	-2.408554e-001	-2.241065e+000	-2.241065e+000	-7.148295e+001	-7.854399e+001	1.014560e+002	-6.552883e+001	1.941850e+001	1.941850e+001	-1.838460e-001	-1.737072e+000	-1.737072e+000	
5.330000e-001	-2.281598e-001	-2.108076e+000	-2.108076e+000	-6.311744e+001	4.958156e+001	2.295816e+002	-5.687886e+001	-7.281752e+001	-7.281752e+001	-1.794809e-001	-1.812920e+000	-1.812920e+000	
5.340000e-001	-2.279907e-001	-2.046952e+000	-2.046952e+000	-8.401818e+001	-2.558814e+001	1.544119e+002	-6.068062e+001	4.148180e+000	4.148180e+000	-1.779379e-001	-1.836495e+000	-1.836495e+000	
5.350000e-001	-2.320683e-001	-2.226040e+000	-2.226040e+000	-6.998890e+001	5.170935e+001	2.317094e+002	-6.793935e+001	4.504637e+001	4.504637e+001	-1.842849e-001	-1.783099e+000	-1.783099e+000	
5.360000e-001	-2.460937e-001	-2.139492e+000	-2.139492e+000	-5.992325e+001	7.049507e+001	2.504951e+002	-6.851105e+001	6.805713e+000	6.805713e+000	-1.923604e-001	-1.765253e+000	-1.765253e+000	
5.370000e-001	-2.398606e-001	-2.141111e+000	-2.141111e+000	-5.823935e+001	-6.823033e+001	1.117697e+002	-6.269255e+001	5.176063e+001	5.176063e+001	-1.791113e-001	-1.831335e+000	-1.831335e+000	
5.380000e-001	-2.274454e-001	-2.148042e+000	-2.148042e+000	-6.031534e+001	2.754082e-001	1.802754e+002	-6.259526e+001	1.121471e+001	1.121471e+001	-1.777395e-001	-1.734849e+000	-1.734849e+000	
5.390000e-001	-2.245419e-001	-2.118319e+000	-2.118319e+000	-6.285221e+001	4.732133e+001	2.273213e+002	-6.814571e+001	4.522609e+001	4.522609e+001	-1.959588e-001	-1.829449e+000	-1.829449e+000	
5.400000e-001	-2.224690e-001	-2.148025e+000	-2.148025e+000	-6.283070e+001	-2.375065e-001	1.797625e+002	-6.653911e+001	-8.948849e+001	-8.948849e+001	-1.820653e-001	-1.755518e+000	-1.755518e+000	
5.410000e-001	-2.310640e-001	-2.208511e+000	-2.208511e+000	-6.416750e+001	5.466719e+001	2.346672e+002	-7.843932e+001	-3.204946e+001	-3.204946e+001	-1.806128e-001	-1.833819e+000	-1.833819e+000	
5.420000e-001	-2.353019e-001	-2.189386e+000	-2.189386e+000	-6.250751e+001	-1.510647e+001	1.648935e+002	-5.956059e+001	6.942301e+001	6.942301e+001	-1.728135e-001	-1.817938e+000	-1.817938e+000	
5.430000e-001	-2.450700e-001	-2.146441e+000	-2.146441e+000	-6.496982e+001	-8.692792e+001	9.307208e+001	-6.214641e+001	7.235321e+001	7.235321e+001	-1.798800e-001	-1.806558e+000	-1.806558e+000	
5.440000e-001	-2.433003e-001	-2.206019e+000	-2.206019e+000	-6.747297e+001	6.624498e+001	6.624498e+001	-6.250807e+001	2.004862e+001	2.004862e+001	-1.714669e-001	-1.812071e+000	-1.812071e+000	
5.450000e-001	-2.337394e-001	-2.128443e+000	-2.128443e+000	-6.940126e+001	5.949487e+001	5.949487e+001	-6.172002e+001	-8.052321e+001	-8.052321e+001	-1.828502e-001	-1.778955e+000	-1.778955e+000	
5.460000e-001	-2.326506e-001	-2.132215e+000	-2.132215e+000	-6.630147e+001	-4.454133e+001	-4.454133e+001	-8.494142e+001	-1.824862e+000	-1.824862e+000	-1.721315e-001	-1.804583e+000	-1.804583e+000	
5.470000e-001	-2.346143e-001	-2.169173e+000	-2.169173e+000	-6.488307e+001	-8.600047e+001	-8.600047e+001	-6.469535e+001	-7.322705e+001	-7.322705e+001	-1.782062e-001	-1.846850e+000	-1.846850e+000	
5.480000e-001	-2.393974e-001	-2.154396e+000	-2.154396e+000	-6.622582e+001	-8.850822e+001	-8.850822e+001	-6.337399e+001	3.653915e+001	3.653915e+001	-1.785813e-001	-1.873450e+000	-1.873450e+000	
5.490000e-001	-2.438267e-001	-2.183374e+000	-2.183374e+000	-5.894607e+001	-5.313015e+001	-5.313015e+001	-6.420309e+001	-5.257503e+001	-5.257503e+001	-1.756942e-001	-1.846613e+000	-1.846613e+000	
5.500000e-001	-2.464803e-001	-2.172448e+000	-2.172448e+000	-7.205697e+001	-8.629570e+001	-8.629570e+001	-6.455386e+001	-1.605091e+001	-1.605091e+001	-1.848634e-001	-1.855052e+000	-1.855052e+000	
5.510000e-001	-2.407917e-001	-2.240669e+000	-2.240669e+000	-6.874561e+001	5.256621e+001	5.256621e+001	-6.023968e+001	-8.249312e+001	-8.249312e+001	-1.821875e-001	-1.810107e+000	-1.810107e+000	
5.520000e-001	-2.341690e-001	-2.097400e+000	-2.097400e+000	-6.407927e+001	-5.410581e+001	-5.410581e+001	-6.022949e+001	-6.811389e+001	-6.811389e+001	-1.896365e-001	-1.804646e+000	-1.804646e+000	
5.530000e-001	-2.333279e-001	-2.139967e+000	-2.139967e+000	-7.505111e+001	2.854130e+001	2.854130e+001	-6.711697e+001	-8.973274e+001	-8.973274e+001	-1.782023e-001	-1.823493e+000	-1.823493e+000	
5.540000e-001	-2.459971e-001	-2.111775e+000	-2.111775e+000	-6.211143e+001	7.716686e+001	7.716686e+001	-6.451725e+001	8.786680e+001	-9.213320e+001	-1.743179e-001	-1.791506e+000	-1.791506e+000	
5.550000e-001	-2.412063e-001	-2.132510e+000	-2.132510e+000	-7.104111e+001	2.775993e+000	2.775993e+000	-8.568095e+001	-3.938770e+001	-2.193877e+002	-1.771037e-001	-1.742624e+000	-1.742624e+000	
5.560000e-001	-2.461523e-001	-2.186799e+000	-2.186799e+000	-6.754320e+001	1.632966e+001	1.632966e+001	-7.084892e+001	-7.625412e+001	-2.562541e+002	-1.760721e-001	-1.845754e+000	-1.845754e+000	
5.570000e-001	-2.340097e-001	-2.127229e+000	-2.127229e+000	-5.868416e+001	-8.780603e+001	-8.780603e+001	-6.100538e+001	-7.431197e+001	-2.543120e+002	-1.706330e-001	-1.877707e+000	-1.877707e+000	
5.580000e-001	-2.316794e-001	-2.130536e+000	-2.130536e+000	-7.226684e+001	2.565993e+001	2.565993e+001	-6.545342e+001	-6.684065e+001	-2.468407e+002	-1.741477e-001	-1.853950e+000	-1.853950e+000	
5.590000e-001	-2.355420e-001	-2.127063e+000	-2.127063e+000	-8.259068e+001	-5.114409e+001	-5.114409e+001	-6.828946e+001	1.531714e+001	-1.646829e+002	-1.716288e-001	-1.914132e+000	-1.914132e+000	
5.600000e-001	-2.433028e-001	-2.175737e+000	-2.175737e+000	-6.865541e+001	8.495185e+001	8.495185e+001	-6.872722e+001	7.062958e+001	-1.093704e+002	-1.725613e-001	-1.849557e+000	-1.849557e+000	
5.610000e-001	-2.455033e-001	-2.174671e+000	-2.174671e+000	-6.182970e+001	8.078632e+001	8.078632e+001	-6.900582e+001	8.003733e+000	-1.719963e+002	-1.829515e-001	-1.778889e+000	-1.778889e+000	
5.620000e-001	-2.372999e-001	-2.198115e+000	-2.198115e+000	-6.225391e+001	7.586986e+001	7.586986e+001	-6.427175e+001	5.599008e+001	-1.240099e+002	-1.719684e-001	-1.859680e+000	-1.859680e+000	
5.630000e-001	-2.354730e-001	-2.209935e+000	-2.209935e+000	-6.801734e+001	1.142841e+001	1.142841e+001	-5.886993e+001	8.395151e+001	-9.604849e+001	-1.779000e-001	-1.844603e+000	-1.844603e+000	
5.640000e-001	-2.408237e-001	-2.172089e+000	-2.172089e+000	-6.370888e+001	5.172142e+000	5.172142e+000	-7.505385e+001	7.926555e+000	-1.720734e+002	-1.735467e-001	-1.856447e+000	-1.856447e+000	
5.650000e-001	-2.357464e-001	-2.126878e+000	-2.126878e+000	-6.152000e+001	5.773184e+001	5.773184e+001	-6.105908e+001	4.709417e+001	-1.329058e+002	-1.747453e-001	-1.823911e+000	-1.823911e+000	
5.660000e-001	-2.356723e-001	-2.149560e+000	-2.149560e+000	-6.210232e+001	4.713729e+001	4.713729e+001	-7.519524e+001	-8.473254e+001	-2.647325e+002	-1.859376e-001	-1.784407e+000	-1.784407e+000	
5.670000e-001	-2.391649e-001	-2.145842e+000	-2.145842e+000	-6.577832e+001	-4.538983e+001	-4.538983e+001	-6.191719e+001	6.454223e+001	-2.954578e+002	-1.713877e-001	-1.840284e+000	-1.840284e+000	
5.680000e-001	-2.358207e-001	-2.138974e+000	-2.138974e+000	-7.013360e+001	8.230133e+001	8.230133e+001	-6.140026e+001	5.379926e+001	-3.062007e+002	-1.865968e-001	-1.866909e+000	-1.866909e+000	
5.690000e-001	-2.326369e-001	-2.150317e+000	-2.150317e+000	-6.052771e+001	1.484718e+001	1.484718e+001	-7.348237e+001	6.115906e+000	-3.538841e+002	-1.813031e-001	-1.787885e+000	-1.787885e+000	
5.700000e-001	-2.473652e-001	-2.123677e+000	-2.123677e+000	-6.110714e+001	3.251285e+001	3.251285e+001	-5.833152e+001	8.221106e+001	-2.777889e+002	-1.700038e-001	-1.834690e+000	-1.834690e+000	
5.710000e-001	-2.466566e-001	-2.186593e+000	-2.186593e+000	-6.388737e+001	6.352309e+001	6.352309e+001	-7.519081e+001	7.780862e+001	-2.821914e+002	-1.807745e-001	-1.852165e+000	-1.852165e+000	
5.720000e-001	-2.453049e-001	-2.142045e+000	-2.142045e+000	-5.757962e+001	-8.841680e+001	9.158320e+001	-6.361578e+001	4.069536e+001	-3.193046e+002	-1.792654e-001	-1.819048e+000	-1.819048e+000	
5.730000e-001	-2.357197e-001	-2.154875e+000	-2.154875e+000	-6.180695e+001	8.889926e+001	8.889926e+001	-6.462984e+001	3.836427e+001	-3.216357e+002	-1.848671e-001	-1.858711e+000	-1.858711e+000	
5.740000e-001	-2.456267e-001	-2.045236e+000	-2.045236e+000	-6.194388e+001	-6.728231e+001	1.127177e+002	-6.334746e+001	7.492792e+001	-2.850721e+002	-1.686738e-001	-1.738423e+000	-1.738423e+000	
5.750000e-001	-2.370814e-001	-2.192384e+000	-2.192384e+000	-6.388552e+001	7.011699e+001	2.501170e+002	-6.387542e+001	-8.708538e+001	-2.670854e+002	-1.798853e-001	-1.887259e+000	-1.887259e+000	
5.760000e-001	-2.383944e-001	-2.112679e+000	-2.112679e+000	-6.278465e+001	3.328687e+000	1.833287e+002	-5.988274e+001	-6.403945e+001	-2.440395e+002	-1.793972e-001	-1.865326e+000	-1.865326e+000	
5.770000e-001	-2.353458e-001	-2.201075e+000	-2.201075e+000	-6.710614e+001	-8.530460e+001	9.469540e+001	-7.908346e+001	6.490242e+001	-1.150976e+002	-1.739031e-001	-1.847795e+000	-1.847795e+000	
5.780000e-001	-2.495348e-001	-2.202034e+000	-2.202034e+000	-6.210333e+001	-7.487101e+001	1.051290e+002	-6.408360e+001	-8.280378e+001	-8.280378e+001	-1.680998e-001	-1.856851e+000	-1.856851e+000	
5.790000e-001	-2.337280e-001	-2.299228e+000	-2.299228e+000	-6.664740e+001	-2.292754e+001	1.570725e+002	-6.108839e+001	4.008140e+001	4.008140e+001	-1.717829e-001	-1.795260e+000	-1.795260e+000	
5.800000e-001	-2.478893e-001	-2.172131e+000	-2.172131e+000	-6.147840e+001	8.147554e+001	2.614755e+002	-6.688868e+001	-7.214690e+001	-7.214690e+001	-1.717195e-001	-1.860117e+000	-1.860117e+000	
5.810000e-001	-2.249940e-001	-2.117141e+000	-2.117141e+000	-6.468510e+001	7.976402e+001	2.597640e+002	-6.048695e+001	5.749726e+001	5.749726e+001	-1.765852e-001	-1.865718e+000	-1.865718e+000	
5.820000e-001	-2.422403e-001	-2.209895e+000	-2.209895e+000	-6.102968e+001	3.792432e+001	2.179243e+002	-6.242269e+001	-6.818302e+001	-6.818302e+001	-1.699018e-001	-1.814585e+000	-1.814585e+000	
5.830000e-001	-2.524673e-001	-2.196984e+000	-2.196984e+000	-6.806379e+001	-1.960598e+001	1.603940e+002	-6.568567e+001	5.338023e+001	5.338023e+001	-1.788564e-001	-1.815913e+000	-1.815913e+000	
5.840000e-001	-2.382617e-001	-2.201372e+000	-2.201372e+000	-6.341772e+001	3.032147e+001	2.103215e+002	-7.119177e+001	-6.754543e+001	-6.754543e+001	-1.748892e-001	-1.890321e+000	-1.890321e+000	
5.850000e-001	-2.368078e-001	-2.228385e+000	-2.228385e+000	-7.306107e+001	4.465238e+001	2.246524e+002	-6.970240e+001	-5.780367e+001	-5.780367e+001	-1.757050e-001	-1.842673e+000	-1.842673e+000	
5.860000e-001	-2.292069e-001	-2.221997e+000	-2.221997e+000	-6.366892e+001	-1.211218e+001	1.678878e+002	-6.372392e+001	7.196314e+001	7.196314e+001	-1.719160e-001	-1.875733e+000	-1.875733e+000	
5.870000e-001	-2.343736e-001	-2.179910e+000	-2.179910e+000	-6.077151e+001	-7.539172e+001	1.046083e+002	-6.236070e+001	-4.162198e+001	-4.162198e+001	-1.739717e-001	-1.831980e+000	-1.831980e+000	
5.880000e-001	-2.369465e-001	-2.195075e+000	-2.195075e+000	-7.181289e+001	3.153374e+001	2.115337e+002	-6.060564e+001	5.267546e+001	5.267546e+001	-1.707924e-001	-1.806774e+000	-1.806774e+000	
5.890000e-001	-2.442649e-001	-2.175593e+000	-2.175593e+000	-6.554702e+001	3.110712e+001	2.111071e+002	-6.331908e+001	4.359382e+001	4.359382e+001	-1.851928e-001	-1.896989e+000	-1.896989e+000	
5.900000e-001	-2.415866e-001	-2.314069e+000	-2.314069e+000	-6.906828e+001	2.241217e+001	2.024122e+002	-6.090020e+001	-4.596652e+001	-4.596652e+001	-1.767803e-001	-1.829148e+000	-1.829148e+000	
5.910000e-001	-2.363538e-001	-2.170107e+000	-2.170107e+000	-6.457551e+001	-6.610999e+001	1.138900e+002	-6.212628e+001	-3.897863e+001	-3.897863e+001	-1.798135e-001	-1.865513e+000	-1.865513e+000	
5.920000e-001	-2.288359e-001	-2.158075e+000	-2.158075e+000	-6.878524e+001	-2.718329e+001	1.528167e+002	-5.855172e+001	-7.420005e+001	-7.420005e+001	-1.787602e-001	-1.846339e+000	-1.846339e+000	
5.930000e-001	-2.456010e-001	-2.249630e+000	-2.249630e+000	-6.524505e+001	-3.484459e+001	1.451554e+002	-6.425856e+001	2.295211e+001	2.295211e+001	-1.686937e-001	-1.801702e+000	-1.801702e+000	
5.940000e-001	-2.402713e-001	-2.251774e+000	-2.251774e+000	-6.630167e+001	-8.328194e+001	9.671806e+001	-7.385324e+001	4.801768e+001	4.801768e+001	-1.794854e-001	-1.929163e+000	-1.929163e+000	
5.950000e-001	-2.530358e-001	-2.207627e+000	-2.207627e+000	-6.459985e+001	-4.157131e+001	1.384287e+002	-6.388457e+001	-3.872510e+001	-3.872510e+001	-1.766757e-001	-1.806185e+000	-1.806185e+000	
5.960000e-001	-2.433361e-001	-2.212938e+000	-2.212938e+000	-5.859533e+001	8.423984e+001	2.642398e+002	-5.949344e+001	7.329214e+001	7.329214e+001	-1.765154e-001	-1.858644e+000	-1.858644e+000	
5.970000e-001	-2.220859e-001	-2.253027e+000	-2.253027e+000	-5.943836e+001	6.007967e+001	2.400797e+002	-6.922659e+001	-8.535062e+001	9.464938e+001	-1.757111e-001	-1.900025e+000	-1.900025e+000	
5.980000e-001	-2.270557e-001	-2.227348e+000	-2.227348e+000	-5.868849e+001	4.866390e+001	2.286639e+002	-5.779188e+001	5.645559e+001	5.645559e+001	-1.776025e-001	-1.871651e+000	-1.871651e+000	
5.990000e-001	-2.414367e-001	-2.251532e+000	-2.251532e+000	-6.705558e+001	6.039203e+001	2.403920e+002	-6.079590e+001	-3.549772e+001	-3.549772e+001	-1.684368e-001	-1.897249e+000	-1.897249e+000	
6.000000e-001	-2.307193e-001	-2.213940e+000	-2.213940e+000	-6.730836e+001	-4.419059e+001	1.358094e+002	-6.701748e+001	-8.689158e+001	-8.689158e+001	-1.770215e-001	-1.888768e+000	-1.888768e+000	
6.010000e-001	-2.295690e-001	-2.331044e+000	-2.331044e+000	-6.441256e+001	7.480393e+001	2.548039e+002	-6.465930e+001	7.237953e+001	-1.076205e+002	-1.745453e-001	-1.939318e+000	-1.939318e+000	
6.020000e-001	-2.389739e-001	-2.274514e+000	-2.274514e+000	-6.232342e+001	2.126514e+001	2.012651e+002	-5.983365e+001	3.654155e+001	-1.434584e+002	-1.793182e-001	-1.903956e+000	-1.903956e+000	
