Frequency 	 |S21| 	 Phase(S21) 	 ExtPhase(S21) 	 CorPhase(S21)	 ExtCorPhase(S21)	 |S12| 	 Phase(S12)	 ExtPhase(S12) 	 CorPhase(S12)	 ExtCorPhase(S12)
GHz 	 dB 	 deg 	 deg 	 deg	 deg	 dB 	 deg 	 deg 	 deg	 deg
5.00000000e-001	-5.76458573e+001	4.36564906e+001	4.36564906e+001	2.60516251e+001	2.60516251e+001	-6.23463698e+001	-7.69261201e+001	-7.69261201e+001	3.26147315e+000	3.26147315e+000
5.01000000e-001	-5.66577762e+001	-8.12051403e+001	-8.12051403e+001	-1.62765195e+001	-1.62765195e+001	-6.83876551e+001	-3.06989201e+001	-3.06989201e+001	-1.07433452e+001	-1.07433452e+001
5.02000000e-001	-5.99821569e+001	1.22816801e+001	1.22816801e+001	2.63529395e+001	2.63529395e+001	-5.87436807e+001	-1.82059165e+001	-1.82059165e+001	-3.26522467e+001	-3.26522467e+001
5.03000000e-001	-6.72898385e+001	-8.08793438e+001	-8.08793438e+001	1.43232355e+000	1.43232355e+000	-5.65884901e+001	8.06446753e+001	8.06446753e+001	1.61275332e+000	1.61275332e+000
5.04000000e-001	-5.64960284e+001	3.49187175e+001	3.49187175e+001	-4.66463204e+001	-4.66463204e+001	-6.09205942e+001	7.19956680e+001	7.19956680e+001	-5.42811750e+000	-5.42811750e+000
5.05000000e-001	-7.12801046e+001	-4.92594860e+001	-4.92594860e+001	-5.03713143e+000	-5.03713143e+000	-5.60240297e+001	6.49881390e+001	6.49881390e+001	2.84049273e+001	2.84049273e+001
5.06000000e-001	-6.57404728e+001	-1.49887412e+001	-1.49887412e+001	1.41631575e+001	1.41631575e+001	-6.72290447e+001	8.00785819e+001	8.00785819e+001	3.57506771e+000	3.57506771e+000
5.07000000e-001	-5.83012924e+001	-2.23179219e+001	-2.23179219e+001	3.07191419e+001	3.07191419e+001	-5.95755390e+001	7.94191410e+001	7.94191410e+001	-8.77804145e+000	-8.77804145e+000
5.08000000e-001	-5.89667236e+001	7.70592436e+001	7.70592436e+001	-1.79870460e+000	-1.79870460e+000	-5.60858583e+001	4.37194943e+001	4.37194943e+001	3.50896189e+001	3.50896189e+001
5.09000000e-001	-5.74580801e+001	-2.07117575e+001	-2.07117575e+001	-3.22212856e+001	-3.22212856e+001	-5.21429782e+001	7.12178128e+001	7.12178128e+001	5.16763071e+001	5.16763071e+001
5.10000000e-001	-5.99666031e+001	2.99465268e+001	2.99465268e+001	2.14150530e+001	2.14150530e+001	-5.53423875e+001	-8.04620502e+001	9.95379498e+001	-2.43752322e+001	-2.43752322e+001
5.11000000e-001	-6.20438449e+001	4.63074839e+001	4.63074839e+001	1.10815453e+001	1.10815453e+001	-5.98462615e+001	5.52686008e+001	5.52686008e+001	1.81336348e+001	1.81336348e+001
5.12000000e-001	-6.64796771e+001	-4.11795635e+000	-4.11795635e+000	1.63332144e+001	1.63332144e+001	-6.36054352e+001	8.31189742e+001	8.31189742e+001	1.04074101e+000	1.04074101e+000
5.13000000e-001	-6.27776802e+001	-5.01109740e+001	-5.01109740e+001	1.54265579e+001	1.54265579e+001	-6.28487962e+001	-1.43054623e+001	-1.43054623e+001	2.26881551e+001	2.26881551e+001
5.14000000e-001	-5.82073904e+001	3.64675863e+001	3.64675863e+001	-2.51399755e+001	-2.51399755e+001	-7.29615512e+001	-7.21387054e+001	-7.21387054e+001	2.75769395e+000	2.75769395e+000
5.15000000e-001	-5.67972675e+001	-2.79204629e+001	-2.79204629e+001	-2.84083041e+001	-2.84083041e+001	-5.64240916e+001	6.08432749e+001	-1.19156725e+002	9.29625790e+000	9.29625790e+000
5.16000000e-001	-5.78625515e+001	-7.87861522e+001	-7.87861522e+001	1.14945057e+001	1.14945057e+001	-5.59255512e+001	5.11147549e+001	-1.28885245e+002	1.70517262e+001	1.70517262e+001
5.17000000e-001	-5.96799509e+001	4.89001048e+001	4.89001048e+001	-1.80498367e+001	-1.80498367e+001	-5.69289761e+001	-1.89011623e+001	-1.98901162e+002	4.87661539e+001	4.87661539e+001
5.18000000e-001	-6.23813912e+001	-4.99204696e+001	-4.99204696e+001	-1.75169837e+001	-1.75169837e+001	-6.41975083e+001	7.57908909e+001	-1.04209109e+002	2.38903881e+000	2.38903881e+000
5.19000000e-001	-5.78415656e+001	2.59015084e+001	2.59015084e+001	2.25039231e+001	2.25039231e+001	-7.01497844e+001	-3.65604724e+001	-2.16560472e+002	5.82050208e+000	5.82050208e+000
5.20000000e-001	-6.49467867e+001	-9.04990831e+000	-9.04990831e+000	-1.08283614e+001	-1.08283614e+001	-6.26144090e+001	4.71621532e-001	-1.79528378e+002	2.26007295e+001	2.26007295e+001
5.21000000e-001	-5.53245637e+001	5.48496757e+001	5.48496757e+001	-1.55880175e+001	-1.55880175e+001	-5.96700003e+001	-8.47010706e+001	-2.64701071e+002	4.81977448e+000	4.81977448e+000
5.22000000e-001	-5.22090918e+001	5.08062201e+001	5.08062201e+001	-5.28793201e+001	-5.28793201e+001	-6.08814228e+001	4.78644172e+000	-1.75213558e+002	-2.72950820e+001	-2.72950820e+001
5.23000000e-001	-5.26942072e+001	7.72612869e+001	7.72612869e+001	-9.62434444e+000	-9.62434444e+000	-5.73403442e+001	5.47440913e+001	-1.25255909e+002	-2.14446085e+001	-2.14446085e+001
5.24000000e-001	-7.84818372e+001	1.24934745e+001	1.24934745e+001	-2.42837405e+000	-2.42837405e+000	-5.41719593e+001	-4.80876230e+001	-2.28087623e+002	4.97767160e+001	4.97767160e+001
5.25000000e-001	-5.47559633e+001	7.87046553e+001	7.87046553e+001	-1.05577493e+001	-1.05577493e+001	-6.37042199e+001	2.78084727e+001	-1.52191527e+002	-1.67876064e+001	-1.67876064e+001
5.26000000e-001	-5.79652420e+001	7.15657995e+000	7.15657995e+000	3.05678603e+001	3.05678603e+001	-6.11155059e+001	-5.83516284e+001	-2.38351628e+002	-1.86345652e+001	-1.86345652e+001
5.27000000e-001	-6.07134536e+001	6.91358962e-001	6.91358962e-001	-2.19372954e+001	-2.19372954e+001	-6.42947492e+001	8.44815057e+001	-2.75518494e+002	1.69513009e+000	1.69513009e+000
5.28000000e-001	-5.88344299e+001	-3.84365428e+001	-3.84365428e+001	-2.70374798e+001	-2.70374798e+001	-5.58169010e+001	6.35379391e+001	-2.96462061e+002	-1.30683052e+001	-1.30683052e+001
5.29000000e-001	-5.73153389e+001	1.23152889e+001	1.23152889e+001	3.69395006e+001	3.69395006e+001	-5.79621846e+001	5.27672078e+001	-3.07232792e+002	1.80914774e+001	1.80914774e+001
5.30000000e-001	-6.85795309e+001	-3.42442103e+001	-3.42442103e+001	9.36524495e+000	9.36524495e+000	-6.51418147e+001	-1.01764309e+001	-3.70176431e+002	1.76345591e+001	1.76345591e+001
5.31000000e-001	-7.24059712e+001	-6.97565192e+001	-6.97565192e+001	-2.39884751e+000	-2.39884751e+000	-8.16917873e+001	-4.33623486e+001	-4.03362349e+002	1.66188467e+000	1.66188467e+000
5.32000000e-001	-6.40513053e+001	2.99189725e+001	2.99189725e+001	-1.35291271e+001	-1.35291271e+001	-5.91239730e+001	-3.72668884e+001	-3.97266888e+002	-3.03851461e+001	-3.03851461e+001
5.33000000e-001	-5.43500933e+001	-3.63111253e+001	-3.63111253e+001	4.47282935e+001	4.47282935e+001	-5.98627997e+001	-6.82176202e+001	-4.28217620e+002	1.46088462e+001	1.46088462e+001
5.34000000e-001	-5.59133428e+001	6.52081518e+001	6.52081518e+001	-4.24200978e+001	-4.24200978e+001	-6.42570275e+001	7.24804627e+001	-4.67519537e+002	-5.87603885e+000	-5.87603885e+000
5.35000000e-001	-6.90103985e+001	7.11006372e+001	7.11006372e+001	1.30409226e+000	1.30409226e+000	-7.07136145e+001	-7.09980614e+001	-4.30998061e+002	-5.11055756e+000	-5.11055756e+000
5.36000000e-001	-6.38214514e+001	8.99260080e+001	8.99260080e+001	6.17851039e-001	6.17851039e-001	-6.16756910e+001	-5.12452420e+001	-4.11245242e+002	-1.50546105e+001	-1.50546105e+001
5.37000000e-001	-6.16424070e+001	1.34282520e+001	1.34282520e+001	1.76794448e+001	1.76794448e+001	-7.53982563e+001	4.08448787e+001	-3.19155121e+002	2.65729740e+000	2.65729740e+000
5.38000000e-001	-5.71113514e+001	3.65813063e+001	3.65813063e+001	-2.75842650e+001	-2.75842650e+001	-5.64325790e+001	5.64408259e+001	-3.03559174e+002	-1.58642957e+001	-1.58642957e+001
5.39000000e-001	-5.92996414e+001	6.45783198e+000	6.45783198e+000	-2.75842954e+001	-2.75842954e+001	-6.56286499e+001	8.91962806e+001	-2.70803719e+002	-2.79329818e+000	-2.79329818e+000
5.40000000e-001	-6.11305453e+001	7.45157334e+001	7.45157334e+001	-1.78366042e+000	-1.78366042e+000	-7.12183148e+001	-6.92235268e+001	-2.49223527e+002	-5.96304030e+000	-5.96304030e+000
5.41000000e-001	-5.51519035e+001	-3.94608136e+001	-3.94608136e+001	3.63172334e+001	3.63172334e+001	-6.33852429e+001	6.34886216e+001	-2.96511378e+002	4.43847233e+000	4.43847233e+000
5.42000000e-001	-5.79326259e+001	8.67824326e+001	8.67824326e+001	-8.60193306e+000	-8.60193306e+000	-5.96474190e+001	-2.52331136e+001	-3.85233114e+002	-2.06976786e+001	-2.06976786e+001
5.43000000e-001	-7.05576155e+001	-6.88915554e+001	1.11108445e+002	-2.22830761e+000	-2.22830761e+000	-6.15406685e+001	-6.88604540e+001	-4.28860454e+002	7.66280261e+000	7.66280261e+000
5.44000000e-001	-5.92790546e+001	5.34297883e+001	2.33429788e+002	-1.46636419e+001	-1.46636419e+001	-6.49840602e+001	6.59434819e+001	-4.74056518e+002	-5.36741211e+000	-5.36741211e+000
5.45000000e-001	-6.23616896e+001	8.28134345e+001	2.62813435e+002	5.03935186e+000	5.03935186e+000	-5.69042942e+001	-3.37856360e+001	-5.73785636e+002	3.97036555e+001	3.97036555e+001
5.46000000e-001	-6.19120898e+001	1.71743823e+001	1.97174382e+002	1.66571834e+001	1.66571834e+001	-5.72700844e+001	7.96059587e+000	-5.32039404e+002	2.98340016e+001	2.98340016e+001
5.47000000e-001	-6.39422938e+001	-4.26879292e+001	1.37312071e+002	-1.43459486e+001	-1.43459486e+001	-6.63080405e+001	3.66129687e+001	-5.03387031e+002	-1.09277819e+001	-1.09277819e+001
5.48000000e-001	-5.93963119e+001	-1.64193172e+001	1.63580683e+002	-2.09523534e+001	-2.09523534e+001	-8.49117270e+001	1.46408667e+001	-5.25359133e+002	-1.14657262e+000	-1.14657262e+000
5.49000000e-001	-5.71061544e+001	-6.39585807e+001	1.16041419e+002	1.70456646e+001	1.70456646e+001	-6.09595815e+001	3.05327888e+000	-5.36946721e+002	-2.25865011e+001	-2.25865011e+001
5.50000000e-001	-5.66814899e+001	2.44813672e+001	2.04481367e+002	3.24617886e+001	3.24617886e+001	-6.47370580e+001	7.89340183e+001	-4.61065982e+002	4.40882684e+000	4.40882684e+000
5.51000000e-001	-6.22754918e+001	6.87968098e+001	2.48796810e+002	-2.89731080e+000	-2.89731080e+000	-6.23842361e+001	7.10760341e+001	-4.68923966e+002	-3.94635317e+000	-3.94635317e+000
5.52000000e-001	-6.56042760e+001	8.60366681e+001	2.66036668e+002	2.20505276e+000	2.20505276e+000	-6.66099778e+001	3.12498702e+001	-5.08750130e+002	6.18620495e+000	6.18620495e+000
5.53000000e-001	-5.48983183e+001	6.56968498e+001	2.45696850e+002	-4.03212170e+000	-4.03212170e+000	-5.97488621e+001	-8.10008057e+001	-6.21000806e+002	-1.04115173e+000	-1.04115173e+000
5.54000000e-001	-6.80253359e+001	-6.39375549e+001	1.16062445e+002	-6.73760230e+000	-6.73760230e+000	-6.32170296e+001	2.17623734e+000	-5.37823763e+002	2.17776517e+001	2.17776517e+001
5.55000000e-001	-6.23380900e+001	-6.11202110e+001	1.18879789e+002	-1.82533708e+001	-1.82533708e+001	-5.88907215e+001	-1.94053291e+001	-5.59405329e+002	-3.05683831e+001	-3.05683831e+001
5.56000000e-001	-7.05076325e+001	-6.11087076e+001	1.18891292e+002	6.10400398e+000	6.10400398e+000	-6.53809297e+001	6.36701969e+001	-4.76329803e+002	-4.36755357e+000	-4.36755357e+000
5.57000000e-001	-5.72067404e+001	-4.29974086e+001	1.37002591e+002	2.65985764e+001	2.65985764e+001	-5.60709339e+001	-6.52033105e+001	-6.05203310e+002	1.55637854e+001	1.55637854e+001
5.58000000e-001	-6.21568196e+001	3.72951559e+001	2.17295156e+002	1.60919408e+001	1.60919408e+001	-5.52373897e+001	2.11752432e+001	-5.18824757e+002	-2.88647859e+001	-2.88647859e+001
5.59000000e-001	-7.52602125e+001	6.92368577e+001	2.49236858e+002	8.77328395e-001	8.77328395e-001	-5.72628472e+001	-8.20189129e+001	-6.22018913e+002	9.94272689e+000	9.94272689e+000
5.60000000e-001	-5.71181966e+001	4.03497974e+001	2.20349797e+002	-2.86437012e+001	-2.86437012e+001	-5.72305658e+001	-8.89551696e+001	-6.28955170e+002	-1.52417530e+001	-1.52417530e+001
5.61000000e-001	-6.35537046e+001	-7.95847744e+001	1.00415226e+002	-7.30025643e+000	-7.30025643e+000	-6.45218303e+001	-6.55797629e+001	-6.05579763e+002	-6.08028258e+000	-6.08028258e+000
5.62000000e-001	-7.30407291e+001	-8.42196140e+001	9.57803860e+001	3.97157336e-001	3.97157336e-001	-6.02592698e+001	6.70522324e+001	-6.52947768e+002	3.47820742e+000	3.47820742e+000
5.63000000e-001	-6.77784116e+001	-1.34510500e+001	1.66548950e+002	-1.56271692e+001	-1.56271692e+001	-5.71568890e+001	7.09964090e+001	-6.49003591e+002	-1.06007576e+001	-1.06007576e+001
5.64000000e-001	-5.78917767e+001	2.01450592e+001	2.00145059e+002	-2.71194761e+001	-2.71194761e+001	-6.40362160e+001	8.19591882e+001	-6.38040812e+002	1.35896428e+000	1.35896428e+000
5.65000000e-001	-5.77514287e+001	8.29344281e+001	2.62934428e+002	8.96738052e-001	8.96738052e-001	-5.64784525e+001	-2.49482108e+001	-7.44948211e+002	4.39441044e+001	4.39441044e+001
5.66000000e-001	-5.79446240e+001	-4.48314875e+000	1.75516851e+002	-4.46888224e+001	-4.46888224e+001	-5.56994562e+001	-2.90656126e+000	-7.22906561e+002	3.55906885e+001	3.55906885e+001
5.67000000e-001	-5.83401488e+001	-8.73002049e+001	9.26997951e+001	8.59116014e+000	8.59116014e+000	-6.33493862e+001	-3.96773689e+001	-7.59677369e+002	-1.32494008e+001	-1.32494008e+001
5.68000000e-001	-6.85877105e+001	-3.58777891e+001	1.44122211e+002	-5.81054131e+000	-5.81054131e+000	-5.90073439e+001	3.69755464e+000	-7.16302445e+002	-3.34114878e+001	-3.34114878e+001
5.69000000e-001	-5.85350273e+001	6.16479429e+001	2.41647943e+002	4.32864021e+000	4.32864021e+000	-5.24921345e+001	-1.61378004e+001	-7.36137800e+002	-5.37006219e+001	-5.37006219e+001
5.70000000e-001	-5.60901492e+001	-1.66633923e+001	1.63336608e+002	4.08626221e+001	4.08626221e+001	-5.23342259e+001	2.97075013e+001	-6.90292499e+002	-3.85382255e+001	-3.85382255e+001
5.71000000e-001	-8.15243109e+001	-4.72664507e+001	1.32733549e+002	2.20271229e+000	2.20271229e+000	-5.45861462e+001	2.51368348e+001	-6.94863165e+002	2.81539095e+001	2.81539095e+001
5.72000000e-001	-6.26012130e+001	-8.58729405e+001	9.41270595e+001	8.49144393e+000	8.49144393e+000	-6.15034060e+001	-7.88004532e+001	-7.98800453e+002	7.50410334e+000	7.50410334e+000
5.73000000e-001	-6.55230442e+001	-8.21279877e+001	9.78720123e+001	-2.62002465e+000	-2.62002465e+000	-7.88850681e+001	7.20845472e+001	-8.27915453e+002	5.89158892e-001	5.89158892e-001
5.74000000e-001	-6.48796607e+001	-1.56997042e+001	1.64300296e+002	1.90590872e+001	1.90590872e+001	-5.62922730e+001	6.48528946e+001	-8.35147105e+002	-4.11518267e+000	-4.11518267e+000
5.75000000e-001	-5.94667429e+001	7.64146775e+001	2.56414678e+002	8.08693551e+000	8.08693551e+000	-6.83460675e+001	-2.65276700e+001	-9.26527670e+002	9.62137631e+000	9.62137631e+000
5.76000000e-001	-6.15001680e+001	7.76201178e+000	1.87762012e+002	2.21014459e+001	2.21014459e+001	-6.88605026e+001	-7.41698071e+001	-9.74169807e+002	2.58822959e+000	2.58822959e+000
5.77000000e-001	-6.16581633e+001	-8.05601330e+001	9.94398670e+001	4.08418428e+000	4.08418428e+000	-6.58017280e+001	-3.77982560e+001	-9.37798256e+002	-7.62696293e+000	-7.62696293e+000
5.78000000e-001	-6.01805607e+001	-4.78473245e+001	1.32152675e+002	-1.87490508e+001	-1.87490508e+001	-6.14518959e+001	-1.20408296e+001	-9.12040830e+002	-1.89050602e+001	-1.89050602e+001
5.79000000e-001	-6.04643193e+001	-7.57354254e+001	1.04264575e+002	6.83345307e+000	6.83345307e+000	-6.35500243e+001	1.51792690e+001	-8.84820731e+002	-1.63364999e+001	-1.63364999e+001
5.80000000e-001	-6.01251470e+001	-6.22334657e+001	1.17766534e+002	-8.92883785e+000	-8.92883785e+000	-6.13342564e+001	-1.15454040e+001	-9.11545404e+002	-1.74386741e+001	-1.74386741e+001
5.81000000e-001	-6.91144277e+001	4.06398660e+000	1.84063987e+002	7.89430965e+000	7.89430965e+000	-6.32820563e+001	2.45119954e+001	-8.75488005e+002	1.68885876e+001	1.68885876e+001
5.82000000e-001	-6.98169565e+001	6.96984102e+001	2.49698410e+002	-6.59852565e-001	-6.59852565e-001	-6.47117053e+001	-6.74021270e+001	-9.67402127e+002	1.41105424e+001	1.41105424e+001
5.83000000e-001	-6.87617268e+001	-8.60494231e+001	2.73950577e+002	8.31745050e-001	8.31745050e-001	-6.69998684e+001	-3.65157819e+001	-9.36515782e+002	1.19174249e+001	1.19174249e+001
5.84000000e-001	-6.77207210e+001	3.30134112e+001	3.93013411e+002	-5.83223918e+000	-5.83223918e+000	-5.60973490e+001	-2.31145659e+001	-9.23114566e+002	-2.50089599e+001	-2.50089599e+001
5.85000000e-001	-6.37124138e+001	-1.80799474e+001	3.41920053e+002	-1.42186952e+001	-1.42186952e+001	-5.65520522e+001	-1.90368892e+001	-9.19036889e+002	-3.39772459e+001	-3.39772459e+001
5.86000000e-001	-5.95928834e+001	1.27505152e+001	3.72750515e+002	1.75178277e+001	1.75178277e+001	-5.71336261e+001	8.06363819e+001	-8.19363618e+002	-1.49137977e+000	-1.49137977e+000
5.87000000e-001	-6.65831871e+001	-3.82096350e+001	3.21790365e+002	8.32749262e+000	8.32749262e+000	-6.60577126e+001	-1.69309050e+001	-9.16930905e+002	1.06273623e+001	1.06273623e+001
5.88000000e-001	-5.68056907e+001	-7.00566981e+000	3.52994330e+002	-2.47297078e+001	-2.47297078e+001	-6.02667689e+001	8.26106882e+001	-8.17389312e+002	7.62900343e-001	7.62900343e-001
5.89000000e-001	-5.93172869e+001	2.99970094e+001	3.89997009e+002	1.42336601e+001	1.42336601e+001	-6.18808495e+001	-5.02406598e-001	-9.00502407e+002	-1.87202037e+001	-1.87202037e+001
5.90000000e-001	-5.44052175e+001	-6.00235319e+001	2.99976468e+002	-4.40808954e+001	-4.40808954e+001	-6.49078724e+001	-2.92921577e+001	-9.29292158e+002	-1.24740745e+001	-1.24740745e+001
5.91000000e-001	-6.96451337e+001	-8.02670547e+001	2.79732945e+002	-4.70017386e+000	-4.70017386e+000	-6.03798069e+001	4.10944735e+001	-8.58905526e+002	1.18373394e+001	1.18373394e+001
5.92000000e-001	-6.50068086e+001	4.97277602e+001	4.09727760e+002	8.09697616e+000	8.09697616e+000	-7.65564874e+001	5.44583668e+001	-8.45541633e+002	-1.15868546e+000	-1.15868546e+000
5.93000000e-001	-7.34115168e+001	1.25495478e+001	3.72549548e+002	4.69413696e+000	4.69413696e+000	-6.56319465e+001	-8.97972030e+001	-8.09797203e+002	-3.64169826e+000	-3.64169826e+000
5.94000000e-001	-6.35771340e+001	-8.56290890e+001	2.74370911e+002	-2.08783225e+000	-2.08783225e+000	-5.44064394e+001	-3.07230002e+000	-7.23072300e+002	-3.67893940e+001	-3.67893940e+001
5.95000000e-001	-6.72863606e+001	-7.13095340e+001	2.88690466e+002	-3.15895202e+000	-3.15895202e+000	-5.67160861e+001	8.61894319e+001	-6.33810568e+002	5.44865850e+000	5.44865850e+000
5.96000000e-001	-5.46720467e+001	8.52991153e+001	2.65299115e+002	-9.02319928e+000	-9.02319928e+000	-6.20736554e+001	-6.13390990e+001	-6.01339099e+002	9.87831782e+000	9.87831782e+000
5.97000000e-001	-5.50728059e+001	8.32602690e+001	2.63260269e+002	-2.10553593e+000	-2.10553593e+000	-6.38386457e+001	-1.53652147e+001	-5.55365215e+002	-1.62458977e+001	-1.62458977e+001
5.98000000e-001	-6.54811925e+001	1.14244376e+001	1.91424438e+002	1.43445267e+001	1.43445267e+001	-5.91086933e+001	6.91200247e+001	-4.70879975e+002	-6.85252265e+000	-6.85252265e+000
5.99000000e-001	-5.51131430e+001	2.37233585e+001	2.03723358e+002	4.62364115e+001	4.62364115e+001	-5.79745619e+001	-3.06730531e+001	-5.70673053e+002	2.85963961e+001	2.85963961e+001
6.00000000e-001	-6.12118807e+001	-3.49989426e+001	1.45001057e+002	2.44976497e+001	2.44976497e+001	-5.83483630e+001	6.23282374e+001	-4.77671763e+002	1.96206400e+001	1.96206400e+001
6.01000000e-001	-6.41657716e+001	-2.77207855e+001	1.52279215e+002	-1.56594720e+001	-1.56594720e+001	-6.20439606e+001	8.63051110e+001	-4.53694889e+002	1.41439955e+000	1.41439955e+000
6.02000000e-001	-6.53492140e+001	-1.99227468e+001	1.60077253e+002	1.27559713e+001	1.27559713e+001	-5.80170320e+001	4.85607263e+001	-4.91439274e+002	-1.39600998e+001	-1.39600998e+001
6.03000000e-001	-6.12041339e+001	-1.41193310e+001	1.65880669e+002	2.21628375e+001	2.21628375e+001	-5.43445177e+001	1.90828385e+001	-5.20917162e+002	3.94928894e+001	3.94928894e+001
6.04000000e-001	-6.40678243e+001	-6.68141822e+001	1.13185818e+002	9.19083903e+000	9.19083903e+000	-5.81898789e+001	-7.22149676e+001	-6.12214968e+002	1.37239302e+001	1.37239302e+001
6.05000000e-001	-5.63757205e+001	8.00522133e+001	8.00522133e+001	1.20908468e+000	1.20908468e+000	-6.16276824e+001	-1.13727842e+001	-5.51372784e+002	-2.77196716e+001	-2.77196716e+001
6.06000000e-001	-6.56780069e+001	7.10438986e+001	7.10438986e+001	2.56642721e+000	2.56642721e+000	-5.98601740e+001	7.75424611e+001	-4.62457539e+002	6.97913493e+000	6.97913493e+000
6.07000000e-001	-5.70619891e+001	-8.70081043e+001	9.29918957e+001	5.74533031e+000	5.74533031e+000	-5.89232195e+001	6.88851719e+001	-4.71114828e+002	8.21841846e+000	8.21841846e+000
