Frequency 	 |S21| 	 Phase(S21) 	 ExtPhase(S21) 	 CorPhase(S21)	 ExtCorPhase(S21)	 |S12| 	 Phase(S12)	 ExtPhase(S12) 	 CorPhase(S12)	 ExtCorPhase(S12)
GHz 	 dB 	 deg 	 deg 	 deg	 deg	 dB 	 deg 	 deg 	 deg	 deg
5.00000000e-001	-5.89998847e+001	-8.87371021e+001	-8.87371021e+001	-5.41818060e+000	-5.41818060e+000	-6.00737743e+001	-3.43100895e+001	-3.43100895e+001	-2.43843297e+001	-2.43843297e+001
5.01000000e-001	-6.22973118e+001	-5.06791000e+001	-5.06791000e+001	-1.50376585e+001	-1.50376585e+001	-6.85251344e+001	4.94123365e+001	4.94123365e+001	-6.81753637e+000	-6.81753637e+000
5.02000000e-001	-6.35833700e+001	-1.38715165e+001	-1.38715165e+001	1.78014442e+001	1.78014442e+001	-6.49429067e+001	-3.70885184e+001	-3.70885184e+001	-1.37474630e+001	-1.37474630e+001
5.03000000e-001	-6.78935715e+001	4.23307674e+001	4.23307674e+001	-6.66643901e+000	-6.66643901e+000	-6.25926763e+001	-4.51317238e+001	-4.51317238e+001	1.06089830e+001	1.06089830e+001
5.04000000e-001	-5.46852466e+001	3.22538799e+001	3.22538799e+001	-5.42475527e+001	-5.42475527e+001	-5.85407095e+001	8.60354074e+001	-9.39645926e+001	-1.52919068e+001	-1.52919068e+001
5.05000000e-001	-5.60718708e+001	5.06328956e+001	5.06328956e+001	3.28258025e+001	3.28258025e+001	-5.43087449e+001	8.39197579e+001	-9.60802421e+001	5.94623780e+000	5.94623780e+000
5.06000000e-001	-6.30397478e+001	2.04845261e+001	2.04845261e+001	1.93362652e+001	1.93362652e+001	-5.75418159e+001	-6.91254519e+001	-6.91254519e+001	-1.24549745e+001	-1.24549745e+001
5.07000000e-001	-5.65017413e+001	1.00636743e+000	1.00636743e+000	4.43386169e+001	4.43386169e+001	-6.16233258e+001	6.98261988e+001	-1.10173801e+002	-2.41406744e+000	-2.41406744e+000
5.08000000e-001	-5.53803836e+001	-3.20556216e+001	-3.20556216e+001	3.45809998e+001	3.45809998e+001	-5.56543333e+001	-8.77971020e+001	-8.77971020e+001	-1.82815112e+001	-1.82815112e+001
5.09000000e-001	-5.64245711e+001	6.20075085e+001	6.20075085e+001	2.56234269e+001	2.56234269e+001	-5.93039299e+001	1.45348326e+001	1.45348326e+001	2.26605602e+001	2.26605602e+001
5.10000000e-001	-5.83861895e+001	-3.43262040e+001	-3.43262040e+001	2.40175593e+001	2.40175593e+001	-5.53936674e+001	-2.84180380e+001	-2.84180380e+001	-3.97544842e+001	-3.97544842e+001
5.11000000e-001	-6.17046602e+001	4.89517499e+001	4.89517499e+001	1.05802663e+001	1.05802663e+001	-6.66852206e+001	1.76230379e+001	1.76230379e+001	-9.36449015e+000	-9.36449015e+000
5.12000000e-001	-5.77109329e+001	-1.76096789e+001	-1.76096789e+001	3.93235026e+001	3.93235026e+001	-6.29104064e+001	-3.59103698e+000	-3.59103698e+000	1.97837685e+001	1.97837685e+001
5.13000000e-001	-5.98818090e+001	8.08249337e+001	8.08249337e+001	1.88348317e+000	1.88348317e+000	-6.52546067e+001	9.47692999e+000	9.47692999e+000	-1.23951865e+001	-1.23951865e+001
5.14000000e-001	-5.66116533e+001	-3.16958574e+001	-3.16958574e+001	-4.32309728e+001	-4.32309728e+001	-5.88954259e+001	8.42372304e+001	8.42372304e+001	-8.96296422e+000	-8.96296422e+000
5.15000000e-001	-6.77570783e+001	1.29885255e+001	1.29885255e+001	-7.42462925e+000	-7.42462925e+000	-5.81742409e+001	5.57978278e+001	5.57978278e+001	9.48519752e+000	9.48519752e+000
5.16000000e-001	-6.35852590e+001	1.30307235e+001	1.30307235e+001	2.09885793e+001	2.09885793e+001	-5.51927478e+001	-7.86433819e+001	1.01356618e+002	-2.88010008e+001	-2.88010008e+001
5.17000000e-001	-5.57382439e+001	6.62097562e+001	6.62097562e+001	-1.41326625e+001	-1.41326625e+001	-5.67292742e+001	-7.30177256e+001	1.06982274e+002	2.34023347e+001	2.34023347e+001
5.18000000e-001	-6.45012921e+001	-3.34667732e+001	-3.34667732e+001	1.18480892e+001	1.18480892e+001	-5.88106850e+001	8.05439040e+001	8.05439040e+001	2.91260187e+000	2.91260187e+000
5.19000000e-001	-6.13527535e+001	-3.71794885e+001	-3.71794885e+001	1.66618943e+001	1.66618943e+001	-6.92935292e+001	5.55261567e+001	5.55261567e+001	4.33938167e+000	4.33938167e+000
5.20000000e-001	-6.35994235e+001	8.68871646e+001	8.68871646e+001	1.54516923e+000	1.54516923e+000	-6.94352412e+001	-4.25790862e+001	-4.25790862e+001	-9.99229246e+000	-9.99229246e+000
5.21000000e-001	-5.65688809e+001	5.45859272e+000	5.45859272e+000	-3.81740575e+001	-3.81740575e+001	-6.22100373e+001	-4.63379070e+001	-4.63379070e+001	-1.84586419e+001	-1.84586419e+001
5.22000000e-001	-5.44561867e+001	-8.67210522e+001	-8.67210522e+001	-1.95205227e+001	-1.95205227e+001	-6.40675353e+001	-3.79824789e+001	-3.79824789e+001	-1.80114885e+001	-1.80114885e+001
5.23000000e-001	-5.39706423e+001	6.79624755e+001	-1.12037524e+002	8.24140554e+000	8.24140554e+000	-6.03799377e+001	3.27097637e+001	3.27097637e+001	-2.38894320e+001	-2.38894320e+001
5.24000000e-001	-5.92080842e+001	4.65410947e+001	-1.33458905e+002	1.89346515e+001	1.89346515e+001	-5.19811878e+001	-2.95199050e+001	-2.95199050e+001	7.05889296e+001	7.05889296e+001
5.25000000e-001	-6.43938544e+001	3.96056006e+001	-1.40394399e+002	-1.90855923e+001	-1.90855923e+001	-7.57950721e+001	2.32650309e+001	2.32650309e+001	-4.83544998e+000	-4.83544998e+000
5.26000000e-001	-6.63496813e+001	-6.94787988e+001	-2.49478799e+002	-9.41983584e+000	-9.41983584e+000	-5.90131505e+001	7.12653270e+001	7.12653270e+001	4.84331965e+000	4.84331965e+000
5.27000000e-001	-6.68051376e+001	2.72904124e+001	-1.52709588e+002	1.10890896e+001	1.10890896e+001	-6.03940763e+001	3.41726854e+001	3.41726854e+001	3.06325509e+001	3.06325509e+001
5.28000000e-001	-5.57796280e+001	7.83970263e+001	-1.01602974e+002	-1.59084164e+000	-1.59084164e+000	-6.86086186e+001	-4.82829743e+000	-4.82829743e+000	-1.47747937e+001	-1.47747937e+001
5.29000000e-001	-5.95653852e+001	-9.48744704e+000	-1.89487447e+002	3.00672223e+001	3.00672223e+001	-6.95889816e+001	-5.30444295e+001	-5.30444295e+001	-6.05521819e+000	-6.05521819e+000
5.30000000e-001	-7.41772101e+001	-7.23356979e+001	-2.52335698e+002	2.36419425e+000	2.36419425e+000	-6.37351686e+001	3.06174723e+001	3.06174723e+001	-9.83735707e+000	-9.83735707e+000
5.31000000e-001	-5.56732664e+001	6.73275846e+001	-2.92672415e+002	8.84859666e+000	8.84859666e+000	-6.56305685e+001	-6.81364485e+001	-6.81364485e+001	-8.74616731e+000	-8.74616731e+000
5.32000000e-001	-6.43930420e+001	-1.82814190e+001	-3.78281419e+002	-1.50571743e+001	-1.50571743e+001	-6.17240764e+001	5.73084390e+001	5.73084390e+001	-1.00754598e+001	-1.00754598e+001
5.33000000e-001	-5.89562602e+001	-1.12641523e+001	-3.71264152e+002	3.97036378e+001	3.97036378e+001	-5.87112446e+001	-3.39585848e+001	-3.39585848e+001	2.90944543e+001	2.90944543e+001
5.34000000e-001	-5.49776569e+001	-8.74458043e+001	-4.47445804e+002	-2.27116279e+001	-2.27116279e+001	-5.89747974e+001	2.49793967e+001	2.49793967e+001	-2.19199906e+001	-2.19199906e+001
5.35000000e-001	-5.32908982e+001	-7.80702206e+001	-4.38070221e+002	-3.69368873e+001	-3.69368873e+001	-6.13976898e+001	3.36322211e+001	3.36322211e+001	1.67181273e+001	1.67181273e+001
5.36000000e-001	-7.32790436e+001	6.00067154e+000	-3.53999328e+002	-5.52904836e+000	-5.52904836e+000	-5.89782952e+001	7.12963483e+001	7.12963483e+001	8.26877332e+000	8.26877332e+000
5.37000000e-001	-6.60178467e+001	3.15687197e+001	-3.28431280e+002	8.10548974e+000	8.10548974e+000	-5.93656789e+001	-3.68960474e+001	-3.68960474e+001	1.75417806e+001	1.75417806e+001
5.38000000e-001	-6.08340749e+001	5.96599506e+001	-3.00340049e+002	-1.29119184e+001	-1.29119184e+001	-5.88532730e+001	4.72672808e+001	4.72672808e+001	-1.70208829e+001	-1.70208829e+001
5.39000000e-001	-6.44209553e+001	-7.07306668e+001	-2.50730667e+002	-6.03987978e+000	-6.03987978e+000	-6.54528869e+001	7.07278957e+001	7.07278957e+001	-1.92899698e+000	-1.92899698e+000
5.40000000e-001	-5.92833009e+001	4.13085345e+001	-1.38691465e+002	-1.49295091e+001	-1.49295091e+001	-5.68713600e+001	7.95824427e+001	7.95824427e+001	7.28334576e-001	7.28334576e-001
5.41000000e-001	-5.85838306e+001	-8.08993520e+001	-2.60899352e+002	9.98172994e+000	9.98172994e+000	-6.56775270e+001	-8.52427731e+001	9.47572269e+001	-5.32322331e+000	-5.32322331e+000
5.42000000e-001	-5.67413564e+001	4.17508665e+001	-1.38249134e+002	2.43126534e+001	2.43126534e+001	-5.80566502e+001	-3.02196067e+001	1.49780393e+002	-2.49473338e+001	-2.49473338e+001
5.43000000e-001	-6.14827320e+001	-9.91361247e+000	-1.89913612e+002	-1.62105114e+001	-1.62105114e+001	-7.31927831e+001	-4.05730789e+001	1.39426921e+002	-4.64041806e+000	-4.64041806e+000
5.44000000e-001	-6.24503854e+001	7.50668544e+001	-1.04933146e+002	-3.60696284e+000	-3.60696284e+000	-5.90315392e+001	-5.55494737e+001	1.24450526e+002	1.23855390e+001	1.23855390e+001
5.45000000e-001	-6.86984016e+001	-7.96318656e+001	-7.96318656e+001	-8.66372127e-001	-8.66372127e-001	-6.00099759e+001	1.65711551e+001	1.96571155e+002	2.28460813e+001	2.28460813e+001
5.46000000e-001	-7.46193024e+001	-7.97821064e+001	-7.97821064e+001	1.42677270e+000	1.42677270e+000	-5.92168891e+001	-1.78896690e+001	1.62110331e+002	2.08096121e+001	2.08096121e+001
5.47000000e-001	-6.18973457e+001	-1.40066653e+001	-1.40066653e+001	-2.10712287e+001	-2.10712287e+001	-5.84543973e+001	-8.57479615e+001	9.42520385e+001	3.03887891e+000	3.03887891e+000
5.48000000e-001	-6.07446679e+001	9.89392282e-001	9.89392282e-001	2.06740771e+001	2.06740771e+001	-6.41400764e+001	-7.98838264e+001	1.00116174e+002	-8.09842703e+000	-8.09842703e+000
5.49000000e-001	-6.52583376e+001	-2.80595820e+001	-2.80595820e+001	1.41459957e+001	1.41459957e+001	-7.67225316e+001	-8.04023790e+001	9.95976210e+001	-8.08322168e-001	-8.08322168e-001
5.50000000e-001	-5.29833814e+001	6.78192297e+000	6.78192297e+000	5.43829688e+001	5.43829688e+001	-6.37555169e+001	1.04823869e+001	1.90482387e+002	-1.50273737e+001	-1.50273737e+001
5.51000000e-001	-6.11410566e+001	-1.85142150e+001	-1.85142150e+001	2.18280407e+001	2.18280407e+001	-6.37318598e+001	6.36393528e+001	2.43639353e+002	-5.31199569e+000	-5.31199569e+000
5.52000000e-001	-6.75309768e+001	8.60618655e+001	8.60618655e+001	1.84863724e+000	1.84863724e+000	-6.77453442e+001	1.69880740e+001	1.96988074e+002	6.69457701e+000	6.69457701e+000
5.53000000e-001	-5.91545639e+001	-4.64943276e+001	1.33505672e+002	2.46044175e+001	2.46044175e+001	-5.87316847e+001	6.62207410e+001	2.46220741e+002	-1.58956982e+001	-1.58956982e+001
5.54000000e-001	-5.77361090e+001	-7.14915309e+001	1.08508469e+002	-2.67144150e+001	-2.67144150e+001	-6.68668062e+001	-7.48515775e+001	2.85148422e+002	3.80655101e+000	3.80655101e+000
5.55000000e-001	-6.63958939e+001	4.50716361e+001	2.25071636e+002	4.90831969e+000	4.90831969e+000	-6.31350775e+001	-1.82280701e+001	3.41771930e+002	-1.89667131e+001	-1.89667131e+001
5.56000000e-001	-6.64060003e+001	7.07783730e+001	2.50778373e+002	7.08568459e-001	7.08568459e-001	-5.87503367e+001	3.27887656e+001	3.92788766e+002	-1.71673386e+001	-1.71673386e+001
5.57000000e-001	-5.96171412e+001	2.11419027e+001	2.01141903e+002	2.33857210e+001	2.33857210e+001	-6.77706178e+001	-3.20305734e+001	3.27969427e+002	-1.02396892e+001	-1.02396892e+001
5.58000000e-001	-7.07591842e+001	4.51583063e+001	2.25158306e+002	4.42723238e+000	4.42723238e+000	-5.59978038e+001	-6.58320934e+001	2.94167907e+002	1.36623477e+001	1.36623477e+001
5.59000000e-001	-5.81517524e+001	-7.73270914e+001	1.02672909e+002	7.42747841e+000	7.42747841e+000	-6.35091490e+001	-1.53106693e+001	3.44689331e+002	1.89567938e+001	1.89567938e+001
5.60000000e-001	-5.75607584e+001	-8.73850618e+001	9.26149382e+001	-3.56475560e+000	-3.56475560e+000	-8.63852263e+001	-6.63858489e+001	2.93614151e+002	6.22523727e-001	6.22523727e-001
5.61000000e-001	-6.52034680e+001	5.03065446e+001	5.03065446e+001	4.50781977e+000	4.50781977e+000	-6.38122009e+001	-1.92778399e+001	3.40722160e+002	-1.41950561e+001	-1.41950561e+001
5.62000000e-001	-5.21441919e+001	-6.67527152e+001	-6.67527152e+001	-4.95379706e+001	-4.95379706e+001	-6.25319636e+001	7.42035007e+001	4.34203501e+002	-2.13111967e-001	-2.13111967e-001
5.63000000e-001	-5.72580686e+001	4.79257379e+001	4.79257379e+001	-2.43770133e+001	-2.43770133e+001	-6.93595698e+001	4.47483060e+001	4.04748306e+002	-9.56328045e+000	-9.56328045e+000
5.64000000e-001	-5.76362035e+001	-9.22847479e+000	-9.22847479e+000	-3.11636486e+001	-3.11636486e+001	-6.10397230e+001	1.24668414e-001	3.60124668e+002	-3.15704476e+001	-3.15704476e+001
5.65000000e-001	-6.87918583e+001	-4.09171571e+001	-4.09171571e+001	5.83800650e+000	5.83800650e+000	-5.33798521e+001	-7.03868106e+001	2.89613189e+002	2.26759097e+001	2.26759097e+001
5.66000000e-001	-5.57546873e+001	-5.18139018e+000	-5.18139018e+000	-5.74847764e+001	-5.74847764e+001	-5.85538892e+001	2.53031387e+001	3.85303139e+002	1.76386721e+001	1.76386721e+001
5.67000000e-001	-6.87018858e+001	-3.27371040e+001	-3.27371040e+001	-1.15126312e+001	-1.15126312e+001	-6.59827229e+001	-3.89927177e+000	3.56100728e+002	-1.01959954e+001	-1.01959954e+001
5.68000000e-001	-5.67605040e+001	-1.73890624e+001	-1.73890624e+001	-3.01504145e+001	-3.01504145e+001	-5.64508003e+001	5.44282231e+001	4.14428223e+002	-1.91467644e+001	-1.91467644e+001
5.69000000e-001	-5.96280518e+001	5.83849304e+001	5.83849304e+001	5.15883178e+000	5.15883178e+000	-6.30264393e+001	-5.12935359e+001	3.08706464e+002	-6.28579604e+000	-6.28579604e+000
5.70000000e-001	-6.75930906e+001	-5.80480501e+001	-5.80480501e+001	8.61746335e+000	8.61746335e+000	-6.66969797e+001	5.49427051e+001	4.14942705e+002	1.12190378e+001	1.12190378e+001
5.71000000e-001	-5.55482890e+001	-5.41460348e+001	-5.41460348e+001	2.81476021e+001	2.81476021e+001	-5.36292840e+001	3.82040630e+001	3.98204063e+002	2.87647630e+001	2.87647630e+001
5.72000000e-001	-5.56921313e+001	6.69632838e+001	6.69632838e+001	5.03674994e-001	5.03674994e-001	-6.84643524e+001	-4.20307456e+001	3.17969254e+002	-9.01860128e+000	-9.01860128e+000
5.73000000e-001	-6.40052011e+001	-6.08693979e+001	-6.08693979e+001	-8.61416971e+000	-8.61416971e+000	-6.20039952e+001	-4.75139314e+001	3.12486069e+002	-1.34017518e+001	-1.34017518e+001
5.74000000e-001	-6.63982589e+001	-6.86412794e+001	-6.86412794e+001	8.20938507e+000	8.20938507e+000	-5.99375583e+001	4.49883366e+001	4.04988337e+002	-9.54876127e+000	-9.54876127e+000
5.75000000e-001	-5.83943066e+001	-7.37368460e+001	-7.37368460e+001	-7.56963484e+000	-7.56963484e+000	-6.10506176e+001	-4.34926224e+001	3.16507378e+002	1.85252915e+001	1.85252915e+001
5.76000000e-001	-6.46215635e+001	-2.20560611e+000	-2.20560611e+000	1.51884940e+001	1.51884940e+001	-6.04694131e+001	2.89210457e+001	3.88921046e+002	2.06640442e+001	2.06640442e+001
5.77000000e-001	-6.27524325e+001	-1.27151159e-001	-1.27151159e-001	1.69288686e+001	1.69288686e+001	-5.50948735e+001	-4.37989045e+001	3.16201096e+002	-3.35136089e+001	-3.35136089e+001
5.78000000e-001	-6.31841965e+001	-8.13114405e+001	-8.13114405e+001	-4.85331273e+000	-4.85331273e+000	-5.37229637e+001	2.28756505e+001	3.82875650e+002	-2.77302186e+001	-2.77302186e+001
5.79000000e-001	-6.23411317e+001	1.35640764e+001	1.35640764e+001	1.98478888e+001	1.98478888e+001	-6.57380860e+001	-2.96992653e+001	3.30300735e+002	1.30810920e+001	1.30810920e+001
5.80000000e-001	-5.36262005e+001	3.34473440e+001	3.34473440e+001	-3.63629550e+001	-3.63629550e+001	-6.46316209e+001	-1.00935984e+001	3.49906402e+002	-1.17220344e+001	-1.17220344e+001
5.81000000e-001	-5.95140313e+001	7.48567064e+001	7.48567064e+001	3.59383822e+000	3.59383822e+000	-6.06024758e+001	7.64211277e+001	4.36421128e+002	1.44002954e+000	1.44002954e+000
5.82000000e-001	-6.97290295e+001	-7.32313509e+001	1.06768649e+002	-5.20492445e+000	-5.20492445e+000	-5.73041102e+001	-7.63180954e+001	4.63681905e+002	2.17223350e+001	2.17223350e+001
5.83000000e-001	-5.93196774e+001	-4.20113337e+001	1.37988666e+002	1.55334184e+001	1.55334184e+001	-6.13809939e+001	8.75041138e+001	4.47504114e+002	3.99209973e+000	3.99209973e+000
5.84000000e-001	-6.20788103e+001	-8.06284628e+001	9.93715372e+001	4.61001490e+000	4.61001490e+000	-5.57713568e+001	-7.78618887e+001	4.62138111e+002	-7.53876550e-001	-7.53876550e-001
5.85000000e-001	-7.22907578e+001	-3.15195288e+001	1.48480471e+002	-4.95497228e+000	-4.95497228e+000	-5.63494028e+001	-3.27546051e+001	5.07245395e+002	-3.52989518e+001	-3.52989518e+001
5.86000000e-001	-5.88296040e+001	1.75221668e+001	1.97522167e+002	1.88408297e+001	1.88408297e+001	-6.78103639e+001	-6.86931311e+001	4.71306869e+002	-4.75280427e+000	-4.75280427e+000
5.87000000e-001	-6.77620778e+001	6.47350115e+001	2.44735012e+002	3.03548565e+000	3.03548565e+000	-6.34444458e+001	-1.21416963e+001	5.27858304e+002	-1.37234981e+001	-1.37234981e+001
5.88000000e-001	-6.48873548e+001	-5.33541560e+001	1.26645844e+002	-6.54037243e+000	-6.54037243e+000	-5.79471834e+001	8.40693229e+001	6.24069323e+002	1.71477226e-001	1.71477226e-001
5.89000000e-001	-5.96960270e+001	1.09370853e+001	1.90937085e+002	1.76752908e+001	1.76752908e+001	-6.21756503e+001	3.99916542e+001	5.79991654e+002	1.76947091e+001	1.76947091e+001
5.90000000e-001	-5.74382854e+001	-5.26556647e+001	1.27344335e+002	-2.74893300e+001	-2.74893300e+001	-6.26786547e+001	6.58611761e+001	6.05861176e+002	8.32258752e+000	8.32258752e+000
5.91000000e-001	-5.81975641e+001	4.36309676e+001	2.23630968e+002	-1.56977623e+001	-1.56977623e+001	-6.26397533e+001	-1.61341333e+001	5.23865867e+002	1.32006731e+001	1.32006731e+001
5.92000000e-001	-6.00229277e+001	-2.02318132e+001	1.59768187e+002	-2.23717374e+001	-2.23717374e+001	-6.49257484e+001	9.60415115e+000	5.49604151e+002	1.32659152e+001	1.32659152e+001
5.93000000e-001	-6.02724696e+001	-3.77421200e+001	1.42257880e+002	-1.98399473e+001	-1.98399473e+001	-7.73593936e+001	2.40238497e+001	5.64023850e+002	2.66988529e+000	2.66988529e+000
5.94000000e-001	-5.53814068e+001	-7.72056145e+001	1.02794385e+002	-1.77476954e+001	-1.77476954e+001	-6.13426089e+001	-8.13006850e+001	4.58699315e+002	4.56747890e+000	4.56747890e+000
5.95000000e-001	-6.91597350e+001	1.40129183e+001	1.94012918e+002	-7.18176908e+000	-7.18176908e+000	-6.35986136e+001	8.34323455e+000	5.48343235e+002	-1.67110353e+001	-1.67110353e+001
5.96000000e-001	-5.97218137e+001	1.53029049e+001	1.95302905e+002	1.88518050e+001	1.88518050e+001	-5.93695167e+001	3.09256724e+001	5.70925672e+002	-1.46966213e+001	-1.46966213e+001
5.97000000e-001	-6.35790427e+001	7.32273962e+001	2.53227396e+002	2.46044211e+000	2.46044211e+000	-5.93095638e+001	-1.44041676e+001	5.25595832e+002	-2.78404950e+001	-2.78404950e+001
5.98000000e-001	-7.37486280e+001	6.34876036e+000	1.86348760e+002	-5.11267512e+000	-5.11267512e+000	-6.87327236e+001	-5.83290676e+001	4.81670932e+002	-1.12983827e+001	-1.12983827e+001
5.99000000e-001	-7.20870668e+001	-7.92103875e+001	1.00789612e+002	-3.53114141e+000	-3.53114141e+000	-5.97326851e+001	-7.79990493e+001	4.62000951e+002	1.14369362e+001	1.14369362e+001
6.00000000e-001	-6.65747867e+001	-2.30059100e+001	1.56994090e+002	1.45052615e+001	1.45052615e+001	-6.52481559e+001	4.03235008e+001	5.80323501e+002	-7.83312091e+000	-7.83312091e+000
6.01000000e-001	-6.72235748e+001	6.13114910e+001	2.41311491e+002	-6.16720347e+000	-6.16720347e+000	-6.04147209e+001	5.35005882e+001	5.93500588e+002	1.39327030e+001	1.39327030e+001
6.02000000e-001	-6.59948212e+001	5.04231018e+000	1.85042310e+002	1.22612289e+001	1.22612289e+001	-6.26607952e+001	3.07115771e+001	5.70711577e+002	-1.39563033e+001	-1.39563033e+001
6.03000000e-001	-5.74170675e+001	-4.07582064e+001	1.39241794e+002	2.65266873e+001	2.65266873e+001	-6.12353876e+001	-1.50274408e+000	5.38497256e+002	1.67356382e+001	1.67356382e+001
6.04000000e-001	-6.30725494e+001	-5.18425368e+001	1.28157463e+002	1.28791027e+001	1.28791027e+001	-6.78343048e+001	-1.34709479e+001	5.26529052e+002	1.39507616e+001	1.39507616e+001
6.05000000e-001	-6.45011909e+001	-2.03044925e+001	1.59695508e+002	1.73901536e+001	1.73901536e+001	-6.39109880e+001	3.23882474e+001	5.72388247e+002	-1.40336472e+001	-1.40336472e+001
6.06000000e-001	-6.22412325e+001	-7.47557356e+001	1.05244264e+002	-6.97468010e+000	-6.97468010e+000	-7.43442919e+001	6.84264895e+001	6.08426489e+002	1.55068804e+000	1.55068804e+000
6.07000000e-001	-6.04843497e+001	-6.29792061e+001	1.17020794e+002	1.26273241e+001	1.26273241e+001	-5.54903578e+001	8.44161892e+001	6.24416189e+002	3.10637564e+000	3.10637564e+000
