Frequency 	 |S21| 	 Phase(S21) 	 ExtPhase(S21) 	 CorPhase(S21)	 ExtCorPhase(S21)	 |S12| 	 Phase(S12)	 ExtPhase(S12) 	 CorPhase(S12)	 ExtCorPhase(S12)
GHz 	 dB 	 deg 	 deg 	 deg	 deg	 dB 	 deg 	 deg 	 deg	 deg
5.00000000e-001	-6.10907032e+001	4.46156534e+001	4.46156534e+001	-1.53337661e+001	-1.53337661e+001	-6.45312329e+001	-8.00118320e+001	-8.00118320e+001	3.16347882e+000	3.16347882e+000
5.01000000e-001	-6.32949994e+001	-8.22824276e+001	-8.22824276e+001	5.10342558e+000	5.10342558e+000	-6.38321861e+001	-3.07084455e+001	-3.07084455e+001	1.91422479e+001	1.91422479e+001
5.02000000e-001	-6.47959552e+001	2.27331030e+001	2.27331030e+001	-9.93806751e+000	-9.93806751e+000	-5.46027161e+001	-8.43296837e+001	-8.43296837e+001	7.99324910e+000	7.99324910e+000
5.03000000e-001	-5.99575882e+001	7.10255720e+001	7.10255720e+001	-1.32447809e+000	-1.32447809e+000	-5.87090440e+001	4.92393622e+001	-1.30760638e+002	-1.74905599e+001	-1.74905599e+001
5.04000000e-001	-5.60312987e+001	-8.09465607e+001	9.90534393e+001	2.95723055e+001	2.95723055e+001	-5.60917100e+001	7.55651124e+001	-1.04434888e+002	1.31200770e+001	1.31200770e+001
5.05000000e-001	-5.84135463e+001	7.42087725e+000	1.87420877e+002	3.36606404e+001	3.36606404e+001	-5.30773224e+001	7.21018992e+001	-1.07898101e+002	-1.92618029e+001	-1.92618029e+001
5.06000000e-001	-5.99775300e+001	5.52110833e+001	2.35211083e+002	-9.53574176e+000	-9.53574176e+000	-6.29864155e+001	2.66211753e+001	-1.53378825e+002	-2.41583986e+001	-2.41583986e+001
5.07000000e-001	-6.36848156e+001	-6.71075293e+001	1.12892471e+002	-8.60629626e+000	-8.60629626e+000	-5.96599770e+001	-7.58307933e+001	-2.55830793e+002	-6.63462374e+000	-6.63462374e+000
5.08000000e-001	-6.07323703e+001	-1.68692126e+001	1.63130787e+002	2.19282908e+001	2.19282908e+001	-6.08089253e+001	8.64577756e+001	-2.73542224e+002	3.18116963e+000	3.18116963e+000
5.09000000e-001	-5.49891188e+001	-5.09589875e+001	1.29041012e+002	-2.75101295e+001	-2.75101295e+001	-5.63715340e+001	6.57852846e+001	-2.94214715e+002	-4.08855015e+000	-4.08855015e+000
5.10000000e-001	-6.00284733e+001	-5.30336271e+001	1.26966373e+002	1.97700970e+001	1.97700970e+001	-6.61003728e+001	-8.28246615e+001	-2.62824662e+002	-4.28613839e+000	-4.28613839e+000
5.11000000e-001	-6.81568850e+001	2.50329013e+001	2.05032901e+002	9.40308645e+000	9.40308645e+000	-6.12409353e+001	-7.25989603e+001	-2.52598960e+002	1.40029907e+000	1.40029907e+000
5.12000000e-001	-6.84740612e+001	-7.67924040e+001	1.03207596e+002	-7.09036285e+000	-7.09036285e+000	-5.61968203e+001	4.27543756e+001	-1.37245624e+002	-3.20050023e+001	-3.20050023e+001
5.13000000e-001	-5.92749093e+001	7.70364604e+001	7.70364604e+001	1.91699588e+000	1.91699588e+000	-5.87407394e+001	-3.38144934e+001	-2.13814493e+002	2.76300519e+001	2.76300519e+001
5.14000000e-001	-5.58765583e+001	4.23972651e+001	4.23972651e+001	-3.26872776e+001	-3.26872776e+001	-5.91965623e+001	3.69285296e+001	-1.43071470e+002	-2.13173976e+001	-2.13173976e+001
5.15000000e-001	-5.86214605e+001	6.18874981e+001	6.18874981e+001	-1.59941196e+001	-1.59941196e+001	-6.08041137e+001	6.92520529e+001	-1.10747947e+002	1.08811183e+001	1.08811183e+001
5.16000000e-001	-6.42680878e+001	-4.18954433e+001	-4.18954433e+001	1.33197994e+001	1.33197994e+001	-5.84164101e+001	2.70645001e+001	-1.52935500e+002	2.23326931e+001	2.23326931e+001
5.17000000e-001	-5.60407443e+001	2.30264151e+001	2.30264151e+001	5.29872418e+001	5.29872418e+001	-5.60034500e+001	1.44570911e+001	-1.65542909e+002	4.51564916e+001	4.51564916e+001
5.18000000e-001	-6.19293985e+001	-3.93159758e+000	-3.93159758e+000	-2.37903710e+001	-2.37903710e+001	-6.46831674e+001	4.74204016e+001	-1.32579598e+002	-6.00279913e+000	-6.00279913e+000
5.19000000e-001	-5.88424813e+001	-8.28940258e+001	-8.28940258e+001	-2.45929599e+000	-2.45929599e+000	-5.46625754e+001	2.84928122e+001	-1.51507188e+002	5.16725047e+001	5.16725047e+001
5.20000000e-001	-5.98580581e+001	-3.46731061e+001	-3.46731061e+001	-2.52238896e+001	-2.52238896e+001	-6.19767604e+001	-7.40440919e+001	-2.54044092e+002	7.05707923e+000	7.05707923e+000
5.21000000e-001	-5.75891059e+001	5.09795774e+001	5.09795774e+001	-2.25681249e+001	-2.25681249e+001	-6.21403461e+001	4.05939513e+001	-1.39406049e+002	9.26715436e+000	9.26715436e+000
5.22000000e-001	-5.62726423e+001	4.65837771e+001	4.65837771e+001	1.09104373e+001	1.09104373e+001	-5.53841463e+001	-5.64739835e+001	-2.36473983e+002	-2.22810198e+001	-2.22810198e+001
5.23000000e-001	-8.99550101e+001	-1.75071172e+001	-1.75071172e+001	8.73320328e-001	8.73320328e-001	-6.13584880e+001	2.58614060e+001	-1.54138594e+002	-1.70942213e+001	-1.70942213e+001
5.24000000e-001	-7.12716554e+001	7.59890299e+001	7.59890299e+001	1.32030856e+000	1.32030856e+000	-6.18395842e+001	-3.05835281e+001	-2.10583528e+002	-1.79826340e+001	-1.79826340e+001
5.25000000e-001	-6.14051013e+001	-7.88306533e+001	1.01169347e+002	8.24710464e+000	8.24710464e+000	-6.48238959e+001	6.59395155e+001	-1.14060485e+002	2.25178425e+000	2.25178425e+000
5.26000000e-001	-6.07654110e+001	7.55187597e+001	7.55187597e+001	7.30042084e+000	7.30042084e+000	-6.73881098e+001	3.73138195e+001	-1.42686181e+002	9.80734941e+000	9.80734941e+000
5.27000000e-001	-7.03788991e+001	-2.73671646e+000	-2.73671646e+000	-6.14426281e+000	-6.14426281e+000	-6.62203797e+001	4.43316688e+001	-1.35668331e+002	-8.61430563e+000	-8.61430563e+000
5.28000000e-001	-6.01632508e+001	-2.90488243e+001	-2.90488243e+001	-3.22865598e+001	-3.22865598e+001	-6.72660916e+001	1.29993808e+001	-1.67000619e+002	1.52149926e+001	1.52149926e+001
5.29000000e-001	-6.78901877e+001	-4.94770573e+001	-4.94770573e+001	1.27884023e+001	1.27884023e+001	-5.55683512e+001	6.75907264e+001	-1.12409274e+002	-1.73985383e+001	-1.73985383e+001
5.30000000e-001	-5.40094067e+001	-8.04755339e+001	-8.04755339e+001	-1.70654203e+001	-1.70654203e+001	-6.20895064e+001	2.39209037e+001	-1.56079096e+002	1.57474193e+001	1.57474193e+001
5.31000000e-001	-6.77234443e+001	-6.09010101e+001	-6.09010101e+001	6.93407226e+000	6.93407226e+000	-5.94237435e+001	7.56488410e+001	-1.04351159e+002	7.03116738e-001	7.03116738e-001
5.32000000e-001	-6.54205566e+001	8.87601944e+001	-9.12398056e+001	-2.87529019e+000	-2.87529019e+000	-5.89097488e+001	-7.44447237e+001	-7.44447237e+001	1.14057703e+001	1.14057703e+001
5.33000000e-001	-5.40296004e+001	6.59899025e+001	-1.14010097e+002	-4.28219349e+001	-4.28219349e+001	-6.03122114e+001	3.18417209e+001	3.18417209e+001	-1.80957728e+001	-1.80957728e+001
5.34000000e-001	-6.97230836e+001	-2.60957825e+001	-2.06095782e+002	6.05739821e+000	6.05739821e+000	-6.24356225e+001	-2.79041295e+001	-2.79041295e+001	-1.61546720e+001	-1.61546720e+001
5.35000000e-001	-6.03603334e+001	-6.89827958e+001	-2.48982796e+002	1.03489608e+001	1.03489608e+001	-5.69014456e+001	-8.52278921e+001	-8.52278921e+001	-2.25587718e+001	-2.25587718e+001
5.36000000e-001	-5.56494971e+001	-6.95502857e+001	-2.49550286e+002	3.63094711e+000	3.63094711e+000	-5.90034551e+001	-2.54082381e+001	-2.54082381e+001	-2.68419210e+001	-2.68419210e+001
5.37000000e-001	-5.82476709e+001	9.49522600e+000	-1.70504774e+002	3.40026775e+001	3.40026775e+001	-6.20167878e+001	2.90978084e+001	2.90978084e+001	-1.57183849e+001	-1.57183849e+001
5.38000000e-001	-5.89150113e+001	-3.90258918e+001	-2.19025892e+002	-3.91523101e+001	-3.91523101e+001	-6.52117971e+001	-1.32675022e+001	-1.32675022e+001	-1.27675887e+001	-1.27675887e+001
5.39000000e-001	-6.87328641e+001	-2.68661478e+001	-2.06866148e+002	-6.74693472e+000	-6.74693472e+000	-6.46497047e+001	8.13281192e+000	8.13281192e+000	1.70174365e+001	1.70174365e+001
5.40000000e-001	-7.31874407e+001	4.61781410e+000	-1.75382186e+002	8.16553609e+000	8.16553609e+000	-5.81904619e+001	-6.83768774e+001	-6.83768774e+001	-2.08777281e+001	-2.08777281e+001
5.41000000e-001	-5.56660183e+001	-6.45538984e+001	-2.44553898e+002	2.76788235e+001	2.76788235e+001	-7.30641137e+001	-4.72658618e+001	-4.72658618e+001	3.37129208e+000	3.37129208e+000
5.42000000e-001	-6.77322925e+001	-8.46153751e+001	-2.64615375e+002	3.82973699e+000	3.82973699e+000	-6.32428572e+001	-6.00737657e+001	-6.00737657e+001	8.02695516e+000	8.02695516e+000
5.43000000e-001	-5.56442589e+001	2.95265107e+001	-1.50473489e+002	2.25403053e+001	2.25403053e+001	-6.10027937e+001	6.34050116e+001	6.34050116e+001	-6.62585364e+000	-6.62585364e+000
5.44000000e-001	-5.73826859e+001	-7.90501124e+001	-2.59050112e+002	8.59223713e+000	8.59223713e+000	-5.87672387e+001	-6.36658561e+001	-6.36658561e+001	-2.00994912e+001	-2.00994912e+001
5.45000000e-001	-6.22114618e+001	6.00943517e+001	-2.99905648e+002	-7.66455475e+000	-7.66455475e+000	-6.30493009e+001	1.29130232e+001	1.29130232e+001	-1.53564860e+001	-1.53564860e+001
5.46000000e-001	-6.36355602e+001	-4.44496315e+001	-4.04449632e+002	-1.37236249e+001	-1.37236249e+001	-6.65269549e+001	-5.32240680e+001	-5.32240680e+001	1.00245431e+001	1.00245431e+001
5.47000000e-001	-5.91538590e+001	3.88930597e+001	-3.21106940e+002	-2.79521820e+001	-2.79521820e+001	-7.37517531e+001	-7.87931894e+001	-7.87931894e+001	3.80812430e+000	3.80812430e+000
5.48000000e-001	-5.93753700e+001	6.33263669e+000	-3.53667363e+002	2.44472485e+001	2.44472485e+001	-6.08671150e+001	3.34553467e+001	3.34553467e+001	-1.54688423e+001	-1.54688423e+001
5.49000000e-001	-6.03307552e+001	-3.16181240e+000	-3.63161812e+002	-2.86865037e+001	-2.86865037e+001	-6.02730851e+001	-7.34080219e+000	-7.34080219e+000	2.25631025e+001	2.25631025e+001
5.50000000e-001	-5.84545550e+001	7.70646679e+001	-2.82935332e+002	1.31857970e+000	1.31857970e+000	-5.84427254e+001	5.58793865e+001	5.58793865e+001	1.23040560e+001	1.23040560e+001
5.51000000e-001	-5.59964176e+001	1.11482514e+001	-3.48851749e+002	3.41875659e+001	3.41875659e+001	-7.05918338e+001	2.64089711e+001	2.64089711e+001	-9.66036519e+000	-9.66036519e+000
5.52000000e-001	-5.82989782e+001	-8.98648985e+001	-4.49864898e+002	7.44631627e+000	7.44631627e+000	-6.28468037e+001	2.66488503e+000	2.66488503e+000	2.20536845e+001	2.20536845e+001
5.53000000e-001	-6.13035737e+001	2.37612298e+000	-3.57623877e+002	-2.44911678e+001	-2.44911678e+001	-6.92819350e+001	-2.90190365e+001	-2.90190365e+001	7.55740511e+000	7.55740511e+000
5.54000000e-001	-7.02039588e+001	7.95021807e+001	-2.80497819e+002	-2.03985402e+000	-2.03985402e+000	-6.15476159e+001	-4.31708549e+001	-4.31708549e+001	-2.30738522e+001	-2.30738522e+001
5.55000000e-001	-6.95223757e+001	-7.21333070e+001	-2.52133307e+002	-2.84400983e+000	-2.84400983e+000	-6.94104208e+001	2.30302918e+001	2.30302918e+001	-7.09634188e+000	-7.09634188e+000
5.56000000e-001	-5.88041895e+001	-6.13607536e+001	-2.41360754e+002	2.16257939e+001	2.16257939e+001	-5.89398388e+001	6.08438153e+000	6.08438153e+000	2.20982874e+001	2.20982874e+001
5.57000000e-001	-6.80329433e+001	1.96672087e+001	-1.60332791e+002	-9.62158755e+000	-9.62158755e+000	-5.67822808e+001	4.25904143e+001	4.25904143e+001	-3.11217348e+001	-3.11217348e+001
5.58000000e-001	-5.20493421e+001	3.44257958e+001	-1.45574204e+002	4.84964186e+001	4.84964186e+001	-5.71600516e+001	-4.36030616e+001	-4.36030616e+001	-3.37104583e+001	-3.37104583e+001
5.59000000e-001	-5.66527506e+001	-5.63659299e+000	-1.85636593e+002	3.30751870e+001	3.30751870e+001	-8.17663827e+001	-4.38490206e+000	-4.38490206e+000	-2.30512289e+000	-2.30512289e+000
5.60000000e-001	-6.16905463e+001	7.06808677e+001	-1.09319132e+002	1.21096019e+001	1.21096019e+001	-6.95702370e+001	-3.87174463e+001	-3.87174463e+001	5.40358138e+000	5.40358138e+000
5.61000000e-001	-6.55290689e+001	2.26942460e+001	-1.57305754e+002	-1.17789664e+001	-1.17789664e+001	-5.81880273e+001	-3.29856143e+001	-3.29856143e+001	-3.60053127e+001	-3.60053127e+001
5.62000000e-001	-6.32105992e+001	-4.75644207e+001	-2.27564421e+002	1.76078759e+001	1.76078759e+001	-5.95274853e+001	-5.36314926e+001	-5.36314926e+001	-1.74488394e+001	-1.74488394e+001
5.63000000e-001	-6.81182561e+001	-7.11815515e+001	-2.51181552e+002	3.61210261e+000	3.61210261e+000	-5.53007024e+001	-1.20941747e+001	-1.20941747e+001	-4.08410999e+001	-4.08410999e+001
5.64000000e-001	-5.87020083e+001	-2.26171744e+001	-2.02617174e+002	-2.98673504e+001	-2.98673504e+001	-5.82681132e+001	-5.26469798e+001	-5.26469798e+001	2.11779093e+001	2.11779093e+001
5.65000000e-001	-5.91548089e+001	4.44269687e+001	-1.35573031e+002	1.63916767e+001	1.63916767e+001	-6.71651853e+001	1.81704965e+001	1.81704965e+001	-9.67623733e+000	-9.67623733e+000
5.66000000e-001	-6.09155362e+001	8.69607226e+001	-9.30392774e+001	9.72943981e-001	9.72943981e-001	-6.17005855e+001	-2.47650880e+001	-2.47650880e+001	1.52940474e+001	1.52940474e+001
5.67000000e-001	-7.71248410e+001	-1.42975106e+001	-1.94297511e+002	3.13969115e+000	3.13969115e+000	-6.89418833e+001	-2.15078193e+001	-2.15078193e+001	-8.44514925e+000	-8.44514925e+000
5.68000000e-001	-6.43610693e+001	8.25447194e+001	-9.74552806e+001	-2.57970091e+000	-2.57970091e+000	-5.69176097e+001	6.49035256e-001	6.49035256e-001	-3.35527159e+001	-3.35527159e+001
5.69000000e-001	-6.42616298e+001	2.45136099e-001	-1.79754864e+002	-1.11721268e+001	-1.11721268e+001	-5.99168618e+001	7.24932239e+001	7.24932239e+001	-3.02355111e+000	-3.02355111e+000
5.70000000e-001	-6.09096537e+001	-4.16964829e+001	-2.21696483e+002	-1.75139266e+001	-1.75139266e+001	-6.22805254e+001	1.03753639e+001	1.03753639e+001	1.46358314e+001	1.46358314e+001
5.71000000e-001	-6.29427679e+001	6.65633998e+001	-1.13436600e+002	-9.38936821e+000	-9.38936821e+000	-6.12542879e+001	-1.50004356e+001	-1.50004356e+001	-2.43673554e+001	-2.43673554e+001
5.72000000e-001	-6.29389820e+001	6.03807668e+001	-1.19619233e+002	-7.66932320e+000	-7.66932320e+000	-5.81145864e+001	-2.86286627e+000	-2.86286627e+000	2.85560800e+001	2.85560800e+001
5.73000000e-001	-5.71144410e+001	-7.27589781e+001	-7.27589781e+001	-4.50751821e+001	-4.50751821e+001	-6.13788765e+001	3.56557742e+001	3.56557742e+001	-2.09720303e+001	-2.09720303e+001
5.74000000e-001	-5.80759638e+001	-8.37666735e+001	-8.37666735e+001	1.64387293e+001	1.64387293e+001	-6.47992295e+001	-3.90609665e+001	-3.90609665e+001	1.01728105e+001	1.01728105e+001
5.75000000e-001	-5.49659057e+001	-8.78566454e+001	-8.78566454e+001	-8.48153389e+000	-8.48153389e+000	-5.78735924e+001	-7.67429240e+001	-7.67429240e+001	-1.74368825e+001	-1.74368825e+001
5.76000000e-001	-5.77885313e+001	-4.50201128e+001	-4.50201128e+001	2.43249524e+001	2.43249524e+001	-5.63510094e+001	7.26779713e+001	-1.07322029e+002	8.96104516e+000	8.96104516e+000
5.77000000e-001	-6.82680548e+001	-7.54488953e+001	-7.54488953e+001	-2.81030733e+000	-2.81030733e+000	-6.27902259e+001	-8.89876064e+001	-8.89876064e+001	-5.00061179e+000	-5.00061179e+000
5.78000000e-001	-5.69342631e+001	-5.33413096e+001	-5.33413096e+001	1.95993574e+001	1.95993574e+001	-6.56352712e+001	8.79559860e+001	-9.20440140e+001	1.93754219e+000	1.93754219e+000
5.79000000e-001	-6.27414997e+001	7.58866294e+001	7.58866294e+001	-6.33404596e+000	-6.33404596e+000	-6.08252512e+001	4.94685281e+001	-1.30531472e+002	1.71097647e+001	1.71097647e+001
5.80000000e-001	-6.32384164e+001	2.95778909e+001	2.95778909e+001	1.53012960e+001	1.53012960e+001	-6.05618861e+001	-4.15029816e+001	-2.21502982e+002	4.48188163e+001	4.48188163e+001
5.81000000e-001	-6.57243884e+001	1.15171815e+001	1.15171815e+001	1.36081616e+001	1.36081616e+001	-6.01914573e+001	3.93315609e+001	-1.40668439e+002	1.73270441e+001	1.73270441e+001
5.82000000e-001	-5.93391150e+001	-7.28535949e+001	-7.28535949e+001	-7.39085202e+000	-7.39085202e+000	-7.60409262e+001	-4.55475417e+001	-2.25547542e+002	3.18221051e+000	3.18221051e+000
5.83000000e-001	-5.87291547e+001	5.18208873e+001	5.18208873e+001	1.36911009e+001	1.36911009e+001	-6.08987882e+001	-5.56153212e+001	-2.35615321e+002	1.64420160e+001	1.64420160e+001
5.84000000e-001	-6.28543680e+001	5.55382063e+001	5.55382063e+001	7.72443544e+000	7.72443544e+000	-5.85328056e+001	-6.24040411e+001	-2.42404041e+002	-2.57455616e+001	-2.57455616e+001
5.85000000e-001	-6.34880908e+001	8.81284522e+001	8.81284522e+001	-1.63912186e+000	-1.63912186e+000	-5.74656133e+001	5.56833609e+001	-1.24316639e+002	1.31544216e+001	1.31544216e+001
5.86000000e-001	-6.07227044e+001	-4.32038065e+001	1.36796193e+002	-2.59859654e+001	-2.59859654e+001	-6.34906478e+001	6.99923335e+001	-1.10007667e+002	1.59942024e+000	1.59942024e+000
5.87000000e-001	-7.37884138e+001	3.21930797e+001	2.12193080e+002	-3.47968273e+000	-3.47968273e+000	-5.57403588e+001	5.66425428e+001	-1.23357457e+002	1.06342358e+001	1.06342358e+001
5.88000000e-001	-6.84249949e+001	-8.29132411e+001	9.70867589e+001	-4.84454075e-001	-4.84454075e-001	-5.37696175e+001	-3.35222726e+001	-2.13522273e+002	5.59926932e+001	5.59926932e+001
5.89000000e-001	-6.04282712e+001	6.34625319e+001	6.34625319e+001	-7.92560779e+000	-7.92560779e+000	-6.01583114e+001	-6.92339876e+001	-2.49233988e+002	1.90566976e+001	1.90566976e+001
5.90000000e-001	-5.41937131e+001	8.51732005e+001	8.51732005e+001	-2.32327921e+001	-2.32327921e+001	-5.80275948e+001	7.63396978e+001	-2.83660302e+002	5.28944535e+000	5.28944535e+000
5.91000000e-001	-5.97154525e+001	8.20178587e+001	8.20178587e+001	1.82462787e+000	1.82462787e+000	-5.66276399e+001	5.47882660e+001	-3.05211734e+002	2.82848209e+001	2.82848209e+001
5.92000000e-001	-6.57922494e+001	4.27471771e+001	4.27471771e+001	-1.10193139e+001	-1.10193139e+001	-5.96546146e+001	3.65681469e+001	-3.23431853e+002	1.64437741e+001	1.64437741e+001
5.93000000e-001	-5.98536845e+001	7.81668581e+001	7.81668581e+001	1.39047865e+000	1.39047865e+000	-5.48595238e+001	-6.03556112e+001	-4.20355611e+002	3.55522861e+001	3.55522861e+001
5.94000000e-001	-5.81967744e+001	6.67106313e+001	6.67106313e+001	1.23669097e+001	1.23669097e+001	-5.94795718e+001	-2.95362352e+001	-3.89536235e+002	1.86422837e+001	1.86422837e+001
5.95000000e-001	-5.95225669e+001	-8.65496149e+001	9.34503851e+001	-6.33329160e-001	-6.33329160e-001	-6.17742499e+001	6.00083307e+001	-2.99991669e+002	-7.16932380e+000	-7.16932380e+000
5.96000000e-001	-6.05690582e+001	-1.72047803e+001	1.62795220e+002	1.98257098e+001	1.98257098e+001	-6.22639040e+001	3.72708104e+001	-3.22729190e+002	1.04195666e+001	1.04195666e+001
5.97000000e-001	-5.84427331e+001	-1.39054326e+001	1.66094567e+002	-2.58350483e+001	-2.58350483e+001	-5.51864979e+001	-8.05762736e+000	-3.68057627e+002	-3.94555954e+001	-3.94555954e+001
5.98000000e-001	-5.39735097e+001	4.28619146e+001	2.22861915e+002	3.07424168e+001	3.07424168e+001	-5.86341452e+001	6.46353926e+001	-2.95364607e+002	-9.11858669e-001	-9.11858669e-001
5.99000000e-001	-5.89534856e+001	-5.19886370e+001	1.28011363e+002	2.29060333e+001	2.29060333e+001	-5.93267058e+001	6.41721776e+001	-2.95827822e+002	1.06576264e+001	1.06576264e+001
6.00000000e-001	-6.02216291e+001	2.49215823e+001	2.04921582e+002	-1.62469669e+001	-1.62469669e+001	-5.99627076e+001	-4.55650936e+001	-4.05565094e+002	-1.89633002e+001	-1.89633002e+001
6.01000000e-001	-5.69745513e+001	-6.89483535e+001	1.11051646e+002	1.87061488e+001	1.87061488e+001	-5.25228683e+001	-2.92954334e+001	-3.89295433e+002	4.35714700e+001	4.35714700e+001
6.02000000e-001	-7.00062864e+001	6.61756054e+001	6.61756054e+001	-8.42683884e-001	-8.42683884e-001	-5.38424130e+001	-9.94415399e+000	-3.69944154e+002	5.31012589e+001	5.31012589e+001
6.03000000e-001	-6.36216426e+001	2.52216181e+001	2.52216181e+001	-1.56845684e+001	-1.56845684e+001	-5.34746096e+001	5.22642472e+001	-3.07735753e+002	2.18452526e+001	2.18452526e+001
6.04000000e-001	-5.90666356e+001	5.44990422e+001	5.44990422e+001	-1.00355398e+001	-1.00355398e+001	-5.85876542e+001	3.90799847e+001	-3.20920015e+002	-1.50630472e+001	-1.50630472e+001
6.05000000e-001	-6.30998775e+001	-2.32368645e+001	-2.32368645e+001	1.52501031e+001	1.52501031e+001	-6.37689943e+001	-3.86258615e+001	-3.98625862e+002	-1.57052847e+001	-1.57052847e+001
6.06000000e-001	-5.94898355e+001	6.00340694e+001	6.00340694e+001	1.07688958e+001	1.07688958e+001	-6.19106250e+001	6.76994663e+001	-2.92300534e+002	-8.53944065e+000	-8.53944065e+000
6.07000000e-001	-5.23547628e+001	-8.13735710e+001	9.86264290e+001	3.13920823e+001	3.13920823e+001	-6.18918415e+001	3.86316923e+000	-3.56136831e+002	1.95639668e+001	1.95639668e+001
