Frequency 	 |S21| 	 Phase(S21) 	 ExtPhase(S21) 	 CorPhase(S21)	 ExtCorPhase(S21)	 |S12| 	 Phase(S12)	 ExtPhase(S12) 	 CorPhase(S12)	 ExtCorPhase(S12)
GHz 	 dB 	 deg 	 deg 	 deg	 deg	 dB 	 deg 	 deg 	 deg	 deg
5.00000000e-001	-6.37640395e+001	2.51198298e+001	2.51198298e+001	1.30324793e+001	1.30324793e+001	-6.85969511e+001	-6.00419440e+000	-6.00419440e+000	8.74353442e+000	8.74353442e+000
5.01000000e-001	-6.73545718e+001	1.23440206e+001	1.23440206e+001	9.80615338e+000	9.80615338e+000	-7.61319903e+001	3.26303505e+001	3.26303505e+001	-3.95320894e+000	-3.95320894e+000
5.02000000e-001	-5.60930907e+001	-1.41231411e+001	-1.41231411e+001	4.11397250e+001	4.11397250e+001	-6.51877007e+001	-8.74454563e+001	-8.74454563e+001	-3.74907316e-001	-3.74907316e-001
5.03000000e-001	-5.61017624e+001	7.55742748e+001	7.55742748e+001	2.71560923e+001	2.71560923e+001	-5.99853605e+001	2.55519512e+001	2.55519512e+001	2.11534627e+001	2.11534627e+001
5.04000000e-001	-6.65237534e+001	1.35817552e+000	1.35817552e+000	-1.86952544e+001	-1.86952544e+001	-5.73525222e+001	-1.31207236e+001	-1.31207236e+001	2.63027093e+001	2.63027093e+001
5.05000000e-001	-5.84452500e+001	-8.35764804e+001	-8.35764804e+001	-1.33282001e+001	-1.33282001e+001	-6.95841958e+001	7.36057342e+001	7.36057342e+001	-1.40816311e+000	-1.40816311e+000
5.06000000e-001	-6.34098463e+001	-8.64976375e+001	-8.64976375e+001	-8.62811680e+000	-8.62811680e+000	-6.07347916e+001	-6.04846155e+001	1.19515385e+002	-1.07868850e+001	-1.07868850e+001
5.07000000e-001	-7.78901629e+001	-4.57505515e+001	-4.57505515e+001	3.22571850e+000	3.22571850e+000	-6.05861974e+001	5.41236515e+001	2.34123652e+002	4.83221103e+000	4.83221103e+000
5.08000000e-001	-6.38013895e+001	4.54381121e+001	4.54381121e+001	-1.01823601e+001	-1.01823601e+001	-5.73331255e+001	-7.36089314e+001	1.06391069e+002	-2.31157145e+001	-2.31157145e+001
5.09000000e-001	-6.08739891e+001	2.65725469e+001	2.65725469e+001	-1.37692584e+001	-1.37692584e+001	-7.41791296e+001	6.22662104e+001	6.22662104e+001	1.49146321e+000	1.49146321e+000
5.10000000e-001	-5.68559763e+001	1.51730724e+001	1.51730724e+001	3.72112532e+001	3.72112532e+001	-5.66899004e+001	-1.42049956e+001	-1.42049956e+001	2.71407321e+001	2.71407321e+001
5.11000000e-001	-6.55629174e+001	6.97752123e+001	6.97752123e+001	-9.14437243e-003	-9.14437243e-003	-6.94782646e+001	-8.57247547e+001	-8.57247547e+001	1.25044854e+000	1.25044854e+000
5.12000000e-001	-6.26099103e+001	2.67339010e+001	2.67339010e+001	2.33650871e+001	2.33650871e+001	-7.35691334e+001	-4.73096560e+001	-4.73096560e+001	4.42333481e+000	4.42333481e+000
5.13000000e-001	-5.80237313e+001	-7.05820232e+001	-7.05820232e+001	1.41861887e+001	1.41861887e+001	-6.11966274e+001	-5.95958554e+000	-5.95958554e+000	2.81561985e+001	2.81561985e+001
5.14000000e-001	-5.64551511e+001	7.04003366e+000	7.04003366e+000	-3.89326478e+001	-3.89326478e+001	-5.82083038e+001	-1.92749954e+001	-1.92749954e+001	2.61400021e+001	2.61400021e+001
5.15000000e-001	-6.18269573e+001	-1.87801344e+001	-1.87801344e+001	-1.53660429e+001	-1.53660429e+001	-5.59518431e+001	8.42953283e+001	8.42953283e+001	-1.22931924e+001	-1.22931924e+001
5.16000000e-001	-6.19663516e+001	-8.61650023e+001	-8.61650023e+001	6.23755829e+000	6.23755829e+000	-6.05028879e+001	7.54077876e+001	7.54077876e+001	-2.56782185e+000	-2.56782185e+000
5.17000000e-001	-6.76635429e+001	8.10633249e+001	-9.89366751e+001	-2.62413956e+000	-2.62413956e+000	-5.64443508e+001	-8.36874665e+001	9.63125335e+001	1.85030413e+001	1.85030413e+001
5.18000000e-001	-6.13938056e+001	4.44095608e+000	-1.75559044e+002	-1.86809164e+001	-1.86809164e+001	-5.63654241e+001	8.20240523e+001	8.20240523e+001	3.36280722e+000	3.36280722e+000
5.19000000e-001	-6.88065938e+001	1.73435145e+001	-1.62656485e+002	5.51858065e+000	5.51858065e+000	-6.42413067e+001	2.24595502e+001	2.24595502e+001	-1.10895076e+001	-1.10895076e+001
5.20000000e-001	-7.03274041e+001	-2.04206016e+001	-2.00420602e+002	-5.54096348e+000	-5.54096348e+000	-6.36578350e+001	-1.48174813e+001	-1.48174813e+001	1.96142174e+001	1.96142174e+001
5.21000000e-001	-6.39127761e+001	5.38220517e+001	-1.26177948e+002	-8.76508148e+000	-8.76508148e+000	-6.05240566e+001	-3.68493085e+001	-3.68493085e+001	-2.37398683e+001	-2.37398683e+001
5.22000000e-001	-5.36596801e+001	5.07388384e+001	-1.29261162e+002	-5.01179530e+001	-5.01179530e+001	-5.51716011e+001	7.40002601e+001	7.40002601e+001	-1.16568399e+001	-1.16568399e+001
5.23000000e-001	-5.58479158e+001	4.49830097e+001	-1.35016990e+002	2.24592805e+001	2.24592805e+001	-5.36571986e+001	3.89882825e+001	3.89882825e+001	-3.57752204e+001	-3.57752204e+001
5.24000000e-001	-6.35121702e+001	-8.15284926e+001	-2.61528493e+002	-9.64795002e+000	-9.64795002e+000	-5.47974668e+001	-4.20404889e+001	-4.20404889e+001	5.05907417e+001	5.05907417e+001
5.25000000e-001	-6.59143829e+001	3.07083260e+001	-1.49291674e+002	-1.91141674e+001	-1.91141674e+001	-6.62368226e+001	3.72891455e+001	3.72891455e+001	-1.16913432e+001	-1.16913432e+001
5.26000000e-001	-5.47815410e+001	1.32341920e+001	-1.66765808e+002	4.69875011e+001	4.69875011e+001	-5.78164892e+001	-6.16767085e+001	-6.16767085e+001	1.39038660e+001	1.39038660e+001
5.27000000e-001	-6.82496005e+001	-6.77162701e+001	-2.47716270e+002	3.03122680e+000	3.03122680e+000	-6.08825655e+001	8.46532570e+001	-9.53467430e+001	2.29668285e+000	2.29668285e+000
5.28000000e-001	-7.22500643e+001	-7.62357430e+001	-2.56235743e+002	2.25985779e+000	2.25985779e+000	-5.84007393e+001	-2.85170259e+001	-2.08517026e+002	2.87092087e+001	2.87092087e+001
5.29000000e-001	-5.65307022e+001	-2.69479262e+001	-2.06947926e+002	4.22720792e+001	4.22720792e+001	-6.00882638e+001	1.89254698e+001	-1.61074530e+002	2.13741031e+001	2.13741031e+001
5.30000000e-001	-6.22501016e+001	-1.98187015e+001	-1.99818701e+002	2.05232532e+001	2.05232532e+001	-5.54024505e+001	-4.41582256e+001	-2.24158226e+002	3.22194018e+001	3.22194018e+001
5.31000000e-001	-5.62365091e+001	3.80435813e+001	-1.41956419e+002	2.41349203e+001	2.41349203e+001	-7.43305940e+001	1.80795392e+001	-1.61920461e+002	3.91689957e+000	3.91689957e+000
5.32000000e-001	-6.09552044e+001	-3.41508115e+001	-2.14150812e+002	-2.13966628e+001	-2.13966628e+001	-7.44354287e+001	-1.89507965e+001	-1.98950797e+002	-4.81034368e+000	-4.81034368e+000
5.33000000e-001	-6.43945156e+001	4.45718760e+001	-1.35428124e+002	-4.82713960e+000	-4.82713960e+000	-6.01232031e+001	-1.45198509e+001	-1.94519851e+002	3.13738570e+001	3.13738570e+001
5.34000000e-001	-5.58094551e+001	5.72058666e+001	-1.22794133e+002	-4.87886795e+001	-4.87886795e+001	-5.75623748e+001	-3.65765220e+001	-2.16576522e+002	-2.98030085e+001	-2.98030085e+001
5.35000000e-001	-5.68056026e+001	-3.88083193e+001	-2.18808319e+002	-2.82769993e+001	-2.82769993e+001	-6.65067992e+001	3.90094131e+001	-1.40990587e+002	-4.89673249e+000	-4.89673249e+000
5.36000000e-001	-6.01700571e+001	5.08854737e+001	-1.29114526e+002	-1.21525443e+001	-1.21525443e+001	-5.48490355e+001	8.32450625e+001	-9.67549375e+001	7.62397212e-001	7.62397212e-001
5.37000000e-001	-6.76334644e+001	8.42763850e+001	-9.57236150e+001	-2.32563246e+000	-2.32563246e+000	-6.72033913e+001	-1.03666391e+001	-1.90366639e+002	-9.95278901e+000	-9.95278901e+000
5.38000000e-001	-5.64354031e+001	5.21299831e+001	-1.27870017e+002	-2.11078812e+001	-2.11078812e+001	-6.20882084e+001	-6.66737515e+001	-2.46673752e+002	7.11541388e+000	7.11541388e+000
5.39000000e-001	-5.96626865e+001	4.65442011e+001	-1.33455799e+002	-1.57628800e+001	-1.57628800e+001	-6.85015597e+001	5.45776569e+001	-1.25422343e+002	5.17449226e+000	5.17449226e+000
5.40000000e-001	-6.66530725e+001	8.39749279e+001	-9.60250721e+001	-1.62834401e+000	-1.62834401e+000	-7.80601615e+001	-8.27528720e+001	-8.27528720e+001	1.33061477e+000	1.33061477e+000
5.41000000e-001	-6.94303712e+001	8.99250878e+001	-9.00749122e+001	-4.08853173e+000	-4.08853173e+000	-6.40987151e+001	6.28908319e+001	-1.17109168e+002	4.17104636e+000	4.17104636e+000
5.42000000e-001	-5.71782090e+001	-6.11206472e+001	-6.11206472e+001	-2.58825794e+001	-2.58825794e+001	-5.60585592e+001	-3.37843996e+001	-2.13784400e+002	-3.35097944e+001	-3.35097944e+001
5.43000000e-001	-6.13896324e+001	-8.23073975e+001	-8.23073975e+001	-2.96576611e+000	-2.96576611e+000	-6.21261699e+001	-8.85374646e+001	-2.68537465e+002	2.59092706e+000	2.59092706e+000
5.44000000e-001	-5.70041282e+001	6.75517607e+001	-1.12448239e+002	-9.11348790e+000	-9.11348790e+000	-6.36031195e+001	3.04585513e+001	-1.49541449e+002	-1.40507145e+001	-1.40507145e+001
5.45000000e-001	-6.78066015e+001	-4.86835657e+001	-2.28683566e+002	-6.07665239e+000	-6.07665239e+000	-5.68521469e+001	-4.75061485e+001	-2.27506148e+002	3.53899479e+001	3.53899479e+001
5.46000000e-001	-6.28158056e+001	7.59608847e+001	-1.04039115e+002	5.06699874e-001	5.06699874e-001	-7.18806750e+001	-3.90203069e+001	-2.19020307e+002	4.50181068e+000	4.50181068e+000
5.47000000e-001	-6.70544960e+001	-8.35508820e+001	-8.35508820e+001	-1.24535852e+000	-1.24535852e+000	-7.22923762e+001	8.27902971e+001	-9.72097029e+001	7.52983199e-001	7.52983199e-001
5.48000000e-001	-6.11726754e+001	-2.56541863e+000	-2.56541863e+000	1.97181644e+001	1.97181644e+001	-6.20738709e+001	-2.04935922e+001	-2.00493592e+002	1.73955285e+001	1.73955285e+001
5.49000000e-001	-6.00294601e+001	-1.20385071e-001	-1.20385071e-001	2.89890438e+001	2.89890438e+001	-5.77069454e+001	-1.52487429e+001	-1.95248743e+002	-3.56048045e+001	-3.56048045e+001
5.50000000e-001	-6.25454242e+001	2.06285894e+001	2.06285894e+001	1.39160328e+001	1.39160328e+001	-6.33521913e+001	-2.28006471e+001	-2.02800647e+002	-1.70149568e+001	-1.70149568e+001
5.51000000e-001	-6.35940414e+001	-1.06086355e+001	-1.06086355e+001	1.78947248e+001	1.78947248e+001	-6.38502576e+001	1.90688749e+000	-1.78093113e+002	-1.71655492e+001	-1.71655492e+001
5.52000000e-001	-6.97864495e+001	-7.12388429e+001	-7.12388429e+001	-6.09807095e+000	-6.09807095e+000	-6.35947882e+001	-3.33565012e+001	-2.13356501e+002	-1.27282917e+001	-1.27282917e+001
5.53000000e-001	-5.76321012e+001	-6.58762198e+001	-6.58762198e+001	1.87326899e+001	1.87326899e+001	-5.71521936e+001	7.02253420e+001	-1.09774658e+002	-1.55507752e+001	-1.55507752e+001
5.54000000e-001	-6.22346996e+001	2.77219004e+001	2.77219004e+001	1.60165394e+001	1.60165394e+001	-7.66382536e+001	-7.81915390e+001	-7.81915390e+001	-1.38096391e+000	-1.38096391e+000
5.55000000e-001	-5.58654376e+001	-8.94689656e+001	-8.94689656e+001	1.05221784e+001	1.05221784e+001	-5.98110818e+001	3.43363488e+001	3.43363488e+001	-1.54077633e+001	-1.54077633e+001
5.56000000e-001	-5.78803999e+001	-7.05939896e+001	-7.05939896e+001	1.62321741e+001	1.62321741e+001	-6.16152758e+001	-6.21432276e+001	-6.21432276e+001	-1.37602772e+001	-1.37602772e+001
5.57000000e-001	-5.87262089e+001	-4.13342319e+001	-4.13342319e+001	2.36129085e+001	2.36129085e+001	-6.29862125e+001	4.69779809e+001	4.69779809e+001	1.18522295e+001	1.18522295e+001
5.58000000e-001	-6.11920929e+001	-7.83140516e+001	-7.83140516e+001	5.34440842e+000	5.34440842e+000	-5.94002952e+001	6.30858429e+000	6.30858429e+000	-2.52857539e+001	-2.52857539e+001
5.59000000e-001	-6.32102216e+001	-6.80937980e+001	-6.80937980e+001	-1.11637504e+001	-1.11637504e+001	-6.45470436e+001	-6.23597568e+001	-6.23597568e+001	-1.50474810e+001	-1.50474810e+001
5.60000000e-001	-6.03988905e+001	6.11465771e+001	6.11465771e+001	-1.49910784e+001	-1.49910784e+001	-6.57169242e+001	5.68631799e+001	5.68631799e+001	4.16292423e+000	4.16292423e+000
5.61000000e-001	-5.70690656e+001	3.69340599e+001	3.69340599e+001	2.26991479e+001	2.26991479e+001	-6.05668412e+001	-2.24388482e+001	-2.24388482e+001	-2.10237032e+001	-2.10237032e+001
5.62000000e-001	-5.34300497e+001	2.27169585e+001	2.27169585e+001	-3.20614936e+001	-3.20614936e+001	-5.72359442e+001	-8.09488072e+001	-8.09488072e+001	-2.08571316e+001	-2.08571316e+001
5.63000000e-001	-6.00871769e+001	3.70281256e+001	3.70281256e+001	-2.40084558e+001	-2.40084558e+001	-6.41493356e+001	3.40364015e+001	3.40364015e+001	-1.84082967e+001	-1.84082967e+001
5.64000000e-001	-5.39147404e+001	1.28508774e+001	1.28508774e+001	-4.20490524e+001	-4.20490524e+001	-5.80047581e+001	-4.21230996e+001	-4.21230996e+001	3.04150328e+001	3.04150328e+001
5.65000000e-001	-6.59097590e+001	6.54605085e+001	6.54605085e+001	4.11225355e+000	4.11225355e+000	-5.56071285e+001	-7.18066031e+001	-7.18066031e+001	1.95380197e+001	1.95380197e+001
5.66000000e-001	-7.14930808e+001	7.09279730e+001	7.09279730e+001	-5.71943864e+000	-5.71943864e+000	-6.33285155e+001	-5.96925699e+001	-5.96925699e+001	1.14275115e+001	1.14275115e+001
5.67000000e-001	-6.12959367e+001	-7.83393538e+001	1.01660646e+002	9.66576581e+000	9.66576581e+000	-6.07991753e+001	1.40151926e+001	1.40151926e+001	1.91879699e+001	1.91879699e+001
5.68000000e-001	-5.65819852e+001	-3.33480005e+001	1.46652000e+002	-3.02789172e+001	-3.02789172e+001	-5.76932652e+001	2.72438375e+001	2.72438375e+001	-2.87254153e+001	-2.87254153e+001
5.69000000e-001	-5.39313073e+001	3.97599741e+001	2.19759974e+002	3.59411407e+001	3.59411407e+001	-6.52528322e+001	3.03477788e+001	3.03477788e+001	-1.04682553e+001	-1.04682553e+001
5.70000000e-001	-5.81494470e+001	-5.06402595e+001	1.29359741e+002	2.26565396e+001	2.26565396e+001	-7.22767234e+001	-2.14070662e+001	-2.14070662e+001	5.88577092e+000	5.88577092e+000
5.71000000e-001	-6.24218244e+001	-1.49108536e+001	1.65089146e+002	2.16990124e+001	2.16990124e+001	-5.63495704e+001	5.20277421e+001	5.20277421e+001	1.17105103e+001	1.17105103e+001
5.72000000e-001	-5.93493775e+001	2.14395048e+001	2.01439505e+002	-1.70687450e+001	-1.70687450e+001	-6.00575456e+001	-7.88846101e+001	1.01115390e+002	8.45387926e+000	8.45387926e+000
5.73000000e-001	-5.98623826e+001	-5.99561645e+001	1.20043835e+002	-1.62484556e+001	-1.62484556e+001	-5.92771404e+001	3.24253391e+001	2.12425339e+002	-1.39230028e+001	-1.39230028e+001
5.74000000e-001	-6.04601577e+001	-7.55234407e+001	1.04476559e+002	1.11707073e+001	1.11707073e+001	-6.38405929e+001	8.37507433e+001	2.63750743e+002	-4.06951762e+000	-4.06951762e+000
5.75000000e-001	-5.20739930e+001	-5.13831991e+001	1.28616801e+002	-5.10361736e+001	-5.10361736e+001	-7.50849271e+001	-2.08800673e+001	1.59119933e+002	4.48426915e+000	4.48426915e+000
5.76000000e-001	-6.03965279e+001	1.78195294e-001	1.80178195e+002	2.47590322e+001	2.47590322e+001	-6.65534902e+001	1.83620565e+001	1.98362057e+002	-8.72195308e+000	-8.72195308e+000
5.77000000e-001	-6.32738663e+001	8.78722304e+001	2.67872230e+002	-1.83736921e+000	-1.83736921e+000	-5.84181567e+001	6.73175277e+000	1.86731753e+002	-2.19295733e+001	-2.19295733e+001
5.78000000e-001	-7.22297145e+001	3.65198948e+001	2.16519895e+002	-3.43041343e+000	-3.43041343e+000	-6.20306730e+001	-8.85546886e+001	9.14453114e+001	1.28177000e+000	1.28177000e+000
5.79000000e-001	-6.97741270e+001	-4.85770489e+001	1.31422951e+002	-6.98620630e+000	-6.98620630e+000	-5.75471067e+001	7.90924517e-001	1.80790925e+002	-3.29399749e+001	-3.29399749e+001
5.80000000e-001	-5.62165438e+001	-2.11206770e+001	1.58879323e+002	-4.60082811e+001	-4.60082811e+001	-5.95322899e+001	-2.92139240e+001	1.50786076e+002	-2.04147197e+001	-2.04147197e+001
5.81000000e-001	-5.74476830e+001	3.58247402e+000	1.83582474e+002	3.47206638e+001	3.47206638e+001	-5.87688877e+001	-2.73126594e+001	1.52687341e+002	2.63027676e+001	2.63027676e+001
5.82000000e-001	-5.84407395e+001	1.37826875e+001	1.93782687e+002	3.33083027e+001	3.33083027e+001	-5.49560076e+001	-6.98907561e+001	1.10109244e+002	2.85519697e+001	2.85519697e+001
5.83000000e-001	-7.39222716e+001	-3.52968049e+001	1.44703195e+002	4.01320902e+000	4.01320902e+000	-5.36119377e+001	-4.04326274e+001	1.39567373e+002	3.48826782e+001	3.48826782e+001
5.84000000e-001	-6.11849908e+001	8.10439218e+000	1.88104392e+002	1.94379460e+001	1.94379460e+001	-5.31890606e+001	-4.60428926e+001	1.33957107e+002	-3.31292939e+001	-3.31292939e+001
5.85000000e-001	-6.49320672e+001	8.14938229e+001	2.61493823e+002	3.92045657e-001	3.92045657e-001	-6.42498022e+001	-3.16707006e+001	1.48329299e+002	-1.21347385e+001	-1.21347385e+001
5.86000000e-001	-6.20844798e+001	7.36510474e+001	2.53651047e+002	-8.89462882e-001	-8.89462882e-001	-6.73097667e+001	-6.83142934e+001	1.11685707e+002	4.00941059e+000	4.00941059e+000
5.87000000e-001	-6.88291427e+001	5.31114168e+001	2.33111417e+002	4.32472899e+000	4.32472899e+000	-5.71779915e+001	5.64784998e+001	2.36478500e+002	1.52184550e+001	1.52184550e+001
5.88000000e-001	-5.82366519e+001	-7.66270122e+001	1.03372988e+002	-6.71255324e+000	-6.71255324e+000	-5.83418722e+001	-6.30474871e+001	1.16952513e+002	-1.70555543e+001	-1.70555543e+001
5.89000000e-001	-5.60216617e+001	-9.25777181e+000	1.70742228e+002	2.92617215e+001	2.92617215e+001	-5.63917844e+001	2.27982026e+001	2.02798203e+002	-2.62061712e+001	-2.62061712e+001
5.90000000e-001	-6.16181100e+001	-8.50843172e+001	9.49156828e+001	-2.18675160e+000	-2.18675160e+000	-5.56414745e+001	-6.58361662e+001	1.14163834e+002	-3.45695123e+001	-3.45695123e+001
5.91000000e-001	-5.54508758e+001	4.68559938e+001	4.68559938e+001	-1.70493916e+001	-1.70493916e+001	-6.41258705e+001	5.18616246e+000	1.85186162e+002	1.10653437e+001	1.10653437e+001
5.92000000e-001	-7.40078483e+001	-4.28731680e+001	-4.28731680e+001	-3.80051168e+000	-3.80051168e+000	-6.31094705e+001	-9.01131831e+000	1.70988682e+002	1.64938517e+001	1.64938517e+001
5.93000000e-001	-5.90299295e+001	-5.77446810e+001	-5.77446810e+001	-1.70633611e+001	-1.70633611e+001	-6.21152848e+001	5.25285957e+001	2.32528596e+002	1.08659259e+001	1.08659259e+001
5.94000000e-001	-6.05490407e+001	5.29870346e+001	5.29870346e+001	1.25319147e+001	1.25319147e+001	-5.51987819e+001	-3.75971219e+001	1.42402878e+002	-2.93165724e+001	-2.93165724e+001
5.95000000e-001	-6.43235568e+001	7.71396586e+001	7.71396586e+001	4.41537310e+000	4.41537310e+000	-6.67998060e+001	-2.00380399e+001	1.59961960e+002	-1.49658913e+001	-1.49658913e+001
5.96000000e-001	-6.03222583e+001	8.16119303e+001	8.16119303e+001	-1.26251475e+000	-1.26251475e+000	-6.38707069e+001	3.22611267e+001	2.12261127e+002	1.39493999e+001	1.39493999e+001
5.97000000e-001	-6.76175498e+001	1.90815655e+001	1.90815655e+001	7.60573941e+000	7.60573941e+000	-6.14589037e+001	-6.76172491e+001	1.12382751e+002	-9.74223453e+000	-9.74223453e+000
5.98000000e-001	-6.20998041e+001	2.80783519e+000	2.80783519e+000	-1.81935081e+001	-1.81935081e+001	-6.52041259e+001	-4.93378694e+001	1.30662131e+002	1.25464917e+001	1.25464917e+001
5.99000000e-001	-5.93976771e+001	-3.61869944e+001	-3.61869944e+001	2.12456037e+001	2.12456037e+001	-6.62385582e+001	-6.86203325e+001	1.11379667e+002	7.90507602e+000	7.90507602e+000
6.00000000e-001	-6.19729713e+001	-6.27434212e+001	-6.27434212e+001	1.68358342e+001	1.68358342e+001	-5.77052065e+001	-7.60920501e+001	1.03907950e+002	-1.65916106e+001	-1.65916106e+001
6.01000000e-001	-6.19956120e+001	-1.71429199e+001	-1.71429199e+001	-2.17670244e+001	-2.17670244e+001	-6.38817805e+001	8.89898144e+001	8.89898144e+001	3.68984208e-001	3.68984208e-001
6.02000000e-001	-5.94870010e+001	3.46335196e+001	3.46335196e+001	2.40727785e+001	2.40727785e+001	-6.18094076e+001	-7.18931097e+001	1.08106890e+002	6.81735740e+000	6.81735740e+000
6.03000000e-001	-6.52789953e+001	5.81571683e+000	5.81571683e+000	1.31059259e+001	1.31059259e+001	-5.81360267e+001	5.65201354e+001	2.36520135e+002	1.04058225e+001	1.04058225e+001
6.04000000e-001	-5.42660915e+001	-6.73845155e+001	-6.73845155e+001	2.03615147e+001	2.03615147e+001	-6.11023818e+001	7.57553067e+001	2.55755307e+002	-1.18889077e-001	-1.18889077e-001
6.05000000e-001	-6.01142714e+001	7.85516370e+001	-1.01448363e+002	4.05187185e-001	4.05187185e-001	-6.13760029e+001	-6.57208363e+001	2.94279164e+002	9.52919651e+000	9.52919651e+000
6.06000000e-001	-5.68488973e+001	-3.99716075e+001	-2.19971607e+002	-2.80539156e+001	-2.80539156e+001	-6.58506172e+001	-2.68924364e+001	3.33107564e+002	-1.01015383e+001	-1.01015383e+001
6.07000000e-001	-6.39880798e+001	-4.72004109e+001	-2.27200411e+002	1.30439416e+001	1.30439416e+001	-5.67394722e+001	8.89771589e+001	4.48977159e+002	-6.13460299e-001	-6.13460299e-001
