!Keysight Technologies,M9374A,MY55442783,A.12.55.05
!Date: Wednesday, May 19, 2021 18:41:43
!Correction: S11(Full 2 Port(1,2)) 
!S21(Full 2 Port(1,2)) 
!S12(Full 2 Port(1,2)) 
!S22(Full 2 Port(1,2)) 
!S2P File: Measurements: S11, S21, S12, S22:
# Hz S  RI   R 50
500000000 -0.87070823 0.056255713 -0.00090225006 -0.0011509543 2.7658757e-006 -0.00062949344 -0.86644602 0.049057048
501000000 -0.87149799 0.054961555 -0.00032180833 -0.00083826319 -9.7917175e-005 -0.0015756666 -0.86582077 0.049986821
502000000 -0.87091911 0.056749463 0.00012736153 -0.0022452166 -0.0010469096 -0.0013111174 -0.86630833 0.049614508
503000000 -0.86985034 0.057208557 -0.0004673106 -0.00081527367 -0.00047174684 -0.0005255359 -0.86658353 0.04966503
504000000 -0.8707937 0.056607477 -0.00092419074 -0.0016493294 -3.8730312e-005 -0.0019769063 -0.86620224 0.050557513
505000000 -0.86935812 0.056649584 -0.00039855018 -0.00068047456 -0.0001734399 -0.00028194074 -0.86536789 0.049905874
506000000 -0.87104821 0.05821294 -0.0012486698 -0.00041987834 -0.00045220778 -0.0013468364 -0.86559743 0.050059203
507000000 -0.8721292 0.056224544 -0.00031042297 1.1016869e-005 0.0002765946 -0.0011452482 -0.86549222 0.049929857
508000000 -0.87116182 0.056625433 0.00055949879 -0.00033587488 0.00024046477 -0.00078269484 -0.86646694 0.048943195
509000000 -0.87015736 0.057093229 -0.001286065 -0.0012301665 0.00042932166 -0.000896763 -0.86508518 0.049044583
510000000 -0.87017971 0.057378411 -5.7529955e-006 -0.0014557982 0.00066247385 -0.0005404852 -0.86413288 0.05011927
511000000 -0.87030846 0.058482099 -0.00035988213 9.1292342e-005 -0.00010437205 -0.0018580109 -0.86505067 0.051060371
512000000 -0.87104499 0.057614625 -0.00037505254 -0.00074254803 0.00088104111 -0.0014809424 -0.86612481 0.049621142
513000000 -0.8693679 0.058896858 0.00011856813 -0.001048166 -0.00041279936 -0.002089357 -0.8656438 0.051385939
514000000 -0.87099952 0.057938788 -0.0008058431 -0.001480157 -0.0007006565 0.00042018059 -0.8656534 0.051172353
515000000 -0.87124425 0.058393113 0.00016073811 -0.00055398827 0.00089963758 -0.00037957856 -0.86535668 0.050892178
516000000 -0.86817241 0.058147255 -2.2132679e-005 -0.0024214089 -0.00031787044 -0.0012131195 -0.86442858 0.052042358
517000000 -0.86993307 0.059241086 0.00053034548 -0.00031672124 0.00037320729 -0.00086822966 -0.86629778 0.051724017
518000000 -0.87178051 0.059912592 0.00032092133 -0.00071764708 0.0002625981 -0.0011792153 -0.8670032 0.051566262
519000000 -0.87103999 0.059309337 -0.00085125805 -0.00048086359 -0.001041927 -0.0012585471 -0.86645281 0.051667556
520000000 -0.8701902 0.058065001 0.00019381825 -0.001323898 -0.00015746502 -0.00037837986 -0.86577457 0.052563827
521000000 -0.87178272 0.05941033 -0.00013732277 -0.0019650862 -0.00062357594 -0.0010519947 -0.86469758 0.052964337
522000000 -0.87079895 0.059172839 -0.00082163734 -0.0011573287 -0.00084295246 -0.00087008096 -0.86482304 0.05290008
523000000 -0.87043107 0.057184275 -0.0010250584 -0.00081703393 -0.00068845821 -0.0021920362 -0.86565828 0.053984005
524000000 -0.87051207 0.058996689 0.0011482935 -0.00098478748 -0.00011116645 -0.00037489537 -0.86482364 0.052727323
525000000 -0.8696028 0.060705837 -0.00041234397 -0.0012772322 -0.00010128773 -0.00042006897 -0.86591381 0.053376663
526000000 -0.87085944 0.061081521 -0.00054207258 -0.0010147211 0.0004932775 0.00071646943 -0.86660707 0.051508512
527000000 -0.87148011 0.058729168 0.00029851924 -9.2053553e-005 -0.001450881 -0.00092360843 -0.86576951 0.054049123
528000000 -0.87041771 0.060869392 -0.00057880621 -0.0010592837 -0.00056397828 -0.00020809421 -0.86574525 0.053918201
529000000 -0.87008387 0.059736382 -4.0593564e-005 -0.0011435273 -0.000333103 -0.00086087122 -0.86478311 0.052266028
530000000 -0.87057185 0.061369937 0.00060323294 -0.0018574789 0.00013947366 -0.0006902825 -0.86575097 0.053141281
531000000 -0.87043566 0.060963213 0.00055912696 -0.0011856223 0.00025828846 -0.0015212757 -0.86533803 0.052285045
532000000 -0.87076479 0.061050076 -0.00071844406 -0.00047996713 0.00065985421 -0.0013047486 -0.86437106 0.052328903
533000000 -0.86978477 0.060255878 5.8200771e-005 -0.00081537571 0.00038549598 -0.00070506148 -0.86595279 0.052809805
534000000 -0.87064731 0.05984896 0.00014172068 -0.00074554258 0.00039981792 -0.00042318823 -0.86580777 0.052961055
535000000 -0.87107736 0.060737178 -0.00068619393 -0.00093841983 -0.00035519732 -0.0014594237 -0.86622214 0.053938463
536000000 -0.87051344 0.059998166 6.2189669e-005 -0.0016461528 0.00010488369 -0.00033371759 -0.86550611 0.05359919
537000000 -0.86888725 0.061104462 0.0007159448 -0.00094922079 0.00068716606 -0.0019809566 -0.86622548 0.052848689
538000000 -0.87158012 0.059921522 0.00044653696 -0.00075186061 0.00078604528 -0.001025624 -0.8646332 0.054050092
539000000 -0.87138671 0.060581531 -0.0001104847 -0.0012243926 -0.00031790001 -0.0019878757 -0.86616135 0.055310555
540000000 -0.87047946 0.060868267 -0.00030388549 -0.0017975571 0.0017628544 -0.0010619662 -0.86532813 0.05466925
541000000 -0.86972612 0.062048353 -0.00066802162 -0.0011626435 -0.00012134937 -0.0014579383 -0.86530781 0.055091117
542000000 -0.87109554 0.062168807 0.00026900007 -0.0012219455 -4.4514218e-007 -0.00056574371 -0.86478978 0.054035868
543000000 -0.87098271 0.060251765 0.00013347376 -0.00030500357 -0.00087224937 -0.0011921118 -0.8646093 0.055226393
544000000 -0.87055039 0.061810683 -0.0010195668 -0.00021884839 -0.00086251739 -0.0017698302 -0.86561072 0.054318491
545000000 -0.8696596 0.060535308 0.00027146243 -0.00073118828 0.00041106128 -9.6455537e-005 -0.8657285 0.054725308
546000000 -0.86933225 0.060282011 -0.00039179201 -0.0012311012 -0.00087529357 -0.001503357 -0.86672187 0.053633619
547000000 -0.87149638 0.060713589 8.7796747e-005 -0.00074013585 0.00046588425 -0.0011159411 -0.86644191 0.053439904
548000000 -0.86968201 0.060576309 -0.00071771711 -0.0017879975 0.00013210552 -0.00070401322 -0.86563474 0.056334492
549000000 -0.86963248 0.062630005 -0.00042424479 -0.001009834 -0.0013471378 -0.0011867399 -0.86660111 0.054951571
550000000 -0.86969507 0.060403723 -0.00042420108 -0.00082464557 0.00044573162 -0.001562837 -0.86415201 0.056613229
551000000 -0.8707794 0.06291163 -0.00059312873 -0.0017804448 -0.00050716236 -0.0012769471 -0.86520672 0.054477289
552000000 -0.86955488 0.061553415 -0.0015022287 -0.00092397112 0.00021560707 -0.00072924548 -0.86586386 0.05493838
553000000 -0.86918581 0.062450483 1.4187525e-006 -8.224816e-005 -0.00043651956 -0.00012642106 -0.86604393 0.054169323
554000000 -0.87085402 0.060755525 0.00024310622 -0.00088007748 -0.00019815112 -0.0018028141 -0.8660925 0.055786408
555000000 -0.87018079 0.061946526 -0.00028522668 -0.00018971862 -0.00039590045 -0.0010438766 -0.86515731 0.056097537
556000000 -0.87065434 0.061688278 3.5076657e-005 -0.0021440894 -0.00098182156 -0.0010055621 -0.86621398 0.055840719
557000000 -0.87098634 0.061475206 -0.00043309946 -0.00089773152 0.00011848718 -0.0012081431 -0.86525273 0.05482072
558000000 -0.87046319 0.062621444 0.00050274719 -0.0013415167 -0.00054512452 -0.0021493104 -0.8660785 0.05712799
559000000 -0.8683427 0.060983527 -5.4405505e-006 -0.0007295016 -0.00066676195 -0.0025659748 -0.86701357 0.055701502
560000000 -0.87020212 0.062455174 -0.00042069016 -0.0013339517 0.0011056468 -0.0020905915 -0.86682665 0.055613164
561000000 -0.86894619 0.063359529 -0.0011295588 -0.00048483434 -9.2274699e-005 -0.0012037713 -0.86572874 0.055295646
562000000 -0.87005419 0.062876761 3.3177948e-005 2.691698e-005 0.0004747785 -0.0017640562 -0.86613035 0.055992167
563000000 -0.86973035 0.062299028 0.00029201299 -0.00094422686 -0.00083871535 -0.00069346686 -0.86538643 0.055365615
564000000 -0.86984348 0.062892951 -0.00054681953 -0.0011478114 -0.00085881399 -0.0017205013 -0.86444455 0.055862043
565000000 -0.87028807 0.063666068 -0.00069807738 -0.0010717695 0.00020796966 -0.0015190262 -0.86544436 0.055406645
566000000 -0.86929262 0.062144425 -0.00033113148 -0.0011673113 0.00031135158 -0.0011739647 -0.8662774 0.05513845
567000000 -0.87125218 0.062454253 -0.00015291388 -0.00067719904 -0.00036626009 -0.0016644266 -0.86730516 0.055349074
568000000 -0.8698473 0.063129939 -0.00040910265 -0.00047216934 -0.00059194193 -0.00084239023 -0.86529291 0.05514564
569000000 -0.86924934 0.062974967 -0.0012765086 -0.0018355284 -0.00072426564 0.000229048 -0.86584115 0.056948077
570000000 -0.86785746 0.064300746 -0.00057080382 -0.00058855687 0.00046992698 -0.0011022846 -0.8653869 0.057628576
571000000 -0.86982828 0.063502178 -0.001022311 -0.0020556068 -0.00075398962 -0.0014096227 -0.86723518 0.055416446
572000000 -0.86889648 0.063710272 -0.00041647712 -0.00077580701 -0.00047924824 -0.0012579982 -0.86446434 0.057090644
573000000 -0.87039548 0.062590286 -4.7212845e-005 -0.0015511076 -0.0001087696 -0.00026761589 -0.8652364 0.057402618
574000000 -0.8695364 0.062925287 -0.0011868002 -0.0020406251 -0.0004602641 -0.0010803862 -0.86766225 0.057005618
575000000 -0.86900061 0.062746488 0.0010051039 -0.0013385592 0.00016843653 -0.0018913492 -0.86591643 0.055718504
576000000 -0.86923856 0.063281566 -0.00051862129 -0.0015685916 -0.0005564125 -0.0012026855 -0.86529803 0.057760365
577000000 -0.86957377 0.063345738 5.4751203e-005 -0.00061976298 -0.001184721 -0.0012229071 -0.86668235 0.057446338
578000000 -0.86998308 0.063512146 -0.00045554488 -0.0016346568 -0.0010264352 -0.0020746107 -0.86419165 0.056923166
579000000 -0.86879736 0.062123679 -0.00010790423 -0.00070438825 -0.00028180092 -0.0012173754 -0.86665052 0.055986036
580000000 -0.86898631 0.063912906 -0.00013164715 -0.00059822836 -0.000160772 -0.0022076564 -0.86427659 0.056724764
581000000 -0.86872107 0.063521139 -0.00013008852 -0.00040247166 -0.00068430108 -0.00053799094 -0.86674327 0.056482781
582000000 -0.86874914 0.06312608 -0.00025759544 -7.0318063e-005 0.0001743217 -0.0012798117 -0.86500907 0.056857105
583000000 -0.86868203 0.06233288 0.00084660709 -0.00069559214 -5.2784748e-005 -0.0012326115 -0.86674815 0.056455579
584000000 -0.86916059 0.064078949 -0.0010187589 -0.00068626873 -0.00056889962 -0.0011712139 -0.8669858 0.058514763
585000000 -0.87087721 0.063813798 0.00025807341 -0.0013178756 0.00027640085 -0.0021093311 -0.86663473 0.056495659
586000000 -0.86907572 0.063994043 0.0010402352 -0.0016521326 -0.00072440307 -0.0010079631 -0.86534864 0.058152575
587000000 -0.86953378 0.063768744 -0.00040645132 -0.0010595158 0.00057763781 -0.00086668209 -0.8644008 0.05804627
588000000 -0.86929518 0.064599022 -0.0016528665 -0.0011984963 -0.00068251946 -0.00015178091 -0.86449313 0.058208711
589000000 -0.87254685 0.064776242 6.8395748e-005 -0.0015703073 -0.0011416157 -0.00077883486 -0.86775815 0.057702448
590000000 -0.87000376 0.065093838 -0.00075779838 -0.00038352481 9.4557254e-005 -0.00056335476 -0.86535448 0.057537392
591000000 -0.86935854 0.064565189 0.00014127941 -0.0012430822 -0.00019566699 -0.00064734864 -0.86351246 0.056669246
592000000 -0.86919707 0.064148016 -0.00054205739 -0.0028278846 0.00018942851 -0.0011952772 -0.86552584 0.057534054
593000000 -0.86957371 0.064692073 0.00055898644 -0.00065775623 -0.00031108147 -0.0018608178 -0.86493599 0.057969589
594000000 -0.86994898 0.065546453 0.0003538531 -0.0016608657 -0.00064853556 -0.00081746868 -0.86624151 0.058893386
595000000 -0.86948228 0.065456234 7.7735494e-005 -0.00090383366 -0.00020353013 -0.00024745867 -0.86674821 0.058575977
596000000 -0.86947179 0.063768014 1.6211048e-005 -0.0014092814 -0.00012025821 -0.0010931061 -0.86518836 0.058705449
597000000 -0.86927366 0.066004023 0.00080518663 -0.0015304809 0.00012523097 -0.0010253974 -0.8666265 0.05765165
598000000 -0.86926985 0.065297343 0.0001688498 -0.00053810515 0.00082074007 -0.00014851276 -0.86685753 0.059148461
599000000 -0.86886835 0.064717591 -0.00038920838 -0.0029926826 0.000428372 -0.0011442619 -0.86688155 0.058172118
600000000 -0.86906964 0.066498049 0.00028707401 -0.00056158146 0.00063119113 -0.00169004 -0.86730933 0.059722476
601000000 -0.86819667 0.067019776 0.00065044785 -0.0021392049 -0.0014392225 -0.0013247284 -0.86501169 0.058896367
602000000 -0.87041694 0.066465005 -0.0010227261 -0.00087067956 -0.00079972076 -0.0020754009 -0.86605048 0.058148552
603000000 -0.86912239 0.064706475 0.00063160446 -0.00092059682 -0.00089948287 -0.001682278 -0.86601734 0.058146149
604000000 -0.86972576 0.066395491 -0.00017287106 -0.00063285657 -0.00081706769 -0.00097516039 -0.86431891 0.059134677
605000000 -0.86828172 0.066891812 3.9914012e-005 -0.0012309069 0.00024247169 -0.0009173507 -0.86472338 0.057223517
606000000 -0.86991227 0.066424213 0.00016624579 -0.0017390397 -0.00036208789 -0.0025525987 -0.86539721 0.060273234
607000000 -0.87012249 0.066537276 0.000284104 0.00038674739 -0.000203758 -0.0014691603 -0.8641246 0.058301326
608000000 -0.86686546 0.0667345 -0.00092351338 -0.0015697767 -0.00067420339 -0.0011389428 -0.86498964 0.058076374
609000000 -0.87020642 0.068038672 6.637608e-005 -0.00044954152 0.00018791523 -0.0015220979 -0.86491907 0.060218439
610000000 -0.8674143 0.066967383 -0.00030919097 -0.00066789542 -0.00013122444 -0.0017112902 -0.86264938 0.059621733
611000000 -0.86954129 0.067067683 -0.0010518294 -0.0012589488 7.9417332e-005 -0.00096751063 -0.86693764 0.05961436
612000000 -0.87008876 0.06786748 -0.00016899304 -0.0017145489 -9.5420815e-005 -0.0019093852 -0.8653509 0.060097933
613000000 -0.86800069 0.066812821 0.00038276747 -0.00079276395 1.9766905e-005 -0.00050813163 -0.86537522 0.059208263
614000000 -0.8687107 0.067897879 -0.0011512527 -0.0011460452 -0.0002692386 -0.001609295 -0.86458147 0.060351364
615000000 -0.86987537 0.069411807 -0.00067572092 0.00054313999 0.00030453553 -5.7706748e-005 -0.86453015 0.05934146
616000000 -0.86885333 0.068089239 -3.4405992e-005 -0.0015617028 -0.00076514267 -0.0012144713 -0.86556512 0.061454315
617000000 -0.86920935 0.068705663 -0.0017133545 -0.00044477885 -0.00030878911 -0.00066637871 -0.86400449 0.062251259
618000000 -0.86832762 0.06992995 -0.00094488822 -0.00140226 -0.00063818286 -0.0005829233 -0.86566526 0.059000082
619000000 -0.86852598 0.070105374 -0.00024286231 -0.00053153862 0.0010369929 -0.001321937 -0.86401141 0.060849752
620000000 -0.86839622 0.068364099 -0.0018517328 -0.00047183785 -0.0005224974 -0.0015877403 -0.86522013 0.060521919
621000000 -0.87092036 0.070352398 6.1981715e-005 -0.00099048205 -0.0004891812 -0.0009182471 -0.8629179 0.061219968
622000000 -0.86893344 0.068740129 -0.0018201631 -0.00084254111 -0.00036432676 -0.0010562615 -0.86526513 0.059675228
623000000 -0.86948514 0.069898091 -0.0007513396 -0.0014389579 -0.00020733809 -0.00061623717 -0.8657822 0.061091196
624000000 -0.86872929 0.070305817 0.00099298207 -0.0011595637 -0.00061033608 -0.0014303121 -0.86472601 0.061156068
625000000 -0.8702482 0.070657387 -0.00031047713 -0.00085471099 0.00034540336 -0.0016416317 -0.864663 0.061465364
626000000 -0.86947531 0.071421705 0.00010731259 -0.0017189286 -0.00028560354 -0.00060823606 -0.86460149 0.062224217
627000000 -0.86924803 0.071947008 -0.0010140031 -0.0016861593 0.00011327177 -0.00050743629 -0.86486173 0.059749596
628000000 -0.86860299 0.070344575 -0.0011411144 -0.00055992219 -0.00049552857 -0.0017841232 -0.86514813 0.061300892
629000000 -0.86950505 0.06888061 -2.0445867e-005 -0.0010120573 -0.0012324207 -0.00037891784 -0.86431164 0.063170165
630000000 -0.86786139 0.072132356 -0.0014876993 -0.00087714556 -0.00010567004 -0.0012651773 -0.86367011 0.063280992
631000000 -0.86900741 0.071718119 -2.9528888e-005 -0.00046207671 -0.00095132698 -0.0013922791 -0.86511511 0.061935417
632000000 -0.86790597 0.07253103 -0.00098704116 -0.00052912522 0.00014732493 -0.0014536286 -0.86438215 0.061104756
633000000 -0.86709207 0.072463073 0.00073349581 -0.0020171762 0.00038317862 -0.0016424032 -0.86536318 0.061160728
634000000 -0.86702359 0.071779519 0.00033390077 -0.00075477053 0.0005251093 -0.0011709081 -0.86640829 0.062926896
635000000 -0.86889946 0.071959235 -0.00047620764 -0.00098826853 9.8213161e-005 -0.0017757799 -0.86531085 0.061811637
636000000 -0.8691594 0.071433768 -0.00018005288 -0.0014803561 -0.0010612655 -0.0014757972 -0.8661446 0.062916622
637000000 -0.86818242 0.071889952 -0.00023165284 -0.0020506196 -0.00025274264 -0.0017701925 -0.86519146 0.063679546
638000000 -0.86836362 0.071528494 -0.00016980262 -0.0015629699 -0.00012553784 -0.0012004849 -0.86537331 0.061738782
639000000 -0.86996579 0.072183467 -0.0011818345 -0.0019005522 -0.00034885106 -0.0011506572 -0.86441886 0.063397177
640000000 -0.86726266 0.072876081 -0.00025986022 -0.00049899158 -2.4950607e-005 -0.0022226542 -0.86314964 0.062216081
641000000 -0.8676458 0.071313158 0.00060546148 -0.0017053549 -9.017258e-005 -0.001346743 -0.86394298 0.062491715
642000000 -0.86784774 0.072765276 -5.2477208e-005 -0.0016216215 -0.00035298319 -0.0015677029 -0.86562639 0.063128628
643000000 -0.86942178 0.072941281 -0.0002253626 -0.00054977718 -0.0010010796 -0.0017564384 -0.86413634 0.06380257
644000000 -0.86782038 0.071040936 -0.00075974804 -0.0016139431 -0.00038157962 -0.0021221747 -0.86624378 0.063777059
645000000 -0.86921024 0.072940759 -0.00015007108 -0.0013547684 -0.00043214267 -0.00065231929 -0.86549091 0.061938033
646000000 -0.86770874 0.072354138 0.00014438432 -0.00081982778 -0.00022670129 -0.0014456126 -0.86411196 0.064051278
647000000 -0.86856884 0.074842438 -0.00026121354 -0.001213595 0.00096491392 -0.00098680565 -0.86491859 0.063348927
648000000 -0.86820745 0.072821133 -0.00098887261 -0.00051809539 0.00014422748 -0.0016124218 -0.86421716 0.06416823
649000000 -0.86775321 0.074890755 -0.0013024333 -0.0011903746 5.4942084e-005 -0.0022716532 -0.86442608 0.064101875
650000000 -0.86854744 0.072375357 -2.694762e-005 -0.00042870871 5.4650704e-005 -0.0015643027 -0.86354625 0.064314529
651000000 -0.86769134 0.073872991 -0.00084342161 -0.0016464242 -0.00058955979 -0.0013408061 -0.86348128 0.063697167
652000000 -0.86796296 0.074769832 -0.00047644993 -0.0019392488 -0.00055240915 -0.0012276977 -0.86450666 0.063376412
653000000 -0.86916894 0.07494355 -0.00015056469 -0.0012114084 -0.0001358835 -0.0018526735 -0.86464661 0.063535266
654000000 -0.86792725 0.075561158 -0.00030685964 -0.0012973086 -0.0007749254 -0.00046957037 -0.86531222 0.063951567
655000000 -0.8699261 0.07399027 -0.00087774306 -0.0017599704 -0.00024271874 -0.0016451268 -0.8634764 0.064852796
656000000 -0.86901629 0.073539592 5.052238e-005 -0.0013088608 -0.00053767505 -0.0014278011 -0.86595154 0.06306649
657000000 -0.86711144 0.075682141 -0.00094962219 -0.0019059669 -0.0002187451 -0.00053090072 -0.86405802 0.064294323
658000000 -0.86897516 0.075212888 -0.00088219857 -0.0013255582 -0.00040813157 -0.0020563775 -0.86558682 0.06441614
659000000 -0.86747015 0.073629513 -0.00017059075 -0.00044390239 0.00089441042 -0.0019784085 -0.86380821 0.063926667
660000000 -0.8684389 0.075316869 0.00041072315 -0.00048234451 -0.00082482764 -0.0019369028 -0.8636179 0.063343965
661000000 -0.86791945 0.074478403 -9.0920854e-005 -0.00055683847 -0.00013367883 -0.0012555243 -0.86491632 0.065286696
662000000 -0.86855119 0.073896073 -0.00011042602 -0.0015358707 -0.00048396862 -0.0016221965 -0.86609954 0.064567588
663000000 -0.8702119 0.075593814 0.00038794539 -0.00086008105 -0.00041457481 -0.0013233658 -0.8630197 0.063989162
664000000 -0.86806226 0.07522627 0.00049683318 -0.0015864231 -0.00064349209 -0.0011350471 -0.86527377 0.066299371
665000000 -0.86727375 0.076322109 9.063202e-005 -0.0021838893 -0.00031113971 -0.0011345054 -0.86545718 0.06530451
666000000 -0.8693943 0.073901005 -0.00085229782 -0.0016200899 0.00050425355 -3.8739068e-005 -0.8647002 0.064690843
667000000 -0.86778957 0.073798485 0.00030092153 -0.0016220306 0.00027858932 -0.0013088742 -0.86450684 0.064799517
668000000 -0.86849391 0.075211808 -0.0011854267 -0.0019540426 0.00030197186 -0.0011996365 -0.86519569 0.0646189
669000000 -0.86791134 0.075220697 1.9305942e-006 -0.0015003637 -9.6197189e-005 -0.00067038601 -0.86355537 0.065058447
670000000 -0.86682189 0.075616635 0.00079352281 -0.00072403951 -5.0709994e-005 -0.00061282981 -0.86395782 0.065231659
