!Keysight Technologies,M9374A,MY55442783,A.12.55.05
!Date: Wednesday, May 19, 2021 18:16:04
!Correction: S11(Full 2 Port(1,2)) 
!S21(Full 2 Port(1,2)) 
!S12(Full 2 Port(1,2)) 
!S22(Full 2 Port(1,2)) 
!S2P File: Measurements: S11, S21, S12, S22:
# Hz S  RI   R 50
500000000 -0.86953247 0.058814753 -0.00022652725 -0.001872447 0.00059614691 -0.0012251979 -0.86531323 0.052138906
501000000 -0.87186664 0.061496727 3.5643396e-005 -0.00038761541 -0.00082520058 -0.0014586953 -0.86478662 0.050547808
502000000 -0.87031758 0.059520286 -0.0010148174 -0.001228209 -0.00064257911 -0.0017076731 -0.86518985 0.053397439
503000000 -0.86720848 0.059495553 0.00080238841 -0.0010532292 -0.0013083228 -0.00084922317 -0.86538488 0.053953357
504000000 -0.86869848 0.059410356 -0.00097997964 -0.0012419076 -0.00057967415 -0.0025226148 -0.86615276 0.052589681
505000000 -0.86860651 0.060217395 0.00057412568 -0.001758926 -0.00067418366 -2.2603346e-005 -0.86702478 0.052301735
506000000 -0.87069023 0.059926093 -0.00025008779 -0.0011644681 2.6884498e-005 -0.00088390085 -0.86617351 0.053855836
507000000 -0.86878008 0.06265898 -0.00030782379 -0.00058806455 -0.0012762566 -0.00054497906 -0.86402297 0.053577773
508000000 -0.87140054 0.062115874 -0.00065324397 -0.0013346176 -0.0011761928 -0.00013164002 -0.86390013 0.052505128
509000000 -0.86924273 0.060830578 0.00014792303 -0.0024507483 -0.0013186689 -0.00084307237 -0.86423862 0.054193608
510000000 -0.87201077 0.062629499 -0.00018677884 -0.00097142253 -2.8114669e-005 -0.0012317908 -0.8639437 0.05475026
511000000 -0.86913675 0.061375279 0.00068765791 -0.0012594037 0.0006325338 -0.00038696721 -0.86590344 0.053047758
512000000 -0.87054968 0.063035697 0.00048580358 -0.00022147814 8.0472346e-005 -0.00067657966 -0.8656863 0.054358859
513000000 -0.87158543 0.060029317 0.00015538589 -0.0010495215 0.0003326562 0.00057172519 -0.86391145 0.052456576
514000000 -0.87163919 0.062176127 0.00053419912 -0.0010144942 9.1774971e-005 -0.0012841284 -0.86428434 0.053912252
515000000 -0.87064934 0.06147052 -3.9905361e-005 -0.00027185801 -0.00041356488 -0.00045508999 -0.86578959 0.056230418
516000000 -0.87011695 0.061674524 -0.0011725854 -0.0019643202 -0.00058216671 -0.0020677666 -0.86528677 0.055400919
517000000 -0.87147915 0.062608086 0.00028893803 -0.0011376464 -5.6671379e-005 -0.001103771 -0.86433184 0.053849112
518000000 -0.86872995 0.062240381 -0.00030701753 -0.00068737729 -0.00052051689 -0.0017212757 -0.8640998 0.054716285
519000000 -0.86963981 0.06285955 7.1818889e-005 -0.0018625896 -3.4498244e-005 -0.0018936467 -0.86536723 0.056330804
520000000 -0.87072837 0.062388126 -0.00078955659 -0.0013656988 0.00041735845 -0.0017590299 -0.86532193 0.054876
521000000 -0.8701964 0.06151484 -0.00041782792 -0.00044172569 -0.00037543135 -0.00092262361 -0.86500829 0.05523454
522000000 -0.86852384 0.062094573 4.7672122e-005 -0.0016162767 0.00065083982 -0.0016396855 -0.86453032 0.054822646
523000000 -0.86948538 0.060784977 -0.00015767106 -0.00061261281 -0.00016335594 -0.00058352755 -0.86517006 0.055994932
524000000 -0.87155426 0.064209253 -0.00031968454 -0.0012211333 0.0012265675 -0.0012915448 -0.86522472 0.054845147
525000000 -0.87029624 0.064067483 -0.00062177441 -0.00085479114 -9.343573e-005 -0.00089422869 -0.86600107 0.056719881
526000000 -0.86991471 0.06373094 -0.00033122711 -0.0019868044 0.00034973453 -0.00041533931 -0.86437529 0.057082668
527000000 -0.8697843 0.063458718 -0.00024817506 -0.00056345621 0.0001906564 -0.00099756836 -0.86617923 0.055394962
528000000 -0.86921436 0.065477237 -0.00068275281 -0.0010502839 -0.00034439497 -0.00030179194 -0.86408269 0.055418052
529000000 -0.87031913 0.063803554 -0.00012235505 -0.0014726529 -0.00072786276 -0.0014521568 -0.86419803 0.056706872
530000000 -0.86842251 0.063265555 -0.00031878194 -0.00086498266 8.7157961e-005 -0.00013724489 -0.86519986 0.055525865
531000000 -0.87116814 0.063756116 -7.3663003e-005 -0.00096687936 0.00023616923 -0.0013436557 -0.86580157 0.056677025
532000000 -0.8694616 0.062845044 -0.00036437213 -0.00060079858 -0.00070567691 -0.00095994357 -0.86472952 0.057142742
533000000 -0.86997467 0.063570373 -0.00052954932 -0.0012485749 0.0003677145 -0.0011749952 -0.86487573 0.05799925
534000000 -0.86874145 0.063650645 -0.0001150933 -0.0014359379 0.00013413469 -0.0014081309 -0.86465383 0.056709643
535000000 -0.86875641 0.06482558 -0.0012404673 -0.0018887895 -0.00014731674 -0.0011734333 -0.86589116 0.055109512
536000000 -0.87102067 0.06355229 -0.00025474516 -0.0016619472 -6.4317843e-005 -0.00084752147 -0.863958 0.057322416
537000000 -0.86976206 0.06357114 -0.00060888502 -0.00013713818 -0.00014301228 -0.0011190375 -0.86596638 0.057413492
538000000 -0.8689934 0.064688854 -0.0011935302 0.00022352753 0.00020165285 0.00045932399 -0.86450869 0.056337785
539000000 -0.87032562 0.065466702 -0.00010258907 -0.0010070866 -0.00040057077 -0.00033026614 -0.86409378 0.057838701
540000000 -0.86864388 0.064686596 -0.0003403216 -0.0013230126 0.00058536325 -0.0013489468 -0.86459017 0.059115112
541000000 -0.86979938 0.066467956 -0.00052094564 -0.00072607974 -0.00077830633 -0.0012853385 -0.86487794 0.056205604
542000000 -0.86842787 0.064463101 -0.00019461945 -0.0017169542 -0.00014206633 -0.0019866053 -0.86516422 0.055728447
543000000 -0.86902064 0.06490396 -0.00021718546 6.5701665e-006 0.0013310277 -0.0012680144 -0.86524498 0.058845297
544000000 -0.86876297 0.064174891 0.0013730599 -0.0021443884 -0.0011776284 -0.0004198305 -0.86570686 0.058225639
545000000 -0.86903989 0.0659592 -8.5967167e-006 -0.0016337232 -0.00048798879 -0.00073272671 -0.86504775 0.057799365
546000000 -0.87117112 0.064426191 0.00037425201 -0.0010830993 2.48455e-005 -0.0025773619 -0.86512333 0.057991926
547000000 -0.87018669 0.064924911 -0.00016879756 -0.0018689282 0.00064242841 -0.00075671898 -0.86505234 0.05893876
548000000 -0.86802882 0.06501013 -0.00067828858 -0.0028552569 0.00016306409 -0.0020139089 -0.86559677 0.057891704
549000000 -0.86872107 0.06577599 -0.00028612767 -0.0014301325 0.00025077854 -0.0020154119 -0.86492509 0.058826607
550000000 -0.86887199 0.065042183 -0.0003130867 -0.00037619399 -0.00052310899 -0.0013787465 -0.86462581 0.058900077
551000000 -0.87008274 0.065390855 -0.00084964168 -0.0011978245 -0.00049843651 -0.0016503893 -0.86541319 0.058143839
552000000 -0.87039077 0.066429548 -5.3389642e-005 -0.0011401809 -0.00052728108 -0.0011658856 -0.86421394 0.058699865
553000000 -0.86940241 0.066218123 -0.00033116181 -0.0017902551 3.8568618e-005 -0.0006715621 -0.86544991 0.056342483
554000000 -0.86996871 0.064126298 -0.00064016622 -0.0021334863 0.00024281828 -0.0016755379 -0.86611313 0.05727208
555000000 -0.86931288 0.064999349 0.00087233918 -0.00068062375 -1.218993e-006 -0.0013683357 -0.86381423 0.059344906
556000000 -0.86988717 0.066066727 -0.00060190517 -0.0010064857 -0.00033414128 -0.0013923721 -0.86496949 0.057935636
557000000 -0.87001503 0.064883433 3.7284299e-005 -0.0016063249 0.00065902347 -0.00092397799 -0.8661018 0.057954747
558000000 -0.86886799 0.065071106 -0.00035990338 -0.0010705389 -0.0003417086 -0.0021841847 -0.86584389 0.059307318
559000000 -0.86855423 0.066577852 0.0010769381 -0.00027045913 -0.00056845817 -0.0014191805 -0.86581147 0.059007399
560000000 -0.87053221 0.066852354 0.00024881389 -0.0017436448 -0.00013247984 -0.0013672741 -0.86337483 0.059182368
561000000 -0.86991692 0.066835314 -0.00041973605 -0.0009869152 -0.00053604587 -0.0016278181 -0.86432225 0.059402831
562000000 -0.86853606 0.067074873 -9.577311e-005 -0.0010791628 -0.00030509866 -0.00033659404 -0.86464554 0.05760546
563000000 -0.8687712 0.066893555 0.0009090146 -0.0014100487 -0.00084659533 -0.0021701462 -0.86514884 0.060723886
564000000 -0.86966008 0.066042304 -0.0004603877 -0.00052031415 0.00088358379 -0.0023965386 -0.86527628 0.059760723
565000000 -0.86870503 0.066756278 -0.00035422819 -0.0019582477 0.00014285333 -0.0012517923 -0.86307138 0.057315998
566000000 -0.86915749 0.065670051 1.0156971e-005 -0.0018214295 -0.00062720635 -0.0007543994 -0.86532879 0.058509391
567000000 -0.87012184 0.067952089 0.00026638649 -0.0011978569 -0.00065239082 -0.0010636922 -0.86451072 0.057606298
568000000 -0.86862946 0.066246383 -7.7757377e-006 -0.0017683513 0.0011221492 -0.0013295073 -0.86600083 0.059413906
569000000 -0.86764878 0.067564204 -0.00071275793 -0.0012723607 0.0012974245 -0.0015001259 -0.86468482 0.059241321
570000000 -0.86939543 0.066611521 0.00014706282 -0.00061512867 -0.0001104789 -0.00090532657 -0.86337584 0.05999127
571000000 -0.86881173 0.066796698 0.00069330039 -0.0015127781 -0.0001124449 -0.00089247769 -0.86469895 0.060128473
572000000 -0.86699671 0.066358134 -0.00038426183 -0.0011674608 0.00065902929 -0.001142748 -0.86396396 0.06059625
573000000 -0.86733168 0.065995477 -1.974193e-005 -0.0014379673 9.5569259e-005 -0.001327555 -0.86299151 0.059376527
574000000 -0.8689658 0.066243343 -0.00022679623 -0.0014180165 -0.00013041437 -0.0012359613 -0.86520648 0.059643485
575000000 -0.86964899 0.066504359 -7.0878043e-005 -0.0015815865 -0.00029434368 -0.0010171435 -0.86490101 0.060748342
576000000 -0.86886555 0.067781553 -0.00020171427 -0.0011210195 -0.00053812168 -0.0012971703 -0.86356854 0.058929361
577000000 -0.86921394 0.066946454 -0.00032236887 -0.00037752066 -0.00029793422 -0.00060217164 -0.86460793 0.059993442
578000000 -0.86875498 0.066818729 0.0012622459 -0.0012245965 -0.00023822807 -0.0015996613 -0.86387587 0.059604958
579000000 -0.86857092 0.067540437 -0.00024056314 -0.00092597108 -0.00017594364 -0.00087187102 -0.86460102 0.05971558
580000000 -0.86931765 0.065747701 -0.00047598351 -0.0014373318 -0.00024128774 -0.0016760342 -0.8644374 0.060864422
581000000 -0.86915016 0.067858681 3.3166165e-005 -0.00061845942 0.0001445925 -0.00099429407 -0.86652774 0.060889553
582000000 -0.868698 0.066859089 -0.00050827191 -0.00081085757 -0.0011102103 -0.0015551599 -0.86564469 0.061437231
583000000 -0.87016147 0.067804061 0.00030612902 -0.00082129217 0.00037081615 -0.0013080802 -0.86464733 0.060291387
584000000 -0.86907184 0.067477234 -0.00099139311 -0.0013275073 -0.00038579453 -0.00084452325 -0.86469924 0.061171792
585000000 -0.86871964 0.068184003 0.00050505035 -0.001637066 -0.00048912375 -0.0017614238 -0.86560988 0.062374268
586000000 -0.87014979 0.069423124 -0.00028927749 -0.0015025989 -0.00046132863 -0.0015514814 -0.86582762 0.06005121
587000000 -0.86972189 0.068539001 -2.9958661e-005 -0.0011779005 -0.00017801477 -0.00085579575 -0.86389023 0.061543114
588000000 -0.86879832 0.066182822 -0.0011079578 -0.0011007239 0.00025627689 -0.001610513 -0.86584592 0.061964467
589000000 -0.86956346 0.068036102 0.00015655156 -0.0008006522 -0.00061315327 -0.0019096248 -0.86484897 0.060506608
590000000 -0.86979556 0.068648107 0.00015728924 -0.0019654739 -0.00020875227 -0.0011365562 -0.86342376 0.062489867
591000000 -0.86911893 0.069000155 -0.00054717541 -0.00094882934 -0.00016673697 -0.0015660836 -0.86404341 0.061521254
592000000 -0.86883587 0.068851396 -5.735378e-005 -0.00165997 0.00032242943 -0.0013057415 -0.86475879 0.061601613
593000000 -0.86961466 0.06832087 0.0013014086 -0.0021410345 -0.0010749942 -0.00018924879 -0.86574566 0.060520206
594000000 -0.86890084 0.067970581 -0.00035689701 -0.00075276656 -0.00062266167 -0.000952931 -0.86464685 0.061824299
595000000 -0.86840552 0.067481756 0.00011259501 -0.0016744365 0.00032346573 -0.0021144862 -0.86505926 0.061350044
596000000 -0.86995357 0.069357455 8.9496454e-005 -0.0010047986 -0.00030089679 -0.0013454696 -0.86467868 0.06131085
597000000 -0.87009603 0.070007555 -0.0004748819 -0.0014488429 0.00055636012 -0.0014628285 -0.86379617 0.061222911
598000000 -0.86918861 0.068896823 -0.00048647259 -0.00017038753 -0.00044951247 -0.0026450672 -0.86622715 0.060943697
599000000 -0.86917627 0.069922723 0.00075615296 -0.0015690025 0.00066013652 -0.0011937489 -0.86329478 0.061904468
600000000 -0.86776477 0.071149841 -0.00023015041 -0.0019704946 -0.0002056505 -0.0007159005 -0.8654542 0.061385296
601000000 -0.86848891 0.069956578 0.00058775052 -0.00081775262 0.00019332752 -0.00070830976 -0.86544055 0.062912025
602000000 -0.86995584 0.068469547 -0.0014927607 -0.0017235711 0.0010735984 -0.00090746989 -0.86434978 0.0630069
603000000 -0.86826479 0.070371717 -0.00062999304 -0.00035600949 0.00063367287 -0.0016032085 -0.86540532 0.063128382
604000000 -0.86742514 0.070481524 -0.00062819791 -0.0016972807 0.00040552125 -0.00090804638 -0.86504626 0.062810585
605000000 -0.86855298 0.070933111 -3.8022936e-005 -0.001195859 -0.00045412191 -0.00085972057 -0.86477119 0.063698329
606000000 -0.86982465 0.071266666 0.00049247494 -0.0014843554 -7.7690631e-005 -0.0023464097 -0.86340797 0.062075503
607000000 -0.86907524 0.070659503 -0.001638655 -0.0014044871 0.00043189951 -0.0011574955 -0.86393762 0.061186407
608000000 -0.86923313 0.07037814 -0.00047118333 -0.0020289109 -7.7298813e-005 -0.0021083616 -0.86475849 0.063829049
609000000 -0.86771572 0.06965597 -9.3333219e-005 -0.00047136279 -0.00026186937 -0.0016325766 -0.86444831 0.063328981
610000000 -0.8684234 0.072640449 0.00034419814 -0.0011115998 -0.00040240184 -0.0019940212 -0.86402255 0.06469737
611000000 -0.86746663 0.070956334 0.00058366894 -0.0010167619 -0.00013379975 -0.0011097629 -0.86357826 0.064646117
612000000 -0.86822128 0.073720448 -0.00055185508 -0.0015465636 -0.00036558672 -0.0013582426 -0.86388528 0.063355319
613000000 -0.86795259 0.073778652 0.0002994086 -0.0011488297 0.00072756235 -0.0011532002 -0.86431539 0.062916592
614000000 -0.86752027 0.072214745 0.00018448998 -0.0010644053 0.00084381469 -0.001879274 -0.86494416 0.063210487
615000000 -0.86746538 0.07280492 0.00058111973 -0.0013080388 0.00065664476 -0.0016781744 -0.8638795 0.065242946
616000000 -0.86848003 0.07272315 9.2765498e-005 -0.0012715316 -0.00068646908 -0.0019267672 -0.86388856 0.065182313
617000000 -0.86943263 0.072875731 -0.00045872084 -0.00047139835 0.00038886172 -0.00096193579 -0.86359608 0.063467965
618000000 -0.86933362 0.074541606 0.00025249139 -0.001105487 -6.5055807e-005 -0.00096318306 -0.86348444 0.065397613
619000000 -0.86650908 0.072945096 -0.0022284025 -0.0013346951 -0.0002876565 -0.001328885 -0.86406225 0.063114733
620000000 -0.86776614 0.072053939 -0.00064559485 -0.002173801 -9.7077289e-005 -0.0011988278 -0.86408472 0.065016888
621000000 -0.86908436 0.072687067 -0.00049255713 -0.0010540473 0.00067585189 -0.00096899469 -0.86346436 0.064622052
622000000 -0.86861897 0.073985912 0.00041742972 -0.0016902568 -8.6639782e-005 -0.0014014482 -0.86501145 0.064601645
623000000 -0.86686194 0.074380755 -0.00066348782 -0.0014708441 -0.0001357759 -0.00075507065 -0.8637715 0.064789608
624000000 -0.86810762 0.073939711 -0.00021372772 -0.00010311235 -0.00024111239 -0.0010780263 -0.86497635 0.064939469
625000000 -0.86768997 0.075095572 0.0005184795 -0.0012990138 -0.00061319559 -0.0015199813 -0.86403817 0.06398499
626000000 -0.86890823 0.075158268 0.0002373357 -0.0012207582 -0.0012916824 -0.0010025189 -0.86359006 0.06581448
627000000 -0.86696559 0.075081788 -0.0007854104 -0.0014996679 0.00062283367 -0.0014773088 -0.86352044 0.065636702
628000000 -0.86902165 0.073487885 -0.00098342064 -0.0022277171 0.00024253489 -0.00093410385 -0.86396712 0.065930523
629000000 -0.8689909 0.075708412 -0.0004355055 -0.0028450962 -0.00033708187 -0.0015291685 -0.86480147 0.064113513
630000000 -0.86661965 0.076919869 -0.00021095171 -0.00023182412 0.000362525 -0.0009521211 -0.86502945 0.066799112
631000000 -0.86804754 0.075953849 0.00074045151 -0.0025515254 -0.0003971 -0.0012895085 -0.86386287 0.065485314
632000000 -0.86801296 0.075866751 -0.00035468405 -0.0013641918 -0.0002056442 -0.0021348617 -0.86378342 0.06642209
633000000 -0.86791414 0.075658508 -0.00051504001 -0.0023322694 0.00060441339 -0.0011454693 -0.86356723 0.065462105
634000000 -0.86736763 0.076588891 -0.00049676106 -0.0013246449 -0.00038639299 -0.002139352 -0.86502546 0.065359585
635000000 -0.86811972 0.075273745 -0.00015652165 -0.0019670117 0.00062595395 -0.001519529 -0.86324281 0.066829979
636000000 -0.86835629 0.076357476 -0.0012306146 -0.0013336106 -8.4247578e-005 -0.0014577745 -0.86457247 0.066189423
637000000 -0.86690831 0.076111734 7.999732e-005 -0.00060825731 -0.00010148797 -0.0013562283 -0.86510503 0.066297561
638000000 -0.86720413 0.076850042 -7.0315386e-005 -0.0005280521 -0.00021635638 -0.00038878803 -0.86490679 0.066831805
639000000 -0.86857992 0.07805007 -0.0007808088 -0.0016956176 -0.00021130315 -0.0010441308 -0.86324185 0.067427278
640000000 -0.86652094 0.076191597 -0.00054803223 -0.0017846876 -2.3530867e-005 -0.0011012171 -0.86309689 0.065167762
641000000 -0.86644447 0.076925986 0.00044888377 -0.0011102996 -0.00059529906 -0.0015858421 -0.8625924 0.067338452
642000000 -0.86742741 0.077214792 6.9202091e-005 -0.0010840265 -0.00021878813 -0.0017978676 -0.86486822 0.067636222
643000000 -0.86707228 0.077973619 0.00041476285 -0.0020481399 -0.00028137609 -0.0015524338 -0.86365962 0.067492723
644000000 -0.86741406 0.076550417 0.00067359913 -0.00027611566 -0.00012795137 -0.00089488213 -0.8628425 0.066702917
645000000 -0.86772603 0.07676854 -0.00055693829 -0.00057145616 0.00084243179 -0.0011787479 -0.86354423 0.067523465
646000000 -0.86822808 0.076853119 0.00061763881 -0.0019884119 -0.00060718576 -0.001821975 -0.86413765 0.066737443
647000000 -0.86875778 0.079148583 -0.00012710341 -0.0019913379 -0.00048894295 -0.0017721814 -0.86347532 0.067044139
648000000 -0.86681312 0.07804919 -2.0280027e-005 -0.0012824055 8.2325845e-005 -0.0010633403 -0.86528611 0.068377689
649000000 -0.8698222 0.078042462 -0.00031504969 -0.0009839338 -0.00060809939 -0.0010215685 -0.86306477 0.066355765
650000000 -0.86819887 0.078258 9.1637216e-005 -0.0011658275 -0.0012375728 -0.0015877791 -0.86275595 0.068458401
651000000 -0.86755854 0.078018889 -0.0002509786 -0.0022240288 -0.00092145998 -0.00091494818 -0.86375219 0.068585545
652000000 -0.86802465 0.078392535 -0.00047787037 -0.0016581025 -0.00059020572 -0.0010193522 -0.86258113 0.067358121
653000000 -0.86766404 0.079510637 3.4541481e-005 -0.0017565177 -0.00026648247 -3.5862144e-005 -0.86399162 0.067536309
654000000 -0.86763227 0.07873334 0.00016871933 -0.0019624655 -0.0013805211 -0.0022133186 -0.86404091 0.067293487
655000000 -0.86775988 0.078667775 0.00091110438 -0.00092448294 -2.0402627e-005 -0.0016332187 -0.86311263 0.069696069
656000000 -0.86819667 0.079622358 -0.00076667848 -0.0014150114 -0.0005507415 -0.00081090856 -0.86343938 0.069750287
657000000 -0.86567467 0.078382619 0.00078314403 -0.0014648668 -0.00083690777 -0.0011744241 -0.86390173 0.068575785
658000000 -0.86759484 0.079217792 -0.00075117341 -0.0013967344 -0.00027487124 -0.0013299889 -0.863222 0.068559922
659000000 -0.86697012 0.078798249 -0.000718539 -0.00050236128 -0.0001766553 -0.0011176196 -0.86405933 0.068471558
660000000 -0.86769444 0.078909107 0.00067848549 -0.0019941125 0.0010394806 -0.0013669836 -0.86331034 0.069012463
661000000 -0.86739296 0.079167277 -0.00015199368 -0.0010147662 0.00016346338 -0.0019266651 -0.86458367 0.069858536
662000000 -0.86801797 0.078451581 0.00052413211 -0.0024349352 -0.00035880718 -0.0016109828 -0.86472267 0.06921576
663000000 -0.86632752 0.080416061 -0.00017164995 -0.0021013441 -0.0009343038 -0.0017647463 -0.86324567 0.068609811
664000000 -0.86751223 0.079509132 0.00034576815 -0.0011080764 0.00024438658 -0.0016729905 -0.86473525 0.068618298
665000000 -0.86712331 0.079770461 0.00024691765 -0.00044435734 -0.00047757549 -0.0013634512 -0.86372542 0.068611816
666000000 -0.86803705 0.07901673 0.00020462596 -0.0015551778 0.00047244341 -0.0016311585 -0.86426526 0.068691604
667000000 -0.86776519 0.081140891 -0.00022250348 -0.0012607649 -0.00065744517 -0.0022944955 -0.86398286 0.06817507
668000000 -0.86745292 0.080768317 -0.00010782729 -0.0013147388 -0.00025381203 -0.0022254344 -0.86332399 0.069836304
669000000 -0.86807495 0.079381965 -0.0008686115 -0.0025017855 0.00011983403 -0.0013978279 -0.86318821 0.070428513
670000000 -0.86788517 0.080661573 6.1613726e-005 -0.0013167459 -0.00066797645 0.00043877732 -0.86209387 0.070387706
