!Keysight Technologies,M9374A,MY55442783,A.12.55.05
!Date: Wednesday, May 19, 2021 18:19:17
!Correction: S11(Full 2 Port(1,2)) 
!S21(Full 2 Port(1,2)) 
!S12(Full 2 Port(1,2)) 
!S22(Full 2 Port(1,2)) 
!S2P File: Measurements: S11, S21, S12, S22:
# Hz S  RI   R 50
500000000 -0.8698253 0.058944549 -0.00016619792 -0.00075531512 0.0003425277 -0.00061889092 -0.86506701 0.050289374
501000000 -0.87073731 0.060274713 0.00033040845 -0.0011253752 -0.00033714969 -0.00093276263 -0.86513335 0.050822396
502000000 -0.8706423 0.058424048 0.00044596434 -0.0013789571 -0.00017639429 -0.00081689341 -0.86504668 0.052795578
503000000 -0.87157398 0.05965488 -0.00024885384 -0.00082022336 0.00034728347 -0.0016760215 -0.86588353 0.05195063
504000000 -0.87018126 0.060433526 -0.0011123942 -0.00081452588 -7.9651305e-005 -0.00041311918 -0.86611563 0.053001922
505000000 -0.87081158 0.058952365 -0.00037386664 -0.00091159646 0.0013024491 -0.0012607821 -0.86522388 0.051626943
506000000 -0.87076664 0.057746552 0.00081239431 -0.001968164 -0.00063567568 -0.00081066007 -0.86606139 0.052644629
507000000 -0.8699103 0.059799798 -0.00034094468 -0.0012395006 -0.00035765706 -0.00028665815 -0.86539519 0.052828874
508000000 -0.87062621 0.062172782 -0.00054283702 -0.0023445624 9.8783254e-005 -0.0011733575 -0.86568111 0.053232148
509000000 -0.86986411 0.060336396 -0.00077063608 -0.00067628821 0.00030455668 -0.00040183854 -0.86441064 0.052376375
510000000 -0.87148452 0.061077613 0.00021451856 -0.00065715652 -0.00091479317 -0.0013357064 -0.86550766 0.05370691
511000000 -0.87141675 0.059424855 -0.00050606811 -0.00083263894 0.0001135129 -0.00045377415 -0.86420476 0.053345174
512000000 -0.87109017 0.058932073 -0.00035613886 -0.0015148419 -0.0010183989 -0.00084774388 -0.86689514 0.053116262
513000000 -0.87080324 0.06094515 -0.00017848627 -0.00059660536 -1.9117584e-005 -0.0011993553 -0.86420703 0.05138544
514000000 -0.86887759 0.060525771 -0.00024537486 -0.00097817834 0.00019250496 -0.00088755367 -0.86507177 0.053796165
515000000 -0.87144417 0.059675645 0.00036775824 -0.0012077733 -0.00065807253 -0.0013255884 -0.86504048 0.053444233
516000000 -0.87165272 0.060136929 0.00030851638 -0.0011589794 -0.00091752812 -0.0021111742 -0.86520171 0.052836724
517000000 -0.87212378 0.062146802 0.0012766254 -0.0013125249 0.00082058704 -0.0010306009 -0.86472183 0.053783376
518000000 -0.87059349 0.060302511 -0.00015637747 -0.00074055698 8.1528546e-005 -0.0011014984 -0.86441278 0.053343728
519000000 -0.87045413 0.060527787 -0.00061761832 -0.0017911386 0.00077740691 -0.0013261337 -0.86624032 0.054372191
520000000 -0.86942786 0.061830554 6.5892928e-005 -0.00074856961 -0.0009496166 -0.00073650567 -0.86662805 0.054551359
521000000 -0.87021065 0.062380884 -0.0001854525 -0.00091985118 0.00032645211 -0.00068407075 -0.86554599 0.055847872
522000000 -0.87097609 0.060727157 -0.001008517 -0.0016445586 0.00058215769 -0.0011803969 -0.86508429 0.054350451
523000000 -0.87070769 0.061998431 0.00028099393 -0.0019853492 0.00044133465 -0.00041598312 -0.86281669 0.054663409
524000000 -0.87054479 0.062518544 0.00014963029 -0.00056519988 -0.0010180795 -0.00055825798 -0.86511403 0.056389704
525000000 -0.86788458 0.062111694 0.00081562164 -0.0016227001 0.00044098863 -0.0019657968 -0.86431241 0.056694604
526000000 -0.86874896 0.062591746 0.00074092165 -0.00014084455 -0.00055218337 -0.0014074821 -0.8644827 0.054325756
527000000 -0.87153679 0.06335976 -0.00010364947 -0.0014037752 -0.00018867131 -0.0010531495 -0.86551654 0.055269055
528000000 -0.86959493 0.063173614 0.00021872275 -0.0012701604 -0.0011681576 -0.0015259072 -0.86622697 0.05548897
529000000 -0.87209183 0.062749267 0.0003138856 -0.0010125511 8.5819724e-005 -0.00013480074 -0.86549509 0.055737752
530000000 -0.8706302 0.063248508 -5.4262015e-005 -0.0025138203 -0.0001407892 -0.00024200788 -0.86453432 0.055208012
531000000 -0.86955929 0.06187119 -0.00010776674 -0.00058171584 -0.00079900544 -0.0014209633 -0.86491269 0.055984836
532000000 -0.87033683 0.062747508 -0.00042409269 -0.0017466489 -0.00093228038 -0.0020076269 -0.86563265 0.055826977
533000000 -0.86982816 0.064057797 -0.00092584913 -0.00085637363 -0.00045933836 -0.001561889 -0.86414146 0.056738466
534000000 -0.86973751 0.063118935 -0.0011008849 -0.00077675498 0.00049499038 -0.0014790015 -0.8646329 0.055376522
535000000 -0.86908442 0.062806189 -0.00070411415 -0.0017097214 -0.00038648778 -0.00084219495 -0.86386114 0.055658117
536000000 -0.87019527 0.064827494 0.00027867939 -0.0013401243 -0.00083559932 -0.00035366832 -0.86439514 0.056718748
537000000 -0.87095058 0.064224862 -0.00010194707 -0.00087460427 -0.00047667616 -0.0016655038 -0.86553723 0.056527779
538000000 -0.86948431 0.062539883 -0.00026393268 -0.00087855809 0.00049350661 -0.0019051965 -0.86679864 0.054893576
539000000 -0.87091619 0.064050056 -0.00034660017 -0.0017533737 -0.00043438381 -0.0014354778 -0.86569774 0.057743769
540000000 -0.87251478 0.063481539 -0.00024976034 -0.00035995324 0.00013114631 -0.0013372171 -0.86476123 0.057005256
541000000 -0.86959332 0.064229384 -3.9929895e-005 -0.0017713403 -0.00048980187 -0.0008380973 -0.8642863 0.056472991
542000000 -0.87016302 0.064415708 0.00096578989 3.1215095e-005 -0.0010138084 -0.0011732285 -0.86599392 0.056130819
543000000 -0.86900055 0.064483777 0.00090095861 -0.00077449298 -0.00048931967 -0.00099850912 -0.86463189 0.057739068
544000000 -0.86996835 0.065137655 6.0148217e-005 -0.00011915049 -0.0001914087 -0.00099808851 -0.86337918 0.056763869
545000000 -0.87041026 0.06486056 0.0007995796 -0.00074547663 -0.0011836657 -0.0015274507 -0.86605382 0.057844494
546000000 -0.87040275 0.063620687 4.4384487e-005 -0.0011821587 0.00046401224 -0.0012508676 -0.86465651 0.057700451
547000000 -0.87070459 0.064947017 -0.0018932159 -0.0021806932 -0.00017431258 -0.0010096225 -0.86493552 0.058124926
548000000 -0.86916709 0.064332649 -2.144358e-005 -0.0014492421 0.00048097933 -0.001349185 -0.86511767 0.057699971
549000000 -0.86866993 0.06408231 -0.0012476137 -0.0010937713 0.00018246131 -0.001663285 -0.86656308 0.059012227
550000000 -0.86940432 0.065303817 -0.00022033816 -0.0014425053 -0.00082059577 -0.0017642429 -0.86538583 0.059134599
551000000 -0.86846888 0.064522661 -0.00048236779 -0.00096629979 0.00015878965 -0.0014582161 -0.86587363 0.057552043
552000000 -0.87065804 0.064563431 -0.0012418515 -0.00022358706 0.00016646017 -0.0024393229 -0.86472732 0.05821253
553000000 -0.86893988 0.063887239 0.00042529436 -0.0015727974 0.00031038298 -0.0010972024 -0.86565095 0.057909779
554000000 -0.87003547 0.063389666 -0.00012956982 -0.0016856585 0.00045729702 -0.00079864147 -0.86515528 0.057940535
555000000 -0.86931795 0.064277083 8.377312e-005 -0.0014726263 -0.00086724007 -0.0018879041 -0.8639794 0.058503442
556000000 -0.87104613 0.066053376 0.00016849389 -0.00070109539 9.6464137e-005 -0.00084740261 -0.86549741 0.059000991
557000000 -0.86874509 0.065749161 0.0005042057 -0.0013092821 -0.00044289147 -0.00069632218 -0.86411422 0.057346318
558000000 -0.86932623 0.064988017 -0.0002061027 -0.00085388619 0.00042805521 -0.0015232542 -0.86700118 0.057992112
559000000 -0.87022877 0.065818019 0.0006672797 -0.00097431906 0.00030157686 -0.00027613051 -0.86621249 0.058124393
560000000 -0.87023419 0.064950652 -0.00026198445 -0.0011388805 -0.00052493095 0.0002662632 -0.86579639 0.057265121
561000000 -0.86981338 0.065714389 -0.00012850242 -0.0015583311 -9.8095952e-005 -0.00091106782 -0.86488593 0.056871139
562000000 -0.87025487 0.063663103 -0.0002899791 -0.00050826563 -0.00094476843 -0.0013262506 -0.86523372 0.058151543
563000000 -0.87065709 0.065257505 0.00048452162 -0.00080637063 -0.00020827043 -0.0015402341 -0.86481702 0.059290178
564000000 -0.86940253 0.065040521 -7.8361591e-005 -0.0016496541 -2.4223944e-005 -0.0014251971 -0.86443013 0.057672601
565000000 -0.86938405 0.065129608 -0.00076838036 -0.0014980078 0.00021521901 -0.00055291131 -0.86597711 0.058690164
566000000 -0.86961329 0.064268783 -0.00090424408 -0.0013301056 -0.00045537585 -0.0010674939 -0.86668915 0.058015436
567000000 -0.87044567 0.064444795 -0.00032281026 -0.00044279368 -0.00050671527 -0.00068089284 -0.86564058 0.058504738
568000000 -0.8695628 0.065447189 -0.00018570301 -0.00029066575 0.00046125727 -0.00086806552 -0.86422449 0.058621924
569000000 -0.86998737 0.064312235 -0.0002056838 -0.00025892287 -0.0010894138 -0.0010649676 -0.86544108 0.05912232
570000000 -0.86955851 0.065135822 -0.00012807618 -0.00037785343 -0.00028537403 -0.0016610259 -0.86401564 0.059308704
571000000 -0.87021655 0.064882845 -0.00043551438 -0.00092708599 0.00016920456 -0.00085353391 -0.8653425 0.058888603
572000000 -0.86863631 0.066687204 -0.0014776249 -0.0012160974 0.00014104266 -0.000773484 -0.86420923 0.058253095
573000000 -0.87004763 0.064684838 6.506739e-005 -0.002295271 0.00025100025 -0.00083084591 -0.86419523 0.059248809
574000000 -0.86875105 0.064556561 -0.00071425783 -0.0017902316 0.00052551297 -0.0017198556 -0.86472917 0.058198389
575000000 -0.86826223 0.066472076 -0.00026115295 -0.00086591719 0.00048124528 -0.00092644535 -0.86535203 0.059097774
576000000 -0.86877096 0.067641407 -0.00066162925 -0.0015670902 8.5816668e-005 -0.0011430259 -0.86416489 0.059290327
577000000 -0.86910176 0.065544158 -0.00068803108 -0.0013673658 0.00084480905 -0.00034455681 -0.86595756 0.058844995
578000000 -0.86924565 0.066102214 -0.00077080628 -0.0019950964 8.6151158e-005 -0.00029054823 -0.86451519 0.056992743
579000000 -0.86975789 0.066872902 0.0010331839 -0.0010143972 -0.00033619799 -0.00080011948 -0.86523288 0.059593849
580000000 -0.86908358 0.066250049 -0.00026751307 -0.0017557665 -0.00078965799 -0.0017224151 -0.8643955 0.060333915
581000000 -0.86980832 0.065143958 -0.00043665754 -0.001202265 0.00052323972 -0.00047345005 -0.86769068 0.060703978
582000000 -0.86853963 0.067063108 -0.00035004265 -0.00053429703 -0.00084272819 -0.0018209135 -0.86527056 0.057885017
583000000 -0.86887121 0.067580834 -0.0013467292 -0.00034745262 0.00029144881 -0.00082195405 -0.86509848 0.059283409
584000000 -0.86978954 0.066213124 -0.0010501449 -0.0012991159 -9.0637172e-005 -0.0003529278 -0.86393452 0.060628179
585000000 -0.86911273 0.067102566 -0.0013600981 -0.00092752691 -0.00068343838 -0.00048273357 -0.86396146 0.058880489
586000000 -0.86995989 0.066488199 3.5745151e-007 -0.0017839846 -0.0004126 -0.00070273032 -0.86595857 0.060301073
587000000 -0.86977309 0.068408228 0.00039593285 -0.0011347586 0.00022594829 -0.00095908751 -0.86519486 0.059836481
588000000 -0.86793309 0.066027306 0.00016243754 -0.00053606706 0.0001096712 -0.00053999183 -0.86567098 0.060476642
589000000 -0.87009078 0.067225084 -0.00044652965 -0.00076322857 0.00015904526 -0.0014384475 -0.86413741 0.060367022
590000000 -0.86942762 0.067389578 0.00022623072 -0.0019775401 0.00016159352 -0.0013396153 -0.86427653 0.060263742
591000000 -0.86825281 0.068190768 -0.00012986931 -0.0017940598 -0.00013498635 -0.00072763051 -0.86319304 0.060099956
592000000 -0.86798698 0.06774351 0.00025059277 -0.00096844276 0.0004362975 -0.00035100986 -0.86554533 0.061649155
593000000 -0.8696878 0.067895517 0.00011111746 -0.00057693158 0.00086407352 -0.00087220274 -0.86645055 0.060502034
594000000 -0.86783743 0.067773923 -0.0002721315 -0.0011998842 -0.00067468913 -0.0005979159 -0.86439872 0.06124397
595000000 -0.86887944 0.067291662 0.00051061634 -0.0013546413 0.00069521525 -0.00053140736 -0.86606914 0.060788073
596000000 -0.86942303 0.067257874 -0.00088758778 -0.0019871804 0.00063874648 -0.00085849146 -0.86582667 0.061673995
597000000 -0.87125975 0.068363853 -0.00090951659 -0.0016251358 -0.00027399824 -0.0010882413 -0.86506075 0.060474142
598000000 -0.86746603 0.068361245 0.00063347939 -0.0015579895 -0.0010144834 -0.0018726831 -0.86584634 0.060405117
599000000 -0.86918932 0.069411919 -0.00014536692 -0.0023947589 -0.00054341293 -0.00031270509 -0.86468726 0.061137322
600000000 -0.86971176 0.068735562 2.2616223e-005 -0.00037929599 0.00047944748 -0.00085715833 -0.86362243 0.061457716
601000000 -0.86844832 0.070783675 -0.00031155415 -0.0012040712 -0.00055163773 -0.0017736447 -0.86587924 0.061366219
602000000 -0.86873335 0.069200858 -0.00092647696 -0.0010184573 -0.00065513322 -0.0011699279 -0.8657797 0.061651979
603000000 -0.87059337 0.069945894 -0.00044957778 -0.00079400011 -0.00051199429 -0.00092547748 -0.86437035 0.061781801
604000000 -0.86842895 0.070366077 -8.539173e-005 -0.0012019575 -0.00077776005 -0.0011950905 -0.86449885 0.062931903
605000000 -0.86987054 0.069556817 -0.0002942986 -0.0017957194 -0.00080002652 -0.00059460889 -0.86328977 0.063791633
606000000 -0.86990732 0.070426293 0.0001640324 -0.001078846 -0.00047845964 -0.0017640389 -0.86323839 0.063291505
607000000 -0.87081045 0.071195155 -0.0010770879 -0.0012477756 0.00027524444 -0.0013871863 -0.86444443 0.060552943
608000000 -0.86932003 0.070741557 -0.0001470952 -0.0018137436 -0.00031824288 -0.0010070369 -0.86459965 0.061890937
609000000 -0.8698132 0.06965068 -9.7544973e-005 -0.0010561279 -0.00082103739 -9.3926108e-005 -0.86457509 0.062408615
610000000 -0.86697268 0.069817036 -0.000336208 -0.00085042708 -0.00011012523 -0.0019100899 -0.86396557 0.062705144
611000000 -0.86911523 0.072487593 -0.00016982594 -0.0012367181 -0.00096172985 -0.0024145599 -0.86391479 0.063792989
612000000 -0.86932206 0.071081877 -0.00061248388 -0.0010915798 0.00049977802 -0.00099519326 -0.86557567 0.062660009
613000000 -0.86860794 0.070505582 -0.00055336737 -0.0017596621 -5.1816569e-005 -0.00058814714 -0.86413223 0.063904993
614000000 -0.86808795 0.072868429 -2.8266964e-005 -0.0028585445 -1.7723107e-005 -0.0020150228 -0.86463523 0.0639024
615000000 -0.86763507 0.070949689 -0.00039376772 -0.0010232043 5.0491024e-005 -0.0014273294 -0.86535239 0.061674174
616000000 -0.86872268 0.071306869 0.00040426006 -0.0010435223 -2.0055584e-005 -0.00075460225 -0.86495852 0.06387189
617000000 -0.86820841 0.072104193 0.00095171237 -0.0014410284 -0.0001026484 -0.00028497892 -0.86363393 0.063837156
618000000 -0.86952341 0.071280561 -0.0012306549 -0.0010350827 -0.00027333692 0.00034463452 -0.86417681 0.063889839
619000000 -0.86901307 0.074088797 -0.0011502837 -0.00019188967 -0.00024960731 -0.0010816139 -0.86386812 0.062997282
620000000 -0.86746365 0.072539665 -0.0011384068 -0.0018697383 -0.00022874532 -0.0019987675 -0.86466146 0.064951532
621000000 -0.86693168 0.072791927 0.00035498096 -0.001276914 -0.00035814795 -0.0012911255 -0.86499393 0.064555719
622000000 -0.86728275 0.074346207 0.00037434782 -0.0018268066 -0.00096232025 -0.00061552582 -0.86429232 0.063933372
623000000 -0.86805654 0.072654329 -3.9343318e-005 -0.0010088587 0.00044800932 -0.0016949171 -0.86436617 0.063865453
624000000 -0.86813307 0.072074831 -0.0012471878 -0.0015020748 -0.00035321119 -0.0018395467 -0.86498243 0.063660555
625000000 -0.86738741 0.073040649 0.00067504088 -0.0018307558 0.00022566822 -0.00084235286 -0.86363566 0.062912665
626000000 -0.8681671 0.074240252 0.00052441616 -0.0016559409 -0.0006250313 -0.0010256208 -0.86516923 0.065892488
627000000 -0.8694244 0.073037356 0.0014676159 -0.0017344609 -0.00019661781 -0.0015825138 -0.86320907 0.065276541
628000000 -0.86766332 0.075319476 -0.00065112434 -0.0022368797 -0.000799442 -0.0021607673 -0.86183619 0.065651126
629000000 -0.86863756 0.073173665 -0.00079288572 -0.0017835916 0.00019804748 -0.001077721 -0.86477309 0.065627217
630000000 -0.86775231 0.072904997 -0.00098678679 -0.0010988475 -0.0010479701 -0.0012046107 -0.86325586 0.066071451
631000000 -0.86853904 0.073815644 -0.0011463055 -0.00094681425 0.00011934255 -0.0011444656 -0.8652162 0.065870404
632000000 -0.86745638 0.07562615 -0.00017094483 -0.00054889265 0.00029344854 -0.0016937808 -0.86381853 0.064742118
633000000 -0.86773539 0.074419834 -2.3995972e-005 -0.001191342 0.00044430399 -0.0020436554 -0.86338019 0.064413741
634000000 -0.87026685 0.077014372 -0.00026229094 -0.0017353331 -0.00060612144 -0.0013264165 -0.86325163 0.065517709
635000000 -0.86996853 0.074038506 -0.00053246261 -0.0016229436 0.00039094512 -0.00083576987 -0.86382079 0.065583363
636000000 -0.8669762 0.074326806 -0.00020406998 -0.0022369968 0.00044376284 -0.0010922649 -0.86411834 0.066549003
637000000 -0.86756402 0.074260667 -0.00036648576 -0.0016676066 -0.00015632751 -0.00050671835 -0.86397207 0.066344135
638000000 -0.8681792 0.075543612 0.00017531458 -0.00079390925 -0.00048220516 -0.0013925477 -0.86431873 0.064530768
639000000 -0.86793965 0.075174175 -0.001061623 -0.00084801519 -0.00094915606 -0.0018991244 -0.86264044 0.06622301
640000000 -0.86779714 0.075183481 0.00046923576 -0.00054888707 0.00010454754 -0.00090374489 -0.8630091 0.06620466
641000000 -0.86858153 0.075062677 -0.0011433002 -0.0019392397 0.00051038462 -0.0013720633 -0.86286575 0.065386057
642000000 -0.86727476 0.076211222 0.00042941963 -0.0019885725 -0.00044619365 -0.0017119279 -0.86518693 0.065848306
643000000 -0.8674348 0.074597009 0.00070864882 -0.0014921275 0.00016009297 -0.00085417362 -0.86344159 0.06463889
644000000 -0.86851048 0.076997168 0.0015157836 -0.0017360015 -0.00041961946 -0.00025861061 -0.86271739 0.066495404
645000000 -0.86785227 0.076325588 -1.6765758e-005 -0.00094701996 -0.00049347215 -0.00063873944 -0.86449695 0.065946244
646000000 -0.86747152 0.07675527 0.00025549455 -0.0012933087 -0.00017496374 -0.0013410946 -0.86347646 0.066485502
647000000 -0.86846423 0.076563768 -0.00023768167 -0.0014975034 -0.00011519599 -0.0010417441 -0.86473066 0.065280117
648000000 -0.8694331 0.076276705 0.00025580646 -0.00094835652 9.7563461e-005 -0.0010899716 -0.86191922 0.066805251
649000000 -0.86869401 0.076893926 0.00050924037 -0.00097903621 -0.00096932845 -0.0011583398 -0.86427408 0.066548735
650000000 -0.86776429 0.076786608 0.00092117209 -0.0014048448 -0.00053387322 -0.0018699015 -0.86250961 0.067885786
651000000 -0.86962128 0.077244446 -0.00067225716 -0.00093565264 -0.00028039049 -0.0012139984 -0.86402816 0.064223737
652000000 -0.86765963 0.075876743 0.00080732041 -0.00154377 0.00025871847 -0.0014622485 -0.86402339 0.067200005
653000000 -0.86835021 0.075591952 -0.00036294491 -0.0012666028 0.00027876292 -0.0012386758 -0.86450058 0.067007765
654000000 -0.86781198 0.077521168 -0.001041043 -0.001724702 -0.00034001819 -0.00089596683 -0.86498809 0.066913337
655000000 -0.86725813 0.078120634 -0.0010457477 -0.0013329352 -4.2474727e-005 -0.0014264375 -0.86494327 0.067577109
656000000 -0.867935 0.077773117 -0.00020640482 -0.0012557942 0.00055872084 -0.0011831447 -0.86271846 0.067532271
657000000 -0.86666983 0.080137119 -6.6326993e-006 -0.00050423649 -0.0008256447 -0.002265085 -0.86422551 0.068125933
658000000 -0.86880076 0.077720366 -0.00021298451 -0.00097677507 -0.00034683029 -0.0016199984 -0.8629117 0.068054549
659000000 -0.86875904 0.078793094 -0.00049047091 -0.0021132387 -0.001306455 -0.0020048367 -0.86323482 0.067877896
660000000 -0.86732703 0.077140793 -0.00023616193 -0.00091007462 0.0002466946 -0.00096755597 -0.8633188 0.067430571
661000000 -0.86852235 0.078495555 -0.00071058841 -0.0012566932 -0.00079114386 -0.0021736668 -0.86324877 0.067034155
662000000 -0.86728543 0.077644154 -0.00060821814 -0.001795507 -0.00035475544 -0.0011063946 -0.86446935 0.067131571
663000000 -0.86921626 0.077322483 0.00059643527 -0.00084612216 -0.00055165187 -0.0014968087 -0.86403912 0.06877365
664000000 -0.86790997 0.07809525 -0.00096634182 -0.0011686513 -0.0011849813 -0.0011929693 -0.86268073 0.067351192
665000000 -0.86860985 0.078475967 -0.0011658748 -0.0012789306 -0.00074549916 -0.0017593791 -0.86353528 0.066641666
666000000 -0.86786246 0.078044072 7.3197549e-007 -0.0016090779 0.00061393308 -0.0019548715 -0.86535233 0.066150807
667000000 -0.8679992 0.079063885 -1.5996273e-005 -0.0011771432 -0.0008516449 -0.00090193696 -0.86415464 0.067142434
668000000 -0.86731082 0.078698821 -0.00045516895 -0.0024912036 -0.00046465494 -0.0013049736 -0.86422443 0.069028221
669000000 -0.86737442 0.078464642 -0.0003180792 -0.0011585131 0.00046651784 -0.001245952 -0.86265367 0.069058962
670000000 -0.86827594 0.079445802 6.1195853e-005 -0.0016336418 -0.00078211032 -0.0018780915 -0.86353689 0.068421647
