!Keysight Technologies,M9374A,MY55442783,A.12.55.05
!Date: Wednesday, May 19, 2021 18:38:31
!Correction: S11(Full 2 Port(1,2)) 
!S21(Full 2 Port(1,2)) 
!S12(Full 2 Port(1,2)) 
!S22(Full 2 Port(1,2)) 
!S2P File: Measurements: S11, S21, S12, S22:
# Hz S  RI   R 50
500000000 -0.8718614 0.057397045 0.00077665719 -0.00098455534 0.00012008823 -0.00029989739 -0.86574125 0.049262341
501000000 -0.87127632 0.054830946 0.00021491699 1.7558465e-006 -0.00041020729 -0.0014723756 -0.86680174 0.048976127
502000000 -0.87051809 0.056546021 0.0013600528 -0.0001148063 -0.00049308053 -0.0014439324 -0.86782014 0.048762321
503000000 -0.87144023 0.057180818 -0.00033664843 -7.2781237e-005 0.00076540123 -0.0018576505 -0.86583209 0.048873708
504000000 -0.86972719 0.056211296 -5.9734812e-005 -0.0012050347 -0.00067481247 -0.00057636091 -0.86469126 0.048890829
505000000 -0.8704527 0.056890052 0.00025911792 -0.0023466423 -0.0004287521 -0.0010800709 -0.86472404 0.048297066
506000000 -0.87047774 0.057431269 -0.00055505917 -0.00036996292 0.00098838494 -0.0012317167 -0.86590284 0.050561335
507000000 -0.87019664 0.057833612 2.1667476e-005 -0.0010507726 -0.0008929561 -0.0012999009 -0.86597252 0.050576665
508000000 -0.87177789 0.05674189 -0.00090237771 -0.0015467346 -0.0005608655 -0.0018073799 -0.86740732 0.050864279
509000000 -0.87041157 0.057027031 0.00048681672 -0.0011041175 -0.00058348384 -0.0014564837 -0.8654713 0.050354369
510000000 -0.87114215 0.059325438 -0.00053127657 -0.00065370637 -0.00047048365 -0.0013449825 -0.86613774 0.052139651
511000000 -0.86930978 0.058562752 0.00061618484 -0.0011278373 -0.00071141182 -0.0002288268 -0.86605233 0.050052516
512000000 -0.87161702 0.057367992 -0.00018732903 -0.0012214994 -0.00013116625 -0.0021586111 -0.86519068 0.052064434
513000000 -0.87060869 0.05808796 -0.00073047943 -0.00042372991 -0.0010359915 -0.0011746308 -0.86559856 0.050272133
514000000 -0.87072068 0.057687707 -0.00067796983 -0.0010551389 0.00016724676 -0.0016725871 -0.86537665 0.049642354
515000000 -0.87090069 0.056825664 0.00084162492 -0.0017569494 0.00018525367 -0.00044289575 -0.86552095 0.051012449
516000000 -0.86953884 0.059229553 9.5031231e-005 -0.00051629276 9.0894515e-005 -0.00044944437 -0.86551577 0.052290402
517000000 -0.87099934 0.059975404 -0.00011591089 -0.00063375215 0.00063883996 -0.001344959 -0.86574405 0.052515507
518000000 -0.87076509 0.060037974 -0.00055119995 -0.00058000995 0.00027186863 -0.00067225558 -0.86484963 0.051387861
519000000 -0.87091917 0.058764677 -0.00044014139 -0.00041269552 -0.00030559715 0.00010220861 -0.86549723 0.052220669
520000000 -0.86881089 0.058569226 -0.00023208736 -0.0018093345 0.00095651328 -0.0022201932 -0.86412919 0.052932072
521000000 -0.87146711 0.060985044 -0.00012344331 -0.00047352369 0.00076650025 -0.0004199229 -0.86551583 0.05118015
522000000 -0.87225938 0.059834637 0.00057926832 -0.0015089194 -0.0013007526 -0.00067576865 -0.86578763 0.053172205
523000000 -0.87123764 0.058601528 -0.00013474956 -0.0011969127 -7.142438e-005 -0.00085663859 -0.86457193 0.052564848
524000000 -0.87251633 0.060011379 -0.00080404681 -0.0012028827 0.0016008248 -0.00091888587 -0.86506838 0.052014597
525000000 -0.8701238 0.05959085 -7.3933355e-005 -0.00060644216 0.00086818088 -0.00095978368 -0.86731642 0.052014161
526000000 -0.86912429 0.06002295 7.0226473e-005 -0.00066629087 -0.00048666185 -0.00098835432 -0.86620498 0.053236939
527000000 -0.87054372 0.060098834 0.00040009414 -0.0020928767 2.8537672e-005 -0.00079188705 -0.86714149 0.052844293
528000000 -0.87110907 0.060464717 9.6711105e-005 -0.00097473396 -0.00039585758 -0.0005477118 -0.86477214 0.05313069
529000000 -0.86995965 0.060093973 3.4638961e-005 -0.0011959341 -0.00076547806 -0.0015511292 -0.86579448 0.053181443
530000000 -0.87069118 0.060476992 -0.00048705286 -0.00064437854 -0.00091969507 -0.0014258475 -0.86502236 0.053265195
531000000 -0.87090904 0.05925747 -0.00068041735 -0.00080698496 0.0010664422 -0.0011217835 -0.86584765 0.053833757
532000000 -0.87187886 0.060608555 -0.00063507643 -0.0015090182 -0.00031581731 -0.0017699915 -0.86598587 0.054174908
533000000 -0.87095261 0.061078891 0.00036443805 -0.0015846777 -0.00082080369 -0.0012142739 -0.86543792 0.053973697
534000000 -0.87176317 0.059825838 -2.3869125e-005 -0.0015142936 0.00014652002 -0.00098542613 -0.86755532 0.053809661
535000000 -0.86986125 0.060630169 -0.00050190394 -0.00094386615 0.00099962216 -0.0003308563 -0.8657496 0.054134443
536000000 -0.86933666 0.062439997 -0.00013158473 -0.00078364782 -0.00013869023 -0.00067775219 -0.86463451 0.053530823
537000000 -0.87113333 0.060110766 0.00013048743 -0.0011590403 -0.00077944965 -0.0015280456 -0.86471188 0.054113746
538000000 -0.8695876 0.060484756 -0.00082653383 -0.0009214147 -0.00016217941 -0.0010018209 -0.86559331 0.054420814
539000000 -0.8716718 0.060943451 -0.00073388556 -0.0017768855 -0.0014024801 -0.0009268045 -0.86543816 0.054392286
540000000 -0.87133479 0.06148129 -5.4540778e-006 -0.0017290213 -0.00062861142 -0.00088926608 -0.86748153 0.053696621
541000000 -0.87087309 0.062853225 0.00014635279 -0.0016671271 0.000686527 -0.001364667 -0.86553049 0.054915179
542000000 -0.87075096 0.062659092 -0.00032897462 -0.0020125415 0.0001019307 -0.0010477197 -0.86594331 0.054115932
543000000 -0.87018311 0.06197818 -0.0002267784 -0.0014662242 -0.00018175751 -0.0010137116 -0.86410815 0.054562181
544000000 -0.87251574 0.062140662 0.0013650589 -0.00043747286 -0.00018712204 -0.00077899685 -0.86567289 0.05533294
545000000 -0.87090123 0.060880266 -0.00043603769 -0.00155235 -0.00098945911 -0.0013551937 -0.86398619 0.054674558
546000000 -0.87099046 0.061298437 -0.00015880939 -0.00085867033 0.00015613457 -0.0020430507 -0.86560655 0.055043276
547000000 -0.87083793 0.061468754 -0.00031246175 -0.00061893841 0.00087880372 -0.0012332401 -0.86605608 0.054996789
548000000 -0.86918956 0.06242938 -0.00044162752 -0.0014043702 0.00010897389 -0.00064015004 -0.86517256 0.05419115
549000000 -0.86974019 0.061955873 -1.5072473e-005 -0.0014933788 0.00065400632 -0.0014511711 -0.86564779 0.055748638
550000000 -0.86903226 0.062802978 0.00039889637 -0.001207496 -6.6411376e-005 -0.00092160638 -0.86559439 0.055822313
551000000 -0.87112755 0.061966106 0.00086206198 -0.0013644536 -9.8882934e-005 -0.0005473179 -0.86507946 0.055323713
552000000 -0.86808056 0.062127534 0.00080325594 -0.0011147145 -5.90245e-005 -0.0019772467 -0.86480886 0.055351533
553000000 -0.87098587 0.062658891 -0.00040663764 -0.00067474594 -0.00041166035 -0.00087240664 -0.86538666 0.054161295
554000000 -0.87111539 0.060403999 0.00013226914 -0.0012281857 0.0003296698 -0.0013082452 -0.86596912 0.05542836
555000000 -0.87115622 0.062293358 -0.0013576824 5.8527279e-005 0.00017988688 -0.00052825385 -0.8647247 0.05570164
556000000 -0.87040108 0.061665181 9.3735689e-006 -0.00058557407 0.00024543292 -0.00061262952 -0.86481065 0.056674421
557000000 -0.87047762 0.063138798 -0.00072425988 -0.0012727816 -0.0003570985 -0.0011082754 -0.86616051 0.055035912
558000000 -0.87053293 0.063502647 0.00065574027 -0.0018129648 0.00056612038 -0.00080709375 -0.86451209 0.054546814
559000000 -0.87033468 0.061843816 0.00044006074 -0.0016497665 0.00030921205 -0.0012527014 -0.86600071 0.055875473
560000000 -0.86926615 0.063830502 -0.0010365422 -0.0013950543 0.00033993946 -0.0014547531 -0.86556202 0.057004713
561000000 -0.87092024 0.062566631 0.00031459291 -0.0010182178 -0.0001712576 -0.0020313424 -0.86549622 0.055940852
562000000 -0.87008798 0.063164391 0.00071589841 -0.0012347257 8.3260784e-005 -0.00037150842 -0.86621058 0.054052226
563000000 -0.8698976 0.063700385 0.00038944662 -0.00021146306 -0.00019558829 -0.0009842189 -0.8655591 0.056492269
564000000 -0.86889213 0.062529281 0.00039120691 -0.00085902086 0.00066605216 -0.0015068603 -0.8664152 0.054971367
565000000 -0.87091851 0.063942216 -0.00018809221 -0.00066956499 -1.72275e-006 -0.0005147651 -0.86431563 0.057005264
566000000 -0.87046415 0.063642338 0.00012048761 -0.0010412541 0.00051533297 -0.00062323379 -0.86466366 0.055848982
567000000 -0.87015921 0.062871352 -6.3780688e-005 0.00011106881 -0.0013381144 -0.00034663075 -0.8661375 0.055524375
568000000 -0.86842358 0.063437589 0.00019246737 -0.0011357465 0.00072262977 -0.0004828232 -0.86631089 0.056574728
569000000 -0.8701297 0.06288892 -0.0011182461 -0.00087162387 -0.00037649384 -0.0014998286 -0.86456871 0.053712755
570000000 -0.87015206 0.062500514 -0.00067101256 -0.00090475753 -0.00032562064 -0.001197819 -0.86411691 0.057570048
571000000 -0.8711713 0.063227817 7.5977594e-005 -0.0028876385 -0.0001526226 -0.0014222526 -0.86455739 0.056332655
572000000 -0.86920613 0.062115882 0.00043738092 -0.00024415911 0.00011397845 -0.0013651027 -0.8644256 0.055125147
573000000 -0.87095153 0.063591063 0.0002102407 -0.001807004 -0.0002966061 -0.00010611026 -0.86481071 0.056850303
574000000 -0.86931282 0.063480332 0.0001112335 -0.00094775163 0.00045726338 -0.00060445408 -0.86564839 0.057796314
575000000 -0.86875015 0.063632078 -0.00045821973 -0.0015507989 -0.00093248783 -0.00091555214 -0.86546957 0.058064435
576000000 -0.86953086 0.064141937 -0.00091348588 -0.0021429288 -0.00060018781 -0.0014103319 -0.86526221 0.057661928
577000000 -0.87118399 0.063751705 0.00058777066 -0.0016306152 0.00021856195 -0.0012130588 -0.86410528 0.057314023
578000000 -0.86866784 0.063280851 -0.00031861188 -0.00072670507 0.0010355135 -0.00044616961 -0.8651439 0.055924691
579000000 -0.86954558 0.063266814 0.00010955994 -0.0013776624 -0.0012013331 -0.0022458201 -0.86636674 0.056943022
580000000 -0.87096423 0.064555176 -0.00084902311 -0.0015752037 0.00039463834 -0.0013113574 -0.8654691 0.058776036
581000000 -0.86868101 0.062983148 -0.00077015348 -0.0013001781 -0.00060231541 -0.0012484558 -0.86600256 0.05736677
582000000 -0.86884671 0.063386366 -0.00062262459 -0.00038914746 -0.00044708647 -0.00027413902 -0.86472934 0.058012862
583000000 -0.8696394 0.064720146 0.00039694595 -0.00030513626 0.00026402826 0.00022181864 -0.86553383 0.058507971
584000000 -0.86911768 0.065344192 -4.6236259e-005 -0.0024453276 -0.00029237702 -0.00077704241 -0.86372405 0.056964584
585000000 -0.86962807 0.063799098 -0.00070344209 -0.001531777 0.00067781383 -0.001161344 -0.86662436 0.058474205
586000000 -0.86989248 0.063540339 0.00064392982 -0.00034671329 -0.00019732919 -0.0021150161 -0.86502016 0.058526564
587000000 -0.86872023 0.065115593 0.00017134174 -0.0011001957 -7.4279829e-005 -0.00086490455 -0.86612749 0.057821061
588000000 -0.8699131 0.064064324 5.3584041e-005 0.00019272229 -0.00040216578 -0.00032903923 -0.86551124 0.058059651
589000000 -0.87043417 0.063350409 0.00044460053 -0.0014638942 2.3448196e-005 -0.0022021856 -0.86434937 0.0589866
590000000 -0.86904979 0.065239578 0.0013735502 -0.0011754843 -0.00018135544 -0.0018458804 -0.86537111 0.057449482
591000000 -0.87021184 0.065568581 -0.0011584982 3.5149158e-005 0.00011058289 -0.0009619171 -0.86516541 0.059406735
592000000 -0.86863059 0.063334428 -0.0001773821 -0.0014754873 -0.00025925142 -0.00052218331 -0.86592972 0.057379868
593000000 -0.87141377 0.064042836 -0.00049391319 -0.00069005426 -0.00055573328 -0.0016452958 -0.86722797 0.05822305
594000000 -0.86853522 0.066395216 0.00074114528 -0.0013087334 -0.00049242668 -0.00059728354 -0.86437643 0.058033913
595000000 -0.86873251 0.066032268 -0.00049395597 -0.0010794812 -0.00073329941 -0.0011746543 -0.86404335 0.05833824
596000000 -0.86729205 0.065640144 -0.00071255275 -0.0016726494 -0.00029511252 -0.0013977954 -0.86576766 0.05688978
597000000 -0.869735 0.066477455 -0.00031309118 -0.00088588003 -0.0011535317 -0.0017327635 -0.86421263 0.058500964
598000000 -0.86909503 0.067043468 -0.0002747172 -0.00095624925 -0.00079470302 -0.0016613269 -0.86347789 0.058173273
599000000 -0.86914396 0.06652049 -0.00031632461 -0.0017841408 -0.00056795683 -0.001160493 -0.86498106 0.057121947
600000000 -0.8695696 0.067827299 -0.00030313083 -0.0017189083 -5.2080013e-005 -0.0011111263 -0.86394626 0.057460278
601000000 -0.86827838 0.065841712 -0.00039002651 -0.0017669232 -0.00027347606 0.00011295365 -0.86465353 0.058579165
602000000 -0.86959374 0.065626711 -0.00045502451 -0.00075166556 3.348575e-005 -0.0004540715 -0.86640507 0.059730612
603000000 -0.86945605 0.066024557 -0.0015340695 -0.0023093612 -0.00033058072 -0.00065845734 -0.86692864 0.059796441
604000000 -0.86827517 0.067240953 -5.8448266e-005 -0.0023508654 0.00048864412 -0.001843222 -0.86572123 0.059137646
605000000 -0.8691166 0.067485847 -0.00060069509 -0.0010947649 0.00097549031 -0.0012936501 -0.86673623 0.060110841
606000000 -0.87031323 0.067945346 0.00040502221 -0.00030991007 -0.00066800538 -0.0017694711 -0.86478537 0.058952846
607000000 -0.86942619 0.06653446 -0.0008149824 -0.0011080813 -0.00029209923 -0.00065838289 -0.8650195 0.061150312
608000000 -0.87023002 0.067341991 -0.00031530217 -0.0010656029 2.3515617e-005 -0.0014122312 -0.86550421 0.059658613
609000000 -0.86860657 0.068842731 -0.00016736073 -0.0015762349 -0.00059079385 -0.0014348354 -0.86700869 0.058391199
610000000 -0.86868364 0.067986883 -0.0014012101 -0.0015839898 -0.00021689474 -0.00031885828 -0.86465853 0.059665013
611000000 -0.86920834 0.068944454 -0.00017483514 -0.0014425304 0.00053773372 -0.0014084062 -0.86397922 0.061461769
612000000 -0.86825812 0.066920631 0.00020793889 -0.0014187237 -0.0011714151 -0.0021060659 -0.86651272 0.059507798
613000000 -0.86989897 0.067060158 0.00095134723 -0.0024570778 0.00088461529 -0.0010296704 -0.86505908 0.059736036
614000000 -0.86896574 0.068889216 -0.00031604222 -0.0017894547 0.00081042352 -0.0010531694 -0.8657707 0.060328972
615000000 -0.86867893 0.069581322 0.00024382742 -0.0013255904 0.00081817404 -0.00092274137 -0.86351752 0.06142037
616000000 -0.8705852 0.068916373 9.5419018e-005 -0.0012885215 -0.0003895032 -0.0013932895 -0.86527735 0.060232405
617000000 -0.86881804 0.06776911 0.00071454537 -0.0017823232 0.00071520387 -0.00027923394 -0.86639547 0.060514398
618000000 -0.87028414 0.068659008 0.00056029408 -0.0016820704 -0.00032865503 -0.0022856859 -0.86457455 0.060121499
619000000 -0.86987936 0.069416687 -0.00055062346 -0.00083994726 -0.00051153719 -0.00085196999 -0.86536306 0.060464934
620000000 -0.87005174 0.070927277 -0.0010109952 -0.0012490251 0.0002497895 -0.0016144777 -0.86462724 0.061163723
621000000 -0.87002254 0.071573183 -0.00073234102 -0.0012861455 -0.00067520625 -0.0018378439 -0.86409301 0.062282652
622000000 -0.86938 0.068280846 -0.00046328988 -0.0011390619 6.0341761e-005 -0.0017325733 -0.86420912 0.061118808
623000000 -0.86731738 0.069605343 0.00030695484 -0.00044709613 0.00011066782 -0.00076801493 -0.86361688 0.062385038
624000000 -0.87000942 0.07007207 5.4306438e-005 -0.00046490901 0.0010487685 -0.0014939015 -0.86518317 0.059908483
625000000 -0.8696714 0.070604376 0.00063379604 -0.00034738632 7.3318035e-005 -0.0023914203 -0.86424124 0.060543079
626000000 -0.86783642 0.072182439 0.00050226453 -0.00024786722 -0.00038266269 -0.00062384451 -0.86462057 0.062701136
627000000 -0.86964625 0.072096214 -0.00061680382 -0.0014374977 -0.00055056711 -0.0015119404 -0.86378092 0.061154861
628000000 -0.86834854 0.070231467 -9.2421258e-005 -0.0012270333 -0.00066316855 -0.00075447262 -0.86513168 0.06145047
629000000 -0.86872423 0.072496787 -0.00063545973 -0.0012320083 0.00052517484 -0.0021212385 -0.86484897 0.064263873
630000000 -0.86792028 0.070764795 -9.9104509e-005 -0.0011499109 -0.00020138158 -0.0010878231 -0.86480922 0.062560156
631000000 -0.86856455 0.07077077 -0.00013146472 -0.0010345778 -0.00068501732 -0.0012185792 -0.86444366 0.06217901
632000000 -0.8692314 0.072121531 -0.001097556 -0.0018691475 -0.00031135636 -0.00080275501 -0.86380804 0.061690353
633000000 -0.86926299 0.07186158 -0.00030367635 -0.00013936906 -0.00051657291 -0.0022234665 -0.86497295 0.061528958
634000000 -0.86782974 0.073484696 4.1622392e-005 -0.0012655457 0.00040049211 -0.00055627793 -0.86445373 0.061695889
635000000 -0.86892885 0.072194196 -0.00065148255 -0.0016359558 0.00028317422 -0.0014164237 -0.8653633 0.061444689
636000000 -0.86895686 0.070586756 0.00067600544 -0.0010883095 0.00044796953 -0.00080719363 -0.86346298 0.06253507
637000000 -0.86722779 0.072456509 -0.00032945248 -0.0011646575 -0.00083249097 -0.0011826814 -0.86500281 0.062989078
638000000 -0.86830544 0.072559662 -0.00093669863 -0.00054774137 -0.0001574452 -0.0020424426 -0.86578017 0.063074507
639000000 -0.86921924 0.071361579 0.00042865711 -0.00068595656 0.00019022243 -0.00086587033 -0.86332536 0.063686475
640000000 -0.86795622 0.071801811 -0.00048741614 -0.00054232735 0.0004330574 -0.0010036411 -0.86377084 0.064295866
641000000 -0.86679542 0.073057584 -0.0001143186 -0.0013156887 0.00056284835 -0.0021854141 -0.86424732 0.063413903
642000000 -0.8680011 0.072560415 -0.00082143792 -0.0015735572 -0.00048198857 -0.00096480467 -0.86522943 0.063488655
643000000 -0.86929303 0.074051984 -0.00050741615 -0.0015083805 -0.00014575332 -0.0018415753 -0.86650598 0.062560931
644000000 -0.86873651 0.07533697 -0.00016492479 -0.00123251 0.00058269477 -0.00037236835 -0.86548883 0.063113131
645000000 -0.86916405 0.072667576 -0.00099914183 -0.00095321488 -0.00015568256 -0.0014786805 -0.86554331 0.063260198
646000000 -0.86773121 0.073559202 0.00036265844 -0.0014891069 9.9676043e-005 -0.00074595161 -0.86343366 0.062951311
647000000 -0.86868602 0.074564293 -0.00061774318 -0.0012104023 -0.0011276925 -0.00039972746 -0.86457837 0.062662512
648000000 -0.86834639 0.073174603 -0.00089774042 -0.0014183966 0.00029263238 -0.0011112173 -0.86365187 0.064127132
649000000 -0.86896515 0.073620014 -0.0011693268 -0.0010764364 -0.00099348894 -0.0020380383 -0.86385828 0.064901486
650000000 -0.86857021 0.072778374 -0.00083596207 -0.0019308721 0.0003687641 -0.00042577507 -0.86401951 0.064879112
651000000 -0.86828858 0.073841557 -0.0006025646 -0.0016039016 0.00052212371 -0.0011676637 -0.86422604 0.064682119
652000000 -0.86841697 0.075172126 0.00039999685 -0.00038651383 -0.00093715463 -0.0017898765 -0.86388201 0.062813692
653000000 -0.8690061 0.075494252 -0.00065376959 -0.0021431739 -2.679247e-005 -0.0011300247 -0.8645348 0.06308116
654000000 -0.867414 0.075157568 0.00017791794 -0.0014435373 -3.7320247e-006 -0.00055817812 -0.86523169 0.063320145
655000000 -0.86937851 0.075794153 -0.00011757061 -0.0011498365 1.9860436e-005 -0.0019710592 -0.86433345 0.064713314
656000000 -0.86824799 0.07335446 -0.00029551424 -0.0013613023 -0.00085019146 -0.00042744476 -0.86258507 0.065372847
657000000 -0.86872411 0.07505016 -0.00058491452 -0.0015116609 0.0010318544 -0.0012479473 -0.86405271 0.066115491
658000000 -0.86932153 0.074963361 0.00064738939 -0.0017397326 -0.00031054718 -0.0012419977 -0.863998 0.062532105
659000000 -0.86882007 0.075013064 -0.00080861012 -0.0014525483 -0.00047801371 -0.0015578952 -0.86423343 0.063974373
660000000 -0.86883992 0.075822666 -0.00059763796 -0.00077425904 -0.0010840576 -0.0018883963 -0.86352283 0.064843953
661000000 -0.86936718 0.075075753 -0.00075427856 -0.00034917941 0.00027107279 -0.0010947847 -0.86488879 0.064780951
662000000 -0.86822772 0.074574716 3.3578784e-005 -0.0013954983 -0.00057100604 -0.0010001016 -0.86466587 0.064939789
663000000 -0.86798382 0.075243399 -0.00075058034 -0.00076319184 -0.00030416655 -0.001427665 -0.86483043 0.066496029
664000000 -0.86691105 0.07539764 -0.00040368171 -0.0018525978 0.00032928915 -0.000953176 -0.86384547 0.065617703
665000000 -0.86807311 0.07520663 -0.00026385777 -0.0013919448 0.00026331149 -0.0015482143 -0.86650074 0.065509833
666000000 -0.86866099 0.076388024 -0.0001634404 -0.0016703058 -0.0006075151 -0.0011742134 -0.86518735 0.065937214
667000000 -0.86961639 0.074670605 -0.00049035921 -0.0026807231 -1.3046644e-005 -0.001206563 -0.86426282 0.065228842
668000000 -0.86771864 0.075739503 0.00017158348 -0.0015641351 -0.00031125976 -0.0011525503 -0.86532581 0.065139703
669000000 -0.86882287 0.076642498 0.00013118314 -0.00052930397 -4.7601302e-006 -0.0019739144 -0.86401719 0.064676248
670000000 -0.86682981 0.074709259 0.0002889974 -0.0015720797 -0.0004298097 -0.00062059314 -0.86370081 0.066567041
