!Keysight Technologies,M9374A,MY55442783,A.12.55.05
!Date: Wednesday, May 19, 2021 18:25:41
!Correction: S11(Full 2 Port(1,2)) 
!S21(Full 2 Port(1,2)) 
!S12(Full 2 Port(1,2)) 
!S22(Full 2 Port(1,2)) 
!S2P File: Measurements: S11, S21, S12, S22:
# Hz S  RI   R 50
500000000 -0.87142766 0.057747301 9.7501106e-005 -0.0019104335 0.00034757867 -0.00065437012 -0.86599535 0.0516905
501000000 -0.8715955 0.058509473 -0.00015250308 -0.0010038634 2.7622453e-005 -0.0011086225 -0.86598581 0.049205191
502000000 -0.87225413 0.058748093 -0.00017208305 -0.0015266665 0.00024724516 -0.002697693 -0.86676198 0.050700378
503000000 -0.86999446 0.058261883 -0.00097850256 -0.0014645817 0.0001153 -0.00045311596 -0.86631322 0.0516368
504000000 -0.87047356 0.057162695 0.00063660229 -0.0014485755 -0.00083002733 -0.0003744009 -0.86603212 0.051099267
505000000 -0.87172991 0.057660002 0.00023276478 -0.00041298181 -4.8182599e-005 -0.0016481173 -0.86640137 0.05078445
506000000 -0.87065446 0.05916946 -0.00048189351 -0.0018026041 0.0013978361 -0.00075160631 -0.86631233 0.050299786
507000000 -0.87176311 0.058690265 -0.00023953794 -0.0015045139 -0.00092242984 -0.00058112788 -0.86555719 0.05000383
508000000 -0.87017477 0.058761366 -0.0010206382 -0.0016709652 -4.3182965e-005 -0.0010240451 -0.86796629 0.051222984
509000000 -0.8700124 0.060075231 -0.0004728683 -0.001251925 -9.8717283e-005 -0.0012066129 -0.86555362 0.051001418
510000000 -0.87140805 0.059699412 3.1489264e-005 -0.00052283995 0.00012870714 -0.00089500769 -0.86512119 0.053121589
511000000 -0.87095517 0.058372226 -0.00057792349 -0.00065550936 -9.057737e-005 -0.00050955469 -0.86501104 0.052069608
512000000 -0.87002832 0.058964621 -0.00044309304 -0.00037267897 0.00012772076 -0.0017963088 -0.86389148 0.051689658
513000000 -0.87145239 0.060015522 -0.00068571058 -0.00012024448 -9.8344506e-005 -0.00070117856 -0.8663193 0.050728101
514000000 -0.87063903 0.058962941 6.6364606e-005 -0.00094400975 0.0002300401 -0.0019225142 -0.86341017 0.051675476
515000000 -0.87284398 0.060126361 -0.0006671116 -0.00095584791 -0.00032418242 -0.00056942867 -0.86500263 0.05134128
516000000 -0.87074721 0.059921652 -0.0008589155 -0.00029339595 0.00024414959 -0.0011827727 -0.86604339 0.051383365
517000000 -0.86994755 0.060300805 -0.0011768091 -0.00082684815 -0.0011109157 -0.0018469252 -0.86405075 0.053504873
518000000 -0.87069583 0.058917262 0.00055612478 -0.0011676645 0.00059319561 -0.00060030632 -0.86502522 0.053748909
519000000 -0.87068939 0.061143208 -0.00044662034 -0.0019726192 9.2965289e-005 -0.0011690373 -0.86472851 0.053338028
520000000 -0.87076199 0.059878182 -0.00034446703 -0.00081552356 -0.00064458873 -0.00039809008 -0.86626017 0.053736046
521000000 -0.87079793 0.061665263 -0.00089856406 -0.00098272413 -0.0010189082 -0.00069249567 -0.86719644 0.05376073
522000000 -0.87033063 0.060514554 -1.9324119e-005 -0.00085088541 -0.00010456063 -0.00083977339 -0.86556172 0.053378958
523000000 -0.87056136 0.058913291 -0.00053870975 -0.00073365244 0.00020077647 -0.00034892006 -0.86400813 0.052663326
524000000 -0.87104964 0.05979469 -0.00058852683 -0.00026146893 0.00072997081 -0.0017072726 -0.86551994 0.051983889
525000000 -0.86941624 0.057579901 -9.3857998e-005 0.00015294833 -0.00040726812 -0.0012727466 -0.86587197 0.053732589
526000000 -0.8702597 0.061783291 0.00052341138 -0.0011284924 2.7663427e-005 -0.0010231923 -0.86588979 0.054291874
527000000 -0.87024379 0.062355135 0.0002946968 -0.00099162397 0.0004855704 -0.0015067437 -0.86384624 0.053029694
528000000 -0.87092221 0.061354347 0.00040385939 -0.0002969997 0.0007618675 -0.00098922011 -0.86562347 0.054117139
529000000 -0.87068212 0.062986188 -0.00075154158 -0.0010339961 -0.00070346124 -0.0018963338 -0.86578566 0.053948618
530000000 -0.87104362 0.062175658 -0.0012037565 -0.0019135545 -0.00015571863 -0.0020930879 -0.86641979 0.053237047
531000000 -0.87086648 0.061184857 -0.00024459712 -0.00081486389 3.4186174e-005 -0.0014812145 -0.86614883 0.054050229
532000000 -0.86938018 0.061966363 -0.00077824842 -0.0011426671 -0.00023666288 0.00021773466 -0.86489689 0.055182964
533000000 -0.86933893 0.063035332 -0.00093603821 -0.00051987811 0.00083629345 -0.0014608493 -0.8634944 0.054820895
534000000 -0.87029737 0.061430536 0.00038756843 -0.0013401421 -0.00017205044 -0.00091956247 -0.8650738 0.054616105
535000000 -0.87058538 0.061092552 -0.0011024398 -0.00028750626 -0.00079310284 -0.00093937869 -0.8639797 0.053624522
536000000 -0.87055027 0.063037559 -0.00084853347 -0.0016149026 -7.8660836e-005 -0.0017451434 -0.86494905 0.055903528
537000000 -0.8713097 0.063319765 -0.00074545335 -0.0012622998 0.00041392032 -0.0018684042 -0.86416531 0.055617195
538000000 -0.86985791 0.062473275 -0.00029568525 -0.0015580702 -0.00089597702 -0.0010779995 -0.86498588 0.055214401
539000000 -0.87111795 0.061826043 7.0712093e-005 -0.0013811716 0.00078017352 -0.00013965987 -0.86554492 0.055135693
540000000 -0.87144881 0.062758416 -3.2016101e-006 -0.0012373731 -0.00021201078 -0.0015391069 -0.86438549 0.055706862
541000000 -0.86992699 0.063980818 -0.00093760469 -0.0013329297 -0.0011994438 -0.0010094118 -0.86552584 0.054810524
542000000 -0.8699646 0.062941372 -0.0013529925 -0.0014371112 0.00019184184 -0.0025790238 -0.86514735 0.054983281
543000000 -0.87082601 0.063057534 -0.00055118825 -0.0014563238 0.00027613153 -0.0012806462 -0.86605811 0.055660769
544000000 -0.870121 0.063136593 -0.00045293482 2.4020193e-005 0.00024820009 -0.0015435088 -0.86606681 0.054847378
545000000 -0.87297344 0.06277018 -0.00057262968 -0.00012595915 8.0915212e-005 -0.0012479274 -0.86521655 0.055411205
546000000 -0.86816096 0.063425519 -0.0010789831 -0.00094255025 4.168411e-005 -0.0010854731 -0.86566484 0.054987978
547000000 -0.87116212 0.063199252 -0.00012183216 -0.00047856898 0.0003703335 -0.0014535278 -0.86422366 0.057837926
548000000 -0.87017536 0.062047832 -0.0007319937 -0.00021548822 -0.00022126255 -0.0013938125 -0.864941 0.056583546
549000000 -0.86970115 0.062809691 -0.00044580366 -0.0011720113 0.0001320755 -0.00095373864 -0.86486256 0.056560189
550000000 -0.86834466 0.064556174 0.00072306296 -0.0016257152 -0.00052114116 -0.0012740438 -0.8644765 0.056504909
551000000 -0.87021881 0.062894143 -8.1089907e-005 -0.00071003137 0.00072653923 -0.00042098711 -0.86479044 0.05566502
552000000 -0.87040693 0.063263997 0.00044236516 -0.00088083406 -0.00011822033 -0.00092420907 -0.86445123 0.056654837
553000000 -0.87068927 0.063768536 0.00035277099 -0.001236449 -0.0005966652 -0.0018101025 -0.86430591 0.055972517
554000000 -0.87049967 0.06454093 -2.9443666e-007 -0.00097135588 -0.00032136985 -0.0012643522 -0.86532098 0.056521121
555000000 -0.87052846 0.062624916 -7.1267837e-005 -0.00064801273 -2.1102909e-005 -0.0015139106 -0.8652488 0.056045052
556000000 -0.86806536 0.062146846 0.00050094241 -0.0011067861 -0.00012835882 -0.001795503 -0.86617279 0.057861451
557000000 -0.87021226 0.065095596 -0.00037435492 -0.0010690239 -0.00064170611 -0.00063527358 -0.86532801 0.057009108
558000000 -0.87031329 0.062902868 0.00077227503 -0.0024296022 -0.00032629236 -0.0010791931 -0.864797 0.058130946
559000000 -0.86831051 0.0637758 -0.00035664267 -0.0016049467 0.00078406307 -0.0016511494 -0.86539251 0.057137515
560000000 -0.86917019 0.063099764 -0.0001015854 -0.00085702789 0.00014635775 -0.00094972987 -0.86513025 0.057769269
561000000 -0.86810613 0.063614815 0.00072122988 -0.00031502265 -0.00052829977 -0.00078558212 -0.86544764 0.054803945
562000000 -0.87069774 0.065070942 -0.00059261877 -0.0015232136 0.001298476 -0.001909479 -0.8657583 0.057693239
563000000 -0.87092668 0.064919554 -0.00053837773 -0.0012124736 -0.00011185618 -0.0013522587 -0.86477923 0.057786897
564000000 -0.87070781 0.063998848 -0.00078464427 -0.0012228714 -0.00048660181 -0.00077347405 -0.86635476 0.057933148
565000000 -0.87011969 0.063278832 -0.00047796618 -0.0011066763 -0.00048977451 -0.00099921622 -0.86503762 0.056892391
566000000 -0.87106681 0.064510033 -0.00046735551 -0.00033653586 -0.00012738886 -0.0018459016 -0.86457682 0.058368992
567000000 -0.87101549 0.064603835 -0.00015265765 -0.00082028948 -0.00033977025 -0.0015216657 -0.86631179 0.058599904
568000000 -0.86971575 0.063548557 0.00036269758 -0.00084677018 1.6335274e-005 -0.0016829465 -0.86495668 0.057663929
569000000 -0.87043571 0.064618602 0.00091916742 -0.0013308082 -0.00067601597 -0.0015992434 -0.86596662 0.057009518
570000000 -0.87031311 0.063726611 -0.0006315505 -0.0017017813 -0.00064161653 -0.0011496033 -0.86532533 0.057531457
571000000 -0.87129271 0.063777849 -0.0010039117 -0.002026679 -9.5130224e-007 -0.001014068 -0.86523992 0.057909813
572000000 -0.86842227 0.064764537 -8.7265056e-005 -0.001429816 -0.0010570354 -0.00053566816 -0.86721849 0.056679342
573000000 -0.86999571 0.064751133 0.00030240344 -0.0010305716 0.00013850463 -0.00080915517 -0.8643496 0.057512987
574000000 -0.86764026 0.06444414 7.3711897e-005 -0.0016679502 0.0011241612 -0.00099094468 -0.8665095 0.057967551
575000000 -0.86802572 0.064790733 -7.6612727e-005 -0.0014860756 -0.00072198734 -0.0017688452 -0.8654784 0.058228899
576000000 -0.87043041 0.066522188 0.0011781539 -0.0022176707 0.00048413582 -0.0013388478 -0.86403322 0.059975706
577000000 -0.87011361 0.064807057 -0.00031790385 -0.0022092739 -0.0010409396 -0.0021591389 -0.86638641 0.056753371
578000000 -0.86902678 0.064872928 0.00012076728 -0.00074546324 0.00046059722 -0.00085868855 -0.86431396 0.057306897
579000000 -0.86880082 0.064925224 4.8928664e-006 -0.00073329703 0.00018853124 -0.0014843864 -0.86519206 0.059505396
580000000 -0.87031174 0.063860647 -7.5725632e-007 -0.00045947888 -5.7202971e-005 -0.0015386352 -0.86484766 0.059039071
581000000 -0.86988318 0.064338714 -4.018714e-005 -0.0012255772 0.00029878935 -0.0010250228 -0.86676943 0.059132081
582000000 -0.86901551 0.065283217 -0.00034247764 -0.00051049044 0.00045485748 -0.00059598911 -0.86602646 0.057345793
583000000 -0.86912245 0.064211562 0.00019114667 -0.0010498117 -0.00074280152 -0.0017685656 -0.86745095 0.057443641
584000000 -0.86952895 0.066250913 -0.0012368355 -0.0014863482 -0.001129961 -0.00095381739 -0.86508209 0.059225447
585000000 -0.87156391 0.067182042 -0.00063647155 -0.0012263566 0.00018285179 -0.0014045796 -0.86582839 0.059017085
586000000 -0.86884701 0.065843731 -0.00033872962 -0.0018280877 -0.00073817623 -0.00051566336 -0.86632699 0.05893765
587000000 -0.86979455 0.066867374 -3.9651899e-005 -0.00049856136 3.0923984e-005 -0.00060748245 -0.86588019 0.059091795
588000000 -0.86896122 0.067132086 -0.00054956821 -0.0016703465 0.00016312722 -0.0010460698 -0.86584127 0.057286814
589000000 -0.86862117 0.067167573 0.00089032261 -0.0015480301 -0.00055549608 -0.0010744241 -0.86571413 0.059676804
590000000 -0.86966282 0.066485792 4.8715341e-005 -0.0021810092 -9.2763796e-005 -0.0014827778 -0.86468434 0.058441289
591000000 -0.8704139 0.068815485 -0.00079658313 -0.00091229368 -0.00044325649 -0.00080095272 -0.86517274 0.058848765
592000000 -0.87069178 0.06633772 -5.7890215e-005 -0.0020640304 -0.00035384571 -0.0014514497 -0.86605805 0.058079131
593000000 -0.87079537 0.065482035 -0.0003486239 -0.0016147444 -0.0009404078 -0.001592599 -0.86471772 0.059517715
594000000 -0.87055176 0.066222414 -0.00017353521 -0.00066107232 -0.00028240035 -0.002076908 -0.86424959 0.060633477
595000000 -0.86976039 0.067072935 -3.2058022e-005 -0.0019408313 -0.00086581166 -0.0012602232 -0.86581415 0.06099619
596000000 -0.87038189 0.066354975 -0.00031109483 -0.0019331448 0.00082261389 -0.00065276801 -0.86547786 0.058726955
597000000 -0.86885828 0.066517383 1.7610066e-005 -0.0012785629 -0.0010910522 -0.0017549491 -0.86606884 0.060432266
598000000 -0.86885262 0.067679644 -0.0013263769 -0.0014520271 -0.00078542519 -0.0016538504 -0.86568266 0.059984829
599000000 -0.8701039 0.067103662 0.0002169982 -0.00098361413 -0.00011822636 -0.0014846727 -0.86686695 0.060911618
600000000 -0.86882192 0.06791392 5.9763126e-005 -0.0017175409 3.4419485e-005 -0.0012916087 -0.86468744 0.059233706
601000000 -0.87071586 0.068643451 -0.00099763414 -0.00097948604 0.00048135777 -0.00093020487 -0.86471081 0.060565032
602000000 -0.86785108 0.067815892 -0.00071275525 -0.0015541146 7.8641322e-005 -0.0010713935 -0.86520177 0.060381178
603000000 -0.87039465 0.067846216 -0.00015998771 -0.0021028726 0.00033215404 -0.00092900131 -0.86475432 0.058496539
604000000 -0.86723554 0.068959355 0.00021753662 -0.0014883634 -0.00059758977 -0.00017212846 -0.86579627 0.059737273
605000000 -0.86953378 0.069126986 0.00048918492 -0.0011879047 -0.00067759311 -0.0018535131 -0.86476904 0.060666483
606000000 -0.86932552 0.069039889 -0.00033110922 -0.0013379451 -0.00084495329 -0.0014246643 -0.86329001 0.058922015
607000000 -0.86923063 0.068934686 -0.00058761286 -0.00035245848 0.00026058411 -0.0011218411 -0.8642109 0.061484527
608000000 -0.86891317 0.068917915 0.0008732503 -0.0011460875 -0.00010669351 -0.0011613159 -0.86657941 0.060850907
609000000 -0.86955953 0.068575487 -0.00038186062 -0.0014233897 -0.00034869779 -0.0008313295 -0.86517388 0.060520545
610000000 -0.87014681 0.068452321 -0.00064974849 -0.0019888624 0.00021714529 -0.0018292223 -0.86338377 0.06176975
611000000 -0.86793607 0.068267629 0.00039687686 -0.00076850399 -0.0011998583 -0.001744572 -0.86552536 0.060817175
612000000 -0.86900371 0.069583602 -0.00024419773 -0.00083563995 -0.0013852336 -0.00095872505 -0.86557776 0.061643708
613000000 -0.86946166 0.068998307 -0.00045619876 -0.0012200827 -0.00055926008 -0.00084127689 -0.86543548 0.059359469
614000000 -0.86874568 0.070698276 -0.0013758511 -0.00025371692 0.00023666033 -0.00098785141 -0.86576533 0.062223598
615000000 -0.86890215 0.069314547 -0.00065108249 -0.0014645227 -0.00084559148 -0.0020440419 -0.86347765 0.062472969
616000000 -0.86876857 0.069568351 0.00091972039 -0.0012950049 0.00018484997 -0.0022291336 -0.86480385 0.061151803
617000000 -0.86920547 0.07033731 0.00072813901 -0.0016072978 0.00079821469 -0.00099942042 -0.86506677 0.061424393
618000000 -0.86999005 0.071910478 -0.00040515704 -0.0014133585 4.654218e-005 -0.00079161144 -0.86289907 0.061408367
619000000 -0.8681891 0.070520774 -0.00077103119 -0.00095646875 -0.00032292673 -0.00076516805 -0.86488169 0.063452229
620000000 -0.86800557 0.070326991 0.00021984433 -0.00061381701 0.00045470495 -0.0021238313 -0.86339116 0.063410014
621000000 -0.86964762 0.071949832 -0.0010439618 -0.00035021763 -0.0012336926 -0.0017748283 -0.86354047 0.061990269
622000000 -0.86915815 0.072285317 -0.00049420208 -0.0018753094 0.00069144572 -0.0017404505 -0.86417723 0.063361585
623000000 -0.86861551 0.07143677 -9.9172605e-005 -0.0016669646 -2.6658959e-006 -0.0011819985 -0.86514235 0.061435796
624000000 -0.86926472 0.072146855 0.00040013395 -0.0010327349 -0.00049224444 -0.0010058647 -0.86399657 0.062086966
625000000 -0.86919272 0.072744928 -0.00061689527 -0.0012889509 -0.00041058203 -0.0022733505 -0.86504364 0.062295731
626000000 -0.86836797 0.072845668 -0.00077243126 -0.0019041575 3.7280326e-005 -0.0014634538 -0.8640306 0.063334487
627000000 -0.8690151 0.071212083 -0.00048148324 -0.001118906 0.00047743044 -0.0008373587 -0.86438912 0.062263992
628000000 -0.86830276 0.07413213 -0.00018525339 -0.0012736502 -0.0003155898 -0.0018570797 -0.86523503 0.063096277
629000000 -0.87034506 0.07267499 -0.00066766201 -0.00037480652 0.00043770115 -0.001680396 -0.86390758 0.062598623
630000000 -0.86913562 0.072213843 -0.00084587827 -0.0010571724 -0.0006505546 -0.0010310702 -0.86355627 0.064548776
631000000 -0.86940581 0.073507957 -0.0014026107 -0.00096658763 -0.00025036008 -0.0016113009 -0.86353916 0.06351579
632000000 -0.86903375 0.073481023 -0.00026267167 -0.0010126011 0.00022541304 -0.0016967451 -0.8631593 0.06331636
633000000 -0.86763525 0.072664872 -0.00066124601 -0.0011619107 -0.0007517229 -0.0018482592 -0.86545849 0.063536584
634000000 -0.86976415 0.072988264 -0.00051531335 -0.0013732568 0.00066647882 -0.00014641383 -0.86441785 0.063268237
635000000 -0.86795366 0.073590204 -9.0535628e-005 -0.0015926657 -0.00064705795 -0.0015666713 -0.86285895 0.06367401
636000000 -0.8690232 0.072916098 0.00089340878 -0.0017834699 -0.00018827955 -0.00036264982 -0.86528873 0.065197416
637000000 -0.86874473 0.073600836 -0.00054160209 -0.0011093452 -0.00059417036 -0.00014419296 -0.86381519 0.06539391
638000000 -0.86934578 0.074921884 -0.00077158172 -0.0013099333 -0.00060642941 -0.0011823111 -0.86458957 0.063753597
639000000 -0.86972314 0.074491985 0.00029689775 -0.0018196021 0.00039385734 -0.00097490865 -0.86355084 0.064412564
640000000 -0.86756891 0.074891441 -8.7104581e-006 -0.0016755383 -0.0001575455 -0.00165675 -0.86318886 0.063978761
641000000 -0.86962277 0.073710248 -0.00022226131 -0.0013680647 8.5958724e-005 -0.0010405506 -0.86342287 0.062736839
642000000 -0.86761647 0.07546822 -5.0103172e-005 -0.0011160261 -0.00049616827 -0.00077686226 -0.86347902 0.066667207
643000000 -0.86881673 0.074086353 0.00082418713 -0.0015869181 -3.9220591e-005 -0.0011634118 -0.86532301 0.063247137
644000000 -0.86979157 0.073549569 -0.00019875457 -0.001620746 0.000660508 -0.0020232394 -0.86313528 0.064899169
645000000 -0.86855817 0.076813973 -0.000215373 -0.0013891996 -0.00083929655 -0.001895142 -0.86355144 0.063548677
646000000 -0.86736894 0.074999027 -0.00080148288 -0.00027524066 0.00028840246 -0.00082440756 -0.86487192 0.064310625
647000000 -0.86937791 0.074644543 -0.0011285137 -0.0021070184 -0.00020601341 -0.0015418562 -0.86340672 0.06462159
648000000 -0.86861187 0.075027943 0.00018219097 -0.0014622837 -0.00038528221 -0.001625433 -0.86450499 0.066016622
649000000 -0.86821145 0.075100049 -0.00092758849 -0.0017784945 0.00052963791 -0.00037745514 -0.86423433 0.063497663
650000000 -0.8696292 0.074513175 -2.8506634e-005 -0.0015083889 -0.00025961426 -0.0019903253 -0.86358523 0.065553576
651000000 -0.86909842 0.075262569 -0.00054446957 -0.001876372 3.9877956e-005 -0.0014378092 -0.86363816 0.065579467
652000000 -0.8698929 0.075459883 -0.0001472725 -0.0014869506 -0.00036958218 -0.0012743212 -0.8627854 0.066617414
653000000 -0.86756217 0.074932426 -7.9469653e-005 -0.0015611781 -0.00099269697 -0.0014572947 -0.86357439 0.066080973
654000000 -0.86825222 0.076324411 0.0010681931 -0.0013766696 -9.2168077e-005 -0.0011790578 -0.86369532 0.066366397
655000000 -0.86763644 0.075242832 0.000270958 -0.00057959877 -0.00014930479 -0.0014474713 -0.86425966 0.065924257
656000000 -0.86855632 0.077615254 4.7553382e-005 -0.00087294559 -0.00062993495 -0.00093176618 -0.86503369 0.066187389
657000000 -0.86854649 0.075134248 0.00025917593 -0.0014252233 -0.00041182956 -0.0013389488 -0.86315578 0.066937305
658000000 -0.86988544 0.077793293 0.00032434124 -0.00097870105 -0.00053216395 -0.00085271412 -0.864555 0.066077597
659000000 -0.86818516 0.076444887 -0.00024212523 -0.0019174966 -0.0010300914 -0.0013761028 -0.86319113 0.066057019
660000000 -0.86755067 0.076710977 -0.00015589058 -0.00083468703 -2.8790611e-005 -0.0013378381 -0.8614068 0.065854773
661000000 -0.86618292 0.077220283 -0.00060996867 -0.0018878059 -0.00044768114 -0.00093767658 -0.86396521 0.066954039
662000000 -0.86894089 0.075708143 -0.00045350479 -0.00073669147 -0.00061564794 -0.0024775621 -0.86537224 0.0670707
663000000 -0.86910635 0.077123247 9.3878378e-005 -0.0017079584 -0.00031356927 -0.0012825879 -0.86322206 0.065588206
664000000 -0.86771727 0.076884307 -0.00040019114 -0.0011889533 -0.00060653291 -0.0016608947 -0.8649202 0.066469908
665000000 -0.8689478 0.076023683 -0.0012133238 -0.0014934709 -0.00074921298 -0.0023080017 -0.86384428 0.067452252
666000000 -0.8669982 0.078756213 -0.0001168547 -0.0011854445 4.960419e-005 -0.00048490244 -0.86405247 0.06576997
667000000 -0.86710376 0.076800987 -0.00025418514 -0.00072251831 -0.00058553903 -0.0019543129 -0.86275464 0.066727318
668000000 -0.86796689 0.076320417 -6.8417496e-005 -0.0019334229 -0.00085880148 -0.0011469576 -0.86297125 0.066977337
669000000 -0.86961794 0.078182623 -0.00042627502 -0.0017114368 0.00021947776 -0.0015451898 -0.86480254 0.06577339
670000000 -0.86881602 0.077966936 -0.00063179433 -0.0016958179 -0.00094848679 -0.0012156809 -0.86327463 0.069413841
