!Keysight Technologies,M9374A,MY55442783,A.12.55.05
!Date: Wednesday, May 19, 2021 18:32:06
!Correction: S11(Full 2 Port(1,2)) 
!S21(Full 2 Port(1,2)) 
!S12(Full 2 Port(1,2)) 
!S22(Full 2 Port(1,2)) 
!S2P File: Measurements: S11, S21, S12, S22:
# Hz S  RI   R 50
500000000 -0.87013793 0.056677088 -0.0014166519 -0.0001533772 -0.00056650047 -0.00084094156 -0.86605674 0.048545018
501000000 -0.87021846 0.059006091 0.00093377609 -0.0012543523 -9.7942648e-005 -0.00077349506 -0.86636323 0.049396284
502000000 -0.87139702 0.056692541 -0.00054976263 -0.00010230146 0.00010660405 -0.0017247862 -0.86585307 0.050236374
503000000 -0.86930746 0.05676686 -0.00028114731 -0.00092444621 -0.00061458134 -0.0012273801 -0.86550605 0.048904322
504000000 -0.87114286 0.057979383 0.0005195266 -0.00074978109 -0.00046906213 6.1808263e-005 -0.86480576 0.051833291
505000000 -0.87192196 0.058355626 0.0011198305 -0.00096492248 -0.00029447585 -0.00096509373 -0.86600202 0.049463354
506000000 -0.87064421 0.057620704 0.00046468969 -0.00063287624 -0.00036141896 -0.00017357907 -0.8658902 0.050974175
507000000 -0.87024593 0.058386344 0.00045127716 -0.0011958831 -0.00082792569 -0.0010050392 -0.86515081 0.04984121
508000000 -0.87095994 0.059375811 2.3432114e-005 -0.0011969634 -0.00058276119 -0.000666551 -0.86514741 0.051771637
509000000 -0.87076557 0.057803027 0.00038528972 -0.00087504537 -0.00085847417 -0.0011213181 -0.86440587 0.050697569
510000000 -0.87196344 0.058043871 -0.00016966755 -0.00088249374 4.277004e-005 -0.00057732983 -0.86376452 0.051686771
511000000 -0.87288809 0.05863291 -0.00010064828 -0.00022647831 0.00083202228 -0.00065750553 -0.86409855 0.052148361
512000000 -0.87281066 0.058080107 0.00037922975 -0.0013972445 -0.0008430212 -0.00061305746 -0.8655979 0.050039396
513000000 -0.87104064 0.057809986 -0.00026166 -0.0006062708 0.00096133846 -0.0017708627 -0.8661086 0.051434565
514000000 -0.87035638 0.05908173 0.00026272718 -0.00096351333 -5.1453939e-005 -0.0017040317 -0.86439025 0.052086111
515000000 -0.87141514 0.057884146 -0.00053309882 -0.00033667867 -0.001403419 -0.0020426004 -0.86634058 0.052127745
516000000 -0.87126219 0.058570419 -4.6718229e-005 -0.0014783259 0.00039143403 -0.0010486216 -0.86521316 0.051886309
517000000 -0.87106407 0.059119862 0.00087779306 -0.00068249507 0.00024234039 -0.0016035204 -0.86637181 0.052156605
518000000 -0.87129295 0.060184423 0.0011708672 -0.00099284714 -0.00058835215 -0.00023589472 -0.86445808 0.050895605
519000000 -0.87076801 0.059740108 -0.00054149382 -0.00046300565 0.00044235992 -0.00092091609 -0.86580867 0.05365352
520000000 -0.86987239 0.060176462 -0.00060661713 -0.00052926689 0.00054334255 -0.0017176451 -0.86534685 0.053032015
521000000 -0.8694225 0.058788199 -0.0004060707 -0.0018378268 -0.00031760149 -0.0011906115 -0.86514604 0.051602867
522000000 -0.87085569 0.059460912 0.0005227144 -0.00040277379 -0.00018194172 -0.0018059422 -0.86410171 0.053227648
523000000 -0.87201893 0.059578154 0.00052446075 -0.0019729261 -0.00046462234 -0.0010477917 -0.86470407 0.053043552
524000000 -0.87138194 0.060025871 -0.00074748584 -0.00086659443 0.00033267192 -0.0012165012 -0.86724228 0.054028679
525000000 -0.87036806 0.060002875 -0.00022636738 -0.0010449836 -0.00059163786 -0.00049299136 -0.86734974 0.052835759
526000000 -0.87028444 0.0617733 -0.00076273497 -0.0010609848 0.00010125407 -0.0012960844 -0.86427355 0.05344452
527000000 -0.872078 0.060311519 -0.00052265701 -0.001436869 -0.00061200937 -0.00069761736 -0.86670208 0.053802513
528000000 -0.87007958 0.060439553 -0.00028379066 -0.0011394689 -0.0005542665 -0.00083988201 -0.86407578 0.054051291
529000000 -0.8720749 0.060839262 -4.5495461e-005 0.00033586303 -0.00040721174 -0.0012422871 -0.86306715 0.05425217
530000000 -0.86997485 0.061815228 -0.00015134086 0.00031039235 -0.00088065385 -0.0018571096 -0.86569667 0.053156048
531000000 -0.87040287 0.0608171 -0.00027146601 -0.0021002355 -0.00072699145 -0.0011115449 -0.86698633 0.052292552
532000000 -0.87070298 0.060929108 -0.00020717895 -0.0011073884 0.0012965976 -0.001142832 -0.86493605 0.053743515
533000000 -0.87076962 0.061826296 0.00012086204 -0.00092947716 0.00056283287 -0.0018354703 -0.86554676 0.054102108
534000000 -0.87105739 0.061321266 0.00013493397 -0.0024517141 -0.00049608271 -0.00063538877 -0.86557984 0.054761373
535000000 -0.87228686 0.059870083 0.00011208417 -0.001306107 -0.00063903228 -0.0014848236 -0.86557341 0.054463349
536000000 -0.87095922 0.062210929 -0.00025538696 -0.0011041164 -0.00039461648 -0.0013175601 -0.86492544 0.053973153
537000000 -0.87040544 0.062040921 0.00024795518 -0.002006449 -7.8153957e-005 -0.00083310081 -0.8648023 0.055010285
538000000 -0.87119234 0.062361665 -0.00026524242 -0.00092518498 0.000119944 -0.0019886962 -0.86435294 0.054339193
539000000 -0.8718943 0.062231958 -0.00057411729 -0.00028318661 -5.1426247e-005 -0.0017842598 -0.86494255 0.053732414
540000000 -0.8707878 0.06182098 -0.0003778075 0.00013117868 0.00036438549 -0.00066512398 -0.86426783 0.054826681
541000000 -0.87126303 0.062038973 -0.00016245087 -0.0013129003 -0.00088951574 -0.0014414192 -0.86534631 0.054270558
542000000 -0.87020516 0.061385948 -0.00057059788 -0.0018001838 -0.00022843399 -0.0018500133 -0.86420619 0.055171628
543000000 -0.86979991 0.062214967 0.00019580907 -0.0013528394 -5.2260162e-005 -0.0002846852 -0.86551636 0.056578089
544000000 -0.87055421 0.060865827 -0.00046807947 -0.0016175669 -0.00064127886 -0.00071233546 -0.86500221 0.05550595
545000000 -0.86998791 0.062627442 -2.5713976e-005 -0.00046760464 -0.00039212813 -0.0011052978 -0.86542261 0.055653818
546000000 -0.87118584 0.062608503 0.00023003241 -0.00082590623 0.00012567424 -0.00094234792 -0.86498809 0.055510361
547000000 -0.87080985 0.062180877 0.0010308819 -0.0010265834 0.00011673442 -0.00094798103 -0.86508548 0.055283986
548000000 -0.87010121 0.064508416 0.00024406621 -0.001743553 -0.00044048889 0.00014927115 -0.86547476 0.055203304
549000000 -0.87153232 0.062503166 -0.0014827265 -0.0011169787 0.0002071964 -0.00041188949 -0.86582255 0.054621771
550000000 -0.87069958 0.063016064 -0.00069573434 -0.0013352676 -0.0005536222 -0.00016611761 -0.86480898 0.056700151
551000000 -0.87013787 0.062317666 0.00032288357 -0.0016236816 0.00061302626 0.00013700775 -0.86565959 0.056261368
552000000 -0.87170434 0.062452879 2.2925111e-005 -0.0012195957 -0.0003083917 -0.0010847576 -0.86560512 0.056311995
553000000 -0.87051582 0.063479587 0.00049690163 -0.0014547013 -0.00027473789 -0.00091103517 -0.86624897 0.055352513
554000000 -0.87046504 0.060257383 -0.00088997977 -0.00053382333 -0.0010316947 -0.0011925542 -0.86608428 0.055353511
555000000 -0.87101293 0.062904969 -0.00059309596 -0.00084276451 -0.00050943601 -0.0014984591 -0.8640871 0.054135807
556000000 -0.86904675 0.063050874 -0.0010204898 -0.0017756681 -0.00018550958 -0.00123739 -0.86673111 0.056419022
557000000 -0.86980301 0.062989779 0.00028476235 -0.00022208788 -0.00040307848 -0.00097577943 -0.86567926 0.05666858
558000000 -0.87059051 0.062406201 -0.00022255276 -0.0012528708 -0.00095086807 -0.00064751564 -0.86654991 0.055091642
559000000 -0.87188309 0.063919254 -0.00027460878 -0.00093527202 0.00047625229 -0.00044731062 -0.86464596 0.05790903
560000000 -0.87047279 0.063281164 -0.00050752761 -0.0011334824 -0.00029392506 -0.001267283 -0.86583912 0.055853378
561000000 -0.86960691 0.063419349 -0.00034827186 -0.00089198438 8.4633866e-005 -0.00078140944 -0.86435723 0.055698246
562000000 -0.86887878 0.063440755 4.1607345e-005 -0.0013145934 0.00067421485 -0.00058787176 -0.86564744 0.05547167
563000000 -0.86976629 0.065004252 0.00070949947 -0.0016984289 -0.00032151784 -0.00087326771 -0.86566079 0.057796787
564000000 -0.86956745 0.063218743 0.00021701414 -0.0025258001 -0.00047318492 -0.0017482552 -0.86641467 0.057261612
565000000 -0.87087345 0.062993288 -0.000769476 -0.00096669054 -0.00046622564 -0.00067982997 -0.86417991 0.05671902
566000000 -0.87129837 0.06181293 -0.00015768125 -0.00080353423 -0.00037186118 -0.00082055002 -0.86630034 0.056904521
567000000 -0.86933154 0.064071849 -0.00043783287 -9.5092604e-005 -0.0005363333 -0.00022895006 -0.86512828 0.0560041
568000000 -0.86910152 0.063826241 -0.00010651764 -0.0018961974 0.0014746225 -0.00068227266 -0.86594218 0.056492403
569000000 -0.86944485 0.063274994 -0.0014514191 -0.00064635678 -0.00022569465 -0.0013073124 -0.86506534 0.055146974
570000000 -0.87012213 0.063249238 -0.00030269031 -0.0019620438 0.00082049175 -0.00025586633 -0.86573994 0.057773285
571000000 -0.87036771 0.063987061 -0.00051115674 -0.00084375567 -0.00090552145 -0.0016217 -0.86549252 0.058051586
572000000 -0.86922336 0.062910214 5.8821056e-006 -0.0023093973 6.0221046e-005 -0.0015485521 -0.86543691 0.057107273
573000000 -0.87103456 0.063843958 -0.00076667464 -0.00080423511 -0.0010078609 -0.0014262802 -0.86543173 0.057983071
574000000 -0.86893266 0.064008191 -0.00046285396 -0.00099255936 -0.0010590706 -0.0017766419 -0.86495847 0.056216523
575000000 -0.87126565 0.06468989 -2.5562162e-005 -0.001211495 0.00038736552 -0.0014868178 -0.86717314 0.05713471
576000000 -0.86873895 0.06322474 0.00051832927 -0.0019518246 0.0003757879 -0.0014548475 -0.86529869 0.059653591
577000000 -0.86977512 0.064603664 0.00040564383 -0.001019276 -0.00052987132 -0.00068252749 -0.866754 0.057193555
578000000 -0.86918557 0.065477192 -0.0010507104 -0.00013234054 -0.00040766693 -0.0021038314 -0.86681634 0.056859557
579000000 -0.87084419 0.065046914 -0.0011625736 -0.0022059118 0.00064620044 -0.00078367937 -0.8659811 0.057679854
580000000 -0.87020391 0.064371355 -0.00030065293 -0.0010936053 0.00015109866 -0.00096179364 -0.86527646 0.05758572
581000000 -0.86942184 0.065106101 4.4876695e-005 -0.0016166869 0.00019900785 -0.0016917847 -0.86568755 0.057639815
582000000 -0.87036788 0.065423653 -0.00092202961 -0.0014481323 0.000215067 -0.001448869 -0.86429316 0.058918305
583000000 -0.86917561 0.065714493 -0.00017958357 -0.00098148792 2.5942463e-005 -0.00070902507 -0.86568648 0.057641137
584000000 -0.86920923 0.065235034 -0.0002922522 -0.0019880075 -0.00018435171 -0.0019219506 -0.86435443 0.059419066
585000000 -0.86878461 0.065787919 -0.00095586741 -0.00096741965 0.00016994409 -0.0013060443 -0.86533988 0.057926517
586000000 -0.86987722 0.065459751 -0.00054187368 -0.0010235626 0.0004182666 -0.0014461386 -0.864043 0.057761904
587000000 -0.86911237 0.066481344 -0.00059828383 -0.00090857083 -0.0002583215 -0.00085319596 -0.86475527 0.058588814
588000000 -0.87041044 0.064505786 -0.00022593947 -0.0013806686 0.00011363004 -0.00093795219 -0.86619687 0.057835352
589000000 -0.86935407 0.064395368 -0.0008527179 -0.00030610559 -0.00043031457 -0.0013984282 -0.86565799 0.058951139
590000000 -0.87075609 0.064738043 -0.00032554087 -0.00091792457 -0.0005128397 -0.0023057105 -0.86526215 0.057815824
591000000 -0.8696909 0.066386603 0.00038975009 -0.0015121487 -0.0012453392 -0.0011300279 -0.8660301 0.059345651
592000000 -0.86924297 0.065173157 -0.00050090789 -0.0014079023 -0.00019635371 -0.0019408407 -0.86367202 0.057109457
593000000 -0.87018442 0.065119632 -0.00073546096 -0.0016631901 0.0017274651 -0.0010359583 -0.86594987 0.057809249
594000000 -0.87022007 0.066523112 -0.00049302913 -0.0011738694 -0.0017839449 -0.0010141142 -0.86218858 0.058733869
595000000 -0.87283665 0.064089231 -0.00042331498 -0.0013218175 0.00037802121 -0.0014859497 -0.8663705 0.059397198
596000000 -0.86895013 0.064844534 0.00017852488 0.00022803454 -0.00079940789 -0.0012219294 -0.86567158 0.059087116
597000000 -0.8684994 0.064915769 -0.0010123145 -0.0015584877 0.00030796399 -0.0021332852 -0.86509484 0.058492638
598000000 -0.8710283 0.067867011 -0.00040981194 -0.00091459282 0.00040603141 -0.00088802731 -0.86733806 0.058736186
599000000 -0.86969703 0.065883897 -0.0011000471 -0.0021648197 0.00021479047 -0.00091259251 -0.86462396 0.059129737
600000000 -0.86764556 0.067502089 7.5737895e-005 -0.0011943678 -1.367208e-006 -0.0012169066 -0.86438894 0.057652425
601000000 -0.86881316 0.067382455 -0.00016303557 -0.00055678334 0.00052053592 -0.0019326661 -0.86577553 0.059894759
602000000 -0.87068075 0.067717895 -0.0016386986 -0.0012270786 -0.00028020181 -0.00083584711 -0.86595273 0.060140353
603000000 -0.87097311 0.067114256 -0.0010850439 -0.00052861235 1.4257828e-005 -0.0021452322 -0.86457449 0.058744956
604000000 -0.8690207 0.066223003 -0.00041871361 -0.00071595516 -0.00041644319 -0.00036894999 -0.86453617 0.05881428
605000000 -0.86927897 0.06765113 5.5611385e-005 -0.0016934702 0.00015817871 -0.002034256 -0.86350429 0.060669925
606000000 -0.86882442 0.066894889 0.00033053238 -0.00084846799 0.00021463723 -0.00065862254 -0.86431235 0.061399892
607000000 -0.86882544 0.068543993 -0.0017266924 -0.0013599931 -0.00020721173 -0.0020384979 -0.86428285 0.059320744
608000000 -0.8692894 0.068302304 -0.0012372682 -0.0016633631 0.00036589932 -0.0014570499 -0.86580271 0.060407925
609000000 -0.86886162 0.069753774 -0.00025469245 -0.0008876301 -0.0014318239 -0.002430202 -0.86524099 0.059599761
610000000 -0.86854339 0.068591177 0.0010918953 -0.0016596782 -0.00040537244 -0.0023454623 -0.86435616 0.059545558
611000000 -0.87002099 0.068860412 -0.00020932923 -0.00096575916 5.7358924e-005 -0.0016025873 -0.86491191 0.0601722
612000000 -0.87006915 0.067492016 0.00058099203 -0.00088289881 -0.00020555081 -0.00089874578 -0.86444747 0.061394218
613000000 -0.86978978 0.07038071 -0.00013074242 -0.00020775972 -0.00027988767 -0.0014540191 -0.86430776 0.060921311
614000000 -0.86928242 0.070154086 -9.951392e-005 -0.00028954921 -0.00047797841 -0.00050954556 -0.86491603 0.060917318
615000000 -0.86983556 0.067970894 -0.0014516843 -0.00094560848 1.6819729e-005 -0.00066755625 -0.86488044 0.061242957
616000000 -0.86922568 0.068403259 0.00064534735 -0.00069536711 0.0005692594 -0.0013427149 -0.86434853 0.06100779
617000000 -0.86802173 0.069245681 3.327697e-005 -0.001381967 -0.0005510198 -0.00062860694 -0.86494565 0.061365575
618000000 -0.86927921 0.070710227 -0.0002053919 -0.0020625025 0.00051210483 -0.0014411976 -0.86700517 0.06160152
619000000 -0.87064767 0.070158906 0.00028939499 -0.0010560318 -0.00056198012 -0.00085604243 -0.86479753 0.063263439
620000000 -0.86924911 0.070090987 0.00069062447 -0.0013205023 0.00016208658 -0.00041640061 -0.86601394 0.061987713
621000000 -0.87091517 0.071310133 0.00029458417 -0.0016820738 0.00025777769 -0.0013791455 -0.86294913 0.062482197
622000000 -0.86886287 0.070641488 0.0004999761 -0.0011600135 -0.00026950086 -0.0012552534 -0.86588049 0.061421614
623000000 -0.86856961 0.070774369 0.0012201568 -0.0022417896 0.00025408118 -0.00059293752 -0.86533642 0.061909005
624000000 -0.8682186 0.07007771 0.00066486519 -0.0013735314 0.00026609999 -0.0013495539 -0.86484402 0.062422991
625000000 -0.86956167 0.071535401 -0.00078514352 8.9460045e-005 -0.0002781924 -0.0017282525 -0.86485499 0.061729867
626000000 -0.87012547 0.071370952 -0.00054558751 0.00033789253 -0.00076455064 -0.0017662639 -0.86460865 0.062990695
627000000 -0.86968791 0.070619576 -0.0012155258 -0.0011441172 -0.0002694173 -0.0016146508 -0.86375022 0.063334681
628000000 -0.87036383 0.071905479 -0.00069948309 -0.00099752913 0.00047929678 -0.00081697252 -0.86579329 0.062342104
629000000 -0.8684606 0.072095975 0.00034187068 -0.0015036598 -0.0012116954 -0.0014814881 -0.86395186 0.063358091
630000000 -0.86878407 0.072430119 0.0004191811 -0.00060403842 0.00043617288 -0.00067785342 -0.86381602 0.062378716
631000000 -0.86956465 0.072452575 -0.00014697903 -0.0011772542 -0.0007338514 -0.0021861454 -0.86611468 0.062099937
632000000 -0.86931157 0.071972504 -0.00032368625 -0.00051420968 8.0073172e-005 -0.00041305611 -0.86297655 0.062715389
633000000 -0.86938953 0.072085008 -0.00037387721 -0.0013555783 0.00015989172 -0.0016512387 -0.86444646 0.062562354
634000000 -0.86939859 0.073664568 -0.00039349761 -0.00080028595 7.8078956e-006 -0.00079359708 -0.8651526 0.062346041
635000000 -0.86958939 0.072908863 -0.00023979011 -0.0013577982 -0.00024055909 -0.00087364507 -0.86556935 0.064184263
636000000 -0.86784565 0.072043516 -0.0001575255 -0.0005713909 0.00063947466 -0.0015952581 -0.86366951 0.064664587
637000000 -0.868765 0.071981445 0.0002241208 -0.00028114082 0.00013455708 -0.0022759452 -0.86377043 0.063730389
638000000 -0.87015015 0.072698236 -0.00010029248 -0.0012788479 0.00010603196 -0.0012515357 -0.86406302 0.063313104
639000000 -0.86998695 0.074484788 -6.3789819e-005 -0.0016140915 0.00025379175 -0.0010762576 -0.86497182 0.063815542
640000000 -0.86911422 0.072914302 0.00016655713 -0.0022604405 -0.00049601146 -0.0010493479 -0.86399025 0.062977247
641000000 -0.86813873 0.073003091 0.00043251668 -0.0002836652 -0.00015749499 -0.0016954881 -0.86508369 0.064327478
642000000 -0.86863625 0.072808087 -0.0012706388 -0.0025269121 -0.0010483132 -0.0017944 -0.86394423 0.063058972
643000000 -0.868622 0.074514978 -0.00013187819 -0.00023320164 -0.00085542555 -0.0019720935 -0.86477476 0.064510129
644000000 -0.87006366 0.073572338 -0.00053514756 -0.0013473324 -0.00027398363 -0.0026625681 -0.86343664 0.064125597
645000000 -0.86855662 0.074257493 0.000238067 -0.0013293661 0.0001039533 -0.001345185 -0.86554778 0.063387439
646000000 -0.8685711 0.07472644 -2.3892253e-005 -0.0017911722 -0.00023193509 -0.0012919937 -0.86460453 0.06376677
647000000 -0.87014943 0.074299261 -3.2361953e-005 -0.0019101077 -0.00068834954 -0.0012645872 -0.86349237 0.064355806
648000000 -0.86729246 0.073741734 -2.6577291e-006 -0.0014267687 -0.00029674271 -0.00087828643 -0.86497688 0.063179694
649000000 -0.86834931 0.075363502 0.00057759654 -0.0017723797 -0.00028255882 -0.0013192539 -0.86397415 0.064519748
650000000 -0.8677609 0.074344337 -0.00056304323 -0.0022878533 4.2070492e-006 -0.0013537507 -0.8645252 0.064944975
651000000 -0.86955988 0.074927673 4.3754069e-005 -0.0018210302 0.00010901396 -0.0011212543 -0.86511898 0.065142639
652000000 -0.86906785 0.074486986 -0.00069082307 -0.0010783785 -0.00043729789 -0.00033099795 -0.86333889 0.065095246
653000000 -0.86975318 0.075104788 -0.00028827111 -0.0010654087 0.00036218212 -0.00088081131 -0.86638224 0.063587725
654000000 -0.86896211 0.074981213 -0.0010982255 -0.0011654332 6.9930487e-005 -0.0019811748 -0.86394674 0.066059545
655000000 -0.86879611 0.074355908 0.00066268968 -0.0018826933 -0.00012330187 -0.00066519296 -0.86475062 0.064639837
656000000 -0.86899775 0.074613228 -0.00078475912 -0.00052310369 0.00019905537 -0.00078337657 -0.86451775 0.065252535
657000000 -0.86598283 0.075788096 -0.00082062656 -0.0018044469 -1.2544752e-005 -0.001446461 -0.86369014 0.064215504
658000000 -0.86991805 0.074479461 -0.00087505748 -0.0016898543 -0.00013858615 -0.0011840832 -0.86424303 0.065273724
659000000 -0.86683464 0.07436806 0.00024687446 -0.0011079898 0.00014455285 -0.0022016566 -0.86397177 0.065533839
660000000 -0.86698914 0.076206408 -0.00019879206 -0.0025247999 -0.0010298542 -0.0025193901 -0.86281997 0.065172233
661000000 -0.86834931 0.075616568 -0.00025477438 -0.0015055757 -0.00045212422 -0.00078803068 -0.86447215 0.065345824
662000000 -0.87067467 0.075503528 0.00056326122 -0.0014183596 -0.0002451991 -0.0014347653 -0.86443293 0.065100685
663000000 -0.86902893 0.073865294 -0.00022794181 -0.0016636198 0.00076026062 -0.0019129021 -0.86342835 0.064771712
664000000 -0.86814642 0.075264975 -0.00030517133 -0.00074649509 -0.00014807447 -0.0015214394 -0.86408097 0.064276248
665000000 -0.86840975 0.076727256 -2.2787352e-005 -0.00091313559 -0.00014982141 -0.0002962719 -0.86337429 0.067543976
666000000 -0.86777771 0.076777913 0.00068292703 -0.0013586973 -0.0010953702 -0.0012026218 -0.86462998 0.066454723
667000000 -0.86843622 0.077177033 -0.00034855449 -0.0014131182 -0.00084264105 -0.0023152567 -0.86538774 0.065930672
668000000 -0.86738908 0.073989727 0.00051571516 -0.0016426974 6.1319287e-007 -0.0011157116 -0.86529511 0.066517457
669000000 -0.86828828 0.07626532 -0.0012220928 -0.0018076448 -0.0005085505 -0.0011396942 -0.8639378 0.065985151
670000000 -0.867522 0.077617273 0.00013219129 -0.00071065186 0.0004105297 -0.0010461074 -0.86359322 0.06648992
