!Keysight Technologies,M9374A,MY55442783,A.12.55.05
!Date: Wednesday, May 19, 2021 18:06:27
!Correction: S11(Full 2 Port(1,2)) 
!S21(Full 2 Port(1,2)) 
!S12(Full 2 Port(1,2)) 
!S22(Full 2 Port(1,2)) 
!S2P File: Measurements: S11, S21, S12, S22:
# Hz S  RI   R 50
500000000 -0.86967057 0.065186247 -0.00073588861 -0.0010576473 -0.00092996407 -0.00060341222 -0.86529702 0.058632836
501000000 -0.86848623 0.067503504 -0.0001249741 -0.0015601653 -0.00011423167 -0.0007825027 -0.86443275 0.058923867
502000000 -0.86924171 0.066348553 0.00048857386 -0.0015236676 5.3967287e-006 -0.0013950295 -0.86457896 0.057678118
503000000 -0.86948478 0.066920705 0.00037312598 -0.0010137316 0.00050080509 -0.0014056566 -0.86403751 0.057998195
504000000 -0.86839092 0.06635543 -0.00022550923 -0.00096422504 0.00015901183 -0.00052702811 -0.86586505 0.059556622
505000000 -0.86913192 0.066817991 -0.00047854174 -0.00091991544 -0.00033937977 -0.0013519343 -0.86330289 0.057643004
506000000 -0.86926502 0.066750668 -0.0011408195 -0.00081428239 0.00013660075 0.00023400628 -0.8639068 0.058693778
507000000 -0.86909461 0.065763533 -0.0014462556 -0.00037933188 0.0003830271 -0.00016926284 -0.86380398 0.060058307
508000000 -0.87013513 0.066692412 -0.00085642887 -0.00096768979 -0.00014109346 -0.0012706754 -0.86375499 0.058862228
509000000 -0.86899149 0.068581156 -0.00031567455 -0.0012789891 0.00023206613 -0.00098851742 -0.86308748 0.060652681
510000000 -0.87004995 0.069421344 0.0011788515 -0.0011425866 -0.00032025672 -0.0007955805 -0.86332458 0.060082607
511000000 -0.86879641 0.067348115 -0.00043203062 -0.0014253847 0.00042875379 -0.0013927266 -0.86372316 0.060648531
512000000 -0.86767989 0.067407139 -0.00046557089 -0.0014308891 3.944468e-005 -0.0018333849 -0.86470294 0.061213385
513000000 -0.86976147 0.067429826 0.00063949637 -0.00078787835 -0.00016425362 -0.00014422899 -0.86591643 0.06045435
514000000 -0.87007815 0.067118235 0.00024211501 -0.00089624192 -0.00063824438 -0.001483829 -0.8645103 0.058661591
515000000 -0.86742002 0.06746655 -4.0032035e-005 -0.0021194965 0.00048190894 -0.0013844614 -0.8659786 0.060966428
516000000 -0.86931038 0.067915611 -0.00032739632 -0.00099016773 -0.0003951941 -0.0020774344 -0.86389434 0.061311744
517000000 -0.87018216 0.067420259 0.00046576309 -0.0025001052 0.00098268362 -0.0014506241 -0.86385298 0.060210194
518000000 -0.86896247 0.067802921 -0.00030833954 -0.0015388086 -0.00037184256 -0.0021437255 -0.86405551 0.059333708
519000000 -0.86855072 0.06969706 0.000566451 0.00017718645 0.00021134695 -0.00073300494 -0.86336333 0.061695181
520000000 -0.86870807 0.067860119 -0.0010570759 -0.00034143313 0.00023166364 -0.002041518 -0.86549348 0.060395855
521000000 -0.86830235 0.068804517 -0.00070389977 -0.0021655713 -1.3984917e-005 -0.0018762635 -0.86329144 0.06127261
522000000 -0.86946893 0.069160245 0.0010794108 -0.0015658812 -0.00038095043 -0.0011089597 -0.86299044 0.060919732
523000000 -0.86945665 0.070564024 -0.00018625539 -0.00044324252 -0.00077527983 -0.00052130769 -0.86334759 0.061448514
524000000 -0.87066847 0.068444371 7.0099915e-005 -0.00097399426 -0.00067646301 -0.0011071881 -0.86436802 0.060875412
525000000 -0.86827302 0.069364637 -0.0006649493 -0.0021068514 -0.00071020337 -0.00089883152 -0.86402017 0.062314067
526000000 -0.86880088 0.069502078 0.00010477408 1.9646301e-005 -0.00014442939 -0.0014354923 -0.8647908 0.061854385
527000000 -0.86733723 0.069761895 -0.00093040144 -0.0012671151 -0.00013021225 -0.0022806998 -0.8652705 0.062465973
528000000 -0.8694942 0.070453182 -0.0008267255 -0.0012689326 -0.0012580588 -0.001784152 -0.8643074 0.062529795
529000000 -0.86869985 0.070638977 0.00019909348 -0.00070390367 0.00037188863 -0.0018861017 -0.8639769 0.062201157
530000000 -0.86819196 0.070373408 0.00077516446 -0.0023562601 0.0003860344 -0.0014161371 -0.86521292 0.062323008
531000000 -0.86892796 0.070442319 -0.0006719798 -0.0004039476 -0.00067061925 -0.00073746755 -0.86512905 0.062390741
532000000 -0.86997938 0.070237622 -0.00084901421 -0.00011356817 -0.00040649218 -0.00043297681 -0.86437351 0.063194484
533000000 -0.86897653 0.07018619 0.00035669675 -0.00097603851 -0.0012321885 -0.00083026168 -0.86437494 0.064227715
534000000 -0.8685624 0.070164934 5.6065837e-005 -0.00080548838 -0.0012537343 -0.00075961457 -0.86421061 0.062378988
535000000 -0.8669762 0.070145093 -0.00045225711 -0.00059218373 0.00078115694 -0.0013735563 -0.8657015 0.063626669
536000000 -0.86713523 0.070399098 8.5815533e-005 -0.0011252181 0.00029691574 -0.0010810178 -0.86526185 0.063146681
537000000 -0.86848861 0.071567111 -0.001151236 -0.0010617325 -0.00048681212 -0.0015582216 -0.86486393 0.064012386
538000000 -0.86780012 0.071702406 2.3686169e-005 -0.00070675829 -0.00063777319 -0.0010628334 -0.86489928 0.06359832
539000000 -0.868029 0.071992882 -0.00024888592 -0.00053061853 -0.00057901285 -0.0022642389 -0.86388516 0.063392073
540000000 -0.86869812 0.071823813 0.00092448684 -0.0014456378 0.00060902134 -0.0018333822 -0.86437261 0.063545391
541000000 -0.86942339 0.071358748 -0.00086798152 -0.0013991738 -0.00089459209 -0.0012252084 -0.86532223 0.063062184
542000000 -0.86676699 0.070441581 2.4844405e-005 -0.001142924 0.00054842542 -0.0011903971 -0.86401325 0.064218052
543000000 -0.86989957 0.072648473 -0.00051679631 -0.0012523257 -0.0015479994 -0.0013939119 -0.86528063 0.064195246
544000000 -0.86961281 0.071640529 -0.0010206316 -0.001203049 0.0010884735 -0.0017367071 -0.86447096 0.063254744
545000000 -0.86967075 0.072727472 -0.00027320394 -0.0018726056 -0.00034663494 -0.001983681 -0.86364603 0.064132206
546000000 -0.86814147 0.071731463 -0.00091469055 -0.00082014391 -0.00070681679 -0.0012093793 -0.86342031 0.064646378
547000000 -0.8689999 0.071675688 -2.1113332e-005 -0.0017590142 -0.00069526472 -0.0013279674 -0.86323738 0.064715073
548000000 -0.8685177 0.072469406 -0.00014455584 -0.0012417175 -0.00026975345 -0.0010901814 -0.86383867 0.065971494
549000000 -0.86817378 0.071641512 -0.00067099492 -0.0010542886 -0.00080505543 -0.00099232583 -0.86371487 0.06565202
550000000 -0.86836213 0.074742056 0.00032150035 -0.0013440736 -0.00011719808 -0.0024873647 -0.86380708 0.06673272
551000000 -0.867917 0.070641041 0.00044079332 -0.00092648016 -0.00031505898 -0.0014882055 -0.86324137 0.065075852
552000000 -0.86774552 0.071835533 -0.00069487072 -0.0017555786 -0.00054121966 -0.0016734131 -0.86292928 0.066026181
553000000 -0.867809 0.074058771 0.00036196545 -0.0014432245 -6.7694215e-005 -0.0016692955 -0.8638956 0.064788528
554000000 -0.86881673 0.072528884 -0.00059476407 -0.0010242072 -0.00013486351 -0.0014189673 -0.86299884 0.064481311
555000000 -0.86835277 0.072191343 -0.00026994041 -0.0015681701 -0.00050256762 -0.0017198868 -0.8641004 0.065282375
556000000 -0.86808777 0.072479986 -0.00047001062 -0.0019796498 -0.0007926391 -0.001738593 -0.8649596 0.065873966
557000000 -0.86886615 0.071632832 0.00012755011 -0.0015816584 -2.6870055e-005 -0.0014078914 -0.86450869 0.066568419
558000000 -0.86818928 0.071662709 -0.00034981177 -0.0011160471 0.00037708992 -0.0011452293 -0.86284173 0.066964142
559000000 -0.86723322 0.072606541 6.2815219e-005 -0.0023306427 0.00022782596 -0.00029013088 -0.86416823 0.067414559
560000000 -0.868541 0.072540797 0.00042233046 -0.0010765065 -0.00067778752 -0.0018510519 -0.86376464 0.066525757
561000000 -0.86958015 0.074670762 -3.0071883e-006 -0.0004416185 -0.001031716 -0.0014005129 -0.86327565 0.0658556
562000000 -0.8691293 0.075246572 -0.00018355338 -0.0016606144 0.00016153142 -0.00140534 -0.86425251 0.066869184
563000000 -0.86776078 0.073217057 -0.00087127363 -0.0014377141 0.00091310451 -0.00040342074 -0.86362535 0.067288458
564000000 -0.86801893 0.07458999 0.00016304724 -5.9034865e-005 -5.0740462e-005 -0.0010406869 -0.86390549 0.066779107
565000000 -0.86837077 0.073978677 0.00052830321 -0.00095696346 0.00011832225 -0.0016078729 -0.86424643 0.06637951
566000000 -0.86759055 0.073464759 0.00011628781 -0.00090117793 0.00070620992 -0.00065810047 -0.86386055 0.066394173
567000000 -0.86885357 0.073497228 0.00012558137 -0.0016886654 -0.00027720572 -0.0013395413 -0.86562246 0.065803781
568000000 -0.86769086 0.074013919 0.00034331335 -0.00047444206 -0.00069115899 -0.00083583663 -0.86440283 0.066541195
569000000 -0.86759442 0.073606193 0.00049376208 -0.00075215928 -0.00046113838 -0.0015580507 -0.86415797 0.063949004
570000000 -0.86902767 0.072109453 -0.00073211826 -0.00037492078 0.0001560196 -0.001988413 -0.86413252 0.067701705
571000000 -0.86736238 0.072001591 0.00044889713 -0.00087243697 -0.00021736741 -0.0011329681 -0.86447918 0.067462251
572000000 -0.86772007 0.072911009 -0.00044293012 -0.00042290398 0.001038943 -0.0010037881 -0.86249942 0.067467459
573000000 -0.86784965 0.073330581 -0.00036841648 -0.0012668555 0.00038051876 -0.0014039525 -0.86258799 0.067690477
574000000 -0.86746389 0.073372722 -0.0010164219 -0.00061333826 -0.00058261951 -0.00079653121 -0.8648442 0.067479908
575000000 -0.86734915 0.074268326 -0.00014230452 -0.0019389581 0.00065008784 -0.00050060678 -0.86467713 0.06684614
576000000 -0.86846006 0.074302725 -0.00017723876 -0.0015699757 0.00041327626 -0.0018567556 -0.86380947 0.068622902
577000000 -0.8676399 0.073536098 -0.00057926925 -0.00096225063 1.230857e-005 -0.001040675 -0.86354905 0.067306101
578000000 -0.86816448 0.075170524 3.3857723e-005 -0.001558369 0.00028686336 -7.3027957e-005 -0.86383128 0.067870915
579000000 -0.86737436 0.075403154 0.00029213162 -0.0016562775 0.00027139435 -0.00044406747 -0.86200017 0.065437995
580000000 -0.8685025 0.074937999 -0.0001357252 -0.0017435579 -0.00056153146 -0.0014675861 -0.86281079 0.068803124
581000000 -0.86792111 0.073526368 -0.00058467063 -0.00096104777 -0.00042719432 -0.00085758104 -0.86463928 0.067700252
582000000 -0.86806077 0.075108021 -0.00057459075 -0.00062963885 0.00034792311 -0.00096438394 -0.86249894 0.067691065
583000000 -0.86803907 0.075894877 -0.0004192687 -0.00061044685 0.00038286712 -0.0018968723 -0.86372793 0.068116345
584000000 -0.86800134 0.075966887 -0.0007074835 -0.00019697311 0.00024943514 -0.0017026967 -0.86453092 0.069443963
585000000 -0.86845994 0.073901281 -0.00026895595 -0.0011396892 -3.9926093e-005 -0.0016109243 -0.86529261 0.066792749
586000000 -0.86710572 0.076666184 -0.00043734256 -0.0015005106 -0.001111617 -0.00065980363 -0.86318803 0.067784928
587000000 -0.86836904 0.077129945 -0.00060370797 -0.0013833822 0.00043625358 -0.00063386094 -0.86272979 0.069109417
588000000 -0.86751717 0.076423265 -0.00012484161 -0.001002915 0.0010400108 -0.0014700143 -0.86492461 0.069595486
589000000 -0.86585408 0.076293424 -0.00038860328 -0.00082645903 -0.00050143892 -0.0016170737 -0.86179948 0.068249665
590000000 -0.86654353 0.076978572 -0.00062082155 -0.0015703982 0.00059489871 -0.00088947406 -0.86437988 0.069401167
591000000 -0.86802018 0.076723121 -0.00104965 -0.0025976927 -0.00029451755 -0.0010997761 -0.86289036 0.069706731
592000000 -0.86753988 0.075545192 0.00077655033 -0.00049292221 8.9728484e-005 -0.00095866283 -0.86190152 0.069844812
593000000 -0.86760849 0.077156007 -0.001241814 -0.00090559392 -0.00077675964 -0.0012968373 -0.86603391 0.06908498
594000000 -0.86740178 0.077378891 -0.00097232335 -0.00079271913 -0.00032823294 -0.00092972897 -0.86273044 0.070619389
595000000 -0.86812228 0.074445523 -0.00038627392 -0.00062141957 0.00025611176 -0.00095668808 -0.86302078 0.070391782
596000000 -0.86696792 0.077543929 0.00062665157 -0.0010361769 -0.00067966565 -0.00047424209 -0.86339784 0.069496825
597000000 -0.86634046 0.077903077 -0.00016641256 -0.00090384291 -0.00084574509 -0.0023562 -0.86466622 0.069000274
598000000 -0.86702514 0.077584706 -7.807598e-005 -0.0010884246 -0.00019817248 -0.00097784237 -0.8641333 0.069463961
599000000 -0.8665306 0.077499419 0.00038323141 -0.00053660292 0.00017667527 -0.0015927135 -0.86411631 0.068054587
600000000 -0.86699742 0.077014424 0.00033887124 -0.0011567491 -0.00077592151 -0.0016325855 -0.86354131 0.06981688
601000000 -0.8677913 0.078771338 -0.00048400462 -0.00057412736 -0.00059748127 -0.00055118167 -0.86302137 0.070727803
602000000 -0.86826754 0.078711711 -0.00063239329 -0.00095425028 0.00025170544 -0.0013969375 -0.86347812 0.071527399
603000000 -0.86847425 0.079508193 -0.00054573861 -0.00028402955 -0.00018899677 -0.0013806545 -0.86424541 0.069436349
604000000 -0.86721349 0.078880198 7.7050659e-005 -0.001659902 -0.00032259733 -0.0024912592 -0.86342835 0.070480622
605000000 -0.86819768 0.079696454 0.00024760078 -0.0015149344 0.00041157997 -0.0020216824 -0.86324584 0.069796875
606000000 -0.86722857 0.079737194 0.0017638713 -0.00047561014 -0.00035091685 -0.0018731676 -0.86250001 0.070783213
607000000 -0.86903787 0.07906954 0.00054319412 -0.0010070623 0.00050808786 -0.0021094212 -0.86361414 0.069809228
608000000 -0.86726844 0.080854222 3.0114476e-005 -0.00087840745 -0.0012124323 -0.0017195696 -0.86545628 0.071569338
609000000 -0.86534739 0.079208873 -0.00064136926 -0.0018366282 0.00017953193 -0.0020157048 -0.86287004 0.070599847
610000000 -0.86649674 0.078103237 0.00071578508 -0.00078646542 -0.0012610216 -0.0013501082 -0.8618986 0.070982061
611000000 -0.86571634 0.079620883 0.00022178478 -0.0021980156 -0.00092713028 -0.0011171567 -0.86313784 0.070282049
612000000 -0.86939257 0.080600098 -0.00028544941 -0.0011677167 -0.00013158492 -0.0008357591 -0.86495143 0.071674272
613000000 -0.86645424 0.080034524 -3.127928e-005 -0.0010751972 7.578489e-005 -0.0004694176 -0.86260724 0.070710033
614000000 -0.86615223 0.081732117 0.00041406078 -0.0011241368 -0.00014575446 -0.0015903941 -0.86397052 0.072007388
615000000 -0.86726743 0.079996318 -0.00070308038 -0.00092604064 0.00054266484 -0.0014880589 -0.86401623 0.071657933
616000000 -0.86755288 0.080959402 1.1639622e-005 -0.00096722814 -0.0016007213 -0.0024259468 -0.86055577 0.073187254
617000000 -0.86669308 0.082561068 -0.00085674011 -0.0010181324 -0.00013693585 -0.00072516414 -0.86293584 0.071707778
618000000 -0.86631685 0.08045315 -0.0010766495 -0.0012507383 -0.00056125352 -0.00089882646 -0.8624593 0.072375268
619000000 -0.86838162 0.082421266 -0.00067161268 -0.0014977528 0.00039302986 -0.0016773152 -0.8627882 0.072390825
620000000 -0.86678565 0.082639173 0.00067255646 -0.00093411311 -0.00014506048 -0.001256717 -0.86378634 0.073116377
621000000 -0.8673175 0.080753371 0.00011523488 -0.00013404647 0.00015505464 -0.002052421 -0.86308974 0.073182464
622000000 -0.86684048 0.081449233 -0.0012364079 -0.0010444404 0.00014973062 -0.0014930845 -0.86341524 0.073541567
623000000 -0.86639035 0.08196874 0.00045539849 -0.00087932573 -0.00082064414 -0.0012819325 -0.86397356 0.071737468
624000000 -0.87000215 0.080607988 -0.00092094048 -0.0023425401 -0.00096479349 -0.00092108903 -0.86239743 0.073472887
625000000 -0.86649913 0.08250118 -0.0011023333 -0.001701104 -9.5355904e-007 -0.001874888 -0.86468846 0.072047271
626000000 -0.86708993 0.08334098 -0.00060685206 -0.0014887764 -0.00060356373 -0.0012503301 -0.86304402 0.074308403
627000000 -0.86725444 0.083641358 -0.00024486956 -0.00077048293 0.0003195132 -0.0008920047 -0.8643443 0.0731626
628000000 -0.86736846 0.082844168 0.00064796011 -0.0015082904 -0.00032852215 -0.0011703854 -0.86300522 0.073854893
629000000 -0.86550504 0.081965767 0.00018291558 -0.0014915263 7.7861579e-005 -0.00089046743 -0.86412978 0.074817441
630000000 -0.86546296 0.082541741 0.00063709746 -0.0010316423 -0.00056405482 -0.0017091108 -0.86374032 0.074235924
631000000 -0.86684591 0.083615683 -0.00034831199 -0.0013048799 -0.00039777198 -0.0014848693 -0.86206681 0.073760614
632000000 -0.86577135 0.08279261 -5.6468798e-005 -0.00034054468 -0.0008445268 -0.00095559336 -0.86191988 0.073609792
633000000 -0.86699462 0.082376026 -0.00073896704 -0.00059432699 -0.00087670452 -0.0016245288 -0.86298424 0.074537426
634000000 -0.86690611 0.084828712 0.00066097302 -0.0012589168 -0.00013273821 -0.00093776884 -0.86377704 0.074412882
635000000 -0.86585909 0.084784783 -0.00073630858 -0.0012480376 -0.00093228393 -0.0016840673 -0.86260796 0.073533766
636000000 -0.86544997 0.085804313 -0.00063944364 -0.0014375367 0.0011818031 -0.00091117434 -0.86256778 0.075227559
637000000 -0.86646867 0.084162936 0.00049148657 -0.00098425115 0.0001271761 -0.0016352141 -0.86295849 0.073824525
638000000 -0.86498046 0.085108459 0.00037612891 -0.00066687533 -0.00063041406 -0.0019991037 -0.86281419 0.075688794
639000000 -0.86674023 0.087121844 0.00022287847 -0.0016746215 -0.00011835678 -0.0010973295 -0.86404437 0.075419948
640000000 -0.86716497 0.084380724 0.00059329934 -0.0017203734 0.00062575156 -0.0017595395 -0.86195236 0.075287998
641000000 -0.86614782 0.085480943 0.00012196989 -0.0014022915 -0.00016578639 -0.0013766394 -0.86270022 0.075461522
642000000 -0.86672199 0.085801214 -3.995212e-005 -0.0015000466 -0.00092712144 -0.00079137675 -0.86293954 0.07539697
643000000 -0.8665697 0.086525917 5.5529446e-005 -0.00086908153 -4.2957123e-005 -0.0009187453 -0.86123759 0.075973816
644000000 -0.866745 0.085926801 3.4150449e-005 -0.0010505489 0.00086520892 -0.0017297358 -0.86248052 0.076811925
645000000 -0.86799127 0.086061448 0.00012402952 -0.0012092924 0.00041437868 -0.0010210315 -0.86292863 0.076237716
646000000 -0.86745572 0.086217657 0.00068547414 -0.0018370675 -0.00045031591 -0.0011429347 -0.86204106 0.075595096
647000000 -0.86716539 0.08653859 -0.00051174074 -0.00081399543 0.0003305944 -0.00085338065 -0.86301446 0.07466346
648000000 -0.86769265 0.086898796 -0.00046679153 -0.00043591429 -0.00079038175 -0.0014162324 -0.86306494 0.076271363
649000000 -0.86655253 0.086582936 8.9100955e-005 -0.0013602027 0.00042833691 -0.0012918524 -0.86172968 0.076545335
650000000 -0.86581093 0.087519296 0.00014022247 -0.0013408352 -0.00062084437 -0.00074712653 -0.86307037 0.076537058
651000000 -0.86715806 0.08589749 -0.0001547095 -0.0011327823 -5.3006515e-005 -0.00015247487 -0.86238545 0.07667239
652000000 -0.86568934 0.086799093 -0.00021996068 -0.00074263569 0.00072492321 -0.0015666591 -0.85951036 0.074141249
653000000 -0.86736554 0.087945044 -0.00098023366 -0.00088965619 -0.00016770374 -0.0013097414 -0.86192328 0.07586477
654000000 -0.86636949 0.086646475 0.00013122869 -0.001596311 -0.00068413361 -0.001644888 -0.86420548 0.076460026
655000000 -0.86684966 0.087858431 -0.00075560709 -0.00052963186 -2.7692918e-006 -0.00079775549 -0.86164767 0.077210635
656000000 -0.86604065 0.087636523 -0.0005167952 -0.0015642932 -0.00022172609 -0.0020897738 -0.86138445 0.077473514
657000000 -0.86647832 0.08707957 -0.00010894623 -0.0011646121 7.5763528e-005 -0.0012019534 -0.86265057 0.077208579
658000000 -0.86764622 0.086932987 0.00044771528 -0.0011558317 -0.00041586225 -0.0017378217 -0.86276686 0.077202968
659000000 -0.86461967 0.088977292 0.00020458091 -0.0015619388 -0.00024034796 -0.0017644605 -0.86194247 0.078408785
660000000 -0.86657882 0.088634543 -0.00028590282 -0.001017902 -0.00044634688 -0.00072517851 -0.86168766 0.076828562
661000000 -0.86603588 0.08961083 -0.00053312891 -0.0018610171 0.00019232974 -0.0013793465 -0.86129707 0.076924987
662000000 -0.86601251 0.088403761 -0.00043328715 -0.0010731277 0.00030629168 -0.00068880839 -0.86237037 0.078760967
663000000 -0.86726111 0.088423446 -0.00081125746 -0.0015430503 -0.00022872069 -0.0019068844 -0.86159724 0.07788574
664000000 -0.86662686 0.088724993 -0.00027439234 -0.0014638099 -8.0220299e-005 -0.00088798464 -0.86424941 0.079091102
665000000 -0.86580497 0.087725691 0.000135793 -0.00087945675 -0.0013316459 -0.0013763319 -0.86274272 0.078569554
666000000 -0.86637908 0.089400858 7.6113938e-005 -0.0013582651 -0.00059904595 -0.00082197395 -0.8623783 0.077003054
667000000 -0.867235 0.088650703 -0.00032694938 -0.00058912073 -0.0003481874 -0.002651664 -0.8618443 0.077270061
668000000 -0.86642188 0.088865921 -0.00054059783 -0.0015346688 6.2386345e-005 -0.00042683046 -0.86183238 0.07792145
669000000 -0.86621916 0.090372093 -0.0011347955 -0.0016528257 -0.0004038047 -0.0015419391 -0.86180055 0.077168129
670000000 -0.86549592 0.090699092 0.00012847703 -0.0011164448 -0.0010489094 -0.0010695095 -0.86251646 0.07908982
