!Keysight Technologies,M9374A,MY55442783,A.12.55.05
!Date: Wednesday, May 19, 2021 18:28:53
!Correction: S11(Full 2 Port(1,2)) 
!S21(Full 2 Port(1,2)) 
!S12(Full 2 Port(1,2)) 
!S22(Full 2 Port(1,2)) 
!S2P File: Measurements: S11, S21, S12, S22:
# Hz S  RI   R 50
500000000 -0.87148803 0.056873955 -0.00043769155 -0.00032354402 -0.0003413322 -0.0008793142 -0.86724174 0.049110837
501000000 -0.87108386 0.059062827 -0.00044226091 0.00015163804 -0.00011245179 -0.0010402666 -0.86578822 0.050893761
502000000 -0.87090218 0.058009945 0.00010171132 -0.0012302494 -0.0010306432 -0.00084370479 -0.86545426 0.04911878
503000000 -0.8709563 0.056646332 0.00023776402 -0.0010402265 -0.00079259655 -0.0011747057 -0.86553788 0.049232341
504000000 -0.87027395 0.057483122 -0.00016826927 -0.00079725502 -4.5463519e-005 -0.0014007027 -0.86630636 0.049984891
505000000 -0.87079239 0.056988761 -0.00051120296 -0.00030743337 -0.00053510588 -0.0011073209 -0.86468333 0.050205447
506000000 -0.86937779 0.058243025 -0.00098923582 -0.00088309974 -0.0010382758 -0.0012388015 -0.86587936 0.051254496
507000000 -0.87090117 0.05875697 -0.0013258216 -0.001790863 0.00070214376 -0.00065175077 -0.86662078 0.052464493
508000000 -0.87062913 0.05787183 5.5624955e-006 -0.0017944 -0.00014449812 -0.00043221435 -0.86552614 0.051451474
509000000 -0.8705951 0.059045833 0.00041129778 -0.0010445946 0.00072384789 -0.0014879175 -0.8655526 0.053041458
510000000 -0.87013942 0.058296006 -0.00067412882 -0.00098774186 -0.0011544994 -0.00038986994 -0.86591518 0.051623505
511000000 -0.8692317 0.058530048 -0.00039980005 -0.00055782998 -6.3770094e-005 0.000567902 -0.86421359 0.050950866
512000000 -0.87111145 0.059215065 0.00020144935 -0.00056354352 -5.1444636e-005 0.00025245675 -0.86660284 0.050208673
513000000 -0.87132001 0.058170296 0.00012438539 -0.00042507058 -0.00029544154 -0.0019319742 -0.86656189 0.053486224
514000000 -0.86926103 0.059509005 -0.00086973491 -0.00062993262 0.0003192829 -0.0011316468 -0.86583024 0.051879279
515000000 -0.8692739 0.060479853 -0.00042048088 -0.0016006563 -0.00093251135 -0.00043303691 -0.86611205 0.052097961
516000000 -0.86904258 0.060773585 0.00089740998 -0.0016571056 -0.00086598267 -0.00033897386 -0.86456585 0.053110804
517000000 -0.87087524 0.059786703 -7.2240451e-005 -0.0015390053 -0.001363099 -0.00097788277 -0.86442655 0.052699365
518000000 -0.86997604 0.060280938 -0.00059015659 -0.00019452127 -0.00074139656 -0.00062355463 -0.86470729 0.05299234
519000000 -0.8710829 0.060445685 -0.00057815015 -0.00088285474 -0.00047806249 -0.00091290678 -0.86544293 0.050938506
520000000 -0.87043905 0.06077116 -0.00027453862 -0.001217581 -0.00079127616 -0.00070670503 -0.86594838 0.053199749
521000000 -0.86894339 0.06247244 -0.00071618747 -0.00015243822 -0.00046487711 -0.00053479103 -0.86513174 0.053851414
522000000 -0.87149519 0.061219919 0.00082048727 -0.0010784528 -0.00046283673 -0.00052126695 -0.86641645 0.052408278
523000000 -0.86982507 0.060821764 -0.00081583712 -0.00034732241 0.0014703303 -0.00071867369 -0.86483461 0.053444587
524000000 -0.87024003 0.062514529 -0.00056086184 -0.0023162013 -0.00082178158 -0.0010672845 -0.86713147 0.054300055
525000000 -0.86989492 0.059982326 -0.0010300942 -0.00095669733 -0.00080384809 -0.00077316054 -0.86496627 0.05449057
526000000 -0.87113512 0.061735664 0.00048020409 -0.0023503876 0.00039774552 -0.00061622227 -0.86547798 0.053685084
527000000 -0.87099499 0.060747653 0.00031141919 -0.00056595117 0.00011079342 -0.0018699355 -0.8655073 0.053618632
528000000 -0.87070906 0.060748603 0.00032963636 -0.0010830788 -0.00089920283 -0.0010088847 -0.86497611 0.05442366
529000000 -0.87056494 0.06129875 0.00075806258 -0.00078277627 -0.00072837155 -0.00095081807 -0.86434036 0.052743766
530000000 -0.86973673 0.060763825 -0.00046648356 -0.0015561918 -0.00050816784 -0.00063188258 -0.86512387 0.053773325
531000000 -0.87162405 0.061865527 -0.00038038066 -0.0007006115 -0.00061755313 -0.00047316702 -0.86598647 0.054546777
532000000 -0.86995506 0.060964242 0.00044642852 -0.00038783299 -0.0001340228 -0.0012500912 -0.8669126 0.053460527
533000000 -0.8718456 0.061574794 -0.00077100488 -0.00036331173 0.00051334931 -0.0008576315 -0.86426479 0.054772098
534000000 -0.87172669 0.060763951 -0.00024996637 -0.0012340572 -0.00090691354 -0.0020623864 -0.86650872 0.053866632
535000000 -0.87043422 0.061672624 -0.00015226306 -0.0010814223 0.00026468426 0.00048910268 -0.86508888 0.054919675
536000000 -0.86999089 0.061318345 -0.00048872683 -0.0012525651 0.00015234803 -7.3826377e-005 -0.86512882 0.056047127
537000000 -0.87076551 0.061185412 0.00017182296 -0.001058317 0.00020633072 -0.0013466608 -0.86637187 0.055130448
538000000 -0.87091005 0.062140599 0.00016545913 -0.00042613799 -2.7082988e-005 -0.001154104 -0.86582798 0.054286476
539000000 -0.87073308 0.061035391 0.00041404681 -0.0016094274 -0.00018193283 -0.00060406409 -0.86702651 0.056271885
540000000 -0.87066394 0.061104529 0.00033921978 -0.00077994593 0.00028851558 -0.0028099508 -0.86467814 0.054171402
541000000 -0.86930442 0.06246832 -0.00050412567 -0.001539517 -0.0012598037 -0.00062169094 -0.86585683 0.055868432
542000000 -0.87060452 0.062852547 4.3104956e-005 -0.0014514079 -0.00074040075 -0.000335725 -0.86588162 0.055230141
543000000 -0.87091041 0.061717875 0.00010215138 -0.00086390681 -0.00042260351 -0.0018272825 -0.86560404 0.054186478
544000000 -0.87059665 0.063328266 0.00076127041 -0.0012470627 -0.00056887197 -0.0011511897 -0.86478657 0.055738829
545000000 -0.8684749 0.06251689 -0.00018365987 -0.0013240417 0.00038599095 -0.0011784525 -0.86635464 0.055163033
546000000 -0.87004119 0.062854886 5.5467452e-005 -0.001702623 -0.00015310482 -0.00068877538 -0.86350268 0.055484757
547000000 -0.87098324 0.062976502 -0.00043328042 -0.0010012805 -0.00050807651 -0.001250322 -0.86568695 0.055613331
548000000 -0.86987191 0.06157377 0.0006740141 -0.0010685057 -1.4081674e-005 -0.0012483853 -0.86590874 0.055842895
549000000 -0.87038541 0.06317696 0.00022388998 -0.0017955628 -0.0002724177 -0.00092947454 -0.86494035 0.056932129
550000000 -0.86963373 0.063581273 3.5236847e-006 -0.0020891039 0.00025968181 -0.0013869026 -0.86743462 0.057376202
551000000 -0.86973584 0.063841537 -0.00031362043 -0.00083470636 0.00014122558 -0.0011422196 -0.86428952 0.056642897
552000000 -0.87108099 0.061500613 -0.00041223518 -0.00074264605 -0.00075908803 -0.00075366214 -0.86516339 0.057327867
553000000 -0.86930001 0.063209757 0.00089201098 -0.00086283305 0.00032246119 -0.00070144993 -0.86461163 0.055789746
554000000 -0.86974275 0.063385673 -0.0012944831 -0.0019306234 1.5178715e-005 -0.0002097348 -0.86561841 0.054527082
555000000 -0.87013382 0.063664593 -0.00065792003 -0.00097259181 -1.7785916e-006 -0.00048303095 -0.86560816 0.055577539
556000000 -0.86889309 0.061949376 0.00065810612 -0.00098537549 -0.00046261592 -0.0019443191 -0.86615139 0.057721347
557000000 -0.87056643 0.062835038 -0.00028594706 -0.0017186992 -0.00031563791 -0.00013944115 -0.86588985 0.05552328
558000000 -0.87072068 0.062823027 -0.00059738988 -0.0014768951 0.00025138923 -0.0014551964 -0.86469388 0.056859355
559000000 -0.87016177 0.064194471 0.0001506875 -0.00097746029 0.00011924015 -0.00099751423 -0.86492383 0.057209026
560000000 -0.86905503 0.064545132 0.0005798866 -0.00089154247 0.00011515764 -0.00091213721 -0.86498719 0.056160837
561000000 -0.87028891 0.063482627 -0.00048143714 -0.00015224676 -7.7477358e-005 -0.00062329223 -0.86546576 0.055406783
562000000 -0.87060601 0.063353539 -0.00030984316 -0.0016012023 0.00030235975 -0.00049767137 -0.86469185 0.05904131
563000000 -0.86987597 0.063455351 -0.00048966531 -0.0010097515 0.00020039458 -0.0020964472 -0.86530268 0.05717041
564000000 -0.86999226 0.063684724 -0.00045922268 -0.0013289461 0.00025118672 -0.0015225614 -0.86475015 0.05649389
565000000 -0.87068498 0.063148089 -0.00086271553 -0.00079697475 0.00016095626 -0.0011760978 -0.86606628 0.058041316
566000000 -0.86999935 0.063701622 -0.00068891869 -0.0013952705 -1.1114145e-005 -0.00016383964 -0.86575913 0.057055358
567000000 -0.86987895 0.063822225 -4.3771935e-005 -0.001502849 -0.00070205412 -0.0011573603 -0.86541533 0.056416281
568000000 -0.86887544 0.064001717 -0.00048022653 -0.0015427165 0.00018627693 -0.00084352755 -0.86512995 0.057135321
569000000 -0.87136072 0.064051434 -0.00097656483 -0.0010286256 -0.00037633564 -0.001289564 -0.86582702 0.057566494
570000000 -0.86945701 0.063715458 -0.0010664788 -0.0010700745 4.8245445e-005 -0.0011061145 -0.86323673 0.057096969
571000000 -0.86870855 0.063994996 0.00071730395 -0.001874053 -0.0011626839 -0.00057095225 -0.86412257 0.056018185
572000000 -0.8697716 0.063770682 -0.0005678641 -0.0006760605 -5.8567002e-005 -0.0018593778 -0.8642596 0.059451658
573000000 -0.87085772 0.063925251 -0.0004031542 -0.00093281921 1.3150187e-005 -0.00068494043 -0.86600721 0.057941698
574000000 -0.86983645 0.065395847 0.00020428123 -0.0020924285 0.00047796208 -0.0010311495 -0.86537206 0.058954921
575000000 -0.86927027 0.06478028 -0.00040737429 -0.0012591544 -0.00044958302 -0.0011356341 -0.86492038 0.057912789
576000000 -0.86911869 0.065883666 -0.00080521638 -0.00088853587 0.00018622477 -0.00039653291 -0.86676842 0.058591723
577000000 -0.87118334 0.064282872 0.00014713164 -0.0010701163 -0.0001938104 -0.0016390219 -0.86509597 0.058462206
578000000 -0.86947227 0.064777397 0.00031739328 -0.0011065669 0.00020846228 -0.0017854657 -0.86304331 0.058600321
579000000 -0.87027651 0.06436979 0.00029141438 -0.00075026928 0.00049668504 -0.0013303725 -0.86583203 0.058446001
580000000 -0.86901927 0.06425532 -0.00072114635 -0.0016133034 -0.00010835357 -0.0010028363 -0.86450678 0.057933342
581000000 -0.87052971 0.066479407 0.00036749535 -0.00091247348 -0.00062333391 -0.0010418639 -0.86578929 0.058182493
582000000 -0.86991376 0.064776391 -0.0010009836 -0.0014955484 0.0011644349 -0.0024209302 -0.86536825 0.057525758
583000000 -0.87066346 0.06536226 0.0011038354 -0.0009541969 0.00014898593 -0.0015066861 -0.8663559 0.05846139
584000000 -0.869775 0.065389417 -0.00062644546 -0.00078162784 -0.0010668722 -0.00080584385 -0.86401105 0.058812406
585000000 -0.86792094 0.063728459 -8.4598491e-005 0.00013676242 -0.0010516484 -0.0013424915 -0.86595076 0.058712631
586000000 -0.86929929 0.064601086 -2.9117187e-005 -0.00036705067 -0.0010502124 -0.00090828625 -0.86356544 0.058131434
587000000 -0.87017411 0.066016503 0.00072787609 -0.001243848 0.00010077354 -0.0012694958 -0.86591691 0.060377494
588000000 -0.86957055 0.065028653 -0.00023146838 -0.0015154614 0.00038506856 -0.0013336524 -0.86573887 0.05845226
589000000 -0.87009794 0.066154055 0.00025170663 -0.0010401839 -4.805237e-005 -0.0012372077 -0.86594558 0.058239043
590000000 -0.86966908 0.064432874 -0.0010189681 -0.002069318 6.7848814e-005 -0.0015234154 -0.8657335 0.058362655
591000000 -0.86926085 0.065983146 0.000523025 -0.0012648635 -0.00050388312 -0.00062286336 -0.86432999 0.058192328
592000000 -0.87031633 0.064529002 -0.00044301141 -0.00091011729 -0.0011299793 -0.0022349644 -0.86337233 0.058451463
593000000 -0.8689099 0.065507576 -0.00077711523 -0.0015290548 0.00098774675 -0.0015583226 -0.86459267 0.058388676
594000000 -0.86947006 0.066951819 -0.00043451725 -0.00055029627 -0.0006645954 -0.0017548233 -0.86559039 0.05902664
595000000 -0.86939424 0.065476701 0.00038632908 -0.0012866475 -0.0007681917 -0.0014839733 -0.86433959 0.059695356
596000000 -0.86988217 0.067920797 0.00086068758 -0.0018237933 0.00029175638 -0.0020819127 -0.86526847 0.058122031
597000000 -0.87000155 0.067278907 -0.00077159581 -0.00091295067 0.00023904289 -0.0001808667 -0.86444157 0.059547521
598000000 -0.86881435 0.068123803 -0.00024667155 -0.0010049838 0.00082768966 -0.00045608584 -0.86549836 0.059880406
599000000 -0.86922151 0.064947627 0.00016439185 -0.0018598591 -7.253554e-006 -0.0018415387 -0.86552942 0.059015222
600000000 -0.86940122 0.067895278 0.00019141193 -0.0011038028 -0.00039235278 0.00013822761 -0.86532015 0.059885792
601000000 -0.86716008 0.06585145 0.00035319067 -0.0011435604 -0.00013986017 -0.00076586579 -0.86650032 0.060306594
602000000 -0.8715483 0.066791616 -0.00097194687 -0.0014685341 0.0012164832 -0.0015718074 -0.86602002 0.060376815
603000000 -0.87025023 0.066749714 0.00045080562 -0.0012411945 0.00024848909 -0.0016911903 -0.86483794 0.060318246
604000000 -0.86903274 0.068593554 -1.4581276e-006 -0.00056131423 -5.5342633e-005 -0.00098485197 -0.86637098 0.06028185
605000000 -0.87025821 0.069440968 -0.00031885179 -0.00095954974 0.00024709656 -0.0025822159 -0.86488557 0.060462862
606000000 -0.86964577 0.067049131 -0.00017418677 -0.0014223725 -0.00045683619 -0.00030270824 -0.86414385 0.059036747
607000000 -0.87129152 0.067890115 -0.00058997521 -0.0012024661 0.00014830488 -0.001016959 -0.86588871 0.059791856
608000000 -0.86922491 0.067744605 -0.00025686636 -0.0012582192 0.00055724167 -0.0011509184 -0.86696786 0.059732467
609000000 -0.86889768 0.070184804 0.0005960702 -0.0014011081 -0.00064369361 -0.00083561864 -0.86505228 0.059180412
610000000 -0.87065542 0.067777 -0.00015440647 -0.0014574055 -0.00039309968 -0.0007576549 -0.86520338 0.061228096
611000000 -0.86840147 0.069672376 0.0008636596 -0.0015404172 -0.00040805011 -0.0018134761 -0.8637588 0.059494264
612000000 -0.86917561 0.069793023 -0.0011221633 -0.00046665967 0.00013925288 -0.00097572128 -0.86434644 0.060776774
613000000 -0.86902976 0.069694906 -0.00086383161 -0.0016732742 -0.00070067891 -0.0012917049 -0.864227 0.059111785
614000000 -0.86866707 0.069904178 -0.00076965301 -0.001719358 -0.00087143062 -0.00045049569 -0.86416179 0.062167358
615000000 -0.87047195 0.068380386 -0.0010164318 -0.0019548489 -5.1014569e-005 -0.00043596074 -0.86473453 0.061273895
616000000 -0.86863536 0.071483083 -0.0007075165 -0.00079003873 0.00045475172 -0.0018804908 -0.86488569 0.060274884
617000000 -0.86781424 0.070535064 0.00036433485 -0.0012762069 0.00010993829 -0.001385191 -0.86436886 0.061995767
618000000 -0.8693549 0.069597654 -0.0018289245 -0.0011466148 -2.6847954e-005 -0.0015245853 -0.86235178 0.06298697
619000000 -0.86924416 0.069683619 -0.00010445405 -0.00073596474 5.3942855e-005 -0.0002651453 -0.86574125 0.060999569
620000000 -0.8675586 0.070156366 -0.00044898895 -0.0020001496 -0.0003614169 6.3244785e-005 -0.8653248 0.061766449
621000000 -0.86890942 0.070185848 -0.001806272 -0.0014307362 0.00027635586 -0.0010433686 -0.86461478 0.063445278
622000000 -0.86917531 0.0703981 0.00069373118 -0.0005199982 -0.00049628504 -0.0023318063 -0.86351782 0.062260296
623000000 -0.86953002 0.071442522 -0.001530551 -0.001135818 0.00018941409 -0.0016545022 -0.86573005 0.060865082
624000000 -0.86912572 0.070441484 -0.00070271431 -0.0018029228 -1.1915654e-005 -0.00094487838 -0.86487269 0.062785991
625000000 -0.86933494 0.070968196 -0.00035440459 -0.00088753557 -0.00035412193 -0.00097898091 -0.8657648 0.062186662
626000000 -0.86877412 0.073476143 -0.00019124923 -0.0018938676 -0.00026686618 -0.00091504317 -0.86400098 0.061091248
627000000 -0.86775976 0.071458474 0.00079167099 -0.0012873702 0.00029357761 -0.0031387745 -0.86431104 0.061579905
628000000 -0.86927801 0.071028568 -0.00034923063 -0.00045099168 -0.00053833448 -0.0012552122 -0.86546272 0.063497648
629000000 -0.86921698 0.072487801 -0.00011118226 -0.00067034946 -0.00074131554 -0.0016651964 -0.86509961 0.063546851
630000000 -0.86884856 0.072986931 -0.00044571358 -0.00017740163 -6.755154e-005 -0.00028812382 -0.86447257 0.063535191
631000000 -0.86899805 0.072595969 -0.00056301471 -0.0011533186 0.00018567459 -0.0019181157 -0.86500698 0.063638419
632000000 -0.86868334 0.073524877 0.00042283244 -0.00060163619 -0.0010383541 -0.0016237344 -0.86567146 0.064642988
633000000 -0.87057829 0.072706796 -0.00051617279 -0.0013909251 -0.00012492617 -0.0017467325 -0.86464936 0.064268246
634000000 -0.86861908 0.071153983 -0.00072174286 -0.0017837508 -0.00050313334 -0.00083842216 -0.86624861 0.062887207
635000000 -0.86857641 0.071734451 -0.00026611474 -0.0010943395 -0.00030446629 -0.0011809053 -0.86347359 0.062639259
636000000 -0.86825556 0.07160639 -0.00062990247 -0.0011615022 -0.00085188157 -0.00068495236 -0.8650794 0.064470023
637000000 -0.86913824 0.074297033 -0.00083672494 -0.0010095725 -0.0010697596 -0.0014764959 -0.86555272 0.06389536
638000000 -0.86865014 0.072712407 -0.00077344151 -0.0014334358 -0.0003095498 -0.0015294241 -0.86541033 0.064216331
639000000 -0.87007439 0.073315069 0.00018876366 -0.0013797723 -0.00018995929 -0.00097542838 -0.8631317 0.064318627
640000000 -0.86802346 0.073487043 -0.0007941465 -0.0015888619 -0.0006576592 -0.0011371212 -0.86293691 0.064089954
641000000 -0.8680039 0.073800497 -0.0014655088 -0.0009800659 -0.0010104288 -0.001386737 -0.86288351 0.062810011
642000000 -0.86661321 0.073356204 -0.00041150281 -0.001719077 -0.00086187915 -0.0011027055 -0.86608469 0.063744828
643000000 -0.86833858 0.07455387 0.00012903713 -0.0014198102 0.00018047912 -0.00087278854 -0.86437041 0.063821897
644000000 -0.86916977 0.07550332 -9.5499869e-005 -0.0024756452 -0.00049533951 -0.00070670014 -0.86373281 0.063716032
645000000 -0.86921018 0.073758058 0.000183066 -0.0021640423 -0.00023073659 -0.0013000696 -0.86299664 0.063661695
646000000 -0.86872828 0.074796699 -0.0015429818 -0.00079072802 0.00037135414 -0.00095169002 -0.86432141 0.064056754
647000000 -0.86927211 0.074484974 -0.00076348515 -0.0016053204 0.00015769656 -0.0013696346 -0.86405897 0.064901084
648000000 -0.86824399 0.075396799 -0.00024312259 -0.001715033 0.00031386715 -0.0014568811 -0.86489975 0.065028273
649000000 -0.86856997 0.07427533 -0.00012311303 -0.00095048029 -0.001128763 -0.0010895291 -0.8639276 0.064845145
650000000 -0.86807644 0.074073821 0.0002645643 -0.0015112797 0.00055992638 -0.0013458051 -0.86355108 0.066027984
651000000 -0.86864042 0.074624501 -0.00031985948 -0.001749178 0.00041260759 -0.0022151775 -0.86556804 0.065695502
652000000 -0.86951369 0.075476877 0.00084510166 -0.00086177292 -0.00072885706 -0.0019698502 -0.86425906 0.063941985
653000000 -0.86847472 0.074919373 -0.0011238779 -0.00046632445 -0.00035545442 -0.001642637 -0.86370325 0.065047391
654000000 -0.8680498 0.076401308 -0.00029785419 -0.0020647007 0.00024366665 -0.0010474568 -0.86453271 0.064589866
655000000 -0.86758989 0.076903082 1.0009418e-006 -0.0015562619 -5.3799457e-005 -0.0017205789 -0.86562049 0.064554587
656000000 -0.86810583 0.075628266 -0.0012336989 -0.0020574385 -0.00078065385 -0.001419357 -0.86418104 0.066226684
657000000 -0.86852932 0.076012976 -0.00016054124 -0.0017082349 0.00035454205 -0.001091575 -0.86522657 0.065253869
658000000 -0.86781663 0.076761767 -9.9055535e-005 -0.00027642498 0.00044214181 -0.0012822633 -0.86287439 0.065467097
659000000 -0.86802214 0.075916067 -0.00057582895 -0.001323879 0.00089059054 -0.0014141287 -0.8664698 0.064945139
660000000 -0.86773449 0.075550713 4.9066606e-005 -0.00084833062 3.2953641e-005 -0.0019893702 -0.86468083 0.065353252
661000000 -0.87014389 0.076795131 0.0016941378 -0.0017661544 -0.00031546829 -0.0012998395 -0.86320609 0.066567391
662000000 -0.86761445 0.076605916 -0.00039069593 -0.001446947 -0.00057539629 -0.001594312 -0.86359727 0.06677971
663000000 -0.86909038 0.074944556 0.00023879924 -0.0011668722 0.00056796445 -0.001020945 -0.86542362 0.065622367
664000000 -0.86753893 0.075069904 -0.00091395411 -0.0021498289 -0.00027600632 -0.0010625509 -0.8636269 0.065945692
665000000 -0.87002766 0.076665349 -0.00028415147 -0.0014579104 -0.00077268569 -0.0011577667 -0.86416119 0.066283688
666000000 -0.86860693 0.075771034 -0.00048104642 -0.0017675778 0.00038291261 -0.0011266752 -0.86531961 0.065492563
667000000 -0.86822134 0.077411555 -0.00034947158 -0.0014035421 -0.00076324062 -0.00066422881 -0.86501485 0.066224724
668000000 -0.86890984 0.076208889 0.00016534002 -0.00055252732 -0.0012592524 -0.001804764 -0.86359102 0.065997973
669000000 -0.86840975 0.077181593 0.00034938203 -0.0014560095 -0.00076847058 -0.0022508744 -0.86486757 0.066091821
670000000 -0.86769098 0.07696452 -0.00033714337 -0.00085106475 -0.00082272902 -0.00066230877 -0.86418253 0.066524729
