!Keysight Technologies,M9374A,MY55442783,A.12.55.05
!Date: Wednesday, May 19, 2021 18:22:29
!Correction: S11(Full 2 Port(1,2)) 
!S21(Full 2 Port(1,2)) 
!S12(Full 2 Port(1,2)) 
!S22(Full 2 Port(1,2)) 
!S2P File: Measurements: S11, S21, S12, S22:
# Hz S  RI   R 50
500000000 -0.8706907 0.058884911 -0.000115886 -0.0013635687 0.0002118023 -0.0012703792 -0.8657971 0.051370058
501000000 -0.87097371 0.059242431 0.00015343609 -0.00041588082 -0.00055357069 -0.0010813893 -0.86587805 0.050613943
502000000 -0.87142414 0.058703277 0.00072427728 -0.001474601 8.4937783e-005 -0.0013837002 -0.86660552 0.051543601
503000000 -0.86969447 0.057358179 -0.00032412435 -0.0010701155 -0.00041958402 -0.00063351146 -0.86531013 0.051835284
504000000 -0.87074989 0.059903175 -0.00012842263 -0.0026245718 -0.00023862597 0.00012033864 -0.86595833 0.051011831
505000000 -0.87076551 0.058990449 -0.0001292907 -0.00072844466 -0.00036701333 -0.0012125878 -0.86495239 0.049760867
506000000 -0.8694461 0.058929462 0.00094178272 -0.00079148461 -0.00013137214 -0.0019273493 -0.86618072 0.052484117
507000000 -0.87068361 0.060095128 -0.0007635791 -1.3122732e-005 -0.001100065 -0.00095913332 -0.86544496 0.053774234
508000000 -0.8705436 0.059913609 -0.00079925405 -0.00084972964 2.5865698e-005 -0.0010732382 -0.86705655 0.052368917
509000000 -0.87043256 0.057910357 0.00076982682 -0.00036400883 1.7221404e-005 -0.00086083438 -0.86565095 0.050998356
510000000 -0.86936915 0.060308974 -0.00061560603 -0.0011618834 0.0011012102 -0.00054331165 -0.86384422 0.052275207
511000000 -0.86973649 0.058560919 3.7857488e-005 -0.0016775813 0.00055105868 -0.0010800242 -0.86496478 0.052659068
512000000 -0.87102228 0.058623709 0.00052706018 -0.00073379488 0.00033998635 -0.00092116068 -0.86432737 0.051149454
513000000 -0.870444 0.0598296 -0.00094689894 -0.0011701813 -0.000176413 -0.0011620029 -0.8669368 0.051409669
514000000 -0.87101966 0.060018618 -0.00048850774 -0.00049807545 -0.00026869585 -0.0015749625 -0.86582738 0.053092595
515000000 -0.8700912 0.061543331 0.00016353851 -0.0004900347 -0.00015902039 -0.00093200721 -0.86545235 0.053983908
516000000 -0.87034982 0.060884804 -0.00092760829 -0.0010351724 0.00041731549 -0.00073171832 -0.8651818 0.052408699
517000000 -0.87050158 0.062278096 -0.001846615 -0.00050438283 -0.0011980149 -0.001734786 -0.86621875 0.05267515
518000000 -0.87022132 0.059646495 0.00047137827 -0.0012277776 0.00052327255 -0.0016624397 -0.86579615 0.052201778
519000000 -0.87027866 0.06058624 9.1789581e-005 -0.0010711544 0.00068586232 -0.0021517857 -0.86502928 0.052220464
520000000 -0.87053001 0.06043756 -0.00015831705 -0.0019024286 -0.00020001915 -0.00097646523 -0.86380982 0.053570364
521000000 -0.87079638 0.062768295 -4.8464622e-006 -0.0013672166 -0.00041476273 -0.00076898601 -0.86573559 0.055383146
522000000 -0.87138271 0.06141755 0.00067403272 -0.0010097971 -0.00060643378 -0.0011055062 -0.86627907 0.054923937
523000000 -0.86980718 0.060610425 -0.001199949 0.00032339047 3.5414479e-005 -0.0008436499 -0.86584216 0.054045495
524000000 -0.87063849 0.060789682 -0.00029145929 -0.0017350542 0.00023555625 -0.0015848951 -0.86549813 0.055130139
525000000 -0.86982405 0.061064411 -0.00054628559 -0.00040808573 0.00039409759 -0.001250702 -0.86497957 0.053859618
526000000 -0.87129873 0.060934275 -0.00088587619 -0.00066522602 1.6776203e-005 -0.0013435023 -0.86495173 0.055753496
527000000 -0.86985481 0.062169712 -0.00055322511 -0.00038714925 -0.00046683114 -0.00094843429 -0.86633337 0.056159507
528000000 -0.87079352 0.062318161 -0.00066264049 -0.0012857589 -0.00085723872 -0.00087105989 -0.86376661 0.055376038
529000000 -0.87010843 0.062611863 0.00015364114 -0.0013929477 7.3550931e-005 -0.0015727676 -0.86588335 0.057056461
530000000 -0.87198967 0.063194089 -7.1131755e-005 -0.00043466562 0.00063600932 -0.0010341479 -0.86694437 0.053072166
531000000 -0.8696934 0.061788913 0.00045741993 -0.00070864998 4.4733257e-005 -0.0019477673 -0.86398965 0.056206364
532000000 -0.87007177 0.061725534 -0.00034839916 -0.001831026 -0.00041801782 -0.00043268219 -0.86483985 0.053930871
533000000 -0.8689599 0.061941538 -0.00027059976 -0.00057301327 0.00072632148 -0.00072065677 -0.86482364 0.055622607
534000000 -0.87046278 0.061991524 -0.0003650221 -0.00052687834 5.8740134e-005 -0.0012987504 -0.86561638 0.054774836
535000000 -0.86983728 0.062277079 -0.00054361898 -0.0012710476 -0.001277294 -0.0011473537 -0.86454678 0.056241393
536000000 -0.87042063 0.061426505 -0.00075034221 -0.0010982994 0.00024638098 -0.001156992 -0.86619771 0.055756886
537000000 -0.87065059 0.062864326 0.00014029058 -0.0015465152 0.0007505439 -0.001037505 -0.86529458 0.054731194
538000000 -0.86998802 0.063156307 0.00018424091 -0.00049312908 -0.00102006 -0.0015545078 -0.86521924 0.055023521
539000000 -0.87057024 0.061091889 -0.00077593763 -0.00066760107 -0.00032448937 -0.0014279811 -0.86481255 0.056043446
540000000 -0.87096667 0.063144855 -0.00078276271 -0.0012946383 -0.00061466388 -0.0014662646 -0.86575735 0.056248397
541000000 -0.86920923 0.063257761 -0.00063067267 -0.001360832 -0.00026997176 -0.0011187377 -0.86380702 0.056207824
542000000 -0.87062669 0.064257048 -0.00048825474 -0.00064648432 -0.00078872626 -0.00065157673 -0.86439323 0.056517094
543000000 -0.87080681 0.062971242 0.00029370614 -0.0013731311 -0.00013867674 -0.0015751527 -0.86513495 0.056306913
544000000 -0.86993426 0.063179232 -6.4445761e-005 -0.0006581762 -0.0014430905 -0.0022187 -0.86592126 0.05801636
545000000 -0.87038952 0.062068723 -0.00061844598 -0.00054629444 0.00034389482 -0.0014886094 -0.86471981 0.057870474
546000000 -0.87007415 0.063589707 0.00054796238 -0.00059984816 -0.00070543226 -0.0010501129 -0.8638804 0.055727471
547000000 -0.87159258 0.064653851 -0.00042743309 -0.00109242 -0.00023382677 0.00036504745 -0.86476272 0.057011157
548000000 -0.86911452 0.064052463 -0.0004330189 -0.0023134078 -0.00022787934 -0.0014888325 -0.86526382 0.057364982
549000000 -0.86862665 0.063779265 -0.00044098511 -0.0011908541 -0.00062929909 -0.00092421047 -0.86614561 0.055838007
550000000 -0.86819887 0.064302877 -0.0011538751 -0.0017333424 -0.00063014071 -0.00076441898 -0.86620361 0.058318857
551000000 -0.86908859 0.063761845 0.00078079861 -0.0014195578 0.00021339826 -0.00090746692 -0.86557198 0.057135578
552000000 -0.87113267 0.064501934 0.00017616848 -0.00086754188 -0.00035676733 -0.00079631183 -0.86586523 0.058000248
553000000 -0.87031913 0.063631959 0.0008439087 -0.0017631414 -0.00041917883 -0.0013309658 -0.86433303 0.056911532
554000000 -0.86798096 0.064205065 0.0012071778 -0.00051416986 0.00011586417 -0.00059617602 -0.86453831 0.056378033
555000000 -0.86983383 0.062781066 -0.00068467652 -0.0015692067 -0.00021897259 -0.0011170571 -0.86387467 0.056257699
556000000 -0.86890322 0.063309625 -8.4551131e-005 -0.0015872847 0.00056693977 -0.0014554588 -0.86631656 0.056796465
557000000 -0.87012714 0.06429968 -0.00016764704 -0.0007855916 -0.00020973154 -0.00075442501 -0.86642969 0.058951374
558000000 -0.86965424 0.064339735 8.0801265e-006 -0.0021941175 0.00034160091 -0.00073523948 -0.86433011 0.057501525
559000000 -0.86963922 0.064996116 -0.00097512023 4.6758378e-005 0.00026801418 -0.0017053344 -0.86694729 0.057471085
560000000 -0.86948597 0.064161785 -0.00040733771 -0.00067784247 -0.00078395382 -0.0010885758 -0.86564636 0.057117827
561000000 -0.86855435 0.066094272 3.2492837e-006 -0.00099042407 -0.00070827495 -0.001172355 -0.86502492 0.055372022
562000000 -0.86972612 0.064462259 -3.6576326e-005 -0.001097507 -0.00014500259 -0.001359027 -0.86346734 0.059015498
563000000 -0.87263572 0.063834921 0.00024238067 -0.00046176792 -4.8595866e-005 -0.0018280881 -0.86511457 0.057682972
564000000 -0.86954385 0.064677976 -7.0872513e-005 -0.00175075 0.00030376721 -0.0018316371 -0.86629814 0.056685645
565000000 -0.86969805 0.064529888 -0.00015634311 -0.0017621502 -0.00016860184 -0.0011781919 -0.86589664 0.056514446
566000000 -0.87004834 0.064113304 -7.935521e-005 -0.00080612395 -5.6667417e-005 -0.0010061341 -0.86630684 0.057901476
567000000 -0.86996484 0.0643024 -0.00054020539 -0.0016619065 -0.00020250249 -0.00019410305 -0.86576164 0.058638658
568000000 -0.87007207 0.065079652 -0.0003544013 -0.00095512584 -0.00063034933 -0.0013572914 -0.86530089 0.057736475
569000000 -0.86937267 0.065366119 -0.00042725462 -0.0016288786 -0.00037381588 -0.0011707043 -0.86452293 0.057781767
570000000 -0.86964184 0.06538067 5.3977314e-005 -0.00075053755 -0.00018797036 -0.0015743106 -0.86514521 0.05870929
571000000 -0.86955208 0.063670225 0.00023249282 -0.0012721099 -0.00057636644 -0.0017842307 -0.86563581 0.058227029
572000000 -0.86933464 0.064793162 -0.00044352992 -0.00072283641 -0.0012738912 -0.0022783342 -0.86328125 0.057925656
573000000 -0.87086594 0.065937258 -3.915024e-005 -0.0013254016 -0.00061510823 -0.0018323069 -0.86494929 0.057933103
574000000 -0.86779088 0.065349422 -0.00031144122 -0.0016568734 -0.00022407985 -0.0014858362 -0.86768532 0.05930673
575000000 -0.86924899 0.065513276 5.8473947e-006 -0.00016387332 0.00026322415 -0.00024778201 -0.86550272 0.0604835
576000000 -0.86796701 0.065168001 0.00043045406 -0.00049838354 0.00031198908 -0.0013722773 -0.86556464 0.058684822
577000000 -0.86840284 0.065825075 0.001064898 -0.00085044908 -0.0010897575 -0.0011302278 -0.86563247 0.058909446
578000000 -0.87050307 0.064336017 0.00027381655 -0.00054374122 -0.00017650428 -0.0014857646 -0.86554289 0.058812495
579000000 -0.86853755 0.064897053 -9.0598114e-005 -0.00074970967 -8.6936423e-005 -0.00045409804 -0.86673993 0.058676179
580000000 -0.86962068 0.064399436 -0.00037034028 -0.0011084891 -0.00051784643 -0.00096163055 -0.86447793 0.059023771
581000000 -0.86754042 0.064798087 -0.00081432716 -0.001149027 -0.00069506961 -0.0016260194 -0.86460674 0.058658831
582000000 -0.86951846 0.06606628 -0.00040657801 -0.0021352733 -0.00042091284 -0.00058944483 -0.86573094 0.060254041
583000000 -0.86806005 0.067123376 0.0004798703 -0.00036012009 -0.00026750439 -0.00033116696 -0.86587894 0.058876045
584000000 -0.86804515 0.066971816 -0.00036289354 -0.0018228261 -0.00066292752 -0.0014218386 -0.86473227 0.059491973
585000000 -0.86964989 0.064921722 -0.00079390826 -0.00011067792 -0.00022702533 -0.0015313476 -0.86528909 0.058099873
586000000 -0.87066329 0.066622242 0.00017314289 -0.00082133344 -0.0001510385 -0.00089561689 -0.86462921 0.059699472
587000000 -0.86999291 0.066481203 7.1649243e-005 -0.0019201462 -0.00078939873 -0.000607808 -0.86508739 0.059871912
588000000 -0.86895037 0.067298897 -0.00051661523 -0.0011303173 0.0010485997 -0.0012170383 -0.86577004 0.059292655
589000000 -0.86928332 0.066798076 -0.00082746887 -0.0011396277 -0.000125083 -0.00059702736 -0.86558276 0.060757156
590000000 -0.86961967 0.068221241 0.00037083341 -0.00089651591 0.00014771424 -0.0010058332 -0.86530054 0.05987959
591000000 -0.86967808 0.067140944 8.8486428e-005 -0.00034569055 -0.00095830736 -0.0020218538 -0.86477208 0.060618773
592000000 -0.86987621 0.066422649 0.00010411783 -0.0015797939 -0.00047066432 -0.0015057785 -0.86557716 0.059899196
593000000 -0.86932021 0.066714227 -0.00023371573 -0.0023326306 0.00062885782 -0.00028321572 -0.86516672 0.059228729
594000000 -0.86872751 0.068081968 3.7690159e-005 -0.0015038219 -0.0001924527 -0.00204204 -0.86570358 0.058267787
595000000 -0.87047511 0.066724591 0.00074190652 -0.0025198504 6.0278478e-005 1.8566299e-005 -0.8654803 0.059035201
596000000 -0.86960524 0.067172296 1.561458e-005 -0.001615522 -0.00026267927 -0.0022340659 -0.86542416 0.061061446
597000000 -0.86977899 0.068541616 -0.000402695 -0.0016388616 0.00013406508 -0.0017949049 -0.86471295 0.059672408
598000000 -0.86870122 0.067340568 0.00097719452 -0.0014183691 0.00051702338 -0.00065426202 -0.86526382 0.061737791
599000000 -0.86830795 0.06915208 3.9830422e-005 -0.0017962687 -0.00075761927 -0.0012336394 -0.86438519 0.059279121
600000000 -0.86937064 0.067505307 -0.00073858397 -0.00081205543 -0.00067893742 -0.0017514725 -0.8645578 0.060836788
601000000 -0.86922067 0.068387784 0.00011168876 -0.0014208321 -0.00034154544 -0.00082285452 -0.86511743 0.061485205
602000000 -0.86813873 0.068388909 0.00075751392 -0.0011111002 0.0002100781 -0.00060878647 -0.86368012 0.060679354
603000000 -0.86867666 0.068705492 -0.00028313507 -0.0018619549 0.00059410627 -0.001184011 -0.86731631 0.060062289
604000000 -0.86770874 0.06956277 -0.00033713426 -0.0015252567 -0.00012717747 -0.00039979405 -0.8651278 0.061853345
605000000 -0.86898285 0.069099933 -0.00087356882 -0.00038311584 -3.2883458e-005 -0.00055030745 -0.86562699 0.062451951
606000000 -0.86902982 0.069519855 -0.00018940507 -0.0020943617 0.00035504127 -0.00085708953 -0.86453748 0.060487565
607000000 -0.87004381 0.069077171 0.00048698939 -0.0014356348 -0.00077118882 -0.0013356382 -0.86497474 0.060490754
608000000 -0.87126559 0.07101652 -0.00019785839 -0.0011576947 0.0005563795 -0.00046518163 -0.86435974 0.060981534
609000000 -0.86821765 0.068693735 0.00040038707 -0.0014480219 -0.00062026142 -0.0019538489 -0.86509162 0.061732024
610000000 -0.86892688 0.069515295 -0.00049415318 -0.0010708319 -0.00042010401 -0.0014326511 -0.86378187 0.062885962
611000000 -0.8687765 0.070256546 0.00012847065 -0.00089875667 -0.0011643335 -0.0018270955 -0.86365795 0.062254839
612000000 -0.86878806 0.070122585 0.00012884173 -0.0020678549 -0.00050021714 -0.0014806204 -0.86437255 0.062220663
613000000 -0.87020117 0.070967481 -0.00060939015 -0.0019101803 0.00013298931 -0.00054857385 -0.86431897 0.060616627
614000000 -0.86904621 0.071050584 0.00023575401 -0.0010913674 0.00027482669 -0.0018092506 -0.86502552 0.060541309
615000000 -0.86773032 0.068123676 0.00076233374 -0.0026602445 0.0010091042 -0.0015238745 -0.86526501 0.061536472
616000000 -0.86953777 0.07172776 0.00072819163 -0.001739259 -0.00078971573 -0.0011700487 -0.86387986 0.063421227
617000000 -0.86880213 0.072470963 0.00034741158 -0.0016311712 -0.0010398031 -0.0011147076 -0.865336 0.062814184
618000000 -0.86792237 0.071599364 -0.00089255691 -0.0014393522 -0.00091003691 -0.0009674243 -0.86501902 0.061791115
619000000 -0.86902755 0.072030507 -0.00058418867 -0.0017029857 -0.00024812002 -0.0017409904 -0.86448842 0.062537827
620000000 -0.86867756 0.072365403 0.00013135714 -0.0016575628 0.00012987301 -0.0022664829 -0.86307359 0.063202947
621000000 -0.86881393 0.07178729 -0.00033885645 -0.0020266674 0.00015565459 -0.00072934548 -0.86533248 0.063723609
622000000 -0.86809582 0.07112857 0.00017911301 -0.0014586473 6.5906905e-005 -0.00066131953 -0.86385798 0.065312937
623000000 -0.8694399 0.073663652 0.00040329146 -8.9375135e-005 -7.8520599e-005 -0.0019188054 -0.86385298 0.064231627
624000000 -0.86769962 0.070180766 -0.0011891604 -0.00083667669 -0.00018153747 -0.0022840563 -0.86416042 0.062618062
625000000 -0.86786747 0.072782472 -0.00052717683 -0.00067696912 0.00047394098 -0.0014327784 -0.86482966 0.062285449
626000000 -0.87017858 0.075381488 -0.00074449729 -0.0018563687 0.00051466486 -0.0014077668 -0.8645879 0.062934078
627000000 -0.86913669 0.072218105 -0.0010586594 -0.0016519761 0.00016117487 -0.0012554248 -0.86507177 0.065053329
628000000 -0.86787301 0.074738614 -7.5516991e-006 -0.0015600428 -4.9064952e-006 -0.0013041449 -0.86255825 0.06450884
629000000 -0.8685407 0.073611252 -0.00075266551 -5.0771258e-005 0.00039663792 -0.0013117994 -0.86478227 0.064309157
630000000 -0.8683908 0.07413692 0.00021901092 -0.0011720925 0.00028272567 -0.0019910168 -0.86478394 0.06382212
631000000 -0.86869049 0.07232587 0.00028285108 -0.00017218081 -0.00072985148 -0.00067228568 -0.86348051 0.064577125
632000000 -0.86857712 0.07466232 -0.00070820359 -0.00063926511 -0.00056641916 -0.0024648071 -0.86384261 0.064635977
633000000 -0.86872959 0.073863827 -0.00070688594 -0.00057282194 0.00043743206 -0.00066840736 -0.86520553 0.064172409
634000000 -0.86745054 0.074202292 0.00043802976 -0.0014038448 -9.6498108e-005 -0.00060516939 -0.86432517 0.064792491
635000000 -0.86790109 0.073752284 4.3111868e-005 -0.00082341069 0.00055301719 -0.0025820727 -0.86432081 0.062601529
636000000 -0.86757129 0.074410945 -0.00052380917 -0.0011807007 -0.00053812953 -0.0011376841 -0.86476713 0.063811511
637000000 -0.86659807 0.07396742 -0.00051696057 -0.0016788312 -0.00034237633 -0.0017961486 -0.86551303 0.063844368
638000000 -0.86799341 0.075414278 0.00043121248 -0.0020610308 0.00083619001 -0.0019541634 -0.86468065 0.0640845
639000000 -0.86859334 0.075913563 -0.00070800871 -0.0022192711 1.9735324e-005 -0.0020874366 -0.86342514 0.065306425
640000000 -0.86813945 0.074950859 -0.00087141531 0.00024895123 0.00078936445 -0.00092186872 -0.86372763 0.064773642
641000000 -0.86720645 0.075896025 -0.00013910783 -0.0007499553 -0.00060943107 -0.00072415476 -0.86436558 0.064398192
642000000 -0.86793238 0.074131288 -0.00091372791 -0.0014414624 -0.00045466897 -0.001331702 -0.86415493 0.064398147
643000000 -0.86848152 0.075871892 -0.0004509009 -0.0016919662 -2.6759981e-005 -0.00084360497 -0.86467314 0.064123109
644000000 -0.86904633 0.075083449 -0.0010046414 -0.00031706039 0.00032322839 0.0011715892 -0.8647331 0.064513668
645000000 -0.86744493 0.075380541 0.00046011346 -0.0013564165 0.00072867278 -0.001312963 -0.86458421 0.064785205
646000000 -0.86918867 0.076045625 -0.0010848339 -0.0022699984 0.00014436383 -0.001802861 -0.86357933 0.066378094
647000000 -0.86849296 0.077173084 0.0011629718 -0.00082375051 -0.00051377347 -0.0012719979 -0.86408758 0.064767256
648000000 -0.8683576 0.076741487 -0.00036351176 -0.0012479216 -8.9058296e-005 -0.0016362373 -0.86353171 0.06677907
649000000 -0.86746758 0.076366872 -0.00011026448 -0.0017488701 0.00047131823 -0.0013714056 -0.86441284 0.067175753
650000000 -0.86725098 0.077075399 -0.0010463094 -0.0014809646 0.00023412694 -0.0011365348 -0.8637563 0.065920599
651000000 -0.87036949 0.075998731 -0.00012392334 -0.0013802843 -0.00019684271 -0.00093302218 -0.86283183 0.068025798
652000000 -0.86869395 0.075442262 -0.00040101723 -0.0009458792 -4.4830602e-005 -0.0012312034 -0.86452192 0.06698624
653000000 -0.86864436 0.075085029 0.00013012579 -0.0013929047 0.00099737674 -0.0017045093 -0.86339712 0.064538382
654000000 -0.86871034 0.07612589 -1.1247744e-005 -0.0010059719 0.00016551252 -0.0012151786 -0.86470091 0.066577524
655000000 -0.86560655 0.07688082 -0.00016308911 -0.0014199625 -0.0011031399 -0.00097346946 -0.86308408 0.066991001
656000000 -0.86779517 0.076875895 -0.00037198808 -0.0012262 -0.00038574357 -0.0024899633 -0.86532325 0.065998517
657000000 -0.86722642 0.077206627 -0.0008618061 -0.0012321504 -0.00014946518 -0.0011985127 -0.86522812 0.067207627
658000000 -0.86794108 0.076075517 0.0007048038 -0.0015761082 0.00043274404 -4.6462013e-005 -0.86441886 0.066215076
659000000 -0.86731839 0.076269798 -0.00044300334 -0.00078693539 0.00060886011 -0.0018770982 -0.86519849 0.066210747
660000000 -0.86914325 0.078574151 -5.0524354e-006 -0.0018140835 -0.00045571779 -0.0021144706 -0.86499369 0.067486383
661000000 -0.86798447 0.079180181 -0.0011918757 -0.0011285234 -0.00033278286 -0.001586844 -0.86319548 0.066894479
662000000 -0.86830145 0.078298204 2.3926137e-005 -0.0012306317 -2.9297611e-005 -0.0014693306 -0.86482769 0.06725239
663000000 -0.86836892 0.077188551 0.00057734939 -0.0013093192 -0.00056007493 -0.0013338876 -0.8632009 0.065674312
664000000 -0.86823761 0.075526662 0.00041631924 -0.0012017365 -0.0002460407 -0.0014281151 -0.8643744 0.067774452
665000000 -0.86702806 0.077016115 -0.00035780991 -0.0010896171 -0.00069261057 -0.00063024554 -0.8638159 0.067113236
666000000 -0.86720836 0.078417048 0.00044277098 -0.0020783488 -0.00047582871 -0.00094778353 -0.86383694 0.068132281
667000000 -0.86826098 0.078089923 -0.00027885131 -0.00081862032 -0.00060503418 -0.0012767423 -0.86414319 0.067011759
668000000 -0.86739773 0.077667058 -0.00011172263 -0.0017929872 0.00056522235 -0.0023932685 -0.86246789 0.068830684
669000000 -0.86813283 0.077708505 -0.00027201619 -0.0012777826 -0.00071987312 -0.00060939632 -0.8643766 0.066659875
670000000 -0.86772382 0.077500209 0.00026250578 -0.0018318131 -0.00088766118 -0.0010496462 -0.86308759 0.069836915
