!Keysight Technologies,M9374A,MY55442783,A.12.55.05
!Date: Wednesday, May 19, 2021 18:44:55
!Correction: S11(Full 2 Port(1,2)) 
!S21(Full 2 Port(1,2)) 
!S12(Full 2 Port(1,2)) 
!S22(Full 2 Port(1,2)) 
!S2P File: Measurements: S11, S21, S12, S22:
# Hz S  RI   R 50
500000000 -0.86999798 0.056930829 -0.00030899569 -0.00082662492 0.00049496646 -0.00021829362 -0.86594003 0.048453443
501000000 -0.87091476 0.05651135 -0.00078866049 -0.001045128 7.5416981e-005 -0.0031792189 -0.86565238 0.048034433
502000000 -0.87034017 0.055981494 -0.00024575446 -0.00092301005 -0.00071912538 -0.00068422785 -0.86775553 0.04708029
503000000 -0.87014067 0.055224504 0.00074177253 -0.00118184 -0.00018904827 0.00034545257 -0.86574322 0.050147071
504000000 -0.87023985 0.05578316 0.00048666549 -0.00072925852 0.00056787889 -0.0010867065 -0.86645031 0.049697664
505000000 -0.86912578 0.056455962 0.00055974559 -0.00042820151 7.5734119e-005 -0.00015794486 -0.86616391 0.047701307
506000000 -0.86992002 0.055306628 -0.00054984045 -0.001161115 -0.0012059406 -0.0015883246 -0.86654913 0.049944427
507000000 -0.86913377 0.057640783 0.00021620125 -0.00075484917 0.00078862498 -0.00061893248 -0.86592615 0.049053617
508000000 -0.87131548 0.05829706 -0.00064411061 -0.0016210644 -2.3603003e-005 -0.00060010696 -0.86619169 0.050685663
509000000 -0.87067008 0.058193441 -0.0008514176 -0.00093087211 0.0006708299 -0.0014832828 -0.86568815 0.050152071
510000000 -0.87114215 0.058986798 -0.00045925783 -0.00089260447 -0.00020927517 -0.0021025129 -0.86379987 0.050613146
511000000 -0.87137079 0.057167698 -0.00043013785 -0.0014177469 -0.00065999728 -0.0013758781 -0.86442488 0.05210482
512000000 -0.8698777 0.057395782 -0.00035089493 -0.001956647 0.00083260552 -0.0012214689 -0.86639178 0.051053405
513000000 -0.87016702 0.056272656 -0.00033193934 -0.0021693823 0.00018177774 -0.0016994188 -0.86695057 0.049586419
514000000 -0.87045425 0.056620367 0.00038443055 -0.0017288484 -0.00031329776 -0.0013421992 -0.86670637 0.050732944
515000000 -0.87111837 0.057171218 0.00052723917 -0.00062783452 -4.2165826e-005 -0.0006166817 -0.86681414 0.049857687
516000000 -0.86972064 0.058253281 -0.00091258046 -0.0014199968 0.00034780111 -0.00044218404 -0.86676413 0.051516384
517000000 -0.87048095 0.058128789 0.0002251109 -0.00072662206 -0.00067653746 -0.0012444732 -0.86504811 0.050670389
518000000 -0.87171155 0.057898194 -0.00056762149 -0.0011180744 0.00014695092 -0.0011774373 -0.86743683 0.052197143
519000000 -0.87094438 0.057268959 -0.00042418635 -0.0007918069 -0.00038745182 -0.00091111078 -0.86492848 0.052823689
520000000 -0.86936796 0.05822948 -3.586604e-005 -0.0018262946 4.1758365e-005 -0.0014727782 -0.86630177 0.05253743
521000000 -0.87022543 0.05968925 0.00096706027 -0.0015501021 -0.00020245241 -0.00069167122 -0.86525744 0.051185537
522000000 -0.87028265 0.058589157 -0.00036663705 -0.0014103772 -0.00026669746 7.1852912e-005 -0.86527896 0.051391836
523000000 -0.87050712 0.057874847 0.00020510402 -0.00094150822 -0.00068189169 -0.0017487482 -0.8651852 0.052411959
524000000 -0.86974859 0.059272192 -0.00021792638 -0.0015012545 -0.0010219489 -0.0010148637 -0.86687386 0.051268756
525000000 -0.8696478 0.058528204 -0.00017412851 -0.00096457248 -0.00059215241 -0.00059409643 -0.86523056 0.052691147
526000000 -0.86944771 0.059837274 -0.00050905044 -0.0021254537 0.0011561984 -0.00039120595 -0.86682934 0.052563932
527000000 -0.86964077 0.059343167 -0.00016353602 -0.00062662369 -0.00065860944 -0.0011632307 -0.86637998 0.051321026
528000000 -0.86957622 0.059130754 0.00082411448 -0.00015720371 0.00041466224 -6.8567068e-005 -0.86470097 0.053321037
529000000 -0.86987513 0.060240917 0.00077628175 -0.00042684289 -0.00075413735 -0.00042439395 -0.86440563 0.052471664
530000000 -0.8699671 0.060078781 0.00080046081 -0.00073068828 -0.00086724898 -0.0017956558 -0.86519158 0.053482767
531000000 -0.87065244 0.059160098 -0.00018253164 -0.0015306612 -9.4970244e-005 -0.00012626959 -0.86647952 0.053764127
532000000 -0.86945021 0.061200466 9.5326941e-005 -5.6317014e-005 0.00033857804 -0.00033939737 -0.86524969 0.053489853
533000000 -0.8687039 0.058785316 -0.0005035596 -0.0010410398 -0.00031201157 -0.00051201333 -0.86386722 0.051913291
534000000 -0.87033212 0.06008685 -0.0011149762 -0.0015719781 -0.00050364004 -0.00088495121 -0.86667305 0.052786339
535000000 -0.87039489 0.060559105 0.000103648 -0.00077513407 0.00037313419 -0.00085133436 -0.86538386 0.053731445
536000000 -0.87004936 0.060904939 -0.00033932852 -0.00093314721 0.00073058158 -0.0011995408 -0.86459696 0.052299749
537000000 -0.87015998 0.060357131 -0.00019181271 -0.0019185474 -4.9250149e-005 -0.00078565266 -0.86478513 0.054559093
538000000 -0.8692801 0.060868952 -0.0002412975 -0.001092186 -0.00081106706 -0.00088476471 -0.86570215 0.054508034
539000000 -0.86903197 0.060845073 -0.00045725188 -0.0012905232 0.00046921999 -0.0012719898 -0.86526579 0.054553758
540000000 -0.87120283 0.060075004 -0.00046623591 -0.0014375123 -0.0009851713 -0.0011502604 -0.86550188 0.054034386
541000000 -0.86941165 0.060064647 -0.00084872235 -0.00072080578 -0.00066083379 -0.0010474016 -0.86580563 0.054071434
542000000 -0.87073678 0.059886694 0.00059592049 -0.00050131057 0.00040772549 -0.00071600021 -0.86519706 0.054873187
543000000 -0.87043619 0.06145421 0.0005330416 -0.0013769701 -0.00023050215 -0.0016085078 -0.86607921 0.05511675
544000000 -0.86789781 0.062148806 -0.0011245898 -0.00069260324 -0.00054836669 -0.0023889574 -0.86550564 0.053791542
545000000 -0.86964422 0.060502697 0.00071133027 -0.0018988574 -0.00046965713 -0.0012644734 -0.86591274 0.054026019
546000000 -0.87029117 0.061123639 0.00055624079 -0.00044037992 -0.00043512759 -0.0020132428 -0.86644197 0.054379083
547000000 -0.8710674 0.062055465 -0.00062245136 -0.0011051976 2.8408158e-006 -0.001293257 -0.86629778 0.053103462
548000000 -0.87080151 0.060828328 -0.00021072751 -0.00159736 -0.00052657182 -0.00070126023 -0.86547589 0.054849114
549000000 -0.87064588 0.061506309 -0.00053412357 -0.0013767981 -0.0001912424 -0.00080963655 -0.86552209 0.053624664
550000000 -0.8684538 0.062733077 -0.00053005113 -0.0011251031 0.0017017635 -0.0012833315 -0.86414039 0.05450435
551000000 -0.87028366 0.061170343 -0.00026268864 -0.00160213 -0.00071300659 -0.0013991153 -0.86512691 0.055185623
552000000 -0.87133223 0.062522776 -0.00018832576 -0.00084144308 0.00026732858 -0.00065756397 -0.86570048 0.055406649
553000000 -0.86987817 0.061352897 -0.00023748376 -0.0014354989 -0.0015146087 -0.0012383033 -0.86643165 0.05505668
554000000 -0.86962515 0.062407449 -3.3574659e-005 -0.00094791758 -0.00022507992 -0.0016477619 -0.86636186 0.055622056
555000000 -0.8709352 0.061424475 0.00028677718 -0.0013273121 -0.00073807884 -0.0010149668 -0.86511242 0.057024106
556000000 -0.86905247 0.062548041 -3.2221025e-005 -0.0015238277 -0.00075680215 -0.00064441451 -0.86579931 0.055317368
557000000 -0.87094104 0.062595949 7.0274524e-005 -0.00029880833 5.8137957e-005 -0.0012521519 -0.86569148 0.05484603
558000000 -0.87002128 0.062883496 0.00073080382 -0.001035277 0.00019265139 -0.00059134391 -0.86658758 0.054834027
559000000 -0.86997974 0.061504114 -0.0010692031 -0.0012274904 0.00032857605 -0.0012074041 -0.86473364 0.056557931
560000000 -0.86868811 0.061692957 -0.00053774432 -0.0017166429 -0.00057627662 -0.0017484493 -0.86663401 0.056404538
561000000 -0.86916393 0.059629008 0.00029014188 -0.0001526944 0.00049949193 -0.0011637151 -0.86529773 0.054367475
562000000 -0.86975962 0.062892869 -0.00033443666 -0.0012358186 1.6899387e-005 -0.00099976582 -0.86590791 0.055935588
563000000 -0.87086803 0.062553048 0.0004614924 -0.0014421219 -0.0017239349 -0.00092625205 -0.86609852 0.057950746
564000000 -0.8700425 0.062938303 -0.00059637334 -0.001319322 0.00019483455 -0.0020477579 -0.86673802 0.055350594
565000000 -0.8696909 0.062901996 -0.00056025072 -0.00029132894 0.00078156393 -0.0010937428 -0.86660612 0.05573016
566000000 -0.86939633 0.060491294 -0.00010868062 -0.0014509712 -0.00043454496 -0.0012514936 -0.86612898 0.054984879
567000000 -0.87164146 0.0621299 -0.0016055404 -0.00066996831 -0.00071205082 -0.00066408346 -0.86611485 0.055395171
568000000 -0.86962467 0.061840355 -0.0012640554 -0.0019176931 -0.00037763859 -0.0012949017 -0.86714417 0.054899957
569000000 -0.8695069 0.061978199 -0.00027391544 -0.0013262953 -6.8319481e-005 -0.00086640264 -0.86498457 0.055604778
570000000 -0.86811358 0.06269294 -0.00064231741 -0.0014012302 -5.7379308e-005 -0.00097712653 -0.86473173 0.056548718
571000000 -0.86917019 0.061166715 0.00024321309 -0.0011095469 0.00039293422 -0.00087340822 -0.86545944 0.057577617
572000000 -0.86822349 0.063065603 -0.00018315995 -0.0011056014 -0.0010158417 -0.0013117358 -0.8649807 0.055619225
573000000 -0.86916548 0.061829112 -0.00017986534 -0.0005942295 -0.00045614602 -0.00040245734 -0.86603034 0.057706989
574000000 -0.86761093 0.062519476 3.8785271e-005 -0.00097421528 -0.00077015831 -0.0013837721 -0.86587656 0.054835975
575000000 -0.8698864 0.062985726 0.00057338242 -0.0012955201 -0.0015717392 -0.0010215872 -0.86670405 0.056204554
576000000 -0.86828649 0.064452626 0.00041448826 -0.0010092033 -0.00078300497 -0.00091239525 -0.86630327 0.055967707
577000000 -0.86868608 0.063285775 -0.0006545675 -0.00074401032 -0.00065522239 -0.00099664135 -0.86642551 0.056026496
578000000 -0.86804241 0.062908806 -0.00035969637 -0.00096090464 -0.00010336417 -0.001241916 -0.86509991 0.055790763
579000000 -0.86895722 0.062317017 -0.00064763776 -1.3222905e-005 -0.00031531596 -0.0011152017 -0.86629975 0.056472674
580000000 -0.86826265 0.062224355 -0.00059806299 -0.0014487843 0.00051820418 -0.00053609698 -0.8667531 0.057144966
581000000 -0.86871171 0.064694375 0.00029142026 -0.00036748988 -0.00010874195 -0.0018283899 -0.86683381 0.05642372
582000000 -0.86954957 0.062321853 0.0012177643 -0.0016695388 0.00022328307 -0.00052566559 -0.86590576 0.056710921
583000000 -0.86817318 0.06437026 0.00058182998 -0.00073037873 0.00021157497 -0.0018906612 -0.86453921 0.056967448
584000000 -0.86881173 0.063535012 -0.00016052052 -0.0013697312 -0.0002275649 -0.0025291599 -0.8658306 0.057840832
585000000 -0.86973637 0.063066877 -0.0017452684 -0.0013656268 0.00059559202 -0.0013755419 -0.86563522 0.056977574
586000000 -0.87042022 0.063221522 -0.0011393692 -0.00083742297 -0.00055488659 -0.0014596096 -0.86572862 0.055927876
587000000 -0.86801845 0.065112405 -0.00070624187 -0.0019592042 -0.0001871019 -0.0018723533 -0.86445695 0.057302427
588000000 -0.86856425 0.063619167 -0.000814837 -0.0013841584 0.00019443387 -0.00072699063 -0.86532235 0.05907838
589000000 -0.86865288 0.064707659 -0.00023791537 -0.0017841159 -0.00025910247 -0.0022504178 -0.86374193 0.059441853
590000000 -0.86929405 0.06396497 -0.00039910007 -0.0011159182 -0.00061605993 -0.00027050384 -0.8646211 0.056898862
591000000 -0.86727387 0.064134292 0.00026955749 -0.0011701105 -0.00063384068 -0.0025749488 -0.86582404 0.056969769
592000000 -0.86888635 0.062795989 -0.00050357368 -0.00039372459 -0.00083761924 -0.00055203453 -0.86665082 0.056701209
593000000 -0.86773914 0.064678185 -0.00017235488 -0.0011942053 0.00072229112 -0.0014281528 -0.86631012 0.058421724
594000000 -0.86902905 0.063398808 -0.000292165 -0.0014198793 0.00038322207 -0.0014951117 -0.867015 0.058600198
595000000 -0.86863714 0.064382337 0.00012444862 -0.00064733351 -4.0186209e-005 -0.00188381 -0.86512095 0.058142807
596000000 -0.86987102 0.06458769 -0.00094832934 -0.00053043134 -0.00010427148 -0.00065891881 -0.8646431 0.057631116
597000000 -0.86898589 0.064969681 -0.00057903124 -0.0024052293 -0.00062152202 -0.0019478535 -0.86554694 0.058970705
598000000 -0.86932045 0.065961309 -6.2819185e-005 -0.00029737761 -0.00046965433 -0.00088630297 -0.86501431 0.058324203
599000000 -0.8696692 0.06489668 0.00013559923 -0.0010093361 -0.00022064871 -0.00064826099 -0.86640793 0.057479698
600000000 -0.86811161 0.065610811 0.00090912351 -0.0018903154 -0.00030464228 -0.001838657 -0.86477673 0.059233289
601000000 -0.86863327 0.067783698 -0.00073854649 -0.0013236924 -0.0010661655 -0.00085494528 -0.86361027 0.058382548
602000000 -0.86948532 0.064969905 0.00055645331 -0.00083068566 0.00024947291 -0.0012180927 -0.86732638 0.058963154
603000000 -0.86960036 0.065498263 0.0012388928 -0.0012059822 8.8095599e-005 -0.0011258472 -0.86448532 0.057500768
604000000 -0.86857367 0.068552807 -0.0012281516 -0.0009476883 0.001007203 -0.00042413964 -0.86571485 0.058604997
605000000 -0.86980063 0.066424929 -0.00050736318 -0.00067300926 -8.0732261e-006 -0.001619817 -0.86471838 0.059094559
606000000 -0.86854559 0.066016883 -0.00048857473 -0.0017207483 -9.9982681e-005 -0.00042083941 -0.8644709 0.058901895
607000000 -0.8689611 0.067738228 -0.0004409166 -0.0016123841 6.8155852e-005 -0.00082522287 -0.86585301 0.057905871
608000000 -0.87016231 0.066540249 -0.0011467104 -0.0016004326 0.00018517804 -0.00070015562 -0.86517 0.057910182
609000000 -0.86856186 0.067316033 0.0004480395 -0.001622544 4.2125524e-005 -0.001334226 -0.86559951 0.058234781
610000000 -0.86935383 0.06706503 -0.00027083216 -0.0015844437 0.00019310297 -0.0012210109 -0.86583614 0.060270242
611000000 -0.86903656 0.067616396 0.00028328449 -0.0013928681 -1.8427163e-005 -0.00089170737 -0.86527652 0.059230004
612000000 -0.86802846 0.068985023 -0.00030096318 -0.0012989498 0.00010844744 -0.0016293392 -0.86468691 0.058716744
613000000 -0.86925405 0.066630676 -0.0005172714 -0.00080830057 -0.00018489207 -0.0010757737 -0.8655442 0.060086366
614000000 -0.86873025 0.068415269 -0.0011648739 -0.0011407158 -0.00065953191 -0.0013856909 -0.86686081 0.060335897
615000000 -0.86944926 0.068524942 0.00087170606 -0.0016841496 0.00022506877 -0.00097641197 -0.86502922 0.059961274
616000000 -0.86854923 0.067912154 -0.00022746054 0.00028336086 -0.00059089367 -0.0014954873 -0.86583281 0.061113667
617000000 -0.86917424 0.068331197 -0.00039453697 -0.0020751699 0.0010372642 -0.0010066953 -0.86492002 0.06050881
618000000 -0.86800277 0.06773933 -4.2672884e-005 -0.0019684357 0.00015725686 -0.000988079 -0.86531955 0.06034264
619000000 -0.86621803 0.0691173 -0.00029865667 -0.00093125209 -1.10543e-005 -0.001266578 -0.8646313 0.059925985
620000000 -0.86863446 0.070334129 -0.00062857923 -0.0013019363 0.00084124319 -0.0013623436 -0.86448222 0.059926905
621000000 -0.8695696 0.069717705 0.00012171134 -0.0010825088 -0.00043872456 -0.0010623219 -0.86444896 0.060904671
622000000 -0.86709255 0.068540417 -5.9900591e-005 -0.00079886924 -0.0016872174 -0.00063491683 -0.86432481 0.060727403
623000000 -0.86830008 0.06849771 -0.00038143364 -0.0020066458 -0.0011502012 -0.0013015624 -0.86421704 0.061089329
624000000 -0.86959958 0.069471233 -0.00010684077 -0.0014858631 -0.00020494654 -0.00041653943 -0.86602634 0.060953252
625000000 -0.86735773 0.070213608 -0.00071871607 -0.0009815424 -0.0010351259 -0.0012327661 -0.86420596 0.061032906
626000000 -0.86955309 0.069452621 -0.00058287993 -0.0013100378 -0.00015813927 4.6466512e-006 -0.86342758 0.061507143
627000000 -0.86787856 0.070257798 -0.00025001232 -0.00088220718 -0.00017130488 -0.0012015518 -0.86352134 0.061711006
628000000 -0.87001848 0.070156015 0.00016359963 -0.0014621814 -0.00083036715 -0.0011406585 -0.86441445 0.063354455
629000000 -0.86887532 0.07071057 -0.00039560808 -0.00093020289 -0.00071499776 -0.001741292 -0.86651373 0.060904931
630000000 -0.86772877 0.071205087 3.2637541e-005 -0.0022578454 0.0016736992 -0.0010437642 -0.86507571 0.061098728
631000000 -0.8694427 0.070822619 -0.0011429405 -0.0013149355 0.00014386111 -0.0013894277 -0.864811 0.061882783
632000000 -0.86927062 0.072089456 0.00036448898 -0.0011659923 -0.00092684914 -0.0015244579 -0.86295474 0.061777938
633000000 -0.86872149 0.071282566 0.0001603509 -0.0014269042 -4.4724791e-005 -0.0011492845 -0.86536533 0.062666446
634000000 -0.8676911 0.07329566 -0.00019289933 -0.001615061 -5.7684701e-005 -0.00022804816 -0.86491156 0.062384527
635000000 -0.8695612 0.070709266 -0.00077261904 -0.00092867203 -0.00067230803 -0.002013006 -0.86461991 0.060703177
636000000 -0.86827046 0.069621362 0.00016359166 -0.00099330128 0.00025795025 -0.0016169467 -0.86791766 0.061463878
637000000 -0.86891013 0.069687933 -0.00015556523 -0.0011940348 -0.00048954139 -0.0020906162 -0.86419654 0.062202789
638000000 -0.86898434 0.073164105 0.00031080193 -0.0015752092 -0.00036496195 -0.0017122304 -0.86439306 0.061731476
639000000 -0.86898106 0.072573446 -9.2809903e-005 -0.00063771929 -0.00070439652 -0.00033724582 -0.86381221 0.061914869
640000000 -0.86775655 0.072884664 0.0003795425 -0.00076876272 0.00011614877 -0.00089915481 -0.86360449 0.062253691
641000000 -0.86916506 0.072600603 -0.0006364882 -0.00087183883 2.793951e-005 -0.00071411778 -0.86581922 0.062515169
642000000 -0.86855155 0.073267497 -0.0010589672 -0.0016326798 -0.0007283244 -0.0016433056 -0.86311758 0.063562088
643000000 -0.86816382 0.072868533 0.00017314238 -0.00084202056 -0.00015288318 -0.0016571211 -0.86450952 0.062918812
644000000 -0.86835974 0.071584687 0.00037005628 -0.0018066943 -0.0005287634 -0.00028376875 -0.8642202 0.062596723
645000000 -0.86755764 0.072216228 -0.00066411146 -0.0019460234 -0.0010817071 -0.00053352292 -0.86514735 0.063014828
646000000 -0.86766815 0.073474333 0.0002648434 -0.0005989194 0.00060132635 -0.0022203962 -0.86383438 0.062928461
647000000 -0.86820471 0.072810605 0.0005890989 -0.0022307462 0.0011441121 -0.0012742747 -0.86599487 0.06437546
648000000 -0.86809641 0.072795726 -0.00075521221 -0.0015463805 -3.0978772e-005 -0.0014932401 -0.86506611 0.063992292
649000000 -0.86663729 0.072756864 -0.00046461818 -0.00055254658 -0.00051303697 -0.0014571312 -0.86593109 0.063527241
650000000 -0.86981881 0.074984744 2.4291267e-005 -0.0014349606 -4.166962e-005 -0.0014362283 -0.8651427 0.064394124
651000000 -0.8682282 0.07259731 -1.6437764e-006 -0.00093509525 -9.6766387e-005 -0.001145722 -0.86547452 0.06435319
652000000 -0.86878639 0.072886005 0.00020662478 -0.00059660373 1.2526904e-005 -0.0012946284 -0.86323261 0.064718403
653000000 -0.86898875 0.072578594 -0.00042772599 -0.00082258583 0.00018153088 -0.0022230828 -0.86414534 0.06524919
654000000 -0.86790591 0.07449989 -5.5097698e-005 -0.0014063738 -0.0010102858 -0.0016964581 -0.86640161 0.064888127
655000000 -0.8686949 0.073792554 -0.00044214819 -0.001125239 -0.00048120014 -0.0010089198 -0.86462122 0.064061373
656000000 -0.86801517 0.073196165 0.00026409843 -0.0008635805 -2.4892272e-005 -0.0015132015 -0.86384904 0.064003535
657000000 -0.86770052 0.074131332 0.00029601515 -0.0012121898 -0.00079517672 -0.00065672072 -0.8643328 0.064096369
658000000 -0.86817688 0.074148208 -0.0011040258 -0.0016864492 9.6525604e-005 -0.00095839641 -0.8636651 0.064818762
659000000 -0.86832374 0.075173952 5.8980793e-005 -0.0019259502 -9.0423782e-005 -0.0021413187 -0.86485928 0.06456963
660000000 -0.8685109 0.074253082 -0.00067630992 -0.0006707845 0.00092031347 -0.00076361204 -0.86526912 0.064541914
661000000 -0.86849749 0.074241921 0.00034398789 -0.0013182075 -0.00070054678 -0.001142817 -0.86439979 0.065245181
662000000 -0.8673681 0.073810801 0.00019806554 -0.0022322151 -0.00019637698 -0.0010351335 -0.86563206 0.064360887
663000000 -0.8673479 0.074019596 -0.00068195473 -0.0018010914 -0.00058036041 -0.001644492 -0.86318141 0.064622246
664000000 -0.8693592 0.074758522 0.0005030983 -0.0015485309 -0.0011043512 -0.0016080375 -0.86477023 0.063176557
665000000 -0.86846995 0.074304365 2.1883759e-005 -0.00094570848 -0.0003845774 -0.00081508339 -0.86437404 0.064621262
666000000 -0.8679021 0.074571848 8.4572275e-005 -0.0007588194 -0.00046421075 -0.0014060707 -0.8641364 0.064886846
667000000 -0.86622089 0.075588487 -0.00044621193 -0.0017516353 3.007046e-005 -0.0013535648 -0.86361653 0.065026872
668000000 -0.86827636 0.074391402 -0.00015461468 -0.0020648101 2.1802814e-005 -0.00090690353 -0.86481667 0.064395428
669000000 -0.86750251 0.07524199 0.0001858067 -0.0014094313 -0.00044798048 -0.0015575571 -0.86309677 0.063505933
670000000 -0.86727148 0.074784167 -0.00052058592 -0.0015779377 -0.0011301391 -0.0013506671 -0.86501408 0.065380111
