!Keysight Technologies,M9374A,MY55442783,A.12.55.05
!Date: Wednesday, May 19, 2021 18:35:19
!Correction: S11(Full 2 Port(1,2)) 
!S21(Full 2 Port(1,2)) 
!S12(Full 2 Port(1,2)) 
!S22(Full 2 Port(1,2)) 
!S2P File: Measurements: S11, S21, S12, S22:
# Hz S  RI   R 50
500000000 -0.87187362 0.055570625 -6.3998574e-005 -0.0012494856 -2.4965653e-005 -0.00090807088 -0.86509079 0.050255425
501000000 -0.87175131 0.056868155 0.0005086934 -0.0015659787 0.00024471889 -0.00044193334 -0.8671481 0.049393263
502000000 -0.87158263 0.057360698 0.00011578239 -0.00049291569 -0.00018625583 -8.5751562e-005 -0.86549729 0.048476033
503000000 -0.86972135 0.055680219 -0.00027679195 -0.0010933554 0.00066820596 0.00015367863 -0.86659122 0.049411494
504000000 -0.8708027 0.056359343 0.001117075 -0.0018497837 -0.00016927013 -0.0015326671 -0.86650372 0.049636248
505000000 -0.86975366 0.059049837 -0.00022834491 -0.00099829142 -0.0011095091 -0.00061909104 -0.86490262 0.050604302
506000000 -0.87038946 0.058642562 0.00063206477 -0.0010311537 -7.4963456e-005 -0.0011647893 -0.86496276 0.048501395
507000000 -0.86999017 0.057079308 0.00039294871 -0.001037686 -0.00036242983 -0.0014934231 -0.86547458 0.049475044
508000000 -0.87154639 0.058104135 -0.00017588527 -0.00081901485 -0.00052973413 -0.0015707995 -0.86643213 0.051441085
509000000 -0.87140304 0.057109363 -0.00053326425 -0.0015314413 -0.00034627062 -0.0015652757 -0.86649406 0.049318261
510000000 -0.86963195 0.05738394 -0.00042869011 -0.00086282444 0.0012997756 -0.00061791466 -0.86616534 0.051398847
511000000 -0.87077206 0.059079915 -0.00082846492 -0.0017922432 -0.00011604317 -0.0010278615 -0.86462343 0.051388003
512000000 -0.87042326 0.058887385 4.9880305e-006 -0.00088308234 0.00089015317 -0.00107449 -0.86537099 0.04976527
513000000 -0.8697201 0.058671962 0.00095360761 -0.00087558542 4.1272651e-005 -0.001925874 -0.86613411 0.050715268
514000000 -0.87092757 0.058187019 0.00023739891 -0.0011087246 -0.00041882705 -0.001638085 -0.86546701 0.050493151
515000000 -0.87030554 0.059574928 -3.5667119e-005 -0.0015747044 0.00055513938 -0.00038355243 -0.86645138 0.052180666
516000000 -0.8718183 0.058660366 -9.4012772e-005 -0.0012524095 0.00019716335 -0.002115608 -0.86621732 0.051168382
517000000 -0.87164783 0.058422431 -0.00079259597 -0.00086306559 0.00073547359 -0.0004082041 -0.86610442 0.051821657
518000000 -0.86926234 0.05872152 0.0006545381 -0.0012186817 -0.00026800661 -0.00088727375 -0.86523581 0.052119847
519000000 -0.87021333 0.058058914 0.00023683613 -0.00099931855 -0.00080465036 -0.0012622662 -0.86601251 0.051084641
520000000 -0.87005657 0.059116166 0.00046622881 -0.001455867 0.00046416518 -0.00056712475 -0.86541635 0.04899659
521000000 -0.87092328 0.061001677 -0.0007620501 -0.0019538275 -0.00081615261 -0.0014327858 -0.86502439 0.05298546
522000000 -0.87088799 0.060395975 0.00029291178 -0.0011103621 -0.00013687473 -0.00053567957 -0.8653571 0.05353782
523000000 -0.87131679 0.059474684 -4.2319436e-005 -0.0023845488 -6.4263455e-005 -0.0021909534 -0.86546063 0.052650429
524000000 -0.87018496 0.059373133 -0.00078078784 -0.00079249108 -0.00093978219 -0.00021833726 -0.86610246 0.05101024
525000000 -0.87125033 0.059928406 -0.00033079798 -0.00073613442 5.9560476e-005 -0.00081038516 -0.86525685 0.054760646
526000000 -0.87153268 0.060743619 -0.001094971 -0.0014133112 -0.00013382577 -0.00057006342 -0.86535239 0.054105408
527000000 -0.86964124 0.06195702 -2.7695662e-005 -0.0021709541 0.00016494225 -0.00098584977 -0.86601359 0.052104764
528000000 -0.87012625 0.060563277 -0.00036535886 -0.0013924582 -0.00051176548 -0.00075018097 -0.86543208 0.053825412
529000000 -0.87040424 0.06102575 0.00048655857 -0.0018004891 -0.00093953696 -0.0010651877 -0.86428547 0.053253066
530000000 -0.87213486 0.060385887 -0.00036763115 -0.0014015321 -0.00075061613 -0.00084231538 -0.86593401 0.053000994
531000000 -0.87176818 0.059773479 0.00012954728 -0.00052678795 -0.0010406753 -0.0005032309 -0.8655408 0.053916551
532000000 -0.87173873 0.061079368 -0.00031016555 -0.0016901137 -0.00026271321 -0.0013143753 -0.86780614 0.053349961
533000000 -0.87064099 0.061724637 -0.00079836347 -0.00011497199 -0.00085652783 -0.00059298408 -0.86436272 0.053675957
534000000 -0.87010902 0.060681358 -0.00045906709 -1.3046866e-005 -0.00023311647 -0.00092107092 -0.86683625 0.053138871
535000000 -0.869196 0.061255924 0.00052474329 -0.0009700855 -0.00081116194 -0.0012479231 -0.86489969 0.054140672
536000000 -0.86944771 0.060837541 0.00031556917 -6.32273e-005 -0.00045213144 -0.0006260915 -0.86659867 0.053313993
537000000 -0.86933643 0.062463652 -5.0649978e-005 -0.001350504 0.00029476522 -0.0011458099 -0.8666544 0.055252451
538000000 -0.87106055 0.060449731 3.4813285e-005 7.9072306e-005 0.00032181744 -0.0013145489 -0.86572677 0.052523907
539000000 -0.87056595 0.062158074 -0.00018573931 -0.0011673395 -0.00034967647 -0.00010780862 -0.86640882 0.053586073
540000000 -0.87068033 0.061797559 0.00074893725 -0.0020603046 -0.0011317811 -0.0019591213 -0.86478055 0.055739284
541000000 -0.87014312 0.062866434 0.00026484096 -0.0011958242 6.2232262e-005 -0.0011603514 -0.8661952 0.054672759
542000000 -0.87130773 0.061828706 -0.00068114541 -0.00095723331 -0.00031988532 -0.0016915848 -0.86516833 0.05432526
543000000 -0.87096804 0.062017024 -0.00053919211 -0.0011092297 -0.0002715397 -0.0010393157 -0.8653388 0.05594283
544000000 -0.87124449 0.06236681 -0.00036877531 -0.0017557831 0.00021349288 -0.00066406972 -0.86567068 0.054405902
545000000 -0.87151611 0.062219899 0.00022473076 -0.00095332169 0.00039517574 -0.0014254515 -0.86561698 0.054199744
546000000 -0.86903036 0.061630845 -0.00088747306 -0.00076746574 -9.6838136e-005 -0.0021908875 -0.86512297 0.055087954
547000000 -0.86958456 0.062952764 -0.00094946375 2.046657e-005 -5.2394997e-005 -0.00042425902 -0.86466461 0.055779275
548000000 -0.87037396 0.062626131 -0.00036454006 -0.0019151301 -0.00048584805 -0.0011077444 -0.86413658 0.056797776
549000000 -0.86920983 0.06151795 0.0010445816 -0.0015679892 -0.00058190065 0.00025933076 -0.86344528 0.055153478
550000000 -0.86871302 0.062334199 0.00039133788 -0.0010574225 -0.00062618958 -0.00095107907 -0.86714953 0.056511167
551000000 -0.86982751 0.062237471 2.2302529e-005 -0.0019098254 0.00051222392 -0.00089038973 -0.86563367 0.055913571
552000000 -0.86941779 0.062985308 5.4242937e-005 -0.00082522264 -0.00066720799 -0.00077481137 -0.86534309 0.05628382
553000000 -0.87254101 0.062206808 -0.0014037598 -0.0021940274 1.9509256e-005 -0.00072336249 -0.86507809 0.055785365
554000000 -0.86967647 0.062419266 4.0732742e-005 -0.00084280607 -0.00039547146 -0.0016797219 -0.86466998 0.054709859
555000000 -0.87096512 0.062233362 0.00016834436 3.4346325e-005 -0.0006570234 -0.00058998406 -0.86549461 0.055750977
556000000 -0.86882752 0.060689412 -0.00086548284 -0.0014886864 -0.00051800883 -0.0010083115 -0.86599988 0.055340867
557000000 -0.87156528 0.062377799 -0.00086638756 -0.00084250298 -0.00032718919 -0.00057764864 -0.86586672 0.056773823
558000000 -0.87074858 0.063211396 0.0008367665 -0.00064614112 0.00049729639 -0.0016275673 -0.86596477 0.056146272
559000000 -0.86963934 0.062764376 -0.00031523631 -0.00065432844 0.00024001187 -0.00081915711 -0.86599261 0.056880895
560000000 -0.86847121 0.062547892 0.00070684718 -0.00092878676 -0.00059127406 -0.0010045416 -0.864806 0.055957925
561000000 -0.86901796 0.063239686 -0.0013460007 -0.00097283995 0.00040940577 -0.0015313799 -0.86662835 0.056690983
562000000 -0.87039357 0.064078383 -0.00086126215 -0.0012269453 0.00022358174 -0.001072849 -0.86660969 0.057686668
563000000 -0.87026858 0.063214339 -0.00071632391 -0.0013736583 -0.00075276924 -0.0011056385 -0.86558175 0.056407526
564000000 -0.87101322 0.061367929 -0.0010789491 -0.0011727803 -0.00028892932 -0.0011728344 -0.86503458 0.055494126
565000000 -0.87029332 0.063679285 -0.00075424061 -0.00080271141 0.00023563419 -0.0015623557 -0.86620951 0.056850333
566000000 -0.86914539 0.062112518 -0.0014731903 -0.0012222624 -0.00022113899 -0.0001845423 -0.8649466 0.056147195
567000000 -0.87023741 0.062440924 -0.00028758022 -0.0010566453 -3.1608364e-005 -0.0013387129 -0.86541891 0.055673096
568000000 -0.86942387 0.062470552 0.00016271441 -0.00050701963 0.00022335195 9.5922631e-005 -0.86542368 0.056807894
569000000 -0.86906517 0.063109934 -0.0001886306 -0.0010617425 -0.00024216184 -0.00033717047 -0.86491013 0.057220094
570000000 -0.86893779 0.063331746 0.00092925626 -0.00044463895 -0.00021520184 -0.00023473987 -0.86359739 0.057660267
571000000 -0.87135512 0.063363895 0.00094559521 -0.0018661834 -0.00038727379 -0.00058986846 -0.86600071 0.056596749
572000000 -0.86962748 0.062673271 0.00012060823 -0.0013112884 0.00013958411 -0.00036647622 -0.86490673 0.056503985
573000000 -0.8705079 0.062596768 -0.0011301643 9.3574774e-005 -0.00032960565 -0.0016582398 -0.86587632 0.057865534
574000000 -0.86861134 0.064053439 -0.00011801217 -0.00050762499 0.00086738815 -0.00069814234 -0.86544555 0.057598025
575000000 -0.87129515 0.064025365 -0.00084359938 -0.00048253918 -0.00096559001 -0.0018294866 -0.86568421 0.057129752
576000000 -0.86826169 0.064525679 -0.00041597945 -9.6678385e-005 -0.00092165737 -0.0017937408 -0.8659699 0.056584895
577000000 -0.87071383 0.064667374 -0.0001143038 -0.00092718512 0.00021008808 -0.0016847939 -0.86632442 0.056716744
578000000 -0.86963475 0.06565243 0.00055891526 -0.0012906584 8.8866589e-005 -0.00098087604 -0.86709893 0.058692217
579000000 -0.87073666 0.064358227 -0.00036123479 -0.0010403869 0.00057671772 -0.0016094196 -0.8663283 0.055401895
580000000 -0.87049061 0.064599879 -0.00023567637 -0.0011345615 0.00060397503 -0.00063625065 -0.86672831 0.056026246
581000000 -0.86895394 0.066267572 -0.00089659687 -0.0014342475 -0.00078513537 -0.0016581286 -0.86601305 0.057610556
582000000 -0.86934924 0.064024232 0.00083973253 -0.0019397971 0.00044964932 -0.0015184889 -0.86642224 0.058433723
583000000 -0.86954278 0.064953037 -0.00012375235 -0.0014071222 -0.00016212733 -0.00091303559 -0.86522466 0.057013031
584000000 -0.86896122 0.065517999 0.00069243583 0.00016022657 -0.0008870805 -0.00075753819 -0.86750108 0.059455063
585000000 -0.8697722 0.064420797 -0.00056914287 -0.00083149865 0.00070379494 -0.0016476311 -0.86830455 0.058475938
586000000 -0.86991167 0.063817225 -0.00064950652 -0.0015354307 -0.0001337034 -0.0012744451 -0.86385077 0.058678642
587000000 -0.86916202 0.065435991 -7.4621756e-005 8.5088832e-006 -0.00024590493 -0.0009347829 -0.86575907 0.056984473
588000000 -0.8702662 0.065587744 -0.00055315997 -0.00089290785 -0.00011314364 -0.0011349759 -0.86627257 0.057164863
589000000 -0.86880004 0.063650914 0.00018967388 -0.002336456 0.00082107977 -0.0017517448 -0.86515921 0.058488153
590000000 -0.86941004 0.066245772 0.00025727603 -0.0014105788 0.00074831763 -0.0023005691 -0.86530465 0.058514684
591000000 -0.87004131 0.064623117 0.00050223985 -0.00021596449 0.00024424025 -0.00055151607 -0.86516201 0.058457527
592000000 -0.87053651 0.064310811 7.6537319e-005 -0.0011990543 0.00068627915 -0.0019854493 -0.86591417 0.058993347
593000000 -0.86937135 0.064892285 0.0002437134 -0.0019504351 6.9032605e-005 -0.00046076067 -0.86562622 0.058608122
594000000 -0.86870319 0.064743578 1.9147927e-005 -0.0013206648 -0.001422173 -0.00049270829 -0.86608285 0.057590589
595000000 -0.86675161 0.065331757 -0.0011304587 -0.0012478912 -0.00044730646 -0.0010508739 -0.86693794 0.059754718
596000000 -0.86967278 0.065987758 -0.00067808956 -0.00084581919 -0.00014965497 -0.0014791299 -0.86471492 0.058762509
597000000 -0.8711428 0.065307163 -0.00022449359 -0.0026244461 -0.00024378904 -0.0014944336 -0.86515141 0.058478791
598000000 -0.8695513 0.065442383 0.00040072997 -0.0016215014 -1.0613197e-005 -0.0019659633 -0.86659861 0.058661666
599000000 -0.87033671 0.065925196 -0.0014114839 -0.0011656896 2.4695517e-005 0.00021393094 -0.86529469 0.057878844
600000000 -0.87047356 0.066260971 -0.00082525844 -0.0014112332 0.00031333792 -0.0019110853 -0.86371028 0.059377637
601000000 -0.86924493 0.066847853 -0.00055525638 -0.0027138849 -4.539916e-005 0.00054878806 -0.86554205 0.058825538
602000000 -0.87055165 0.06675598 0.00024023422 -0.0012167634 8.8698005e-005 -0.00060240022 -0.86543858 0.05727629
603000000 -0.86978972 0.068528086 -6.132992e-005 -0.00076604588 -0.0007547735 -0.0014059243 -0.86602914 0.060301919
604000000 -0.86904705 0.067554146 -0.00075408001 -0.00070582872 0.00029127736 -0.00084861676 -0.86500984 0.058062639
605000000 -0.86850637 0.067943878 -0.0012915259 -0.00042191605 0.00031527976 -0.001635829 -0.86344606 0.059258733
606000000 -0.8692767 0.06864018 0.0007501783 -0.0014045467 0.00050006527 -0.00089036679 -0.86431819 0.060162157
607000000 -0.86846465 0.067015611 -0.00083675428 -0.0012212971 -0.0007234349 -0.0010952341 -0.86525166 0.059885304
608000000 -0.86927187 0.067484498 -0.00042746286 -0.0014085107 -0.0012973518 -0.00090598816 -0.86516124 0.057757113
609000000 -0.86917114 0.067377582 0.00012020807 -0.001324817 0.00054732902 -0.0013860865 -0.86514693 0.060895629
610000000 -0.86942154 0.069051027 0.00035911522 -0.00011135604 -0.00086770311 -0.0012732054 -0.86341792 0.059574019
611000000 -0.86864209 0.069544017 -0.000892437 -0.0014652549 -0.00030976787 -0.0011512324 -0.86658639 0.059671942
612000000 -0.86811769 0.068533309 1.1513502e-005 -0.0012062783 0.00046604153 -0.00071735389 -0.86527824 0.059873931
613000000 -0.86925507 0.067990415 0.00051903102 -0.0024106367 -0.00098394766 -0.0014961519 -0.86469132 0.060122326
614000000 -0.8691324 0.069016576 0.001633032 -0.0015587962 0.0011113556 -0.00094831828 -0.86464298 0.059263796
615000000 -0.86927003 0.069527015 -0.00066118181 -0.0019986425 -0.00026833962 -0.0012258576 -0.86480618 0.059637595
616000000 -0.86903572 0.068821713 0.00047626853 -0.0016548599 4.2442309e-005 -0.00074859761 -0.86304182 0.061607227
617000000 -0.86915141 0.070644803 4.1284442e-005 -0.0020246101 0.00091928203 -0.00047343518 -0.86438346 0.06106931
618000000 -0.86981755 0.070459545 -0.00065581594 -0.00084252504 0.00011435438 -0.0019576827 -0.86501181 0.062211733
619000000 -0.86860734 0.069767416 -0.00033716616 -0.0016128989 7.5754353e-005 -0.00069232186 -0.86514682 0.061624967
620000000 -0.86842483 0.070606634 -0.00014232709 -0.0012406332 -0.00042741527 -0.00066800928 -0.86572909 0.060729109
621000000 -0.8693676 0.069149509 0.00085764955 -0.0015103574 0.00046975946 -0.00050722348 -0.86286175 0.060524844
622000000 -0.86880416 0.069143414 2.8745952e-005 -0.00021261258 -0.00043497677 -0.00078942801 -0.8640818 0.060387772
623000000 -0.86932331 0.070400521 0.00032760532 -0.0016751606 -0.0011774774 -0.0012021087 -0.8640191 0.062178202
624000000 -0.86817986 0.069650806 -9.9026845e-005 -0.0011201581 0.000554864 -0.0021949015 -0.86443073 0.061665423
625000000 -0.8687852 0.071046211 0.00011991378 -0.0014083645 0.00012552351 0.00010447237 -0.86541861 0.061959315
626000000 -0.86936015 0.07147783 -0.0002261968 -0.0011694543 0.00022544721 -0.0022565678 -0.8645972 0.062270477
627000000 -0.86817145 0.070242725 0.00027586042 -0.0013069029 -0.00097056199 -0.00069221488 -0.86449826 0.062246665
628000000 -0.86906862 0.071861945 -0.00044154702 -0.00089522696 0.00015564289 -0.0014116004 -0.86593461 0.061595142
629000000 -0.86959857 0.070918567 -0.00089273753 -0.0015503219 -0.00055028294 -0.0013720387 -0.86462229 0.062723711
630000000 -0.86929905 0.071373299 -0.00062967034 -0.0003330769 -0.00065698865 -0.0012592685 -0.86409509 0.061724525
631000000 -0.86920643 0.070331879 0.00020580312 -0.0019831737 0.00017172693 -0.0020828561 -0.86452258 0.0628547
632000000 -0.8692472 0.071196079 -8.3478182e-005 -0.00057215267 -0.00091813883 -0.00079223921 -0.86400884 0.062184028
633000000 -0.8680197 0.072277486 -0.0010103228 -0.0014881125 -4.3361386e-005 -0.00082335074 -0.86473238 0.063573979
634000000 -0.86579078 0.0725177 0.00045177093 -0.0011197379 0.0007749098 -0.00099180103 -0.86559469 0.064598896
635000000 -0.86886775 0.07211218 -0.00035420229 -0.0014617336 -0.00060981855 -0.0029248474 -0.86415845 0.062165447
636000000 -0.86896962 0.072902896 -0.00013654886 -0.0018214664 0.00034222368 -0.00087930606 -0.86453241 0.062811352
637000000 -0.87004018 0.071550868 6.15307e-005 -0.00026866657 -4.2815944e-005 -0.00230236 -0.86243105 0.063840203
638000000 -0.86868739 0.072451137 -0.00096899958 -0.00098050176 0.0002454542 -0.00097766391 -0.86465812 0.063157417
639000000 -0.86756516 0.073167145 -0.00031434279 -0.00068179605 -0.00031750018 -0.0010198827 -0.86464155 0.064977288
640000000 -0.8681584 0.074556231 -0.00095799845 -0.0015189277 -7.5994762e-006 -0.0013360679 -0.86555797 0.064287774
641000000 -0.86916637 0.073126361 3.0489504e-005 -0.00072275952 -0.00090972928 -0.00091378705 -0.86391026 0.064072281
642000000 -0.86948705 0.073980764 -0.00081074098 -0.0016934124 -0.0012382562 -0.0017549401 -0.86407161 0.064286835
643000000 -0.8674649 0.075446054 -6.0257148e-006 -0.00056839891 0.00095641694 -0.001484939 -0.8644067 0.063301884
644000000 -0.86952901 0.075227864 0.00091870019 -2.0844469e-005 9.5159441e-005 -0.00080385996 -0.86499691 0.064667851
645000000 -0.86936963 0.074524216 -0.00025031669 -0.0019817033 0.00031103179 -0.0017934203 -0.86416757 0.06423746
646000000 -0.86781341 0.073694482 0.00024109917 -0.0010377433 0.00032938967 -0.0020854638 -0.86337698 0.06400042
647000000 -0.8683604 0.073269174 -0.00049662718 -0.0012522722 -5.6872603e-005 -0.0016460677 -0.86417425 0.062879875
648000000 -0.86739254 0.073767416 0.00038768206 -0.001391808 0.00041925668 -0.00067429797 -0.86522311 0.063089289
649000000 -0.86865085 0.074416392 -0.00038725469 -0.00092060439 -0.00048070156 -0.0014554574 -0.86412877 0.064251401
650000000 -0.86663812 0.074764065 -0.00044880988 -0.0013539208 0.00014124026 -0.0025588118 -0.86311644 0.063865669
651000000 -0.86931103 0.075764425 0.00056795712 -0.0014986835 -0.00042470236 -0.00070246187 -0.86433393 0.064327568
652000000 -0.86911869 0.074967906 -0.00087222439 -0.0016592122 -0.00023545737 -0.0018866985 -0.86291093 0.064894617
653000000 -0.86867052 0.07461714 0.00057115802 -0.00027229192 -0.00048845424 -0.0011133676 -0.86340332 0.064473741
654000000 -0.868137 0.075082928 -8.1249571e-005 -0.0011199829 5.2759631e-005 -0.0015957518 -0.86549217 0.063867748
655000000 -0.86890936 0.075137384 -0.00082239788 -0.0011220282 -0.00099104794 -0.00038290909 -0.86438715 0.064748287
656000000 -0.86905116 0.075954571 -0.0010371855 -0.0012952981 -0.00019426242 -0.0015749135 -0.86525029 0.064898305
657000000 -0.86852598 0.075678311 -0.0002977456 -0.001471978 -0.00028242645 -0.002792286 -0.86542547 0.064767316
658000000 -0.8686291 0.075382404 -0.00045805759 -0.0015224443 0.00015552329 -0.0008446601 -0.8622731 0.065952733
659000000 -0.86802977 0.075053014 -3.3573266e-005 -0.0019387041 0.00010180743 -0.0015343053 -0.86453038 0.064797871
660000000 -0.86905432 0.076523826 -4.6016557e-005 -0.0017961636 0.00030738639 -0.0015855202 -0.86263591 0.066056304
661000000 -0.86889589 0.07580214 -0.00084717997 -0.00089917431 -0.00083734631 -0.00012055985 -0.86446887 0.063737132
662000000 -0.86883032 0.075411506 0.00026483904 -0.0010764112 -0.00079381128 -0.0015528337 -0.86553025 0.064832918
663000000 -0.86955279 0.075730078 -0.00053938379 -0.0012858689 -0.00035805226 -0.0013836506 -0.86390376 0.064514406
664000000 -0.86769247 0.075627789 0.00027354085 -0.00066029152 6.7720692e-005 -0.0019578135 -0.8645581 0.065162085
665000000 -0.86773622 0.074385017 -0.00079274242 -0.00085554953 -0.00065620779 -0.0012882081 -0.86516482 0.065180346
666000000 -0.86856037 0.073821656 -0.00041896614 -0.0018979133 -0.00084576657 -0.0011297836 -0.86455733 0.065244555
667000000 -0.86797035 0.075266927 8.841711e-005 -0.00088407192 0.00076000387 -0.0006194603 -0.86451215 0.064469635
668000000 -0.86841613 0.076421127 2.6223731e-006 -0.00075638003 -0.00066055439 -0.0013550337 -0.86417496 0.064967841
669000000 -0.86861521 0.074314117 0.00012806935 -0.0016799235 0.00060309359 -0.00018809298 -0.86450863 0.064286046
670000000 -0.86648005 0.075866669 -0.00071980001 -0.0018202066 -0.00056520902 -0.00097953586 -0.86361647 0.066663884
