!Keysight Technologies,M9374A,MY55442783,A.12.55.05
!Date: Wednesday, May 19, 2021 18:09:39
!Correction: S11(Full 2 Port(1,2)) 
!S21(Full 2 Port(1,2)) 
!S12(Full 2 Port(1,2)) 
!S22(Full 2 Port(1,2)) 
!S2P File: Measurements: S11, S21, S12, S22:
# Hz S  RI   R 50
500000000 -0.87003624 0.062791117 0.00045839709 -0.00093453896 0.0013722206 -0.0016670981 -0.86384445 0.054733422
501000000 -0.86976063 0.061859507 5.5675948e-005 -0.0003239715 -0.00027891155 -0.0017695661 -0.86540371 0.054132611
502000000 -0.86969358 0.062433396 -0.00052571349 -0.00098987424 0.00010148047 -0.0012686301 -0.86615068 0.055427816
503000000 -0.86893487 0.063016914 -0.0012578723 -0.0011030227 -0.00019224347 -0.00070215156 -0.86450154 0.055106934
504000000 -0.86969733 0.063962139 0.00030290626 -0.0009681487 -0.000224836 -0.0002769639 -0.86488861 0.05439119
505000000 -0.86926347 0.063404404 -0.0010513181 -8.1126316e-005 -0.0013940441 -0.00052790542 -0.86363095 0.055201292
506000000 -0.86889827 0.063871592 -0.00019712797 -0.0012918811 -0.00038129144 -0.001396641 -0.86338967 0.054592419
507000000 -0.87060428 0.064152144 -0.00036079879 -0.0013681524 8.1766222e-005 -0.0012807227 -0.86480421 0.056591213
508000000 -0.86875892 0.063944846 -0.00090198481 -0.0010422447 -0.00054183987 -0.00079972018 -0.86489367 0.057073474
509000000 -0.86950362 0.064012736 0.00049883121 -0.0010552121 -1.1539307e-005 -0.00070572825 -0.86547768 0.056047238
510000000 -0.86844391 0.063106336 0.00012811614 -0.0020378735 0.00031453584 -0.00076152699 -0.86400461 0.055459693
511000000 -0.86953777 0.064628698 -0.00049520662 -0.0011087497 0.00093433069 -0.00018581793 -0.8657282 0.056480523
512000000 -0.86927921 0.06370797 -0.0007937866 -0.0020134512 -0.0013268428 -0.0017337613 -0.86370993 0.057804484
513000000 -0.86976928 0.061824173 -0.00042710346 -0.0011580267 0.00014519623 -0.0016122403 -0.86416572 0.055199217
514000000 -0.86957657 0.063841254 -0.00049582194 -0.0014273429 0.00089918304 -0.00052441034 -0.86532289 0.057804286
515000000 -0.86859918 0.0655903 0.00022909473 -0.00072273455 0.00036776726 -0.0012217719 -0.86421436 0.056329645
516000000 -0.86889744 0.064500421 -0.00057045423 -0.0022721612 0.00016016995 -0.0011381186 -0.86493289 0.057641093
517000000 -0.86980009 0.066673636 0.00034780015 -0.00099200243 -0.00099324482 -0.00098426 -0.86410087 0.057826422
518000000 -0.86953086 0.065784901 0.00026088292 -0.0010094556 -0.00016770256 -0.0012363648 -0.86489427 0.056929167
519000000 -0.86922854 0.065605074 0.00022436354 -0.0011406719 0.00031001287 -0.00038498311 -0.86292547 0.059561159
520000000 -0.86819786 0.065524593 -0.00037603971 -0.00077581266 -5.0595452e-005 -0.00091319019 -0.8644731 0.058678813
521000000 -0.86906213 0.066063985 8.461994e-005 -0.00084180787 -0.0011798457 -0.001469173 -0.8659901 0.058321208
522000000 -0.87083238 0.066607952 -0.00015053739 -0.0014647499 -0.00069717766 0.00020538284 -0.86460423 0.059081044
523000000 -0.87138617 0.064640582 -0.00076535565 -0.001381714 -9.7071068e-005 -0.0010359886 -0.86571205 0.058592904
524000000 -0.86830878 0.065339543 -0.00018484436 -0.0011711216 -0.00084375351 -0.00085876929 -0.86465454 0.057181846
525000000 -0.86986685 0.066754602 0.00036665561 -0.00056155975 0.0006616413 -0.00084938307 -0.86513752 0.059607647
526000000 -0.86853522 0.065125436 2.3413579e-005 -0.0015860683 -0.00013752472 -0.00091946969 -0.86526781 0.056967694
527000000 -0.86993682 0.066902749 -0.00058584189 -0.0016159877 -0.00023374442 -0.00041467563 -0.86336499 0.057938568
528000000 -0.86828893 0.066440016 -0.0004168929 -0.00096166361 -0.00077418931 -0.00032149084 -0.86307943 0.059081644
529000000 -0.86993736 0.067178175 -0.00016748818 -0.0010828575 0.000305744 0.00014586089 -0.86478645 0.058514711
530000000 -0.86949325 0.067051545 0.00020033965 -0.0023636145 -7.7087461e-006 -0.0014636567 -0.86488611 0.059657246
531000000 -0.87022752 0.06765832 -0.00017699641 -0.0015426653 -0.00077768578 -0.001220045 -0.86418802 0.060235515
532000000 -0.86889029 0.067180865 -0.0004240133 -0.00049809198 0.00013274225 -0.00087383273 -0.86299205 0.060763154
533000000 -0.8684656 0.066219717 -0.0005059322 -0.0010418957 -0.00085926882 -0.00093933183 -0.86395973 0.060079359
534000000 -0.87030262 0.067460023 0.00060962437 -0.0019972054 7.115223e-005 -0.0010719819 -0.86403078 0.059789982
535000000 -0.86885321 0.066033565 -3.3861623e-005 -0.0015574144 -0.00041659022 -0.0014078171 -0.86432296 0.061228592
536000000 -0.8684293 0.06749554 -0.0001370691 -0.0015890915 0.0008705185 -0.0010549105 -0.86502069 0.059149954
537000000 -0.86985099 0.067721434 -0.00029907312 -0.00087421184 0.00070609833 -0.0013982422 -0.86506683 0.059741803
538000000 -0.86853671 0.06752874 -0.00068028603 -0.00076028996 0.00022445701 -0.00041088942 -0.86393797 0.059696771
539000000 -0.86892945 0.067928009 0.00029378058 -0.0017996673 -0.00039527199 -0.00064827612 -0.86555046 0.060794018
540000000 -0.86995679 0.067683265 -0.00034339938 -0.0020815674 -0.00026599757 -0.00088321161 -0.86491561 0.060201958
541000000 -0.86932164 0.069646813 0.00083772081 -0.001443798 -0.00089304033 -0.0018500955 -0.8642571 0.061302908
542000000 -0.86876214 0.068711899 -0.00030382173 -0.00044768726 -0.00011069903 -1.886833e-005 -0.86434644 0.059601977
543000000 -0.86799502 0.068429448 0.00085982808 -0.00086913904 -0.0006639561 -0.00076300051 -0.86447841 0.062947042
544000000 -0.8704862 0.068132162 -0.0012964383 -0.00066714169 -5.4628203e-005 -0.0010180891 -0.86389208 0.0613988
545000000 -0.8714186 0.067676105 -0.00022062153 -0.0016159244 -0.00014959699 -0.0010812239 -0.86368912 0.060524426
546000000 -0.8688181 0.069034547 -5.6996799e-007 -0.00018342458 -0.00043546737 -0.00075242313 -0.86455327 0.062913962
547000000 -0.86878449 0.068139449 -0.00089266 -0.0016655689 0.0012451867 -0.0014935887 -0.86416471 0.061645057
548000000 -0.86950743 0.06811358 -0.00071129046 -0.0031237567 -0.00041188175 -0.00058110338 -0.86422271 0.06075244
549000000 -0.86846995 0.068035945 0.00055594294 -0.0017595431 -0.00060125632 -0.0021720291 -0.86459988 0.062066574
550000000 -0.86866814 0.068314195 -0.0005256249 -0.0020495972 -0.0012038738 -0.00071852474 -0.86485547 0.0608932
551000000 -0.86767048 0.068653837 -0.00056957797 -0.00098543544 -0.00017549927 -0.0014948158 -0.86433333 0.061891418
552000000 -0.86834437 0.068018928 -0.00060152711 -0.0011491581 -0.0006327093 -0.00089627155 -0.86418724 0.062228318
553000000 -0.86994159 0.068960242 0.00016804234 -0.0017363561 -0.00020938518 -0.0006661755 -0.86306989 0.061637647
554000000 -0.86874759 0.068757534 -0.00033287247 -0.0011701878 0.00046679503 -0.00060880504 -0.86439306 0.061874602
555000000 -0.86849403 0.068702176 0.00049941934 -0.00072273513 -0.0007262248 -0.0019653859 -0.86351568 0.061958592
556000000 -0.86866337 0.069098763 9.7122109e-005 -0.0013310219 -0.0005403604 -0.00075529719 -0.86426222 0.062031265
557000000 -0.86863708 0.069025591 -0.00066518725 -0.0006900829 -0.0010439028 -0.0011611122 -0.86412907 0.062632129
558000000 -0.86909074 0.069445051 2.563047e-005 -0.0014779305 -0.001426694 -0.00041187293 -0.8642844 0.06287422
559000000 -0.86984676 0.068925776 -0.00023053297 -0.0019884799 0.00012520688 -0.0014397869 -0.86592203 0.063009374
560000000 -0.86779177 0.070701741 -0.00021355494 -0.0025712617 -0.00052825199 -0.00080270495 -0.8651765 0.061838407
561000000 -0.86831433 0.069587842 -3.8181199e-005 -0.0014278966 -0.00054082694 -0.0012445275 -0.86425942 0.061686166
562000000 -0.8705734 0.07070034 0.00051312603 -0.0013018572 0.00027376661 -0.0014326107 -0.86468297 0.060660899
563000000 -0.86944675 0.070210941 0.0005933271 -0.00038969368 0.00023622502 -0.00092795462 -0.86444622 0.06174127
564000000 -0.86795992 0.069219761 -6.2741856e-005 -0.00097867125 0.00020528902 -0.00099694123 -0.86337221 0.06384775
565000000 -0.86826587 0.069828808 -0.00016559196 -0.0017066941 0.00084643502 -0.0015863876 -0.86524129 0.062192705
566000000 -0.86945599 0.068714403 -0.0010236042 -0.0012408746 0.0005863675 -0.0011874579 -0.86461467 0.063101634
567000000 -0.86915189 0.069877006 -0.00019025593 -0.0012498616 -3.8028877e-005 -0.00083105732 -0.86464494 0.062129229
568000000 -0.86737186 0.068784401 0.00059894333 -0.0014689165 -0.00027387243 -0.0020839099 -0.86391741 0.063492082
569000000 -0.86810464 0.070598498 -8.7113171e-005 -0.0012796236 6.0363156e-005 -0.00083194935 -0.86456931 0.063036762
570000000 -0.86726767 0.068806842 0.00023558168 -0.0021750515 3.4350553e-005 -0.0019594082 -0.8645919 0.063017458
571000000 -0.868779 0.07075654 -0.00040145236 -0.0021555871 8.097415e-006 -0.001343281 -0.86341184 0.063908055
572000000 -0.86708248 0.06903483 -0.00046152328 -0.0010061724 -0.00033308074 -0.0010138007 -0.86362451 0.062672332
573000000 -0.8674562 0.069227472 -0.00019460138 -0.00178392 -0.00084902067 -0.001640228 -0.86562318 0.064464517
574000000 -0.86743188 0.070114851 -0.00023035791 -0.0014089341 0.0001365497 -0.00066373643 -0.86596864 0.06543275
575000000 -0.86809516 0.069861025 0.00055779319 -0.0020501146 -0.00010023795 -0.0010004953 -0.86536545 0.064439617
576000000 -0.86800045 0.072331078 -5.8946076e-005 -0.0015446002 -0.00014162018 -0.00095477572 -0.86453569 0.06227291
577000000 -0.86796737 0.070171244 -0.00086773001 -0.0012288711 -0.00042660683 -0.00056161225 -0.86377615 0.063896164
578000000 -0.86802751 0.068822227 0.00019561044 -0.00030392493 -3.8207374e-005 -0.00058028678 -0.86437815 0.063189603
579000000 -0.86720926 0.070772119 -0.00018301159 -0.00079802872 0.00047588212 -0.0009634918 -0.86379957 0.06362512
580000000 -0.86886168 0.07037057 0.00057027012 -0.00088204211 5.4449021e-005 -0.0021051809 -0.86577851 0.06356255
581000000 -0.86962926 0.071129315 -0.00040375374 -0.002100474 0.00031391362 -0.00077214529 -0.86438984 0.063459761
582000000 -0.86904627 0.071142234 -0.00011347554 -0.001298397 6.5231325e-005 -6.1832012e-005 -0.86323446 0.063908808
583000000 -0.86780071 0.072344363 0.00010211833 -0.00022465343 -4.2142451e-006 -0.0011500537 -0.86586577 0.063742213
584000000 -0.86893755 0.070787556 -0.00038294191 -0.0011999186 0.00030398896 -0.0013854525 -0.86369365 0.063869454
585000000 -0.86830294 0.070971496 -0.00048471102 -0.0015228634 -0.00059208879 -0.00029338759 -0.86337566 0.064459406
586000000 -0.86986268 0.072465166 0.00018052409 -0.001758422 0.00037084072 -0.00073292194 -0.86360902 0.063725434
587000000 -0.86767012 0.072585307 -0.00011925946 -0.0016953932 -0.00035998638 -0.00089559023 -0.86259025 0.063876234
588000000 -0.86741465 0.070099644 -0.00013711507 -0.0019339416 -0.0013780132 -0.0018425982 -0.86382562 0.065196566
589000000 -0.86868304 0.071841739 -0.00036032218 -0.0018904572 -0.00036896698 -0.0028991697 -0.86436528 0.067023516
590000000 -0.86756766 0.072510757 -0.00010612412 -0.0013575063 -0.00032071155 -0.0012782974 -0.86415017 0.06524425
591000000 -0.86660832 0.072655104 -0.000264175 -0.0010675454 -0.00040246092 -0.0016712333 -0.86307317 0.064650767
592000000 -0.86933935 0.072881266 -0.00089951407 -0.00098965794 -6.7459778e-006 -0.0011244252 -0.86376989 0.064374901
593000000 -0.8674891 0.071299627 -9.9386227e-005 -0.00021669891 -0.00032065308 -0.0015198605 -0.86542153 0.063894235
594000000 -0.86764181 0.073524125 -0.00011406771 -0.0016685738 0.0010067584 -0.0011837051 -0.86524606 0.063901067
595000000 -0.86840975 0.073934875 0.00049802387 -0.00054083369 -0.00045627254 -0.00044725233 -0.86529207 0.066098437
596000000 -0.86917788 0.073965602 0.00077261357 -0.0020686288 0.00019117205 -0.00063453213 -0.8632291 0.065161444
597000000 -0.86853004 0.073453739 0.00035642413 -0.0011860202 -0.00024728253 -0.00043539016 -0.86468995 0.064759076
598000000 -0.86730427 0.073515892 -6.4839267e-005 -0.0010072872 -0.00010942196 -0.00011886744 -0.86464429 0.064755075
599000000 -0.86775589 0.072451077 -0.00037583002 -0.00098278024 -0.0009793936 -0.00039212269 -0.86434031 0.064252876
600000000 -0.86760914 0.073825866 -0.00073198089 -0.0016664084 -0.00060977432 -0.00090603222 -0.8647536 0.064291328
601000000 -0.86748683 0.073722281 -0.000443308 -0.0017464414 -0.00066290708 -0.0014883374 -0.86260664 0.067534044
602000000 -0.86960912 0.073600121 -0.00076855224 -0.0014057864 -0.00029174349 -0.00090597075 -0.86474913 0.067087255
603000000 -0.8693409 0.07404796 0.00025969226 -0.0014888302 -0.00034896034 -0.00099541422 -0.86431736 0.066024251
604000000 -0.86710703 0.075763918 -0.00027904162 -0.0014160651 -0.00097821711 -0.0017787744 -0.86248988 0.065836579
605000000 -0.86833107 0.074712239 -5.0800652e-005 -7.6068449e-005 0.00023615464 -0.001266823 -0.86530703 0.065566204
606000000 -0.86820078 0.075764611 -0.00082659774 -0.00080989848 -0.00066464249 -0.00075058156 -0.86369359 0.066067964
607000000 -0.86853522 0.074728183 -0.00056566379 -0.00084687484 -0.00051317905 -0.0028549766 -0.86459082 0.06701687
608000000 -0.86781818 0.074343689 -6.9034402e-005 -0.0010767011 -0.00030451955 -0.0018571442 -0.86467111 0.065964513
609000000 -0.86646461 0.07497853 1.045608e-005 -0.0014907669 -0.00084645877 -0.001152289 -0.8623594 0.066584647
610000000 -0.86683857 0.076083936 5.8655431e-005 -0.001531276 -0.00065610697 -0.0016438618 -0.86434436 0.067567177
611000000 -0.86695004 0.075142153 -0.00031832542 -0.0013820765 -0.00028102333 -0.0015734832 -0.86465687 0.067485578
612000000 -0.86841154 0.075844266 -8.8591863e-005 -0.00079967501 -0.00063861458 -0.0011424137 -0.86327887 0.06723363
613000000 -0.86744231 0.075512111 0.00022807081 -0.0013508628 0.00016804908 -0.0010097311 -0.86296421 0.064664096
614000000 -0.86699337 0.076669365 -0.00067208888 -0.0011903456 -0.00029344062 -0.002253175 -0.86462784 0.067447394
615000000 -0.86825204 0.075235628 0.00029612766 -0.0014733841 -0.00039597441 -0.0015129989 -0.86273462 0.066846356
616000000 -0.86784768 0.077350974 -0.00049125013 -0.0022607055 -0.00076497684 -0.0012711887 -0.86388338 0.068215191
617000000 -0.86687613 0.076269731 -0.00028143069 -0.00080798013 0.00054133422 -0.0019109537 -0.86405486 0.067939192
618000000 -0.86636758 0.07614506 0.00041758359 -0.0016410939 -0.0009992721 -0.0015073254 -0.86420047 0.068330787
619000000 -0.86695111 0.077050686 -0.00077776331 -0.001621654 -0.00047938028 -0.0020882238 -0.86377233 0.068698093
620000000 -0.8667143 0.076481216 -0.00038640318 -0.0011256266 -0.0007665435 -0.00084910361 -0.86331493 0.068821348
621000000 -0.86827952 0.078406632 -0.0013018865 -0.00077154464 -0.00075163745 -0.00090633624 -0.86269581 0.067426838
622000000 -0.86710995 0.076517001 -0.00097499957 -0.0019019772 -0.00067839568 -0.0011863791 -0.86340272 0.070366748
623000000 -0.86667836 0.077333786 -0.00074104278 -0.0019541678 0.00063952815 -0.00084768306 -0.86339575 0.068736494
624000000 -0.86754942 0.076331623 -6.7332454e-005 -0.0015414908 0.00014170104 -0.0011378797 -0.86267239 0.069163114
625000000 -0.86907399 0.078077942 0.001334957 -0.0010788559 0.00075788319 -0.0020328618 -0.86372644 0.06826739
626000000 -0.86879957 0.079303987 -0.000255519 -0.0020656229 -0.00070117193 -0.0022902675 -0.86172593 0.069972232
627000000 -0.86853266 0.077876113 -0.00010120495 -0.0007570982 -0.00077576126 -0.0015491595 -0.8630687 0.067887679
628000000 -0.8681345 0.078733265 -0.00023343861 -0.0014568412 -0.00045169811 -0.0018915493 -0.86477816 0.070310757
629000000 -0.86914217 0.079802915 0.0012590886 -0.0016653435 -0.0015508765 -0.0010315686 -0.86291325 0.070494629
630000000 -0.86737096 0.079390787 -0.00077654381 -0.00079296099 0.0011466972 -0.00090377266 -0.86226094 0.07001517
631000000 -0.86780781 0.079268731 0.00035012001 -0.0014727173 -0.00066725875 -0.00072283734 -0.86327648 0.069984183
632000000 -0.86761349 0.079282492 0.00031142452 3.2437667e-005 -0.0003166458 -0.0017147111 -0.86349022 0.069359548
633000000 -0.86892593 0.07836549 -0.00070214522 -0.0012389822 -0.00074818992 -0.00060170813 -0.86331588 0.068830341
634000000 -0.86697048 0.080047742 0.00083248672 -0.0011359387 -0.00080334011 -0.00061424758 -0.86415988 0.07002838
635000000 -0.86775708 0.07879255 -0.00012668804 -0.0016817055 -9.4046613e-005 -0.0007880482 -0.86364555 0.068810433
636000000 -0.86658311 0.079573527 -0.00024149159 -0.0014271435 0.0004061216 -0.0005626037 -0.86367935 0.069811285
637000000 -0.8664639 0.079864189 -0.000374436 -0.0013244845 -0.00050684303 -0.00072784297 -0.86235058 0.069698602
638000000 -0.86742455 0.079711363 -0.00033714264 -0.0027970006 -0.00027176752 -0.0013564634 -0.8640759 0.070166104
639000000 -0.86653227 0.082975008 -0.00063423259 -0.001452251 -0.0012551813 -0.00049296062 -0.86435962 0.070520952
640000000 -0.8654266 0.081478149 -3.5254314e-005 -0.0015260072 0.0001731362 -0.00061256805 -0.86306965 0.070423603
641000000 -0.86481053 0.080176145 0.00056078838 -0.0013994891 -9.179776e-005 -0.0019631656 -0.8637805 0.069987871
642000000 -0.86560744 0.082680918 -0.00011514177 -0.001340278 -0.00025057312 -0.001446497 -0.86216778 0.071851268
643000000 -0.86601824 0.080846332 -0.00033748362 -0.0020986826 -0.00043304867 -0.0014093607 -0.86308575 0.070593417
644000000 -0.86661905 0.081529327 -0.00078163313 -0.0015176821 -6.582075e-005 -0.0024642376 -0.86483681 0.070427231
645000000 -0.86645716 0.081077427 0.00013055807 -0.0012138011 -0.0011518359 -0.0017259746 -0.8629933 0.070606135
646000000 -0.86627746 0.081847936 -0.00053437368 -0.0016688397 -0.00082776148 -0.00081219501 -0.86431175 0.073248938
647000000 -0.86788952 0.080500878 -0.00027069048 -0.0013582096 -0.00012058777 -0.00030055168 -0.86251122 0.07126075
648000000 -0.8659901 0.081772655 -0.00028083843 -0.0010417213 -2.1592259e-005 -0.0012647335 -0.86400795 0.072924383
649000000 -0.86706406 0.081982769 -0.00031526928 -0.0012488152 0.0002186675 -0.00078488467 -0.86329472 0.071668223
650000000 -0.86652327 0.082148671 -0.00040917046 -0.0012862773 -0.00038645513 -0.0013119052 -0.86291337 0.073008582
651000000 -0.8670333 0.082859017 -0.00027488815 -0.00045825721 -0.0012982005 -0.0014390631 -0.86296606 0.071902625
652000000 -0.8675074 0.082396209 -0.00081986008 -0.00097847206 0.00026895883 -0.0016354403 -0.86292952 0.071918495
653000000 -0.86728883 0.083077617 -0.00091547926 -0.0010219318 0.00062967942 -0.0009440704 -0.86254072 0.071131445
654000000 -0.86656106 0.083556138 0.0011042277 -0.0018472675 0.0004299499 -0.001954257 -0.86344934 0.072852232
655000000 -0.86689311 0.083346523 -0.00052001997 -0.0005983655 3.5523175e-005 -0.0014049665 -0.86453563 0.073109411
656000000 -0.86534244 0.084172405 -0.00038803896 -0.0015713401 0.001042795 -0.00083692669 -0.86202586 0.072797313
657000000 -0.86643577 0.08441861 0.00036912953 -0.00054828741 0.0014573863 -0.0022290896 -0.86325252 0.072818935
658000000 -0.86724424 0.083613284 0.00037092756 -0.0007973676 0.00076173659 -0.0017729959 -0.86210746 0.071205512
659000000 -0.86720449 0.083116218 0.00010215832 -0.0017733008 -3.7654598e-005 -0.0010250837 -0.8613084 0.072739236
660000000 -0.86641449 0.083843768 -0.00058175094 -0.0018598567 4.2451207e-005 -0.0017748955 -0.86241245 0.071771502
661000000 -0.86559004 0.084715761 -0.00063334336 -0.0011434795 -0.00032136517 -0.00051549368 -0.8627196 0.072230659
662000000 -0.86626828 0.083162032 -0.00066548219 -0.0021488708 -0.00036927901 -0.00081019243 -0.86516327 0.072579801
663000000 -0.86571288 0.084582284 0.00099059346 -0.00067522994 -0.00054761255 -0.0011711409 -0.86318707 0.073437668
664000000 -0.86753488 0.082779206 -0.00044364296 -0.0018418446 -0.00024881875 -0.0021000942 -0.86274034 0.072537169
665000000 -0.86783117 0.085428655 -7.1935466e-007 -0.0016382267 -0.00075851148 -0.00060215255 -0.86250567 0.074242666
666000000 -0.86770177 0.083225735 0.00071185967 -0.0009835728 -0.00028007082 -0.0019059308 -0.8633427 0.073008873
667000000 -0.86486453 0.083552629 0.00022280986 -0.00081222603 -0.00014901714 -0.0027080234 -0.86283094 0.073727064
668000000 -0.86672503 0.083205178 0.00036358455 -0.0016237135 -0.0005068765 -0.0016265326 -0.86301023 0.073366806
669000000 -0.86709654 0.084079221 -0.00015503599 -0.0015402234 -0.00049029262 -0.0017905127 -0.86135817 0.072376311
670000000 -0.86810166 0.083969064 -3.5774763e-005 -0.00049260404 -0.00029757162 -0.00069103314 -0.86428928 0.073335774
