!Keysight Technologies,M9374A,MY55442783,A.12.55.05
!Date: Wednesday, May 19, 2021 18:12:52
!Correction: S11(Full 2 Port(1,2)) 
!S21(Full 2 Port(1,2)) 
!S12(Full 2 Port(1,2)) 
!S22(Full 2 Port(1,2)) 
!S2P File: Measurements: S11, S21, S12, S22:
# Hz S  RI   R 50
500000000 -0.87038004 0.059320115 2.2178052e-005 -0.00071284233 -0.00019132688 -0.0010726643 -0.86540407 0.052968003
501000000 -0.87006348 0.062253132 -0.00086218887 -0.001109308 0.00044094567 -0.00080961385 -0.86580265 0.052520033
502000000 -0.86960816 0.06060981 0.00035019056 -0.00071073277 2.1515314e-005 -0.0017395604 -0.8653239 0.052842576
503000000 -0.86965162 0.06122138 -0.00098540937 -0.00084419403 -0.000549877 -0.0011140585 -0.86670887 0.05284198
504000000 -0.86815339 0.061008804 -0.00057612959 -0.00066521886 0.00041781826 -0.0011555623 -0.86711514 0.053411018
505000000 -0.87024426 0.060744189 0.00077635219 -0.00078664924 0.00013933037 -0.00055547926 -0.86537087 0.053041179
506000000 -0.87004107 0.061392225 -0.00014932503 -0.00043323822 -0.0005235413 -0.0025972847 -0.86429709 0.054467767
507000000 -0.86884809 0.061968137 -0.00046758034 -0.0011028534 -0.0012066462 -0.001047002 -0.86534792 0.053583547
508000000 -0.87011218 0.060901243 0.00076691841 -0.0011350557 -0.00052954862 -0.0017999719 -0.86508709 0.055739366
509000000 -0.87067145 0.063107625 5.1690702e-005 -0.0011269388 0.00032969896 -0.00052634126 -0.86541569 0.05325783
510000000 -0.86824763 0.063551292 -0.00051704072 -0.00093774655 0.0013992088 -0.0010654206 -0.86454368 0.053950753
511000000 -0.86876279 0.063214362 -0.00058993977 -0.0010603161 -4.7510373e-005 -0.0015643636 -0.86520141 0.055430938
512000000 -0.86947995 0.062405597 -0.0010675836 -0.00086547574 -0.00047609082 -0.0016884378 -0.86479855 0.053796317
513000000 -0.86999732 0.062494595 -0.00052543217 -0.0020177634 -0.00089000014 -0.0017310501 -0.86475748 0.056706689
514000000 -0.8696183 0.063471802 0.00022591131 -0.0009330808 0.00026745719 -0.0018668722 -0.86611176 0.055795997
515000000 -0.86887604 0.061863113 7.0928516e-005 -0.0012785053 -6.6620174e-005 -0.0011477744 -0.86531657 0.056103181
516000000 -0.87100989 0.062676892 -0.00054450479 6.7857254e-005 0.001155121 -0.002594712 -0.86527824 0.054873075
517000000 -0.87006038 0.063471377 0.001000255 -0.00044783825 5.4661698e-005 -0.00089171273 -0.86502182 0.055153646
518000000 -0.87115175 0.065086409 -0.00086151209 -0.001521781 0.00015257695 -0.0025233922 -0.86594015 0.056380976
519000000 -0.87022477 0.063489601 0.00039419002 -0.00040626843 -7.3188276e-005 -0.00082397554 -0.86620182 0.056037053
520000000 -0.86849743 0.064097866 0.0007677949 -0.001337381 0.00076577341 -0.00070064422 -0.86479056 0.056277256
521000000 -0.8698898 0.063968807 -1.2751228e-005 -0.00054121041 8.8117769e-005 -0.0013348277 -0.86616576 0.056675319
522000000 -0.86918533 0.06241218 -0.00048581467 -0.0011122662 -0.00082126528 -0.0017137299 -0.86490959 0.057448633
523000000 -0.86867553 0.063017428 0.001162198 -0.0010624883 3.3163156e-005 -0.0013557539 -0.86602336 0.057029974
524000000 -0.86862564 0.065061547 1.0603628e-005 -0.00053227798 -0.0013187313 -0.00067644491 -0.86421579 0.057177905
525000000 -0.86859804 0.063356653 -7.3640549e-005 -0.00085580809 0.00012413695 -0.00064354722 -0.86488318 0.057431366
526000000 -0.87050837 0.065045021 -0.00061119808 -0.00098578725 0.00059436302 -0.0012856541 -0.86643881 0.057789057
527000000 -0.8709603 0.065549389 -0.00048872316 -0.0019659286 -6.3786124e-006 -0.00090932904 -0.86448926 0.056764673
528000000 -0.86966765 0.06486468 0.00019431328 -0.00060363533 0.00047655229 -0.0018926578 -0.86302435 0.058227252
529000000 -0.8700915 0.06549526 -0.001187916 -0.0019830002 0.00011025488 -0.0015220051 -0.86294019 0.057645161
530000000 -0.86958838 0.064395405 0.0010553473 -0.0015049879 -0.00083787111 -0.00097369449 -0.86542761 0.057706848
531000000 -0.87129682 0.063755155 -0.00080210424 -0.0010526007 0.00069698441 -0.0022476688 -0.86374992 0.05751529
532000000 -0.86954528 0.06448666 0.00026914544 -0.0018251353 -0.00060030288 -0.0018484326 -0.86670089 0.057140775
533000000 -0.8703441 0.06625329 -0.00046775816 -0.00052230956 0.000902272 -0.001565062 -0.86341435 0.057738114
534000000 -0.8679148 0.063549727 -0.0010307108 -0.0012201653 0.00034784709 -0.00091976329 -0.86413896 0.055851061
535000000 -0.86935735 0.065232962 -0.00099869247 -0.00047426025 -0.00025196077 -0.00096521078 -0.86314648 0.058564663
536000000 -0.86938101 0.0663433 -0.00082951045 -0.00046028354 5.2163283e-005 -0.0014916505 -0.86501735 0.05735679
537000000 -0.87100124 0.065249071 0.00030566417 -0.00062912185 0.00038089577 -0.0011434359 -0.8633011 0.059514996
538000000 -0.8691023 0.066747762 0.00034574134 -0.00022770723 -0.00070173311 -0.00092874927 -0.8650648 0.059296064
539000000 -0.86888212 0.065518595 0.00032578994 -7.7809091e-005 -0.00043909624 -0.0017560393 -0.86458212 0.058079425
540000000 -0.8703804 0.067143075 -0.00026282799 -0.0020492976 0.00029496141 -0.0013374545 -0.864353 0.058786415
541000000 -0.8690052 0.066770114 -0.00031919725 -0.00081555027 -0.00061687262 -0.00048149441 -0.86644119 0.059070565
542000000 -0.86975622 0.066085607 0.00048597861 -0.0012796568 0.00062516582 -0.0013284797 -0.86490709 0.058622412
543000000 -0.8686083 0.064106233 -0.00067641551 -0.00046624674 -0.00071064284 -0.00021685766 -0.86467701 0.059226476
544000000 -0.87069243 0.066309735 0.00051275146 -0.001653048 0.0008042269 -0.00039481441 -0.86548418 0.058222346
545000000 -0.87135899 0.066789545 0.00031759267 -0.00089308422 -0.00024007814 -0.0013661595 -0.86577225 0.060709313
546000000 -0.8679173 0.067311831 0.00012557888 -0.001775966 0.0002889871 -0.00052966829 -0.86523283 0.05844406
547000000 -0.86934423 0.067531571 -0.0016741239 -0.0010239144 0.00030116457 -0.00096795103 -0.86481279 0.059355192
548000000 -0.86911476 0.066756606 -0.00048152637 -0.0014123891 -0.00033439434 -0.0012249993 -0.86365807 0.059640743
549000000 -0.86933768 0.066585377 0.0004332925 -0.0012486544 0.00015519245 -0.0010813007 -0.86498755 0.059271883
550000000 -0.86955231 0.067689173 -0.00096461014 -0.0010533249 0.00036019529 -0.0017128588 -0.86491674 0.060202971
551000000 -0.86852825 0.067270614 -0.00032703902 -0.00055882835 -0.00058895408 -0.0014634803 -0.86355335 0.058322418
552000000 -0.87115699 0.065694958 -0.00039542883 -0.0012612266 0.00018176353 -0.0010270223 -0.86345732 0.060577314
553000000 -0.86841148 0.065991588 -0.00089933031 -0.0013782226 -0.0015523005 -0.0011511076 -0.86402178 0.059435513
554000000 -0.86933386 0.066904612 -0.00014702741 -0.00054853753 -0.00083690789 -0.0017419555 -0.86441052 0.059344605
555000000 -0.86834794 0.067177065 0.0003444342 -0.00084516377 0.00032023201 -0.0011820333 -0.86617869 0.059654824
556000000 -0.86929756 0.066719294 -0.00018033596 -0.0016781627 -0.00011991213 -0.0022020333 -0.86613196 0.059745394
557000000 -0.86926574 0.066567287 -0.00035246633 -0.0015096567 0.00035504944 -0.0016244586 -0.8647992 0.061704744
558000000 -0.86954713 0.068234138 -0.00025355667 -0.0015560352 9.8940567e-005 -0.00078876992 -0.8650105 0.059469894
559000000 -0.86835766 0.067715913 0.00014349795 -0.0017157111 -0.00069691107 -0.00091842801 -0.8647148 0.061647668
560000000 -0.86944544 0.06740839 -0.00015906447 -0.00076514913 0.00032061071 -0.00015693714 -0.86457074 0.06007706
561000000 -0.86874872 0.068024375 0.00068467035 -0.00067981222 -0.00077014061 -0.0012006895 -0.8633793 0.059452239
562000000 -0.87060148 0.067256287 0.00039892772 -0.0012975184 0.00052174449 -0.0009838409 -0.86441791 0.061423421
563000000 -0.86861396 0.067272484 -0.00075643155 -0.0016073291 -0.00013139955 -0.00034761755 -0.86513597 0.06151982
564000000 -0.86878228 0.065957271 -0.00015062306 -0.0012785045 0.00042197783 -0.00078385713 -0.86455119 0.061329074
565000000 -0.8691054 0.066921994 0.00017505785 -0.0010713778 0.00045520827 -0.0016446456 -0.8644762 0.06097893
566000000 -0.86930865 0.066218838 -0.00091002294 -0.0013937752 -0.00084144587 -0.00052850542 -0.86502004 0.060653061
567000000 -0.8686071 0.068163723 -0.00087155448 -0.0010950678 -0.00091740355 -0.0008626504 -0.8648209 0.062417354
568000000 -0.86884028 0.068860918 -0.00014313399 -0.0010538343 -5.6678036e-005 -0.0011423946 -0.86513692 0.062099144
569000000 -0.86980313 0.068068065 -0.00049919361 -0.0008561624 -0.00020867657 -0.0010530053 -0.86563277 0.059725888
570000000 -0.86875874 0.067250967 0.00055599195 -0.00088624918 6.8836387e-005 -0.0017136115 -0.86435622 0.06013798
571000000 -0.8689546 0.066937223 6.810065e-005 -0.0015924221 -0.00099195598 -0.00098664837 -0.86539173 0.060071334
572000000 -0.86656028 0.066659078 -2.5299136e-005 -0.00048893841 0.00012544096 -0.0013236587 -0.86452538 0.060999662
573000000 -0.8708989 0.067492701 -0.00058885617 -0.0017019479 -0.00062294601 -0.0010299197 -0.86461174 0.061545398
574000000 -0.86898845 0.067966491 -0.00053286192 -0.001295157 0.00046107819 -0.0013176433 -0.86482316 0.061362918
575000000 -0.86992419 0.069173045 -0.00021236909 -0.0014629661 0.00098352355 -0.001241694 -0.86631781 0.061096329
576000000 -0.86816722 0.06926091 -0.00037170484 -0.00032148286 -0.0011327931 -0.0021094757 -0.86511338 0.062586352
577000000 -0.87001795 0.069309577 -0.0003614717 -0.0020437362 -0.00093462714 -0.0011952703 -0.86427313 0.060556468
578000000 -0.86837441 0.068603672 -0.00065527431 -0.00038733627 -0.0002442546 -0.00060515868 -0.86502248 0.06268777
579000000 -0.86861748 0.068466701 -0.00087829342 -0.0010668801 0.00065124501 -0.0012348546 -0.86505693 0.06201043
580000000 -0.86876643 0.068007588 -0.0012559554 -0.0017721957 0.00076480542 4.1205854e-005 -0.86544627 0.063116431
581000000 -0.86944562 0.068415195 -0.00018110311 -0.0012763777 -0.0003929231 -0.0016754431 -0.86490464 0.061865542
582000000 -0.86821383 0.068600915 -0.0004447196 0.00055136852 -0.00035149622 -0.00017738715 -0.86470872 0.061242644
583000000 -0.86797857 0.069024794 -4.9355554e-006 -0.002150201 -0.00034721295 -0.0015453986 -0.86256814 0.062259573
584000000 -0.86867279 0.069108658 -0.00024479398 -0.0014545951 0.00012667692 -0.00095751649 -0.86299753 0.063532665
585000000 -0.8689732 0.0689843 -5.52132e-006 -0.00064185262 -0.0013797818 -0.0016009986 -0.86543739 0.061891675
586000000 -0.86894804 0.068547413 -0.00072096987 -0.0013071923 0.00028152409 -0.0011557908 -0.86474329 0.061208572
587000000 -0.86839849 0.069411345 -0.00089808111 -0.00024267167 -0.00046127508 -0.0011897108 -0.86426902 0.062959753
588000000 -0.86721897 0.069720447 -0.00061100355 -0.001613141 -0.00053601194 -0.0010659933 -0.86558354 0.062027037
589000000 -0.86757934 0.071004391 -0.0006964035 -0.0001637618 -0.0003642893 -0.0015466316 -0.86425704 0.062614001
590000000 -0.86803973 0.070791125 -0.00045175778 -0.0015564983 -0.00057176437 -0.00200687 -0.86380506 0.062789403
591000000 -0.86901367 0.069668703 -0.00039238471 -0.00042533205 0.00011605259 -0.00097346294 -0.86251253 0.06313394
592000000 -0.86933297 0.070978716 -0.0018274289 -0.00047564393 -0.00053424732 -0.0010220886 -0.86435246 0.06297607
593000000 -0.86902571 0.069395423 -0.00037666396 -0.0016859028 0.0010288197 -0.0022822411 -0.86555409 0.063283697
594000000 -0.86800152 0.070819624 0.00053443963 -0.0019201565 0.00028783042 -0.0011193231 -0.86574572 0.062395837
595000000 -0.87050515 0.071667232 0.00056705473 -0.00087280187 0.00023098427 -0.00088371075 -0.86493313 0.062819056
596000000 -0.86747342 0.069846712 0.0001895153 -0.00054285984 0.00059927301 -0.001798135 -0.86501247 0.063319348
597000000 -0.86783195 0.070735961 -1.3727335e-005 -0.0011536098 -8.1446691e-005 -0.0023492351 -0.86301631 0.063654959
598000000 -0.86828226 0.07109873 -7.9326019e-005 -0.0015977259 -0.00052114727 -0.00082239165 -0.8650974 0.063287616
599000000 -0.86855459 0.069979094 -0.00041719474 -0.0021935762 3.7983315e-005 -0.0015624561 -0.86520237 0.065088801
600000000 -0.86822325 0.072905086 0.00011862471 -0.0014243027 -2.8789929e-005 -0.0016023846 -0.86410224 0.063177876
601000000 -0.86916971 0.070651561 -0.0007912814 -0.0017441517 -0.00021819319 -0.0012457881 -0.86486655 0.064323753
602000000 -0.86817306 0.070744008 -0.00087778235 -0.00070587406 -0.00021291731 -0.0002803416 -0.86383474 0.063061126
603000000 -0.86951315 0.073114656 -0.00023435953 -0.00089061144 8.8284389e-005 -0.0014421123 -0.86425537 0.062722594
604000000 -0.86853707 0.07180012 0.00083945465 -0.0015231681 -0.00028639438 -0.00035481085 -0.86452645 0.064124793
605000000 -0.8688131 0.072962381 0.00029365928 -0.00065856235 -0.00036045557 -0.0012235475 -0.86410373 0.066413291
606000000 -0.86816412 0.070879683 -0.0010238312 -0.0014903691 -0.00049865246 -0.00099251652 -0.86395365 0.06533131
607000000 -0.86852342 0.074027047 -0.00020682585 -0.0011976293 0.0001437022 -0.00080791052 -0.86351621 0.064178728
608000000 -0.86750025 0.073406324 -2.860303e-005 -0.0018417671 0.00082596752 -0.0010815717 -0.86334693 0.063616663
609000000 -0.8678844 0.07181333 -0.00038690603 -0.00062340393 0.0011794128 -0.00089071848 -0.86261803 0.064158961
610000000 -0.86797822 0.073998556 -0.00078280747 -0.0015860439 -0.00036112816 -0.0012015075 -0.86233526 0.065527759
611000000 -0.86817193 0.07365264 0.00021292947 -0.0019122291 -2.5785637e-005 -0.00058544596 -0.86362404 0.064564399
612000000 -0.86811477 0.076144859 -0.00058396155 -0.00027746987 -0.00037063658 -0.001564085 -0.86554259 0.063412949
613000000 -0.86851615 0.074019611 -0.00018820883 -0.00044947737 -0.0006339504 -0.0016061093 -0.86456454 0.065747224
614000000 -0.86819553 0.074777968 -0.00027440241 -0.0018521938 -3.559922e-005 -0.00042970278 -0.86416698 0.06578926
615000000 -0.8672868 0.072722919 -0.00023917666 -0.001119767 0.00053746748 -0.0017319679 -0.86502492 0.065988004
616000000 -0.8676644 0.073568694 -0.00053402723 -0.0013181174 -0.00016584602 -0.0022997588 -0.8628301 0.065378338
617000000 -0.86773765 0.074284382 0.00082335231 -0.00087539904 -0.0008674573 -0.0010012381 -0.86430526 0.067697883
618000000 -0.86820894 0.073463194 -0.00027753506 -0.00079029956 -0.0005695225 -0.0013022647 -0.86495823 0.064468481
619000000 -0.86887681 0.073969081 -0.00045122355 -0.0010821307 7.2249473e-005 -0.0008718035 -0.86445826 0.066811204
620000000 -0.86800307 0.07528428 -5.1407365e-005 -0.0014017847 -0.001212467 -0.0011631991 -0.86376238 0.066731408
621000000 -0.86987054 0.074470125 0.00026875109 -0.0031905116 -0.00067761599 -0.0016459425 -0.8629154 0.06714838
622000000 -0.86811012 0.075178303 -4.0184772e-005 -0.0013207353 -0.00093594473 -0.0027869772 -0.86459529 0.066584781
623000000 -0.86685264 0.075560823 1.6123942e-005 -0.0020596455 -0.00095343281 -0.00098018523 -0.86423844 0.066637106
624000000 -0.86756986 0.076679349 -0.00031610753 -0.0010275838 0.00051772466 -0.00078576762 -0.86313969 0.067363396
625000000 -0.86657095 0.076984644 0.00075331534 -0.0019966091 -9.9812598e-005 -0.0015448214 -0.86383456 0.06476412
626000000 -0.86763608 0.076988094 -0.0010643365 -0.0018652715 -0.0010452541 -0.00070477615 -0.86452359 0.06793993
627000000 -0.8690443 0.076822236 -0.00020118552 -0.0014789937 0.00028448997 -0.0014460267 -0.86334252 0.066773273
628000000 -0.8681854 0.076059155 -0.00016348936 -0.0016836583 -0.0011301803 -0.0010744967 -0.86271012 0.066756129
629000000 -0.86819851 0.075492501 0.00059073808 -0.0013587272 0.00061536481 -0.00090499502 -0.86589432 0.067951158
630000000 -0.8676247 0.076469958 0.00091758242 -0.00062212447 -0.00015286829 -0.00097470445 -0.86384219 0.069278926
631000000 -0.86814535 0.077787489 -0.00063059927 -0.0011127703 -0.00049257814 -0.00092101027 -0.8633287 0.066135943
632000000 -0.86871237 0.077912971 -0.0012460736 -0.0025738575 -0.00013413622 -0.0010293642 -0.86283541 0.067499921
633000000 -0.86762297 0.076086648 -0.00046175288 -0.0014326381 -4.2541578e-005 -0.00063879526 -0.86249501 0.066463768
634000000 -0.86798787 0.078531675 -0.00043755828 -0.0011308495 -0.0012686779 -0.00098344008 -0.86385244 0.066766538
635000000 -0.86744404 0.076247625 0.00023505221 -0.0014660052 -0.00065726275 -0.0017133217 -0.86271042 0.066740528
636000000 -0.86760253 0.075685516 -0.00036120063 -0.0011357188 -0.00084517518 -0.0016729713 -0.86333472 0.066827409
637000000 -0.86728764 0.077883892 -4.3713673e-005 -0.001907707 1.723732e-005 -0.0014713621 -0.86199641 0.068784334
638000000 -0.86739397 0.079286553 -0.00030078681 -0.0016287208 -0.00064774725 -0.0018151777 -0.8633855 0.069261469
639000000 -0.86815858 0.078027248 0.00037167789 -0.0018660609 -0.00072336063 -0.0016125765 -0.86513019 0.068925217
640000000 -0.86686313 0.077645957 -7.4286254e-005 -0.00098320807 -0.00095221371 -0.0010138154 -0.86489177 0.067153312
641000000 -0.86707914 0.077874035 5.5743298e-005 -0.0015438695 0.00032393009 -0.001556849 -0.86281508 0.069174558
642000000 -0.86841291 0.079425186 0.00093416177 -0.0013765052 -0.00029575088 -0.0012137993 -0.8637588 0.068030439
643000000 -0.86650515 0.078851171 0.0002488553 -0.0021039369 0.00011430339 -0.0019648464 -0.86297315 0.068188481
644000000 -0.86814088 0.078382932 -3.4706194e-005 -0.0014083476 -0.0001805787 -0.0013865762 -0.86423385 0.069449395
645000000 -0.86774641 0.079610512 -0.00034040801 -0.0024113867 -0.00020970429 -0.001276852 -0.86509299 0.069506906
646000000 -0.86631322 0.0783078 -6.5686065e-005 -0.0013378522 0.00051377813 -0.00071700296 -0.86263543 0.06831494
647000000 -0.86818939 0.079161711 7.9335099e-005 -0.00070084888 0.00026822835 -0.0010821575 -0.86391294 0.068935275
648000000 -0.8669104 0.079536192 -0.00013980671 -0.001546503 0.00010102895 -0.0007071718 -0.86276251 0.068880998
649000000 -0.86601359 0.08045914 -0.00030403977 -0.00091026077 -0.00025108331 -0.0013539642 -0.8623966 0.069729552
650000000 -0.86746198 0.078146055 -0.00096174201 -0.001621571 -1.2439177e-006 -0.0011883769 -0.86280257 0.068590268
651000000 -0.86698705 0.0790236 -0.00047447777 -0.00098976062 -0.00010835993 -0.00035593717 -0.86451876 0.068909526
652000000 -0.86725456 0.078343794 0.00048221234 -0.0022857916 -0.00057326705 -0.0020036702 -0.86334419 0.070834063
653000000 -0.86814129 0.080180138 -0.00045944564 -0.0018950955 0.00025839685 -0.0014601917 -0.86462611 0.07003779
654000000 -0.86611092 0.080014475 -0.00030494641 -0.0013791205 7.8848199e-005 -0.001274053 -0.86325562 0.069659956
655000000 -0.86684853 0.080385678 0.00062687584 -0.0012933853 -0.00031971608 -0.00048807217 -0.8627755 0.070065998
656000000 -0.8682248 0.080763668 0.00055289059 -0.001810057 -0.00076972443 -0.0019204314 -0.86190307 0.069731057
657000000 -0.867181 0.081250191 0.00059050997 -0.0010961746 -0.00071651186 -0.00064482808 -0.86390978 0.070466258
658000000 -0.86759835 0.079659611 -8.4582236e-005 -0.0010651095 -0.00012640163 -0.00066293747 -0.86422974 0.070217185
659000000 -0.86780208 0.080739416 -0.001368618 -0.0012313053 -0.00063480076 -0.00089770375 -0.86441481 0.070007317
660000000 -0.86845756 0.081690185 0.00047662496 -0.0015552845 -0.00018620249 -0.0023904801 -0.86228651 0.069124207
661000000 -0.86651623 0.080682583 -0.00083147379 -0.0010980804 -0.00060632708 -0.0010085171 -0.86290163 0.070015736
662000000 -0.86760324 0.080716334 -3.1992204e-005 -0.0010566522 0.00040779312 -0.00049533922 -0.86395365 0.071069621
663000000 -0.86701488 0.081250533 -2.3174312e-005 -0.0014007465 -0.0015726072 -0.0015470906 -0.86340052 0.071266234
664000000 -0.86805028 0.079606928 -0.00027450724 -0.00067917682 0.00077379902 -0.0012038506 -0.86480492 0.070355371
665000000 -0.86602277 0.082026996 0.0002748289 -0.0013535757 0.00030484679 -0.00016295828 -0.86421478 0.071451351
666000000 -0.86786485 0.082332999 -0.00016332678 -0.0013134137 -0.00056111452 -0.00099752599 -0.86409104 0.070393793
667000000 -0.8670615 0.08027713 5.0518043e-005 -0.0022612726 5.24756e-005 -0.0012759365 -0.86311096 0.069948278
668000000 -0.86699069 0.081870735 -0.00047764624 -0.0011858776 -0.00016237958 -0.0015171689 -0.86471307 0.070440359
669000000 -0.86789834 0.081282921 -0.00078527018 -0.0013876596 -0.00098996458 -0.0014751446 -0.86187959 0.069181703
670000000 -0.86878479 0.079664864 0.00025245757 -0.0012630782 7.6140896e-005 -0.0015318125 -0.86364573 0.071346156
