Frequency	 |S11|	 Phase(S11)	 ExtPh(S11)	 |S21|	 Phase(S21)	 ExtPh(S21)	 |S12|	 Phase(S12)	 ExtPh(S12)	 |S22|	 Phase(S22)	 ExtPh(S22) 
5.000000e-001	-7.336065e-001	-2.165624e+000	-2.165624e+000	-6.095923e+001	-8.206822e+001	-8.206822e+001	-5.790228e+001	7.399841e+001	7.399841e+001	-5.555316e-001	-1.760260e+000	-1.760260e+000	
5.010000e-001	-7.466263e-001	-2.162790e+000	-2.162790e+000	-6.121146e+001	5.738848e+001	5.738848e+001	-5.789819e+001	-7.626773e+001	1.037323e+002	-5.582635e-001	-1.861784e+000	-1.861784e+000	
5.020000e-001	-7.429165e-001	-2.289976e+000	-2.289976e+000	-5.501332e+001	7.486636e+001	7.486636e+001	-5.420785e+001	-5.232906e+001	1.276709e+002	-5.380828e-001	-1.887083e+000	-1.887083e+000	
5.030000e-001	-7.539374e-001	-2.222771e+000	-2.222771e+000	-5.766593e+001	5.196678e+001	5.196678e+001	-5.417963e+001	7.967056e+001	2.596706e+002	-5.486662e-001	-1.881288e+000	-1.881288e+000	
5.040000e-001	-7.544978e-001	-2.267857e+000	-2.267857e+000	-5.923525e+001	-7.928333e+001	-7.928333e+001	-6.321841e+001	-4.816624e+001	1.318338e+002	-5.706067e-001	-1.880599e+000	-1.880599e+000	
5.050000e-001	-7.352585e-001	-2.225090e+000	-2.225090e+000	-6.214814e+001	3.067052e+001	3.067052e+001	-5.945775e+001	8.588751e+001	2.658875e+002	-5.710966e-001	-1.882972e+000	-1.882972e+000	
5.060000e-001	-7.498314e-001	-2.246901e+000	-2.246901e+000	-5.551896e+001	-8.441080e+001	-8.441080e+001	-5.640777e+001	-8.579986e+001	2.742001e+002	-5.670493e-001	-1.856455e+000	-1.856455e+000	
5.070000e-001	-7.464877e-001	-2.231847e+000	-2.231847e+000	-7.049949e+001	-8.906671e+001	-8.906671e+001	-5.585634e+001	-6.760649e+001	2.923935e+002	-5.516187e-001	-1.818044e+000	-1.818044e+000	
5.080000e-001	-7.419897e-001	-2.295661e+000	-2.295661e+000	-5.304256e+001	8.204115e+001	-9.795885e+001	-5.296534e+001	7.670572e+001	2.567057e+002	-5.434482e-001	-1.917124e+000	-1.917124e+000	
5.090000e-001	-7.460877e-001	-2.342766e+000	-2.342766e+000	-5.148581e+001	7.285686e+001	-1.071431e+002	-5.562811e+001	-8.891227e+001	2.710877e+002	-5.591667e-001	-1.927014e+000	-1.927014e+000	
5.100000e-001	-7.262427e-001	-2.276726e+000	-2.276726e+000	-5.221542e+001	7.571741e+001	-1.042826e+002	-5.977425e+001	8.255584e+001	2.625558e+002	-5.608798e-001	-1.892086e+000	-1.892086e+000	
5.110000e-001	-7.469010e-001	-2.314706e+000	-2.314706e+000	-6.002392e+001	-8.944580e+001	-8.944580e+001	-5.434552e+001	-7.582298e+001	2.841770e+002	-5.671850e-001	-2.003851e+000	-2.003851e+000	
5.120000e-001	-7.445691e-001	-2.193438e+000	-2.193438e+000	-5.472696e+001	7.486688e+001	-1.051331e+002	-5.819730e+001	-7.517025e+001	2.848297e+002	-5.573750e-001	-2.026606e+000	-2.026606e+000	
5.130000e-001	-7.500802e-001	-2.286391e+000	-2.286391e+000	-6.374181e+001	8.409211e+001	-9.590789e+001	-5.436592e+001	8.805494e+001	2.680549e+002	-5.670700e-001	-1.803907e+000	-1.803907e+000	
5.140000e-001	-7.365953e-001	-2.274936e+000	-2.274936e+000	-5.650355e+001	-7.132043e+001	-7.132043e+001	-5.904133e+001	-5.896161e+001	3.010384e+002	-5.375640e-001	-1.907534e+000	-1.907534e+000	
5.150000e-001	-7.490181e-001	-2.175807e+000	-2.175807e+000	-5.431962e+001	2.976656e+001	2.976656e+001	-5.915286e+001	3.939715e+001	3.993971e+002	-5.474902e-001	-1.979298e+000	-1.979298e+000	
5.160000e-001	-7.425698e-001	-2.306700e+000	-2.306700e+000	-6.020555e+001	7.193122e+001	7.193122e+001	-5.219704e+001	-6.697509e+001	2.930249e+002	-5.601462e-001	-1.895142e+000	-1.895142e+000	
5.170000e-001	-7.434275e-001	-2.381501e+000	-2.381501e+000	-5.914482e+001	-6.773300e+001	-6.773300e+001	-6.082106e+001	-7.546626e+001	2.845337e+002	-5.620837e-001	-1.930252e+000	-1.930252e+000	
5.180000e-001	-7.391344e-001	-2.306807e+000	-2.306807e+000	-5.181930e+001	6.050657e+001	6.050657e+001	-5.505876e+001	-4.546525e+001	3.145347e+002	-5.436551e-001	-1.888961e+000	-1.888961e+000	
5.190000e-001	-7.336337e-001	-2.235658e+000	-2.235658e+000	-5.406471e+001	8.940336e+001	8.940336e+001	-5.613085e+001	-5.123434e+001	3.087657e+002	-5.573711e-001	-1.976044e+000	-1.976044e+000	
5.200000e-001	-7.513108e-001	-2.354961e+000	-2.354961e+000	-5.267700e+001	-7.899664e+001	1.010034e+002	-5.493982e+001	8.693771e+001	4.469377e+002	-5.589760e-001	-1.984346e+000	-1.984346e+000	
5.210000e-001	-7.400310e-001	-2.395620e+000	-2.395620e+000	-5.948669e+001	-6.341052e+001	1.165895e+002	-5.236937e+001	6.908971e+001	4.290897e+002	-5.555038e-001	-2.005080e+000	-2.005080e+000	
5.220000e-001	-7.246104e-001	-2.342319e+000	-2.342319e+000	-5.578762e+001	5.054596e+001	2.305460e+002	-5.362518e+001	-8.466285e+001	4.553371e+002	-5.565067e-001	-1.972139e+000	-1.972139e+000	
5.230000e-001	-7.406134e-001	-2.285797e+000	-2.285797e+000	-5.140149e+001	-8.544506e+001	9.455494e+001	-5.325330e+001	-7.289695e+001	4.671031e+002	-5.611425e-001	-1.915619e+000	-1.915619e+000	
5.240000e-001	-7.447385e-001	-2.442390e+000	-2.442390e+000	-6.165382e+001	8.482431e+001	8.482431e+001	-6.259488e+001	-7.897072e+001	4.610293e+002	-5.521097e-001	-2.077222e+000	-2.077222e+000	
5.250000e-001	-7.354327e-001	-2.437806e+000	-2.437806e+000	-5.492187e+001	-7.455430e+001	1.054457e+002	-6.191796e+001	6.425090e+001	4.242509e+002	-5.451661e-001	-2.088903e+000	-2.088903e+000	
5.260000e-001	-7.393651e-001	-2.407968e+000	-2.407968e+000	-6.116879e+001	4.780616e+001	2.278062e+002	-5.702896e+001	8.142858e+001	4.414286e+002	-5.535011e-001	-1.953099e+000	-1.953099e+000	
5.270000e-001	-7.396275e-001	-2.423923e+000	-2.423923e+000	-5.854364e+001	8.037959e+001	2.603796e+002	-6.051076e+001	3.623072e+001	3.962307e+002	-5.589465e-001	-2.038873e+000	-2.038873e+000	
5.280000e-001	-7.382283e-001	-2.419097e+000	-2.419097e+000	-5.285312e+001	7.635513e+001	2.563551e+002	-5.503851e+001	6.608283e+001	4.260828e+002	-5.569252e-001	-1.910480e+000	-1.910480e+000	
5.290000e-001	-7.358562e-001	-2.452104e+000	-2.452104e+000	-5.827082e+001	8.056593e+001	2.605659e+002	-5.515408e+001	-8.972528e+001	4.502747e+002	-5.587508e-001	-2.020692e+000	-2.020692e+000	
5.300000e-001	-7.408192e-001	-2.326767e+000	-2.326767e+000	-5.814832e+001	-8.167072e+001	2.783293e+002	-5.815821e+001	6.978210e+001	4.297821e+002	-5.573309e-001	-1.994933e+000	-1.994933e+000	
5.310000e-001	-7.415439e-001	-2.345084e+000	-2.345084e+000	-5.401444e+001	-6.585127e+001	2.941487e+002	-5.176667e+001	-5.843524e+001	3.015648e+002	-5.620622e-001	-1.953782e+000	-1.953782e+000	
5.320000e-001	-7.368820e-001	-2.279866e+000	-2.279866e+000	-5.793559e+001	7.529158e+001	2.552916e+002	-6.136926e+001	7.799259e+001	4.379926e+002	-5.536114e-001	-2.033195e+000	-2.033195e+000	
5.330000e-001	-7.501096e-001	-2.313394e+000	-2.313394e+000	-5.688174e+001	-6.784253e+001	2.921575e+002	-5.774864e+001	5.703495e+001	4.170349e+002	-5.597303e-001	-2.033478e+000	-2.033478e+000	
5.340000e-001	-7.343881e-001	-2.330442e+000	-2.330442e+000	-5.205850e+001	-5.685847e+001	3.031415e+002	-6.114325e+001	5.692100e+001	4.169210e+002	-5.572820e-001	-2.045494e+000	-2.045494e+000	
5.350000e-001	-7.442305e-001	-2.389759e+000	-2.389759e+000	-5.647843e+001	-8.360158e+001	2.763984e+002	-5.109988e+001	8.996001e+001	4.499600e+002	-5.723102e-001	-2.063231e+000	-2.063231e+000	
5.360000e-001	-7.450117e-001	-2.386484e+000	-2.386484e+000	-5.449990e+001	-8.298072e+001	2.770193e+002	-6.135925e+001	6.887359e+001	4.288736e+002	-5.786245e-001	-2.026802e+000	-2.026802e+000	
5.370000e-001	-7.475943e-001	-2.467717e+000	-2.467717e+000	-6.057102e+001	6.075398e+001	2.407540e+002	-6.183370e+001	8.922987e+001	4.492299e+002	-5.552368e-001	-2.016647e+000	-2.016647e+000	
5.380000e-001	-7.399056e-001	-2.427451e+000	-2.427451e+000	-5.457736e+001	5.947221e+001	2.394722e+002	-5.086103e+001	7.494452e+001	4.349445e+002	-5.571926e-001	-1.992778e+000	-1.992778e+000	
5.390000e-001	-7.458595e-001	-2.468405e+000	-2.468405e+000	-5.675769e+001	6.800931e+001	2.480093e+002	-5.308260e+001	7.413567e+001	4.341357e+002	-5.612126e-001	-2.007892e+000	-2.007892e+000	
5.400000e-001	-7.430551e-001	-2.356638e+000	-2.356638e+000	-6.710607e+001	-7.719984e+001	2.828002e+002	-5.841756e+001	-5.782566e+001	3.021743e+002	-5.600386e-001	-2.111630e+000	-2.111630e+000	
5.410000e-001	-7.479424e-001	-2.469071e+000	-2.469071e+000	-5.303785e+001	5.439192e+001	4.143919e+002	-5.362403e+001	-8.128138e+001	2.787186e+002	-5.552035e-001	-2.116212e+000	-2.116212e+000	
5.420000e-001	-7.384115e-001	-2.281120e+000	-2.281120e+000	-5.580709e+001	5.461123e+001	4.146112e+002	-5.478170e+001	-8.855403e+001	2.714460e+002	-5.598025e-001	-1.957040e+000	-1.957040e+000	
5.430000e-001	-7.430392e-001	-2.345960e+000	-2.345960e+000	-6.341083e+001	-6.674156e+001	2.932584e+002	-5.596057e+001	6.771986e+001	2.477199e+002	-5.454451e-001	-2.017055e+000	-2.017055e+000	
5.440000e-001	-7.350180e-001	-2.461060e+000	-2.461060e+000	-5.579610e+001	-8.048221e+001	2.795178e+002	-5.952055e+001	6.551031e+001	2.455103e+002	-5.606463e-001	-2.142184e+000	-2.142184e+000	
5.450000e-001	-7.526086e-001	-2.381107e+000	-2.381107e+000	-5.900892e+001	8.555055e+001	2.655505e+002	-5.455766e+001	6.984834e+001	2.498483e+002	-5.488356e-001	-2.040556e+000	-2.040556e+000	
5.460000e-001	-7.515813e-001	-2.465048e+000	-2.465048e+000	-5.461389e+001	-7.535971e+001	2.846403e+002	-5.911964e+001	-7.517460e+001	2.848254e+002	-5.558331e-001	-2.025025e+000	-2.025025e+000	
5.470000e-001	-7.480447e-001	-2.431545e+000	-2.431545e+000	-5.719725e+001	-6.016116e+001	2.998388e+002	-5.388730e+001	-7.343909e+001	2.865609e+002	-5.433948e-001	-2.149220e+000	-2.149220e+000	
5.480000e-001	-7.434447e-001	-2.369696e+000	-2.369696e+000	-5.529388e+001	-8.366997e+001	2.763300e+002	-6.436387e+001	-6.647593e+001	2.935241e+002	-5.568968e-001	-2.107743e+000	-2.107743e+000	
5.490000e-001	-7.346117e-001	-2.472665e+000	-2.472665e+000	-5.738659e+001	6.541739e+001	2.454174e+002	-5.587692e+001	8.613647e+001	2.661365e+002	-5.750378e-001	-2.168138e+000	-2.168138e+000	
5.500000e-001	-7.513629e-001	-2.408432e+000	-2.408432e+000	-5.947976e+001	6.794747e+001	2.479475e+002	-6.087113e+001	-5.681329e+001	3.031867e+002	-5.503704e-001	-2.116486e+000	-2.116486e+000	
5.510000e-001	-7.493244e-001	-2.393275e+000	-2.393275e+000	-5.897798e+001	-8.145205e+001	2.785480e+002	-5.576039e+001	6.774280e+001	4.277428e+002	-5.464769e-001	-2.116350e+000	-2.116350e+000	
5.520000e-001	-7.372562e-001	-2.351231e+000	-2.351231e+000	-5.332784e+001	7.165349e+001	2.516535e+002	-5.583289e+001	-6.880287e+001	2.911971e+002	-5.519223e-001	-2.134517e+000	-2.134517e+000	
5.530000e-001	-7.441509e-001	-2.423529e+000	-2.423529e+000	-5.718490e+001	7.954960e+001	2.595496e+002	-5.696157e+001	-8.734222e+001	2.726578e+002	-5.712301e-001	-2.087010e+000	-2.087010e+000	
5.540000e-001	-7.265430e-001	-2.364833e+000	-2.364833e+000	-5.562976e+001	8.071612e+001	2.607161e+002	-5.544202e+001	6.825822e+001	2.482582e+002	-5.619821e-001	-2.035417e+000	-2.035417e+000	
5.550000e-001	-7.399234e-001	-2.463848e+000	-2.463848e+000	-5.378196e+001	7.804751e+001	2.580475e+002	-5.495299e+001	2.994539e+001	2.099454e+002	-5.657120e-001	-2.066145e+000	-2.066145e+000	
5.560000e-001	-7.417440e-001	-2.442634e+000	-2.442634e+000	-5.850769e+001	7.351844e+001	2.535184e+002	-5.554003e+001	6.972904e+001	2.497290e+002	-5.536296e-001	-2.171876e+000	-2.171876e+000	
5.570000e-001	-7.340064e-001	-2.463445e+000	-2.463445e+000	-5.425757e+001	-8.203486e+001	2.779651e+002	-6.105281e+001	-6.764991e+001	1.123501e+002	-5.562857e-001	-2.163957e+000	-2.163957e+000	
5.580000e-001	-7.315551e-001	-2.404111e+000	-2.404111e+000	-5.788268e+001	8.845687e+001	2.684569e+002	-5.894056e+001	3.699602e+001	2.169960e+002	-5.598921e-001	-2.093482e+000	-2.093482e+000	
5.590000e-001	-7.407467e-001	-2.484428e+000	-2.484428e+000	-5.417158e+001	8.645243e+001	2.664524e+002	-5.174675e+001	7.670313e+001	2.567031e+002	-5.476969e-001	-2.095039e+000	-2.095039e+000	
5.600000e-001	-7.592991e-001	-2.490750e+000	-2.490750e+000	-5.395678e+001	-6.107678e+001	2.989232e+002	-5.518693e+001	-7.807780e+001	2.819222e+002	-5.514127e-001	-2.133841e+000	-2.133841e+000	
5.610000e-001	-7.368434e-001	-2.454607e+000	-2.454607e+000	-5.464788e+001	8.961190e+001	2.696119e+002	-5.153011e+001	7.333819e+001	2.533382e+002	-5.459022e-001	-2.022147e+000	-2.022147e+000	
5.620000e-001	-7.459133e-001	-2.463797e+000	-2.463797e+000	-5.778927e+001	7.391758e+001	2.539176e+002	-5.612371e+001	5.039682e+001	2.303968e+002	-5.514605e-001	-2.135157e+000	-2.135157e+000	
5.630000e-001	-7.392159e-001	-2.459848e+000	-2.459848e+000	-5.592635e+001	8.426476e+001	2.642648e+002	-6.158728e+001	-6.553351e+001	1.144665e+002	-5.518939e-001	-2.148098e+000	-2.148098e+000	
5.640000e-001	-7.430426e-001	-2.352216e+000	-2.352216e+000	-5.251288e+001	8.517778e+001	2.651778e+002	-5.882259e+001	-8.633876e+001	9.366124e+001	-5.458595e-001	-2.073875e+000	-2.073875e+000	
5.650000e-001	-7.356106e-001	-2.412641e+000	-2.412641e+000	-5.236940e+001	7.855593e+001	2.585559e+002	-5.457143e+001	5.134805e+001	2.313480e+002	-5.585037e-001	-2.078745e+000	-2.078745e+000	
5.660000e-001	-7.532119e-001	-2.405833e+000	-2.405833e+000	-5.412648e+001	-6.436618e+001	2.956338e+002	-5.819377e+001	7.455170e+001	2.545517e+002	-5.492421e-001	-2.125669e+000	-2.125669e+000	
5.670000e-001	-7.487481e-001	-2.412657e+000	-2.412657e+000	-5.258430e+001	6.075626e+001	4.207563e+002	-5.247370e+001	6.192321e+001	2.419232e+002	-5.684953e-001	-2.084671e+000	-2.084671e+000	
5.680000e-001	-7.498488e-001	-2.477353e+000	-2.477353e+000	-5.639481e+001	8.458124e+001	4.445812e+002	-5.495288e+001	8.388426e+001	2.638843e+002	-5.664950e-001	-2.066644e+000	-2.066644e+000	
5.690000e-001	-7.424891e-001	-2.496830e+000	-2.496830e+000	-5.295474e+001	8.281517e+001	4.428152e+002	-5.607078e+001	8.572508e+001	2.657251e+002	-5.664126e-001	-2.126517e+000	-2.126517e+000	
5.700000e-001	-7.436573e-001	-2.574084e+000	-2.574084e+000	-6.966959e+001	-7.157685e+000	3.528423e+002	-5.762617e+001	8.632430e+001	2.663243e+002	-5.561424e-001	-1.998797e+000	-1.998797e+000	
5.710000e-001	-7.377194e-001	-2.428421e+000	-2.428421e+000	-5.231509e+001	7.638703e+001	4.363870e+002	-5.538788e+001	-8.338221e+001	2.766178e+002	-5.529168e-001	-2.167935e+000	-2.167935e+000	
5.720000e-001	-7.436298e-001	-2.356072e+000	-2.356072e+000	-5.825416e+001	6.964795e+001	4.296479e+002	-5.205435e+001	5.465912e+001	4.146591e+002	-5.626503e-001	-2.112752e+000	-2.112752e+000	
5.730000e-001	-7.346700e-001	-2.430407e+000	-2.430407e+000	-5.499157e+001	-7.939498e+001	4.606050e+002	-5.292645e+001	7.948940e+001	4.394894e+002	-5.625419e-001	-2.235215e+000	-2.235215e+000	
5.740000e-001	-7.533569e-001	-2.461917e+000	-2.461917e+000	-5.763437e+001	8.047156e+001	4.404716e+002	-5.584778e+001	-7.927634e+001	4.607237e+002	-5.572609e-001	-2.125965e+000	-2.125965e+000	
5.750000e-001	-7.412885e-001	-2.451538e+000	-2.451538e+000	-5.405687e+001	8.313719e+001	4.431372e+002	-5.516362e+001	7.324530e+001	4.332453e+002	-5.494213e-001	-2.171494e+000	-2.171494e+000	
5.760000e-001	-7.412579e-001	-2.488146e+000	-2.488146e+000	-5.296825e+001	8.114852e+001	4.411485e+002	-5.251508e+001	-5.359042e+001	3.064096e+002	-5.528938e-001	-2.144299e+000	-2.144299e+000	
5.770000e-001	-7.583477e-001	-2.463098e+000	-2.463098e+000	-5.732221e+001	5.145536e+001	4.114554e+002	-5.321967e+001	8.956987e+001	2.695699e+002	-5.520865e-001	-2.126941e+000	-2.126941e+000	
5.780000e-001	-7.466747e-001	-2.541249e+000	-2.541249e+000	-6.412580e+001	-6.040976e+001	2.995902e+002	-5.282558e+001	6.460224e+001	2.446022e+002	-5.695340e-001	-2.096970e+000	-2.096970e+000	
5.790000e-001	-7.472749e-001	-2.490908e+000	-2.490908e+000	-5.403322e+001	8.347819e+001	2.634782e+002	-5.495461e+001	6.311057e+001	2.431106e+002	-5.596066e-001	-2.063513e+000	-2.063513e+000	
5.800000e-001	-7.428502e-001	-2.392016e+000	-2.392016e+000	-5.468316e+001	-8.096975e+001	2.790303e+002	-5.363189e+001	7.271166e+001	2.527117e+002	-5.623898e-001	-2.155144e+000	-2.155144e+000	
5.810000e-001	-7.489772e-001	-2.445980e+000	-2.445980e+000	-5.564356e+001	6.651084e+001	2.465108e+002	-5.208094e+001	7.068350e+001	2.506835e+002	-5.637611e-001	-2.078719e+000	-2.078719e+000	
5.820000e-001	-7.426151e-001	-2.500141e+000	-2.500141e+000	-6.407329e+001	-7.924358e+001	2.807564e+002	-6.662174e+001	-7.500190e+001	2.849981e+002	-5.455593e-001	-2.212658e+000	-2.212658e+000	
5.830000e-001	-7.479327e-001	-2.552855e+000	-2.552855e+000	-5.224147e+001	7.380071e+001	2.538007e+002	-5.623817e+001	7.142096e+001	2.514210e+002	-5.584686e-001	-2.157732e+000	-2.157732e+000	
5.840000e-001	-7.409809e-001	-2.407664e+000	-2.407664e+000	-5.827044e+001	6.709081e+001	2.470908e+002	-6.420950e+001	-7.865171e+001	2.813483e+002	-5.486902e-001	-2.095651e+000	-2.095651e+000	
5.850000e-001	-7.454782e-001	-2.446993e+000	-2.446993e+000	-6.010273e+001	6.803909e+001	2.480391e+002	-5.295775e+001	4.216510e+001	4.021651e+002	-5.580424e-001	-2.170216e+000	-2.170216e+000	
5.860000e-001	-7.338837e-001	-2.465317e+000	-2.465317e+000	-5.703930e+001	6.118308e+001	2.411831e+002	-5.213140e+001	7.553557e+001	4.355356e+002	-5.460571e-001	-2.259331e+000	-2.259331e+000	
5.870000e-001	-7.568459e-001	-2.415300e+000	-2.415300e+000	-5.575437e+001	-8.458890e+001	2.754111e+002	-5.369315e+001	7.496462e+001	4.349646e+002	-5.437337e-001	-2.128219e+000	-2.128219e+000	
5.880000e-001	-7.505265e-001	-2.489178e+000	-2.489178e+000	-5.193632e+001	6.204946e+001	2.420495e+002	-5.221226e+001	7.205849e+001	4.320585e+002	-5.646244e-001	-2.109369e+000	-2.109369e+000	
5.890000e-001	-7.412689e-001	-2.467275e+000	-2.467275e+000	-5.748119e+001	8.922833e+001	2.692283e+002	-5.527476e+001	-7.326218e+001	4.667378e+002	-5.685462e-001	-2.208672e+000	-2.208672e+000	
5.900000e-001	-7.597740e-001	-2.489588e+000	-2.489588e+000	-5.855167e+001	7.581728e+001	2.558173e+002	-5.266372e+001	7.795129e+001	4.379513e+002	-5.661685e-001	-2.081696e+000	-2.081696e+000	
5.910000e-001	-7.448312e-001	-2.541981e+000	-2.541981e+000	-5.310360e+001	7.132745e+001	2.513275e+002	-5.300491e+001	-4.732241e+001	3.126776e+002	-5.589536e-001	-2.216152e+000	-2.216152e+000	
5.920000e-001	-7.482861e-001	-2.510916e+000	-2.510916e+000	-5.346808e+001	8.500867e+001	2.650087e+002	-5.597252e+001	6.966841e+001	4.296684e+002	-5.527655e-001	-2.143168e+000	-2.143168e+000	
5.930000e-001	-7.413000e-001	-2.467102e+000	-2.467102e+000	-5.080677e+001	-8.169793e+001	2.783021e+002	-5.818022e+001	5.164227e+001	4.116423e+002	-5.448641e-001	-2.144654e+000	-2.144654e+000	
5.940000e-001	-7.397546e-001	-2.570953e+000	-2.570953e+000	-5.821551e+001	6.523945e+001	2.452395e+002	-5.555055e+001	3.495583e+001	3.949558e+002	-5.514161e-001	-2.241830e+000	-2.241830e+000	
5.950000e-001	-7.477156e-001	-2.580000e+000	-2.580000e+000	-5.866156e+001	-4.885029e+001	1.311497e+002	-5.064259e+001	4.151105e+001	4.015111e+002	-5.658133e-001	-2.174976e+000	-2.174976e+000	
5.960000e-001	-7.445603e-001	-2.402470e+000	-2.402470e+000	-5.567231e+001	-6.768581e+001	1.123142e+002	-5.283626e+001	7.832197e+001	4.383220e+002	-5.380017e-001	-2.148188e+000	-2.148188e+000	
5.970000e-001	-7.442586e-001	-2.469378e+000	-2.469378e+000	-5.636722e+001	-7.858965e+001	1.014104e+002	-5.324232e+001	-6.457148e+001	4.754285e+002	-5.554508e-001	-2.047907e+000	-2.047907e+000	
5.980000e-001	-7.373429e-001	-2.540971e+000	-2.540971e+000	-5.349167e+001	6.384102e+001	6.384102e+001	-5.613107e+001	8.150218e+001	4.415022e+002	-5.673483e-001	-2.194974e+000	-2.194974e+000	
5.990000e-001	-7.530100e-001	-2.530155e+000	-2.530155e+000	-5.579551e+001	7.568801e+001	7.568801e+001	-5.599841e+001	6.049750e+001	4.204975e+002	-5.699633e-001	-2.047159e+000	-2.047159e+000	
6.000000e-001	-7.484757e-001	-2.481118e+000	-2.481118e+000	-5.163924e+001	8.384825e+001	8.384825e+001	-5.195196e+001	5.226283e+001	4.122628e+002	-5.633872e-001	-2.025316e+000	-2.025316e+000	
6.010000e-001	-7.424735e-001	-2.569530e+000	-2.569530e+000	-5.817436e+001	-8.971014e+001	9.028986e+001	-5.933417e+001	-8.515235e+001	2.748476e+002	-5.559473e-001	-2.111705e+000	-2.111705e+000	
6.020000e-001	-7.399743e-001	-2.590420e+000	-2.590420e+000	-5.841806e+001	7.458108e+001	7.458108e+001	-5.256694e+001	7.185744e+001	2.518574e+002	-5.438730e-001	-2.181245e+000	-2.181245e+000	
