Frequency	 |S11|	 Phase(S11)	 ExtPh(S11)	 |S21|	 Phase(S21)	 ExtPh(S21)	 |S12|	 Phase(S12)	 ExtPh(S12)	 |S22|	 Phase(S22)	 ExtPh(S22) 
5.000000e-001	-6.470627e-001	-2.286164e+000	-2.286164e+000	-6.287718e+001	8.702909e+001	8.702909e+001	-5.529853e+001	6.757624e+001	6.757624e+001	-5.728797e-001	-1.839415e+000	-1.839415e+000	
5.010000e-001	-6.318138e-001	-2.345765e+000	-2.345765e+000	-5.954814e+001	-8.927838e+001	9.072162e+001	-5.242015e+001	7.927888e+001	7.927888e+001	-5.918809e-001	-1.804222e+000	-1.804222e+000	
5.020000e-001	-6.370259e-001	-2.250204e+000	-2.250204e+000	-5.190992e+001	-8.826093e+001	9.173907e+001	-5.425367e+001	8.153099e+001	8.153099e+001	-5.782965e-001	-1.908496e+000	-1.908496e+000	
5.030000e-001	-6.368279e-001	-2.309981e+000	-2.309981e+000	-5.523565e+001	-6.515035e+001	1.148497e+002	-5.116639e+001	-8.359297e+001	9.640703e+001	-5.882611e-001	-1.886206e+000	-1.886206e+000	
5.040000e-001	-6.522139e-001	-2.270656e+000	-2.270656e+000	-6.643346e+001	-1.885826e+001	1.611417e+002	-5.334426e+001	-7.406547e+001	1.059345e+002	-5.567451e-001	-1.901398e+000	-1.901398e+000	
5.050000e-001	-6.317267e-001	-2.281653e+000	-2.281653e+000	-5.725121e+001	6.561310e+001	2.456131e+002	-5.537261e+001	5.388977e+001	2.338898e+002	-5.770789e-001	-1.927844e+000	-1.927844e+000	
5.060000e-001	-6.336595e-001	-2.204264e+000	-2.204264e+000	-5.342695e+001	-8.533723e+001	2.746628e+002	-5.743093e+001	-7.567710e+001	1.043229e+002	-5.714520e-001	-1.832406e+000	-1.832406e+000	
5.070000e-001	-6.563343e-001	-2.290784e+000	-2.290784e+000	-5.548590e+001	-7.893344e+001	2.810666e+002	-5.647133e+001	-8.576092e+001	9.423908e+001	-5.740926e-001	-1.887872e+000	-1.887872e+000	
5.080000e-001	-6.392024e-001	-2.270050e+000	-2.270050e+000	-6.623674e+001	-3.329396e+001	3.267060e+002	-5.330239e+001	6.979503e+001	6.979503e+001	-5.807789e-001	-1.955409e+000	-1.955409e+000	
5.090000e-001	-6.352922e-001	-2.314599e+000	-2.314599e+000	-5.348172e+001	8.932276e+001	4.493228e+002	-6.217777e+001	7.701005e+001	7.701005e+001	-5.589542e-001	-1.967170e+000	-1.967170e+000	
5.100000e-001	-6.464204e-001	-2.330978e+000	-2.330978e+000	-5.285792e+001	-8.477926e+001	4.552207e+002	-5.208209e+001	-8.792322e+001	9.207678e+001	-5.790219e-001	-1.961802e+000	-1.961802e+000	
5.110000e-001	-6.303428e-001	-2.440739e+000	-2.440739e+000	-5.771300e+001	-6.956839e+001	4.704316e+002	-6.261659e+001	3.453173e+001	2.145317e+002	-5.915278e-001	-2.016408e+000	-2.016408e+000	
5.120000e-001	-6.431685e-001	-2.293869e+000	-2.293869e+000	-5.381994e+001	-8.887912e+001	4.511209e+002	-5.631627e+001	-7.460473e+001	1.053953e+002	-5.696475e-001	-1.966747e+000	-1.966747e+000	
5.130000e-001	-6.503761e-001	-2.372478e+000	-2.372478e+000	-5.600638e+001	-8.420401e+001	4.557960e+002	-5.105962e+001	8.052465e+001	8.052465e+001	-5.666843e-001	-1.964938e+000	-1.964938e+000	
5.140000e-001	-6.507121e-001	-2.357971e+000	-2.357971e+000	-5.354914e+001	6.802027e+001	4.280203e+002	-5.660612e+001	6.780983e+001	6.780983e+001	-5.836360e-001	-1.905891e+000	-1.905891e+000	
5.150000e-001	-6.452586e-001	-2.352547e+000	-2.352547e+000	-5.539605e+001	-8.239590e+001	4.576041e+002	-5.546192e+001	8.441163e+001	8.441163e+001	-5.733434e-001	-1.966615e+000	-1.966615e+000	
5.160000e-001	-6.244969e-001	-2.336498e+000	-2.336498e+000	-5.502793e+001	-8.183644e+001	4.581636e+002	-5.230421e+001	6.230820e+001	6.230820e+001	-5.828603e-001	-1.877803e+000	-1.877803e+000	
5.170000e-001	-6.565776e-001	-2.295530e+000	-2.295530e+000	-5.914965e+001	6.416557e+001	4.241656e+002	-5.152097e+001	4.696207e+001	4.696207e+001	-5.765431e-001	-1.957118e+000	-1.957118e+000	
5.180000e-001	-6.479615e-001	-2.236717e+000	-2.236717e+000	-5.967694e+001	4.838094e+001	4.083809e+002	-5.955475e+001	-4.455418e+001	-4.455418e+001	-5.724493e-001	-1.811918e+000	-1.811918e+000	
5.190000e-001	-6.311233e-001	-2.323054e+000	-2.323054e+000	-5.809429e+001	8.605572e+001	4.460557e+002	-5.756946e+001	-5.629400e+001	-5.629400e+001	-5.713551e-001	-2.059885e+000	-2.059885e+000	
5.200000e-001	-6.524627e-001	-2.279140e+000	-2.279140e+000	-5.787834e+001	-5.818939e+001	4.818106e+002	-5.861506e+001	8.308285e+001	8.308285e+001	-5.788228e-001	-1.970258e+000	-1.970258e+000	
5.210000e-001	-6.433005e-001	-2.353866e+000	-2.353866e+000	-5.463923e+001	4.164454e+001	5.816445e+002	-5.345839e+001	5.551511e+001	5.551511e+001	-5.844182e-001	-2.073303e+000	-2.073303e+000	
5.220000e-001	-6.253405e-001	-2.420147e+000	-2.420147e+000	-5.388793e+001	6.717309e+001	6.071731e+002	-5.393256e+001	7.726312e+001	7.726312e+001	-5.820081e-001	-2.029528e+000	-2.029528e+000	
5.230000e-001	-6.369970e-001	-2.308410e+000	-2.308410e+000	-6.018054e+001	6.473055e+001	6.047305e+002	-5.773166e+001	7.462932e+001	7.462932e+001	-5.760804e-001	-2.024134e+000	-2.024134e+000	
5.240000e-001	-6.160324e-001	-2.415732e+000	-2.415732e+000	-5.712349e+001	5.022442e+001	5.902244e+002	-5.689288e+001	-6.829783e+001	1.117022e+002	-5.826551e-001	-2.087896e+000	-2.087896e+000	
5.250000e-001	-6.373645e-001	-2.381242e+000	-2.381242e+000	-5.256706e+001	5.922183e+001	5.992218e+002	-5.413472e+001	-6.930160e+001	1.106984e+002	-5.820793e-001	-1.921000e+000	-1.921000e+000	
5.260000e-001	-6.519444e-001	-2.430210e+000	-2.430210e+000	-5.467540e+001	3.768102e+001	5.776810e+002	-5.641577e+001	6.965125e+001	2.496513e+002	-5.698106e-001	-2.062101e+000	-2.062101e+000	
5.270000e-001	-6.469746e-001	-2.304233e+000	-2.304233e+000	-5.638470e+001	8.823685e+001	6.282369e+002	-5.574096e+001	7.283506e+001	2.528351e+002	-5.756897e-001	-2.062185e+000	-2.062185e+000	
5.280000e-001	-6.459854e-001	-2.366632e+000	-2.366632e+000	-5.321045e+001	5.500758e+001	5.950076e+002	-5.577720e+001	8.859365e+001	2.685936e+002	-5.812983e-001	-2.085219e+000	-2.085219e+000	
5.290000e-001	-6.415613e-001	-2.452791e+000	-2.452791e+000	-5.921857e+001	8.761541e+001	6.276154e+002	-6.895604e+001	-5.444370e+001	3.055563e+002	-5.892958e-001	-2.098311e+000	-2.098311e+000	
5.300000e-001	-6.371190e-001	-2.389668e+000	-2.389668e+000	-5.545657e+001	8.765762e+001	6.276576e+002	-5.723173e+001	5.981104e+001	4.198110e+002	-5.807149e-001	-2.020621e+000	-2.020621e+000	
5.310000e-001	-6.352074e-001	-2.330471e+000	-2.330471e+000	-5.797015e+001	-6.778348e+001	6.522165e+002	-5.545951e+001	-8.648914e+001	4.535109e+002	-5.668916e-001	-2.111718e+000	-2.111718e+000	
5.320000e-001	-6.438400e-001	-2.508301e+000	-2.508301e+000	-5.599650e+001	7.996048e+001	6.199605e+002	-5.777637e+001	7.269533e+001	4.326953e+002	-5.685071e-001	-2.167286e+000	-2.167286e+000	
5.330000e-001	-6.349499e-001	-2.343087e+000	-2.343087e+000	-5.337345e+001	6.182363e+001	6.018236e+002	-5.785501e+001	6.449127e+001	4.244913e+002	-5.813482e-001	-2.065453e+000	-2.065453e+000	
5.340000e-001	-6.552251e-001	-2.425659e+000	-2.425659e+000	-5.559242e+001	8.477328e+001	6.247733e+002	-5.544467e+001	7.004016e+001	4.300402e+002	-5.741374e-001	-2.107463e+000	-2.107463e+000	
5.350000e-001	-6.457546e-001	-2.470067e+000	-2.470067e+000	-5.741500e+001	-8.374611e+001	6.362539e+002	-5.704931e+001	-7.683769e+001	4.631623e+002	-5.846927e-001	-2.009567e+000	-2.009567e+000	
5.360000e-001	-6.445958e-001	-2.463429e+000	-2.463429e+000	-5.970751e+001	-7.923295e+001	6.407671e+002	-5.637419e+001	-7.691403e+001	4.630860e+002	-5.958684e-001	-2.099101e+000	-2.099101e+000	
5.370000e-001	-6.391145e-001	-2.495129e+000	-2.495129e+000	-5.914328e+001	7.626077e+001	6.162608e+002	-6.261279e+001	3.850696e+001	5.785070e+002	-5.908501e-001	-2.225047e+000	-2.225047e+000	
5.380000e-001	-6.446071e-001	-2.491147e+000	-2.491147e+000	-5.686075e+001	7.711688e+001	6.171169e+002	-5.259830e+001	7.356444e+001	6.135644e+002	-5.870376e-001	-2.135543e+000	-2.135543e+000	
5.390000e-001	-6.525273e-001	-2.536375e+000	-2.536375e+000	-5.671320e+001	-8.643419e+001	6.335658e+002	-5.854915e+001	7.603721e+001	6.160372e+002	-5.877176e-001	-2.128201e+000	-2.128201e+000	
5.400000e-001	-6.591797e-001	-2.404817e+000	-2.404817e+000	-5.396943e+001	5.057556e+001	7.705756e+002	-5.518241e+001	-8.640245e+001	6.335976e+002	-5.929799e-001	-2.088459e+000	-2.088459e+000	
5.410000e-001	-6.459624e-001	-2.419084e+000	-2.419084e+000	-5.665629e+001	7.697537e+001	7.969754e+002	-5.851043e+001	-7.056995e+001	6.494300e+002	-5.863572e-001	-2.148800e+000	-2.148800e+000	
5.420000e-001	-6.400840e-001	-2.481240e+000	-2.481240e+000	-5.731274e+001	6.576944e+001	7.857694e+002	-5.402247e+001	-7.705571e+001	6.429443e+002	-5.924862e-001	-2.042507e+000	-2.042507e+000	
5.430000e-001	-6.381994e-001	-2.372808e+000	-2.372808e+000	-5.347960e+001	6.411221e+001	7.841122e+002	-5.671960e+001	7.082495e+001	6.108250e+002	-5.793778e-001	-2.183781e+000	-2.183781e+000	
5.440000e-001	-6.500896e-001	-2.521037e+000	-2.521037e+000	-5.766541e+001	7.492248e+001	7.949225e+002	-5.704819e+001	-7.810889e+001	6.418911e+002	-5.726394e-001	-2.044707e+000	-2.044707e+000	
5.450000e-001	-6.444078e-001	-2.450112e+000	-2.450112e+000	-5.891016e+001	7.309211e+001	7.930921e+002	-6.044476e+001	-6.684472e+001	6.531553e+002	-5.712728e-001	-2.153246e+000	-2.153246e+000	
5.460000e-001	-6.388979e-001	-2.452665e+000	-2.452665e+000	-5.471607e+001	7.236398e+001	7.923640e+002	-5.523579e+001	8.539185e+001	6.253918e+002	-5.866742e-001	-2.010254e+000	-2.010254e+000	
5.470000e-001	-6.480823e-001	-2.523087e+000	-2.523087e+000	-6.116683e+001	5.599973e+001	7.759997e+002	-5.643301e+001	-8.136528e+001	6.386347e+002	-5.716137e-001	-2.109887e+000	-2.109887e+000	
5.480000e-001	-6.472486e-001	-2.565466e+000	-2.565466e+000	-5.434006e+001	8.501188e+001	8.050119e+002	-5.770181e+001	7.837360e+001	6.183736e+002	-5.640324e-001	-2.194758e+000	-2.194758e+000	
5.490000e-001	-6.475715e-001	-2.451171e+000	-2.451171e+000	-5.515750e+001	8.627151e+001	8.062715e+002	-5.468214e+001	-7.267595e+001	6.473241e+002	-5.735791e-001	-2.096798e+000	-2.096798e+000	
5.500000e-001	-6.557982e-001	-2.484176e+000	-2.484176e+000	-5.699412e+001	-8.760712e+001	8.123929e+002	-5.869180e+001	-7.165245e+001	6.483476e+002	-5.697911e-001	-2.118526e+000	-2.118526e+000	
5.510000e-001	-6.438683e-001	-2.472867e+000	-2.472867e+000	-5.361288e+001	5.382673e+001	7.738267e+002	-5.331832e+001	6.455843e+001	7.845584e+002	-5.658709e-001	-2.081413e+000	-2.081413e+000	
5.520000e-001	-6.419917e-001	-2.433350e+000	-2.433350e+000	-5.735906e+001	7.385026e+001	7.938503e+002	-5.202145e+001	8.984921e+001	8.098492e+002	-5.700738e-001	-2.165546e+000	-2.165546e+000	
5.530000e-001	-6.551231e-001	-2.540793e+000	-2.540793e+000	-5.203025e+001	8.374064e+001	8.037406e+002	-5.253145e+001	-7.867730e+001	8.213227e+002	-5.701550e-001	-2.123867e+000	-2.123867e+000	
5.540000e-001	-6.370578e-001	-2.535381e+000	-2.535381e+000	-5.387113e+001	8.891030e+001	8.089103e+002	-5.760858e+001	-8.485170e+001	8.151483e+002	-5.791956e-001	-2.181754e+000	-2.181754e+000	
5.550000e-001	-6.548841e-001	-2.500080e+000	-2.500080e+000	-5.469436e+001	-7.130551e+001	8.286945e+002	-5.733014e+001	-8.699049e+001	8.130095e+002	-5.872811e-001	-2.124906e+000	-2.124906e+000	
5.560000e-001	-6.498749e-001	-2.477606e+000	-2.477606e+000	-5.561944e+001	8.730035e+001	8.073003e+002	-5.431436e+001	7.273159e+001	7.927316e+002	-5.939449e-001	-2.092397e+000	-2.092397e+000	
5.570000e-001	-6.439805e-001	-2.391483e+000	-2.391483e+000	-5.891705e+001	1.222353e+001	7.322235e+002	-5.340833e+001	7.967030e+001	7.996703e+002	-5.783284e-001	-2.195338e+000	-2.195338e+000	
5.580000e-001	-6.343252e-001	-2.468814e+000	-2.468814e+000	-6.019810e+001	8.762179e+001	8.076218e+002	-5.675899e+001	7.993423e+001	7.999342e+002	-5.770473e-001	-2.115129e+000	-2.115129e+000	
5.590000e-001	-6.376411e-001	-2.381512e+000	-2.381512e+000	-5.302824e+001	7.962430e+001	7.996243e+002	-5.186294e+001	-8.473307e+001	8.152669e+002	-5.647484e-001	-2.127190e+000	-2.127190e+000	
5.600000e-001	-6.439190e-001	-2.568953e+000	-2.568953e+000	-5.476706e+001	-8.716614e+001	8.128339e+002	-5.730119e+001	8.198823e+001	8.019882e+002	-5.766923e-001	-2.121166e+000	-2.121166e+000	
5.610000e-001	-6.595418e-001	-2.409056e+000	-2.409056e+000	-5.696869e+001	8.684268e+001	8.068427e+002	-5.417472e+001	-8.780464e+001	8.121954e+002	-5.826299e-001	-2.206667e+000	-2.206667e+000	
5.620000e-001	-6.493586e-001	-2.551881e+000	-2.551881e+000	-6.037608e+001	5.208475e+001	7.720848e+002	-5.762467e+001	8.173859e+001	8.017386e+002	-5.786576e-001	-2.091633e+000	-2.091633e+000	
5.630000e-001	-6.420299e-001	-2.565513e+000	-2.565513e+000	-5.781616e+001	-8.957475e+001	8.104253e+002	-5.235758e+001	5.557593e+001	7.755759e+002	-5.734493e-001	-2.197997e+000	-2.197997e+000	
5.640000e-001	-6.585219e-001	-2.398030e+000	-2.398030e+000	-5.624033e+001	4.442618e+001	9.444262e+002	-5.315649e+001	7.958109e+001	7.995811e+002	-5.667889e-001	-2.088814e+000	-2.088814e+000	
5.650000e-001	-6.543998e-001	-2.433830e+000	-2.433830e+000	-5.377002e+001	6.579348e+001	9.657935e+002	-5.435592e+001	-8.485238e+001	8.151476e+002	-5.665347e-001	-2.078947e+000	-2.078947e+000	
5.660000e-001	-6.643718e-001	-2.508047e+000	-2.508047e+000	-5.314413e+001	5.978621e+001	9.597862e+002	-5.686863e+001	8.363756e+001	8.036376e+002	-5.740185e-001	-2.114289e+000	-2.114289e+000	
5.670000e-001	-6.573704e-001	-2.463604e+000	-2.463604e+000	-5.719076e+001	-6.024071e+001	8.397593e+002	-5.556981e+001	6.214116e+001	7.821412e+002	-5.832353e-001	-2.162231e+000	-2.162231e+000	
5.680000e-001	-6.582119e-001	-2.502517e+000	-2.502517e+000	-5.025430e+001	-7.838560e+001	8.216144e+002	-5.301198e+001	-7.330561e+001	6.466944e+002	-5.777856e-001	-2.181967e+000	-2.181967e+000	
5.690000e-001	-6.488763e-001	-2.499752e+000	-2.499752e+000	-5.496030e+001	-6.251518e+001	8.374848e+002	-5.338147e+001	7.713575e+001	6.171358e+002	-5.872036e-001	-2.100795e+000	-2.100795e+000	
5.700000e-001	-6.450770e-001	-2.449848e+000	-2.449848e+000	-5.562237e+001	-7.258958e+001	8.274104e+002	-5.449171e+001	7.947353e+001	6.194735e+002	-5.858622e-001	-2.211136e+000	-2.211136e+000	
5.710000e-001	-6.473471e-001	-2.507050e+000	-2.507050e+000	-5.292633e+001	6.657036e+001	9.665704e+002	-5.367825e+001	7.115043e+001	6.111504e+002	-5.787826e-001	-2.104623e+000	-2.104623e+000	
5.720000e-001	-6.495023e-001	-2.491378e+000	-2.491378e+000	-5.190227e+001	8.329767e+001	9.832977e+002	-5.959577e+001	-5.700778e+001	4.829922e+002	-5.932277e-001	-2.080931e+000	-2.080931e+000	
5.730000e-001	-6.427368e-001	-2.487783e+000	-2.487783e+000	-5.688596e+001	-8.727168e+001	9.927283e+002	-5.416198e+001	7.867635e+001	6.186764e+002	-5.899065e-001	-2.169218e+000	-2.169218e+000	
5.740000e-001	-6.608782e-001	-2.467159e+000	-2.467159e+000	-5.518943e+001	-8.688906e+001	9.931109e+002	-5.421060e+001	7.652722e+001	6.165272e+002	-5.718547e-001	-2.213506e+000	-2.213506e+000	
5.750000e-001	-6.570460e-001	-2.518307e+000	-2.518307e+000	-5.479235e+001	8.191062e+001	9.819106e+002	-5.596379e+001	8.177159e+001	6.217716e+002	-5.695761e-001	-2.174283e+000	-2.174283e+000	
5.760000e-001	-6.522287e-001	-2.515963e+000	-2.515963e+000	-5.720422e+001	-7.165162e+001	1.008348e+003	-5.853505e+001	-7.941499e+001	6.405850e+002	-5.727274e-001	-2.286796e+000	-2.286796e+000	
5.770000e-001	-6.663757e-001	-2.483251e+000	-2.483251e+000	-5.500148e+001	8.956333e+001	9.895633e+002	-5.962004e+001	8.731460e+001	6.273146e+002	-5.775544e-001	-2.177986e+000	-2.177986e+000	
5.780000e-001	-6.643309e-001	-2.552389e+000	-2.552389e+000	-5.419582e+001	8.967074e+001	9.896707e+002	-5.264647e+001	5.738617e+001	5.973862e+002	-5.789283e-001	-2.141852e+000	-2.141852e+000	
5.790000e-001	-6.556692e-001	-2.530287e+000	-2.530287e+000	-5.981707e+001	-4.428683e+001	8.557132e+002	-5.793165e+001	4.699944e+001	5.869994e+002	-5.752487e-001	-2.165142e+000	-2.165142e+000	
5.800000e-001	-6.448826e-001	-2.576622e+000	-2.576622e+000	-5.016661e+001	7.675694e+001	9.767569e+002	-5.315990e+001	5.442966e+001	5.944297e+002	-5.740128e-001	-2.210436e+000	-2.210436e+000	
5.810000e-001	-6.533309e-001	-2.530930e+000	-2.530930e+000	-5.519055e+001	6.079369e+001	9.607937e+002	-5.346569e+001	8.832692e+001	6.283269e+002	-5.636932e-001	-2.109905e+000	-2.109905e+000	
5.820000e-001	-6.468793e-001	-2.448242e+000	-2.448242e+000	-5.472314e+001	-7.354896e+001	8.264510e+002	-5.248899e+001	7.624270e+001	6.162427e+002	-5.736383e-001	-2.006944e+000	-2.006944e+000	
5.830000e-001	-6.430531e-001	-2.529984e+000	-2.529984e+000	-5.653701e+001	8.076587e+001	8.007659e+002	-6.187452e+001	-6.014926e+001	4.798507e+002	-5.823378e-001	-2.144937e+000	-2.144937e+000	
5.840000e-001	-6.459193e-001	-2.498419e+000	-2.498419e+000	-5.600154e+001	6.851695e+001	7.885170e+002	-5.324012e+001	8.558950e+001	4.455895e+002	-5.834707e-001	-2.166135e+000	-2.166135e+000	
5.850000e-001	-6.428314e-001	-2.477296e+000	-2.477296e+000	-5.584562e+001	8.333426e+001	8.033343e+002	-5.015964e+001	8.835707e+001	4.483571e+002	-5.759721e-001	-2.110874e+000	-2.110874e+000	
5.860000e-001	-6.465582e-001	-2.572482e+000	-2.572482e+000	-5.522123e+001	4.125119e+001	7.612512e+002	-5.330312e+001	8.228385e+001	4.422838e+002	-5.902873e-001	-2.286228e+000	-2.286228e+000	
5.870000e-001	-6.482653e-001	-2.476708e+000	-2.476708e+000	-5.487793e+001	-7.324084e+001	6.467592e+002	-5.375022e+001	-7.289001e+001	4.671100e+002	-5.853359e-001	-2.243697e+000	-2.243697e+000	
5.880000e-001	-6.520592e-001	-2.528370e+000	-2.528370e+000	-5.642257e+001	-8.876500e+001	6.312350e+002	-5.313025e+001	4.877695e+001	5.887769e+002	-5.693858e-001	-2.169651e+000	-2.169651e+000	
5.890000e-001	-6.637139e-001	-2.456737e+000	-2.456737e+000	-5.613997e+001	6.580996e+001	6.058100e+002	-5.402691e+001	5.308322e+001	5.930832e+002	-5.665384e-001	-2.287214e+000	-2.287214e+000	
5.900000e-001	-6.593497e-001	-2.588999e+000	-2.588999e+000	-5.404222e+001	7.969485e+001	6.196948e+002	-5.610036e+001	5.365918e+001	5.936592e+002	-5.785393e-001	-2.180140e+000	-2.180140e+000	
5.910000e-001	-6.578332e-001	-2.550106e+000	-2.550106e+000	-5.176722e+001	8.602359e+001	6.260236e+002	-5.306589e+001	-6.030483e+001	4.796952e+002	-5.764378e-001	-2.166982e+000	-2.166982e+000	
5.920000e-001	-6.489788e-001	-2.603273e+000	-2.603273e+000	-5.186362e+001	-5.968629e+001	6.603137e+002	-5.702916e+001	7.790326e+001	6.179033e+002	-5.842573e-001	-2.232605e+000	-2.232605e+000	
5.930000e-001	-6.757499e-001	-2.591173e+000	-2.591173e+000	-5.982322e+001	7.014936e+001	7.901494e+002	-5.404591e+001	7.662591e+001	6.166259e+002	-5.766163e-001	-2.176769e+000	-2.176769e+000	
5.940000e-001	-6.482434e-001	-2.528383e+000	-2.528383e+000	-5.599908e+001	5.065183e+001	7.706518e+002	-5.330766e+001	7.632298e+001	6.163230e+002	-5.764325e-001	-2.243106e+000	-2.243106e+000	
5.950000e-001	-6.504465e-001	-2.541206e+000	-2.541206e+000	-5.511750e+001	6.286856e+001	7.828686e+002	-5.755164e+001	-6.787977e+001	6.521202e+002	-5.732575e-001	-2.154250e+000	-2.154250e+000	
5.960000e-001	-6.523043e-001	-2.591684e+000	-2.591684e+000	-5.471801e+001	7.238003e+001	7.923800e+002	-5.410367e+001	4.981848e+001	7.698185e+002	-5.762059e-001	-2.167935e+000	-2.167935e+000	
5.970000e-001	-6.352959e-001	-2.503696e+000	-2.503696e+000	-5.537638e+001	-8.696203e+001	8.130380e+002	-5.605459e+001	8.252889e+001	8.025289e+002	-5.858700e-001	-2.146842e+000	-2.146842e+000	
5.980000e-001	-6.500051e-001	-2.669555e+000	-2.669555e+000	-5.143668e+001	-8.328995e+001	8.167100e+002	-6.170232e+001	8.347925e+001	8.034793e+002	-5.697646e-001	-2.216185e+000	-2.216185e+000	
5.990000e-001	-6.496421e-001	-2.497186e+000	-2.497186e+000	-5.102707e+001	8.514645e+001	8.051465e+002	-5.340888e+001	7.857782e+001	7.985778e+002	-5.593476e-001	-2.199127e+000	-2.199127e+000	
6.000000e-001	-6.560657e-001	-2.562919e+000	-2.562919e+000	-5.431836e+001	6.449486e+001	7.844949e+002	-5.265304e+001	-6.944394e+001	8.305561e+002	-5.798483e-001	-2.183247e+000	-2.183247e+000	
6.010000e-001	-6.512007e-001	-2.705941e+000	-2.705941e+000	-5.508537e+001	7.517475e+001	7.951748e+002	-5.463340e+001	-8.835687e+001	8.116431e+002	-5.685115e-001	-2.199063e+000	-2.199063e+000	
6.020000e-001	-6.354707e-001	-2.605709e+000	-2.605709e+000	-5.480647e+001	8.936050e+001	8.093605e+002	-5.231566e+001	-7.612891e+001	8.238711e+002	-5.809757e-001	-2.235206e+000	-2.235206e+000	
