Frequency	 |S11|	 Phase(S11)	 ExtPh(S11)	 |S21|	 Phase(S21)	 ExtPh(S21)	 |S12|	 Phase(S12)	 ExtPh(S12)	 |S22|	 Phase(S22)	 ExtPh(S22) 
5.000000e-001	-9.710692e-001	-2.125171e+000	-2.125171e+000	-5.627991e+001	-7.192465e+001	-7.192465e+001	-5.865589e+001	8.816181e+001	8.816181e+001	-5.525705e-001	-1.729957e+000	-1.729957e+000	
5.010000e-001	-9.713625e-001	-2.336120e+000	-2.336120e+000	-5.402238e+001	3.705974e+001	3.705974e+001	-6.748255e+001	7.817947e+000	7.817947e+000	-5.559398e-001	-1.835086e+000	-1.835086e+000	
5.020000e-001	-9.700014e-001	-2.177166e+000	-2.177166e+000	-5.473092e+001	-5.907141e+001	-5.907141e+001	-5.574693e+001	8.484533e+001	8.484533e+001	-5.471971e-001	-1.900114e+000	-1.900114e+000	
5.030000e-001	-9.803696e-001	-2.113550e+000	-2.113550e+000	-7.513088e+001	-2.523745e+001	-2.523745e+001	-5.675373e+001	-8.349918e+001	9.650082e+001	-5.608462e-001	-1.910501e+000	-1.910501e+000	
5.040000e-001	-9.708125e-001	-2.156043e+000	-2.156043e+000	-5.152760e+001	8.247455e+001	8.247455e+001	-5.493441e+001	6.409816e+001	6.409816e+001	-5.484695e-001	-1.867656e+000	-1.867656e+000	
5.050000e-001	-9.861404e-001	-2.124946e+000	-2.124946e+000	-5.370214e+001	7.154766e+001	7.154766e+001	-5.421180e+001	-8.185568e+001	9.814432e+001	-5.694100e-001	-1.775943e+000	-1.775943e+000	
5.060000e-001	-9.849673e-001	-2.230776e+000	-2.230776e+000	-5.759615e+001	7.041897e+001	7.041897e+001	-5.869054e+001	8.397200e+001	8.397200e+001	-5.631479e-001	-1.772863e+000	-1.772863e+000	
5.070000e-001	-9.764440e-001	-2.233663e+000	-2.233663e+000	-5.802991e+001	7.400574e+001	7.400574e+001	-6.284309e+001	-8.792948e+001	9.207052e+001	-5.576928e-001	-1.871318e+000	-1.871318e+000	
5.080000e-001	-9.951051e-001	-2.243946e+000	-2.243946e+000	-5.126762e+001	-7.069784e+001	1.093022e+002	-5.879423e+001	2.516513e+001	2.051651e+002	-5.366954e-001	-1.836633e+000	-1.836633e+000	
5.090000e-001	-9.820789e-001	-2.190441e+000	-2.190441e+000	-5.530390e+001	4.224470e+001	2.222447e+002	-5.843198e+001	-5.341946e+001	1.265805e+002	-5.578032e-001	-1.865537e+000	-1.865537e+000	
5.100000e-001	-9.732168e-001	-2.278919e+000	-2.278919e+000	-5.503750e+001	8.463230e+001	2.646323e+002	-5.607380e+001	6.412043e+001	2.441204e+002	-5.597349e-001	-1.826759e+000	-1.826759e+000	
5.110000e-001	-9.766867e-001	-2.224452e+000	-2.224452e+000	-5.548032e+001	8.156327e+001	2.615633e+002	-5.532994e+001	8.380640e+001	2.638064e+002	-5.578065e-001	-1.953717e+000	-1.953717e+000	
5.120000e-001	-9.765925e-001	-2.248199e+000	-2.248199e+000	-5.230151e+001	8.141473e+001	2.614147e+002	-5.745483e+001	-5.441573e+001	1.255843e+002	-5.535753e-001	-1.889665e+000	-1.889665e+000	
5.130000e-001	-9.871939e-001	-2.221315e+000	-2.221315e+000	-6.347474e+001	-6.750076e+001	2.924992e+002	-5.521231e+001	7.087597e+001	2.508760e+002	-5.531847e-001	-1.891363e+000	-1.891363e+000	
5.140000e-001	-9.894638e-001	-2.267323e+000	-2.267323e+000	-5.763478e+001	-7.290755e+001	2.870924e+002	-5.588488e+001	8.251557e+001	2.625156e+002	-5.495917e-001	-1.852798e+000	-1.852798e+000	
5.150000e-001	-9.878433e-001	-2.280365e+000	-2.280365e+000	-5.764377e+001	6.834141e+001	2.483414e+002	-5.741714e+001	-8.400572e+001	2.759943e+002	-5.587596e-001	-2.000127e+000	-2.000127e+000	
5.160000e-001	-9.761674e-001	-2.342311e+000	-2.342311e+000	-5.519013e+001	5.739793e+001	2.373979e+002	-6.098997e+001	7.636220e+001	2.563622e+002	-5.482950e-001	-1.922476e+000	-1.922476e+000	
5.170000e-001	-9.782235e-001	-2.293932e+000	-2.293932e+000	-5.423733e+001	8.104967e+001	2.610497e+002	-5.928953e+001	-8.759452e+001	2.724055e+002	-5.677604e-001	-1.936898e+000	-1.936898e+000	
5.180000e-001	-9.761618e-001	-2.301725e+000	-2.301725e+000	-5.608522e+001	7.825297e+001	2.582530e+002	-5.630460e+001	8.615984e+001	2.661598e+002	-5.555741e-001	-1.906585e+000	-1.906585e+000	
5.190000e-001	-9.765388e-001	-2.259547e+000	-2.259547e+000	-5.755868e+001	-8.952126e+001	2.704787e+002	-5.626429e+001	-8.827024e+001	2.717298e+002	-5.454249e-001	-1.918402e+000	-1.918402e+000	
5.200000e-001	-9.725658e-001	-2.259754e+000	-2.259754e+000	-5.083764e+001	-7.993123e+001	2.800688e+002	-5.895510e+001	-6.169453e+001	2.983055e+002	-5.529486e-001	-1.966601e+000	-1.966601e+000	
5.210000e-001	-9.724971e-001	-2.401543e+000	-2.401543e+000	-6.033237e+001	-6.833084e+001	2.916692e+002	-6.013567e+001	7.607078e+001	4.360708e+002	-5.576048e-001	-2.009654e+000	-2.009654e+000	
5.220000e-001	-9.710317e-001	-2.206986e+000	-2.206986e+000	-5.485129e+001	8.508833e+001	2.650883e+002	-5.822809e+001	-7.573779e+001	4.642622e+002	-5.584661e-001	-2.074739e+000	-2.074739e+000	
5.230000e-001	-9.785757e-001	-2.321062e+000	-2.321062e+000	-5.538478e+001	8.331896e+001	2.633190e+002	-5.948527e+001	-4.707984e+001	4.929202e+002	-5.618460e-001	-1.960627e+000	-1.960627e+000	
5.240000e-001	-9.871783e-001	-2.376011e+000	-2.376011e+000	-5.568523e+001	-6.777171e+001	2.922283e+002	-6.068794e+001	3.444409e+001	5.744441e+002	-5.648798e-001	-2.000215e+000	-2.000215e+000	
5.250000e-001	-9.751348e-001	-2.348479e+000	-2.348479e+000	-5.734361e+001	-8.513237e+001	2.748676e+002	-5.769347e+001	-7.207166e+001	4.679283e+002	-5.487123e-001	-1.971916e+000	-1.971916e+000	
5.260000e-001	-9.766934e-001	-2.287701e+000	-2.287701e+000	-5.565487e+001	7.301182e+001	2.530118e+002	-6.008319e+001	5.354745e+001	5.935475e+002	-5.504270e-001	-1.953409e+000	-1.953409e+000	
5.270000e-001	-9.762721e-001	-2.339820e+000	-2.339820e+000	-5.319552e+001	6.535523e+001	2.453552e+002	-5.426793e+001	5.679957e+001	5.967996e+002	-5.555336e-001	-2.009120e+000	-2.009120e+000	
5.280000e-001	-9.836177e-001	-2.404502e+000	-2.404502e+000	-5.464514e+001	7.078779e+001	2.507878e+002	-5.821837e+001	8.140413e+001	6.214041e+002	-5.501030e-001	-2.028306e+000	-2.028306e+000	
5.290000e-001	-9.836914e-001	-2.350472e+000	-2.350472e+000	-5.465517e+001	7.248112e+001	2.524811e+002	-5.861408e+001	-6.908439e+001	6.509156e+002	-5.606833e-001	-2.012033e+000	-2.012033e+000	
5.300000e-001	-9.631701e-001	-2.388462e+000	-2.388462e+000	-5.480692e+001	-5.877125e+001	1.212287e+002	-5.790374e+001	7.278602e+001	6.127860e+002	-5.624556e-001	-2.015975e+000	-2.015975e+000	
5.310000e-001	-9.664818e-001	-2.340523e+000	-2.340523e+000	-5.363848e+001	8.694232e+001	8.694232e+001	-5.495450e+001	6.045015e+001	6.004502e+002	-5.490447e-001	-2.055525e+000	-2.055525e+000	
5.320000e-001	-9.751013e-001	-2.472035e+000	-2.472035e+000	-5.103233e+001	8.513694e+001	8.513694e+001	-5.617031e+001	7.934322e+001	6.193432e+002	-5.573328e-001	-2.092317e+000	-2.092317e+000	
5.330000e-001	-9.781073e-001	-2.445744e+000	-2.445744e+000	-5.675032e+001	8.605338e+001	8.605338e+001	-5.621953e+001	6.633111e+001	6.063311e+002	-5.623951e-001	-2.079236e+000	-2.079236e+000	
5.340000e-001	-9.909939e-001	-2.285275e+000	-2.285275e+000	-5.313748e+001	-8.884364e+001	9.115636e+001	-5.942444e+001	4.901783e+001	5.890178e+002	-5.602842e-001	-2.030641e+000	-2.030641e+000	
5.350000e-001	-9.813579e-001	-2.372370e+000	-2.372370e+000	-5.767706e+001	-8.105854e+001	9.894146e+001	-5.159346e+001	7.446125e+001	6.144613e+002	-5.580294e-001	-2.072980e+000	-2.072980e+000	
5.360000e-001	-9.788534e-001	-2.445798e+000	-2.445798e+000	-5.512443e+001	8.788902e+001	8.788902e+001	-5.686907e+001	6.735771e+001	6.073577e+002	-5.670251e-001	-2.026255e+000	-2.026255e+000	
5.370000e-001	-9.777943e-001	-2.343078e+000	-2.343078e+000	-6.422834e+001	3.468370e+001	3.468370e+001	-5.620407e+001	-8.731985e+001	6.326802e+002	-5.603469e-001	-2.020921e+000	-2.020921e+000	
5.380000e-001	-9.739634e-001	-2.437041e+000	-2.437041e+000	-5.804585e+001	-7.493035e+001	-7.493035e+001	-6.421217e+001	-5.941396e+001	6.605860e+002	-5.757647e-001	-2.063750e+000	-2.063750e+000	
5.390000e-001	-9.836953e-001	-2.443404e+000	-2.443404e+000	-5.467105e+001	7.130501e+001	-1.086950e+002	-5.603239e+001	7.277246e+001	7.927725e+002	-5.725464e-001	-2.130136e+000	-2.130136e+000	
5.400000e-001	-9.735888e-001	-2.442720e+000	-2.442720e+000	-5.401829e+001	6.827927e+001	-1.117207e+002	-5.731415e+001	4.012941e+001	7.601294e+002	-5.713818e-001	-2.048278e+000	-2.048278e+000	
5.410000e-001	-9.847690e-001	-2.502982e+000	-2.502982e+000	-5.822913e+001	-8.825658e+001	-8.825658e+001	-5.390525e+001	-7.976840e+001	6.402316e+002	-5.525736e-001	-2.006709e+000	-2.006709e+000	
5.420000e-001	-9.788380e-001	-2.397721e+000	-2.397721e+000	-5.988199e+001	-5.733077e+001	-5.733077e+001	-5.933448e+001	8.633652e+001	6.263365e+002	-5.683137e-001	-2.057364e+000	-2.057364e+000	
5.430000e-001	-9.830525e-001	-2.425466e+000	-2.425466e+000	-5.633924e+001	7.615132e+001	7.615132e+001	-5.965723e+001	-8.910444e+001	6.308956e+002	-5.631300e-001	-2.102746e+000	-2.102746e+000	
5.440000e-001	-9.869602e-001	-2.443777e+000	-2.443777e+000	-5.692406e+001	-8.344002e+001	9.655998e+001	-6.235650e+001	-6.551475e+001	6.544852e+002	-5.638033e-001	-2.020382e+000	-2.020382e+000	
5.450000e-001	-9.899729e-001	-2.314457e+000	-2.314457e+000	-5.900991e+001	8.451685e+001	8.451685e+001	-5.480608e+001	4.035174e+001	7.603517e+002	-5.651385e-001	-2.101442e+000	-2.101442e+000	
5.460000e-001	-9.772213e-001	-2.355396e+000	-2.355396e+000	-6.412361e+001	4.432382e+001	4.432382e+001	-5.713646e+001	-8.253649e+001	6.374635e+002	-5.537321e-001	-2.058808e+000	-2.058808e+000	
5.470000e-001	-9.776393e-001	-2.476455e+000	-2.476455e+000	-5.779793e+001	5.658039e+001	5.658039e+001	-5.399644e+001	8.299145e+001	6.229914e+002	-5.603588e-001	-2.056086e+000	-2.056086e+000	
5.480000e-001	-9.836531e-001	-2.429797e+000	-2.429797e+000	-5.615262e+001	-5.596811e+001	-5.596811e+001	-5.542038e+001	6.876865e+001	6.087686e+002	-5.566882e-001	-2.125841e+000	-2.125841e+000	
5.490000e-001	-9.844309e-001	-2.483248e+000	-2.483248e+000	-5.411268e+001	4.230570e+001	4.230570e+001	-5.910886e+001	8.888015e+001	6.288801e+002	-5.631308e-001	-2.075825e+000	-2.075825e+000	
5.500000e-001	-9.971352e-001	-2.460492e+000	-2.460492e+000	-5.345923e+001	6.033204e+001	6.033204e+001	-6.021672e+001	7.351978e+001	6.135198e+002	-5.561577e-001	-2.082174e+000	-2.082174e+000	
5.510000e-001	-9.838287e-001	-2.542612e+000	-2.542612e+000	-5.604861e+001	7.790923e+001	7.790923e+001	-5.645183e+001	-6.275575e+001	4.772443e+002	-5.551716e-001	-2.090320e+000	-2.090320e+000	
5.520000e-001	-9.731270e-001	-2.495449e+000	-2.495449e+000	-5.495992e+001	5.209401e+001	5.209401e+001	-5.275751e+001	8.166420e+001	4.416642e+002	-5.699913e-001	-2.105772e+000	-2.105772e+000	
5.530000e-001	-9.943679e-001	-2.414736e+000	-2.414736e+000	-5.535686e+001	-8.258890e+001	-8.258890e+001	-5.122813e+001	6.423614e+001	4.242361e+002	-5.716012e-001	-2.049948e+000	-2.049948e+000	
5.540000e-001	-9.948919e-001	-2.323415e+000	-2.323415e+000	-5.523572e+001	-8.671559e+001	-8.671559e+001	-5.589427e+001	6.057459e+001	4.205746e+002	-5.611077e-001	-2.101839e+000	-2.101839e+000	
5.550000e-001	-9.794589e-001	-2.396221e+000	-2.396221e+000	-5.497380e+001	7.406287e+001	-1.059371e+002	-6.618976e+001	5.302637e+001	4.130264e+002	-5.569789e-001	-2.077277e+000	-2.077277e+000	
5.560000e-001	-9.822998e-001	-2.404349e+000	-2.404349e+000	-5.335703e+001	-8.394004e+001	-8.394004e+001	-5.761242e+001	7.598588e+001	4.359859e+002	-5.472999e-001	-2.034938e+000	-2.034938e+000	
5.570000e-001	-9.823608e-001	-2.421133e+000	-2.421133e+000	-5.765390e+001	8.206513e+001	-9.793487e+001	-5.655048e+001	8.341707e+001	4.434171e+002	-5.657297e-001	-2.057022e+000	-2.057022e+000	
5.580000e-001	-9.756844e-001	-2.428533e+000	-2.428533e+000	-5.571786e+001	7.736812e+001	-1.026319e+002	-5.734543e+001	8.666708e+001	4.466671e+002	-5.482291e-001	-2.020022e+000	-2.020022e+000	
5.590000e-001	-9.894854e-001	-2.373010e+000	-2.373010e+000	-5.627560e+001	7.891921e+001	-1.010808e+002	-5.329773e+001	-7.355188e+001	4.664481e+002	-5.488443e-001	-2.161335e+000	-2.161335e+000	
5.600000e-001	-9.962945e-001	-2.408241e+000	-2.408241e+000	-6.212524e+001	5.522735e+001	-1.247727e+002	-5.940015e+001	-8.792416e+001	4.520758e+002	-5.528878e-001	-2.201020e+000	-2.201020e+000	
5.610000e-001	-9.924282e-001	-2.440387e+000	-2.440387e+000	-5.468113e+001	-8.454937e+001	-2.645494e+002	-5.888834e+001	8.730126e+001	4.473013e+002	-5.614888e-001	-2.095536e+000	-2.095536e+000	
5.620000e-001	-9.902330e-001	-2.389934e+000	-2.389934e+000	-5.663396e+001	-8.951457e+001	-2.695146e+002	-5.465773e+001	6.903493e+001	4.290349e+002	-5.484975e-001	-2.020092e+000	-2.020092e+000	
5.630000e-001	-9.875151e-001	-2.491699e+000	-2.491699e+000	-5.591648e+001	5.350261e+001	-3.064974e+002	-5.839346e+001	5.385263e+001	4.138526e+002	-5.591531e-001	-2.116907e+000	-2.116907e+000	
5.640000e-001	-9.848374e-001	-2.362122e+000	-2.362122e+000	-5.629062e+001	-7.410075e+001	-4.341007e+002	-5.173567e+001	-8.142057e+001	2.785794e+002	-5.616948e-001	-2.105501e+000	-2.105501e+000	
5.650000e-001	-9.801219e-001	-2.478914e+000	-2.478914e+000	-5.750604e+001	6.685010e+001	-4.731499e+002	-5.537865e+001	4.164916e+001	4.016492e+002	-5.701768e-001	-2.159447e+000	-2.159447e+000	
5.660000e-001	-9.896507e-001	-2.514329e+000	-2.514329e+000	-5.483848e+001	7.771476e+001	-4.622852e+002	-5.748392e+001	8.187616e+001	4.418762e+002	-5.549030e-001	-2.023291e+000	-2.023291e+000	
5.670000e-001	-9.719645e-001	-2.395611e+000	-2.395611e+000	-5.511730e+001	-7.833785e+001	-4.383379e+002	-5.492646e+001	-7.799003e+001	4.620100e+002	-5.539092e-001	-2.075194e+000	-2.075194e+000	
5.680000e-001	-9.853854e-001	-2.505707e+000	-2.505707e+000	-5.664126e+001	8.190482e+001	-4.580952e+002	-6.645086e+001	-5.174571e+001	4.882543e+002	-5.489193e-001	-2.097930e+000	-2.097930e+000	
5.690000e-001	-1.002227e+000	-2.429724e+000	-2.429724e+000	-5.885039e+001	7.836253e+001	-4.616375e+002	-5.652287e+001	-7.597132e+001	4.640287e+002	-5.687583e-001	-2.167863e+000	-2.167863e+000	
5.700000e-001	-9.829904e-001	-2.500837e+000	-2.500837e+000	-5.688635e+001	-4.845140e+001	-5.884514e+002	-5.435648e+001	6.293749e+001	6.029375e+002	-5.671689e-001	-2.117811e+000	-2.117811e+000	
5.710000e-001	-9.680077e-001	-2.409104e+000	-2.409104e+000	-5.917983e+001	5.938229e+001	-4.806177e+002	-5.392612e+001	8.514446e+001	6.251445e+002	-5.586495e-001	-2.196892e+000	-2.196892e+000	
5.720000e-001	-9.955101e-001	-2.400556e+000	-2.400556e+000	-5.290593e+001	-8.827645e+001	-4.482764e+002	-5.557254e+001	8.050918e+001	6.205092e+002	-5.513043e-001	-2.163968e+000	-2.163968e+000	
5.730000e-001	-9.891012e-001	-2.433577e+000	-2.433577e+000	-6.220958e+001	5.665838e+001	-4.833416e+002	-5.501816e+001	8.950340e+001	6.295034e+002	-5.542914e-001	-2.133183e+000	-2.133183e+000	
5.740000e-001	-9.864118e-001	-2.395350e+000	-2.395350e+000	-5.110736e+001	-8.607928e+001	-4.460793e+002	-5.784921e+001	-8.870394e+001	6.312961e+002	-5.424414e-001	-2.110064e+000	-2.110064e+000	
5.750000e-001	-9.789902e-001	-2.496011e+000	-2.496011e+000	-6.085805e+001	-8.525842e+001	-4.452584e+002	-5.812138e+001	-7.070718e+001	6.492928e+002	-5.634010e-001	-2.160336e+000	-2.160336e+000	
5.760000e-001	-9.925493e-001	-2.491952e+000	-2.491952e+000	-5.774490e+001	6.711807e+001	-4.728819e+002	-5.774604e+001	6.947090e+001	6.094709e+002	-5.521525e-001	-2.124049e+000	-2.124049e+000	
5.770000e-001	-9.740047e-001	-2.489990e+000	-2.489990e+000	-5.619935e+001	5.232270e+001	-4.876773e+002	-5.414503e+001	-7.455452e+001	6.454455e+002	-5.643276e-001	-2.039991e+000	-2.039991e+000	
5.780000e-001	-9.821835e-001	-2.472420e+000	-2.472420e+000	-5.400176e+001	7.476359e+001	-4.652364e+002	-5.555957e+001	7.981701e+001	6.198170e+002	-5.650926e-001	-2.007088e+000	-2.007088e+000	
5.790000e-001	-1.002740e+000	-2.451861e+000	-2.451861e+000	-5.924440e+001	7.550942e+001	-4.644906e+002	-5.399649e+001	-8.769811e+001	6.323019e+002	-5.565386e-001	-2.124452e+000	-2.124452e+000	
5.800000e-001	-9.931307e-001	-2.437312e+000	-2.437312e+000	-5.131020e+001	8.385023e+001	-4.561498e+002	-5.558818e+001	7.079572e+001	6.107957e+002	-5.693414e-001	-2.201609e+000	-2.201609e+000	
5.810000e-001	-9.825033e-001	-2.424335e+000	-2.424335e+000	-5.848733e+001	3.224039e+001	-5.077596e+002	-5.483844e+001	7.422376e+001	6.142238e+002	-5.517253e-001	-2.096451e+000	-2.096451e+000	
5.820000e-001	-1.000996e+000	-2.509492e+000	-2.509492e+000	-5.154348e+001	7.411181e+001	-4.658882e+002	-5.533321e+001	7.465509e+001	6.146551e+002	-5.520113e-001	-2.122926e+000	-2.122926e+000	
5.830000e-001	-9.893614e-001	-2.470863e+000	-2.470863e+000	-5.941330e+001	-8.808899e+001	-4.480890e+002	-5.564481e+001	-8.505595e+001	6.349440e+002	-5.563821e-001	-2.252458e+000	-2.252458e+000	
5.840000e-001	-9.976568e-001	-2.512821e+000	-2.512821e+000	-5.568447e+001	-8.816587e+001	-4.481659e+002	-5.600908e+001	6.140289e+001	6.014029e+002	-5.664346e-001	-2.248961e+000	-2.248961e+000	
5.850000e-001	-9.782478e-001	-2.406915e+000	-2.406915e+000	-5.405171e+001	-8.239201e+001	-4.423920e+002	-5.587454e+001	4.414873e+001	5.841487e+002	-5.611430e-001	-2.212300e+000	-2.212300e+000	
5.860000e-001	-9.871825e-001	-2.416719e+000	-2.416719e+000	-5.713710e+001	-8.466713e+001	-4.446671e+002	-5.281005e+001	-6.885988e+001	4.711401e+002	-5.671330e-001	-2.116722e+000	-2.116722e+000	
5.870000e-001	-9.900282e-001	-2.456173e+000	-2.456173e+000	-5.467435e+001	-8.082562e+001	-4.408256e+002	-5.531623e+001	-6.622575e+001	4.737742e+002	-5.612911e-001	-2.207951e+000	-2.207951e+000	
5.880000e-001	-9.759154e-001	-2.429212e+000	-2.429212e+000	-5.363965e+001	7.200031e+001	-4.679997e+002	-5.854643e+001	7.617633e+001	4.361763e+002	-5.648636e-001	-2.144669e+000	-2.144669e+000	
5.890000e-001	-9.760132e-001	-2.474525e+000	-2.474525e+000	-5.383470e+001	8.222615e+001	-4.577738e+002	-6.968158e+001	-6.926681e+001	4.707332e+002	-5.525723e-001	-2.253232e+000	-2.253232e+000	
5.900000e-001	-1.002210e+000	-2.556886e+000	-2.556886e+000	-5.264433e+001	8.189480e+001	-4.581052e+002	-5.229314e+001	-7.784325e+001	4.621568e+002	-5.752110e-001	-2.192607e+000	-2.192607e+000	
5.910000e-001	-1.016184e+000	-2.517345e+000	-2.517345e+000	-6.108827e+001	7.248808e+001	-4.675119e+002	-5.955079e+001	6.576504e+001	4.257650e+002	-5.696823e-001	-2.108502e+000	-2.108502e+000	
5.920000e-001	-9.948422e-001	-2.427758e+000	-2.427758e+000	-6.114644e+001	7.104267e+001	-4.689573e+002	-5.349347e+001	8.090413e+001	4.409041e+002	-5.465754e-001	-2.239655e+000	-2.239655e+000	
5.930000e-001	-9.903730e-001	-2.488918e+000	-2.488918e+000	-5.601887e+001	5.798577e+001	-4.820142e+002	-5.386712e+001	8.916884e+001	4.491688e+002	-5.553685e-001	-2.214803e+000	-2.214803e+000	
5.940000e-001	-9.872967e-001	-2.510117e+000	-2.510117e+000	-5.391956e+001	3.183628e+001	-5.081637e+002	-5.846470e+001	8.457977e+001	4.445798e+002	-5.662745e-001	-2.169115e+000	-2.169115e+000	
5.950000e-001	-1.005254e+000	-2.423907e+000	-2.423907e+000	-5.219326e+001	8.921486e+001	-4.507851e+002	-5.656577e+001	-8.590769e+001	4.540923e+002	-5.564804e-001	-2.151644e+000	-2.151644e+000	
5.960000e-001	-9.857107e-001	-2.425350e+000	-2.425350e+000	-6.535817e+001	-5.642594e+001	-4.164259e+002	-5.609476e+001	-7.933377e+001	4.606662e+002	-5.705401e-001	-2.114173e+000	-2.114173e+000	
5.970000e-001	-9.850994e-001	-2.453066e+000	-2.453066e+000	-5.522299e+001	-8.575522e+001	-4.457552e+002	-5.498476e+001	-8.419622e+001	4.558038e+002	-5.702727e-001	-2.194364e+000	-2.194364e+000	
5.980000e-001	-9.851515e-001	-2.610415e+000	-2.610415e+000	-6.455870e+001	-8.273805e+001	-4.427381e+002	-5.788418e+001	5.311573e+001	5.931157e+002	-5.457861e-001	-2.231587e+000	-2.231587e+000	
5.990000e-001	-9.945481e-001	-2.608627e+000	-2.608627e+000	-6.134748e+001	-7.104540e+001	-4.310454e+002	-5.236805e+001	6.291990e+001	6.029199e+002	-5.674181e-001	-2.212029e+000	-2.212029e+000	
6.000000e-001	-9.866253e-001	-2.593092e+000	-2.593092e+000	-5.533527e+001	-7.045495e+001	-4.304549e+002	-5.443536e+001	7.866665e+001	6.186667e+002	-5.641371e-001	-2.209129e+000	-2.209129e+000	
6.010000e-001	-1.005457e+000	-2.685512e+000	-2.685512e+000	-5.360564e+001	-7.030677e+001	-4.303068e+002	-5.540090e+001	-8.646530e+001	6.335347e+002	-5.539914e-001	-2.236697e+000	-2.236697e+000	
6.020000e-001	-9.885802e-001	-2.471330e+000	-2.471330e+000	-5.373129e+001	7.624131e+001	-4.637587e+002	-5.959522e+001	8.171538e+001	6.217154e+002	-5.485358e-001	-2.202900e+000	-2.202900e+000	
