Frequency	 |S11|	 Phase(S11)	 ExtPh(S11)	 |S21|	 Phase(S21)	 ExtPh(S21)	 |S12|	 Phase(S12)	 ExtPh(S12)	 |S22|	 Phase(S22)	 ExtPh(S22) 
5.000000e-001	-6.136516e-001	-2.308362e+000	-2.308362e+000	-5.352920e+001	7.070885e+001	7.070885e+001	-5.840645e+001	6.899097e+001	6.899097e+001	-5.911803e-001	-1.906355e+000	-1.906355e+000	
5.010000e-001	-6.111233e-001	-2.335797e+000	-2.335797e+000	-6.211157e+001	6.891218e+001	6.891218e+001	-7.667718e+001	2.255648e+001	2.255648e+001	-6.033779e-001	-1.928310e+000	-1.928310e+000	
5.020000e-001	-6.100604e-001	-2.358178e+000	-2.358178e+000	-6.076360e+001	2.527257e+001	2.527257e+001	-5.080631e+001	-8.136401e+001	-8.136401e+001	-5.928152e-001	-1.805534e+000	-1.805534e+000	
5.030000e-001	-6.313505e-001	-2.207391e+000	-2.207391e+000	-5.407651e+001	-8.914010e+001	-8.914010e+001	-6.209310e+001	-6.661836e+001	-6.661836e+001	-6.032275e-001	-1.932198e+000	-1.932198e+000	
5.040000e-001	-6.414812e-001	-2.390015e+000	-2.390015e+000	-5.783751e+001	6.719154e+001	-1.128085e+002	-5.490484e+001	5.392035e+001	5.392035e+001	-5.869185e-001	-2.010380e+000	-2.010380e+000	
5.050000e-001	-6.227261e-001	-2.279826e+000	-2.279826e+000	-5.675792e+001	-5.202047e+001	-2.320205e+002	-5.559111e+001	8.102474e+001	8.102474e+001	-6.037219e-001	-2.045956e+000	-2.045956e+000	
5.060000e-001	-6.270648e-001	-2.256572e+000	-2.256572e+000	-5.776477e+001	-6.883029e+001	-2.488303e+002	-5.595495e+001	7.438370e+001	7.438370e+001	-6.000989e-001	-2.063650e+000	-2.063650e+000	
5.070000e-001	-6.305233e-001	-2.309861e+000	-2.309861e+000	-5.666424e+001	5.980882e+001	-1.201912e+002	-6.017303e+001	4.257578e+001	4.257578e+001	-5.915966e-001	-1.973453e+000	-1.973453e+000	
5.080000e-001	-6.223377e-001	-2.374574e+000	-2.374574e+000	-5.827121e+001	-6.361370e+001	-2.436137e+002	-5.999821e+001	-7.396396e+001	-7.396396e+001	-5.817192e-001	-2.107788e+000	-2.107788e+000	
5.090000e-001	-6.366802e-001	-2.332398e+000	-2.332398e+000	-6.210096e+001	-6.314871e+001	-2.431487e+002	-5.574759e+001	8.375986e+001	-9.624014e+001	-5.967456e-001	-1.978711e+000	-1.978711e+000	
5.100000e-001	-6.314873e-001	-2.372421e+000	-2.372421e+000	-6.070608e+001	5.468254e+001	-1.253175e+002	-5.654228e+001	7.762323e+001	-1.023768e+002	-6.040826e-001	-1.947365e+000	-1.947365e+000	
5.110000e-001	-6.412362e-001	-2.414492e+000	-2.414492e+000	-6.079658e+001	3.729338e+001	-1.427066e+002	-5.288591e+001	5.209452e+001	-1.279055e+002	-5.949985e-001	-2.048134e+000	-2.048134e+000	
5.120000e-001	-6.210341e-001	-2.405619e+000	-2.405619e+000	-7.335031e+001	-4.633045e+000	-1.846330e+002	-5.310099e+001	-8.433444e+001	-2.643344e+002	-5.959072e-001	-2.050287e+000	-2.050287e+000	
5.130000e-001	-6.315793e-001	-2.418206e+000	-2.418206e+000	-5.782612e+001	8.605568e+001	-9.394432e+001	-5.303506e+001	-8.586990e+001	-2.658699e+002	-5.816650e-001	-1.975553e+000	-1.975553e+000	
5.140000e-001	-6.256837e-001	-2.445889e+000	-2.445889e+000	-5.773009e+001	-7.604057e+001	-7.604057e+001	-5.408236e+001	7.223133e+001	-2.877687e+002	-5.864901e-001	-1.973476e+000	-1.973476e+000	
5.150000e-001	-6.230876e-001	-2.362485e+000	-2.362485e+000	-5.705861e+001	-8.847663e+001	-8.847663e+001	-5.603627e+001	7.596977e+001	-2.840302e+002	-5.865385e-001	-2.000307e+000	-2.000307e+000	
5.160000e-001	-6.320589e-001	-2.478587e+000	-2.478587e+000	-5.708347e+001	-3.789309e+001	-3.789309e+001	-5.389731e+001	6.938651e+001	-2.906135e+002	-5.998546e-001	-2.072083e+000	-2.072083e+000	
5.170000e-001	-6.162318e-001	-2.484302e+000	-2.484302e+000	-5.550657e+001	5.590111e+001	5.590111e+001	-5.260383e+001	7.060106e+001	-2.893989e+002	-5.981208e-001	-2.006876e+000	-2.006876e+000	
5.180000e-001	-6.191471e-001	-2.449071e+000	-2.449071e+000	-5.863153e+001	7.096819e+001	7.096819e+001	-5.266345e+001	-5.693203e+001	-4.169320e+002	-5.791185e-001	-1.934686e+000	-1.934686e+000	
5.190000e-001	-6.203422e-001	-2.422793e+000	-2.422793e+000	-5.779948e+001	-7.646562e+001	1.035344e+002	-5.564975e+001	8.764238e+001	-4.523576e+002	-5.933856e-001	-2.066117e+000	-2.066117e+000	
5.200000e-001	-6.309735e-001	-2.505089e+000	-2.505089e+000	-5.209314e+001	-8.081038e+001	9.918962e+001	-5.388021e+001	-8.895642e+001	-4.489564e+002	-5.942164e-001	-2.026313e+000	-2.026313e+000	
5.210000e-001	-6.273830e-001	-2.495874e+000	-2.495874e+000	-5.478675e+001	8.334166e+001	8.334166e+001	-5.602186e+001	8.241391e+001	-4.575861e+002	-5.904695e-001	-2.012819e+000	-2.012819e+000	
5.220000e-001	-6.001313e-001	-2.425405e+000	-2.425405e+000	-5.313596e+001	-7.584126e+001	1.041587e+002	-5.370301e+001	8.831498e+001	-4.516850e+002	-5.929480e-001	-2.126197e+000	-2.126197e+000	
5.230000e-001	-6.205911e-001	-2.310315e+000	-2.310315e+000	-5.526522e+001	7.594560e+001	7.594560e+001	-6.080307e+001	8.041434e+001	-4.595857e+002	-5.953443e-001	-2.169377e+000	-2.169377e+000	
5.240000e-001	-6.325111e-001	-2.458522e+000	-2.458522e+000	-5.913379e+001	7.048061e+001	7.048061e+001	-5.925566e+001	5.996104e+001	-4.800390e+002	-5.765056e-001	-2.146077e+000	-2.146077e+000	
5.250000e-001	-6.384286e-001	-2.513691e+000	-2.513691e+000	-5.326974e+001	-8.804079e+001	9.195921e+001	-6.219759e+001	6.175047e+001	-4.782495e+002	-5.901183e-001	-2.074756e+000	-2.074756e+000	
5.260000e-001	-6.327591e-001	-2.578633e+000	-2.578633e+000	-5.775512e+001	5.411758e+001	5.411758e+001	-5.208807e+001	-8.811707e+001	-4.481171e+002	-5.856412e-001	-2.124669e+000	-2.124669e+000	
5.270000e-001	-6.146321e-001	-2.586371e+000	-2.586371e+000	-5.395201e+001	7.683735e+001	7.683735e+001	-5.256512e+001	8.798261e+001	-4.520174e+002	-5.948767e-001	-2.015397e+000	-2.015397e+000	
5.280000e-001	-6.197625e-001	-2.506264e+000	-2.506264e+000	-5.548950e+001	-7.261258e+001	1.073874e+002	-5.572236e+001	8.237404e+001	-4.576260e+002	-6.110626e-001	-2.124031e+000	-2.124031e+000	
5.290000e-001	-6.203204e-001	-2.533521e+000	-2.533521e+000	-6.243909e+001	8.080921e+001	8.080921e+001	-5.127108e+001	8.405427e+001	-4.559457e+002	-6.115846e-001	-2.096964e+000	-2.096964e+000	
5.300000e-001	-6.132866e-001	-2.503869e+000	-2.503869e+000	-5.362917e+001	7.442745e+001	7.442745e+001	-6.432617e+001	3.785157e+001	-5.021484e+002	-5.898818e-001	-2.037130e+000	-2.037130e+000	
5.310000e-001	-6.337809e-001	-2.431120e+000	-2.431120e+000	-6.683081e+001	-1.269534e+001	-1.269534e+001	-4.990011e+001	-8.964242e+001	-6.296424e+002	-5.847638e-001	-2.089523e+000	-2.089523e+000	
5.320000e-001	-6.301815e-001	-2.482159e+000	-2.482159e+000	-5.517181e+001	-7.911601e+001	-7.911601e+001	-5.699763e+001	8.370092e+001	-6.362991e+002	-5.850389e-001	-2.122881e+000	-2.122881e+000	
5.330000e-001	-6.316584e-001	-2.428897e+000	-2.428897e+000	-5.424351e+001	-6.265790e+001	-6.265790e+001	-5.727749e+001	2.610997e+001	-6.938900e+002	-5.873545e-001	-2.112902e+000	-2.112902e+000	
5.340000e-001	-6.080018e-001	-2.446851e+000	-2.446851e+000	-5.981135e+001	7.824974e+001	-1.017503e+002	-5.340294e+001	-8.803872e+001	-8.080387e+002	-5.961552e-001	-2.135837e+000	-2.135837e+000	
5.350000e-001	-6.340970e-001	-2.451980e+000	-2.451980e+000	-5.675120e+001	4.286677e+001	-1.371332e+002	-6.922329e+001	-9.300815e+000	-7.293008e+002	-5.989231e-001	-2.157863e+000	-2.157863e+000	
5.360000e-001	-6.331857e-001	-2.493340e+000	-2.493340e+000	-6.446359e+001	5.743374e+001	-1.225663e+002	-5.486069e+001	8.839173e+001	-6.316083e+002	-5.934405e-001	-2.129753e+000	-2.129753e+000	
5.370000e-001	-6.295990e-001	-2.476500e+000	-2.476500e+000	-6.116454e+001	-8.709742e+001	-8.709742e+001	-5.556243e+001	6.107513e+001	-6.589249e+002	-5.921799e-001	-2.187569e+000	-2.187569e+000	
5.380000e-001	-6.313034e-001	-2.449852e+000	-2.449852e+000	-5.588918e+001	-8.187781e+001	-8.187781e+001	-5.326107e+001	5.718441e+001	-6.628156e+002	-5.923927e-001	-2.237136e+000	-2.237136e+000	
5.390000e-001	-6.255692e-001	-2.492365e+000	-2.492365e+000	-5.673931e+001	-7.081929e+001	-7.081929e+001	-5.592346e+001	7.646210e+001	-6.435379e+002	-5.898790e-001	-2.090519e+000	-2.090519e+000	
5.400000e-001	-6.160700e-001	-2.504018e+000	-2.504018e+000	-5.487877e+001	6.728063e+001	6.728063e+001	-5.832690e+001	-7.412026e+001	-6.141203e+002	-5.896977e-001	-2.112932e+000	-2.112932e+000	
5.410000e-001	-6.313540e-001	-2.516657e+000	-2.516657e+000	-5.456337e+001	8.801446e+001	8.801446e+001	-5.373822e+001	-7.527383e+001	-6.152738e+002	-6.013800e-001	-2.213655e+000	-2.213655e+000	
5.420000e-001	-6.206192e-001	-2.639274e+000	-2.639274e+000	-5.677119e+001	8.399113e+001	8.399113e+001	-5.609891e+001	7.150465e+001	-6.484954e+002	-5.876711e-001	-2.178960e+000	-2.178960e+000	
5.430000e-001	-6.243402e-001	-2.556521e+000	-2.556521e+000	-5.585165e+001	-7.833444e+001	1.016656e+002	-5.876926e+001	-3.402898e+001	-7.540290e+002	-5.934820e-001	-2.235189e+000	-2.235189e+000	
5.440000e-001	-6.286741e-001	-2.519975e+000	-2.519975e+000	-5.726833e+001	5.790833e+001	2.379083e+002	-5.439888e+001	-8.890701e+001	-8.089070e+002	-5.985431e-001	-2.188689e+000	-2.188689e+000	
5.450000e-001	-6.118248e-001	-2.493315e+000	-2.493315e+000	-5.687373e+001	-5.438658e+001	1.256134e+002	-5.413366e+001	-7.485229e+001	-7.948523e+002	-5.901794e-001	-2.172028e+000	-2.172028e+000	
5.460000e-001	-6.265751e-001	-2.586066e+000	-2.586066e+000	-5.328673e+001	-5.216973e+001	1.278303e+002	-5.477056e+001	7.450629e+001	-8.254937e+002	-5.922277e-001	-2.147638e+000	-2.147638e+000	
5.470000e-001	-6.077532e-001	-2.535192e+000	-2.535192e+000	-5.128916e+001	8.311976e+001	2.631198e+002	-5.818113e+001	7.888035e+001	-8.211196e+002	-5.853855e-001	-2.224448e+000	-2.224448e+000	
5.480000e-001	-6.330504e-001	-2.541325e+000	-2.541325e+000	-5.448418e+001	-6.556836e+001	2.944316e+002	-5.852886e+001	7.312159e+001	-8.268784e+002	-5.901741e-001	-2.146570e+000	-2.146570e+000	
5.490000e-001	-6.379328e-001	-2.591919e+000	-2.591919e+000	-5.300644e+001	5.807072e+001	4.180707e+002	-5.342754e+001	-8.423043e+001	-8.042304e+002	-5.907868e-001	-2.114609e+000	-2.114609e+000	
5.500000e-001	-6.193619e-001	-2.527299e+000	-2.527299e+000	-5.545035e+001	6.976700e+001	4.297670e+002	-5.576384e+001	8.921563e+001	-8.107844e+002	-5.873281e-001	-2.172187e+000	-2.172187e+000	
5.510000e-001	-6.307518e-001	-2.588059e+000	-2.588059e+000	-5.529615e+001	7.178411e+001	4.317841e+002	-5.886369e+001	8.587209e+001	-8.141279e+002	-6.000374e-001	-2.137598e+000	-2.137598e+000	
5.520000e-001	-6.203212e-001	-2.490025e+000	-2.490025e+000	-5.293868e+001	6.935704e+001	4.293570e+002	-5.824996e+001	6.872832e+001	-8.312717e+002	-5.950763e-001	-2.160470e+000	-2.160470e+000	
5.530000e-001	-6.121762e-001	-2.639819e+000	-2.639819e+000	-5.784218e+001	7.853466e+001	4.385347e+002	-5.227187e+001	-8.639160e+001	-8.063916e+002	-5.861018e-001	-2.130657e+000	-2.130657e+000	
5.540000e-001	-6.270675e-001	-2.580690e+000	-2.580690e+000	-5.212371e+001	7.844931e+001	4.384493e+002	-5.451428e+001	7.324019e+001	-8.267598e+002	-5.853340e-001	-2.181770e+000	-2.181770e+000	
5.550000e-001	-6.242050e-001	-2.536770e+000	-2.536770e+000	-5.361362e+001	2.517730e+001	3.851773e+002	-5.521351e+001	7.330716e+001	-8.266928e+002	-5.912561e-001	-2.185335e+000	-2.185335e+000	
5.560000e-001	-6.329023e-001	-2.537173e+000	-2.537173e+000	-5.367352e+001	7.252175e+001	4.325218e+002	-5.822727e+001	-8.547829e+001	-8.054783e+002	-5.932822e-001	-2.223098e+000	-2.223098e+000	
5.570000e-001	-6.220212e-001	-2.624469e+000	-2.624469e+000	-5.588456e+001	7.274750e+001	4.327475e+002	-5.758763e+001	-8.895100e+001	-8.089510e+002	-5.752044e-001	-2.121638e+000	-2.121638e+000	
5.580000e-001	-6.081580e-001	-2.619390e+000	-2.619390e+000	-6.534458e+001	7.130726e+001	4.313073e+002	-5.472656e+001	-8.412873e+001	-8.041287e+002	-5.945473e-001	-2.205250e+000	-2.205250e+000	
5.590000e-001	-6.438912e-001	-2.556441e+000	-2.556441e+000	-6.029222e+001	5.799408e+001	4.179941e+002	-5.599306e+001	-8.681134e+001	-8.068113e+002	-5.883884e-001	-2.216612e+000	-2.216612e+000	
5.600000e-001	-6.259104e-001	-2.444004e+000	-2.444004e+000	-5.278277e+001	-8.649642e+001	4.535036e+002	-5.351564e+001	8.339415e+001	-8.166059e+002	-5.860746e-001	-2.252479e+000	-2.252479e+000	
5.610000e-001	-6.208134e-001	-2.513627e+000	-2.513627e+000	-5.138061e+001	8.906389e+001	4.490639e+002	-5.790022e+001	7.764174e+001	-8.223583e+002	-6.019001e-001	-2.222000e+000	-2.222000e+000	
5.620000e-001	-6.340526e-001	-2.595286e+000	-2.595286e+000	-6.086817e+001	-5.554641e+001	4.844536e+002	-5.341531e+001	6.231288e+001	-8.376871e+002	-5.925879e-001	-2.291101e+000	-2.291101e+000	
5.630000e-001	-6.266150e-001	-2.510147e+000	-2.510147e+000	-5.212351e+001	-8.221442e+001	4.577856e+002	-6.000660e+001	-7.459570e+001	-9.745957e+002	-5.890314e-001	-2.299744e+000	-2.299744e+000	
5.640000e-001	-6.318200e-001	-2.516994e+000	-2.516994e+000	-5.442566e+001	-8.496570e+001	4.550343e+002	-5.997811e+001	-7.283378e+001	-9.728338e+002	-5.936441e-001	-2.234614e+000	-2.234614e+000	
5.650000e-001	-6.230585e-001	-2.482213e+000	-2.482213e+000	-5.533772e+001	4.722506e+001	5.872251e+002	-5.336865e+001	5.642598e+001	-8.435740e+002	-5.929655e-001	-2.192230e+000	-2.192230e+000	
5.660000e-001	-6.317322e-001	-2.476990e+000	-2.476990e+000	-5.476458e+001	8.314801e+001	6.231480e+002	-5.460611e+001	-8.656811e+001	-8.065681e+002	-6.032822e-001	-2.248301e+000	-2.248301e+000	
5.670000e-001	-6.496909e-001	-2.611923e+000	-2.611923e+000	-6.427445e+001	7.089364e+001	6.108936e+002	-5.422894e+001	7.101051e+001	-8.289895e+002	-5.986836e-001	-2.128651e+000	-2.128651e+000	
5.680000e-001	-6.371406e-001	-2.582351e+000	-2.582351e+000	-5.913024e+001	7.605567e+001	6.160557e+002	-5.508464e+001	7.541739e+001	-8.245826e+002	-5.838154e-001	-2.251960e+000	-2.251960e+000	
5.690000e-001	-6.327645e-001	-2.599962e+000	-2.599962e+000	-6.085892e+001	4.415930e+001	5.841593e+002	-5.645962e+001	-8.641380e+001	-8.064138e+002	-5.981549e-001	-2.316181e+000	-2.316181e+000	
5.700000e-001	-6.348867e-001	-2.533458e+000	-2.533458e+000	-5.632264e+001	-8.568124e+001	4.543188e+002	-5.446706e+001	7.917513e+001	-8.208249e+002	-5.894885e-001	-2.319923e+000	-2.319923e+000	
5.710000e-001	-6.283302e-001	-2.459844e+000	-2.459844e+000	-5.790464e+001	-6.480928e+001	4.751907e+002	-5.512970e+001	7.967369e+001	-8.203263e+002	-6.007181e-001	-2.271827e+000	-2.271827e+000	
5.720000e-001	-6.414507e-001	-2.517926e+000	-2.517926e+000	-5.104890e+001	-7.118363e+001	4.688164e+002	-5.155092e+001	6.544726e+001	-8.345527e+002	-5.868291e-001	-2.224686e+000	-2.224686e+000	
5.730000e-001	-6.353305e-001	-2.601039e+000	-2.601039e+000	-5.753920e+001	-8.071748e+001	4.592825e+002	-5.619303e+001	8.686579e+001	-8.131342e+002	-5.953342e-001	-2.271432e+000	-2.271432e+000	
5.740000e-001	-6.380230e-001	-2.503821e+000	-2.503821e+000	-6.115994e+001	7.296910e+001	4.329691e+002	-5.299955e+001	-8.540967e+001	-8.054097e+002	-5.900428e-001	-2.263126e+000	-2.263126e+000	
5.750000e-001	-6.363413e-001	-2.539274e+000	-2.539274e+000	-5.931145e+001	-4.298308e+001	3.170169e+002	-6.015268e+001	6.760833e+001	-8.323917e+002	-5.848637e-001	-2.241006e+000	-2.241006e+000	
5.760000e-001	-6.256788e-001	-2.650828e+000	-2.650828e+000	-5.799365e+001	8.042004e+001	4.404200e+002	-5.297561e+001	7.371874e+001	-8.262813e+002	-5.852145e-001	-2.256917e+000	-2.256917e+000	
5.770000e-001	-6.270043e-001	-2.502594e+000	-2.502594e+000	-5.561874e+001	8.154416e+001	4.415442e+002	-5.186419e+001	-8.354098e+001	-8.035410e+002	-5.765562e-001	-2.219820e+000	-2.219820e+000	
5.780000e-001	-6.259393e-001	-2.505282e+000	-2.505282e+000	-5.376800e+001	-8.498905e+001	4.550109e+002	-5.448027e+001	7.701964e+001	-8.229804e+002	-6.169184e-001	-2.151107e+000	-2.151107e+000	
5.790000e-001	-6.427102e-001	-2.621262e+000	-2.621262e+000	-5.593240e+001	4.082662e+001	5.808266e+002	-5.674737e+001	6.823955e+001	-8.317604e+002	-5.690440e-001	-2.192253e+000	-2.192253e+000	
5.800000e-001	-6.193075e-001	-2.472529e+000	-2.472529e+000	-5.382733e+001	7.064024e+001	6.106402e+002	-5.449765e+001	7.040062e+001	-8.295994e+002	-5.973615e-001	-2.325519e+000	-2.325519e+000	
5.810000e-001	-6.298071e-001	-2.524678e+000	-2.524678e+000	-5.410534e+001	-8.223946e+001	6.377605e+002	-5.374905e+001	5.619164e+001	-8.438084e+002	-5.774843e-001	-2.169882e+000	-2.169882e+000	
5.820000e-001	-6.252641e-001	-2.571934e+000	-2.571934e+000	-5.296828e+001	-8.282813e+001	6.371719e+002	-5.441972e+001	-8.187236e+001	-9.818724e+002	-5.904238e-001	-2.249739e+000	-2.249739e+000	
5.830000e-001	-6.382547e-001	-2.657727e+000	-2.657727e+000	-5.451220e+001	-8.146342e+001	6.385366e+002	-5.773284e+001	7.320573e+001	-1.006794e+003	-5.969553e-001	-2.220155e+000	-2.220155e+000	
5.840000e-001	-6.352367e-001	-2.627169e+000	-2.627169e+000	-5.497171e+001	6.716129e+001	6.071613e+002	-5.595793e+001	-5.899440e+001	-1.138994e+003	-5.902944e-001	-2.285897e+000	-2.285897e+000	
5.850000e-001	-6.270744e-001	-2.467983e+000	-2.467983e+000	-5.834374e+001	6.580086e+001	6.058009e+002	-5.305026e+001	6.418985e+001	-1.015810e+003	-6.076478e-001	-2.244794e+000	-2.244794e+000	
5.860000e-001	-6.169406e-001	-2.577297e+000	-2.577297e+000	-5.895093e+001	8.468160e+001	6.246816e+002	-5.604874e+001	7.442497e+001	-1.005575e+003	-6.041865e-001	-2.280267e+000	-2.280267e+000	
5.870000e-001	-6.433384e-001	-2.637716e+000	-2.637716e+000	-5.640564e+001	-8.428785e+001	6.357121e+002	-5.506677e+001	5.975409e+001	-1.020246e+003	-5.883633e-001	-2.331302e+000	-2.331302e+000	
5.880000e-001	-6.351696e-001	-2.634481e+000	-2.634481e+000	-5.824414e+001	4.571453e+001	7.657145e+002	-5.436607e+001	8.292671e+001	-9.970733e+002	-5.977921e-001	-2.229429e+000	-2.229429e+000	
5.890000e-001	-6.309373e-001	-2.668464e+000	-2.668464e+000	-5.816649e+001	6.046448e+001	7.804645e+002	-5.462823e+001	-8.224667e+001	-9.822467e+002	-6.002163e-001	-2.364185e+000	-2.364185e+000	
5.900000e-001	-6.251138e-001	-2.595864e+000	-2.595864e+000	-5.580728e+001	-7.571352e+001	6.442865e+002	-5.756688e+001	-8.400179e+001	-9.840018e+002	-6.009437e-001	-2.226289e+000	-2.226289e+000	
5.910000e-001	-6.387742e-001	-2.679171e+000	-2.679171e+000	-5.693904e+001	7.475994e+001	6.147599e+002	-5.199666e+001	-6.609497e+001	-9.660950e+002	-5.823276e-001	-2.268005e+000	-2.268005e+000	
5.920000e-001	-6.213735e-001	-2.565356e+000	-2.565356e+000	-5.321497e+001	6.374836e+001	6.037484e+002	-5.356066e+001	8.025002e+001	-9.997500e+002	-5.843530e-001	-2.222200e+000	-2.222200e+000	
5.930000e-001	-6.291758e-001	-2.654309e+000	-2.654309e+000	-5.621360e+001	7.016905e+001	6.101690e+002	-5.498896e+001	6.124718e+001	-1.018753e+003	-5.918351e-001	-2.277806e+000	-2.277806e+000	
5.940000e-001	-6.257375e-001	-2.648506e+000	-2.648506e+000	-5.704878e+001	-5.416779e+001	4.858322e+002	-5.641028e+001	-8.586678e+001	-9.858668e+002	-5.835831e-001	-2.121423e+000	-2.121423e+000	
5.950000e-001	-6.298541e-001	-2.711237e+000	-2.711237e+000	-5.425431e+001	-8.328709e+001	4.567129e+002	-5.829868e+001	4.795495e+001	-8.520451e+002	-5.884508e-001	-2.248165e+000	-2.248165e+000	
5.960000e-001	-6.427633e-001	-2.625259e+000	-2.625259e+000	-5.740525e+001	-8.524073e+001	4.547593e+002	-5.525311e+001	-7.893957e+001	-9.789396e+002	-5.936143e-001	-2.181338e+000	-2.181338e+000	
5.970000e-001	-6.240798e-001	-2.668002e+000	-2.668002e+000	-5.245067e+001	7.521482e+001	4.352148e+002	-5.427923e+001	6.739677e+001	-1.012603e+003	-5.861958e-001	-2.264382e+000	-2.264382e+000	
5.980000e-001	-6.182003e-001	-2.653094e+000	-2.653094e+000	-5.604893e+001	-7.482299e+001	4.651770e+002	-5.475499e+001	-5.216277e+001	-1.132163e+003	-5.861983e-001	-2.278170e+000	-2.278170e+000	
5.990000e-001	-6.030646e-001	-2.605250e+000	-2.605250e+000	-6.278076e+001	8.397010e+001	4.439701e+002	-5.451382e+001	5.106882e+001	-1.028931e+003	-5.790897e-001	-2.186859e+000	-2.186859e+000	
6.000000e-001	-6.198388e-001	-2.681006e+000	-2.681006e+000	-5.345156e+001	8.899978e+001	4.489998e+002	-5.464220e+001	7.402533e+001	-1.005975e+003	-5.991089e-001	-2.329939e+000	-2.329939e+000	
6.010000e-001	-6.418357e-001	-2.729887e+000	-2.729887e+000	-5.087533e+001	-8.593393e+001	4.540661e+002	-6.321504e+001	-4.102998e+001	-1.121030e+003	-5.881569e-001	-2.310646e+000	-2.310646e+000	
