Frequency	 |S11|	 Phase(S11)	 ExtPh(S11)	 |S21|	 Phase(S21)	 ExtPh(S21)	 |S12|	 Phase(S12)	 ExtPh(S12)	 |S22|	 Phase(S22)	 ExtPh(S22) 
5.000000e-001	-7.214931e-001	-2.185882e+000	-2.185882e+000	-6.043947e+001	7.700998e+001	7.700998e+001	-5.482822e+001	-5.524026e+001	-5.524026e+001	-5.659267e-001	-1.810026e+000	-1.810026e+000	
5.010000e-001	-7.027285e-001	-2.326527e+000	-2.326527e+000	-5.935648e+001	-7.925099e+001	1.007490e+002	-5.656817e+001	7.314488e+001	7.314488e+001	-5.558168e-001	-1.793412e+000	-1.793412e+000	
5.020000e-001	-6.955812e-001	-2.261299e+000	-2.261299e+000	-5.619965e+001	-4.410558e+001	1.358944e+002	-6.056109e+001	4.846022e+001	4.846022e+001	-5.447155e-001	-1.873587e+000	-1.873587e+000	
5.030000e-001	-7.161061e-001	-2.225285e+000	-2.225285e+000	-5.610094e+001	8.093246e+001	2.609325e+002	-6.089430e+001	5.924649e+001	5.924649e+001	-5.670047e-001	-1.830366e+000	-1.830366e+000	
5.040000e-001	-7.084112e-001	-2.275899e+000	-2.275899e+000	-5.243150e+001	-6.044992e+001	2.995501e+002	-5.500206e+001	6.182411e+001	6.182411e+001	-5.475488e-001	-1.958941e+000	-1.958941e+000	
5.050000e-001	-7.144979e-001	-2.349817e+000	-2.349817e+000	-5.565034e+001	5.310296e+001	4.131030e+002	-5.567770e+001	7.575961e+001	7.575961e+001	-5.394540e-001	-1.814161e+000	-1.814161e+000	
5.060000e-001	-7.075889e-001	-2.320880e+000	-2.320880e+000	-6.009724e+001	-6.116261e+001	2.988374e+002	-5.487546e+001	-7.256688e+001	1.074331e+002	-5.674924e-001	-1.774271e+000	-1.774271e+000	
5.070000e-001	-7.048324e-001	-2.273342e+000	-2.273342e+000	-5.888496e+001	8.582006e+001	2.658201e+002	-5.513375e+001	7.895257e+001	7.895257e+001	-5.644239e-001	-1.883813e+000	-1.883813e+000	
5.080000e-001	-7.204090e-001	-2.285912e+000	-2.285912e+000	-5.604445e+001	7.346051e+001	2.534605e+002	-5.604745e+001	8.525805e+001	8.525805e+001	-5.614892e-001	-1.925779e+000	-1.925779e+000	
5.090000e-001	-7.050269e-001	-2.255610e+000	-2.255610e+000	-5.814142e+001	7.576530e+001	2.557653e+002	-5.520741e+001	6.026451e+001	6.026451e+001	-5.674565e-001	-1.903542e+000	-1.903542e+000	
5.100000e-001	-7.176533e-001	-2.290560e+000	-2.290560e+000	-5.737866e+001	8.375256e+001	2.637526e+002	-5.055169e+001	3.788574e+001	3.788574e+001	-5.749450e-001	-1.863886e+000	-1.863886e+000	
5.110000e-001	-7.051016e-001	-2.215271e+000	-2.215271e+000	-5.817414e+001	4.441277e+001	2.244128e+002	-5.242200e+001	6.583873e+001	6.583873e+001	-5.563901e-001	-1.914149e+000	-1.914149e+000	
5.120000e-001	-7.175206e-001	-2.352528e+000	-2.352528e+000	-5.920769e+001	-5.988043e+001	1.201196e+002	-5.816769e+001	6.182290e+001	6.182290e+001	-5.638697e-001	-1.934634e+000	-1.934634e+000	
5.130000e-001	-7.015145e-001	-2.267052e+000	-2.267052e+000	-5.550201e+001	7.727625e+001	2.572763e+002	-5.426932e+001	3.475481e+001	3.475481e+001	-5.631061e-001	-1.982980e+000	-1.982980e+000	
5.140000e-001	-7.157213e-001	-2.346056e+000	-2.346056e+000	-5.365302e+001	8.092190e+001	2.609219e+002	-5.810404e+001	7.731127e+001	7.731127e+001	-5.659051e-001	-1.914258e+000	-1.914258e+000	
5.150000e-001	-6.938660e-001	-2.219657e+000	-2.219657e+000	-5.870403e+001	-7.741224e+001	2.825878e+002	-5.352838e+001	5.887484e+001	5.887484e+001	-5.424792e-001	-1.957363e+000	-1.957363e+000	
5.160000e-001	-7.097484e-001	-2.283681e+000	-2.283681e+000	-5.588529e+001	8.193626e+001	2.619363e+002	-5.235772e+001	6.891500e+001	6.891500e+001	-5.522675e-001	-1.954541e+000	-1.954541e+000	
5.170000e-001	-7.091956e-001	-2.411268e+000	-2.411268e+000	-5.756222e+001	-6.798577e+001	2.920142e+002	-5.435101e+001	8.813165e+001	8.813165e+001	-5.641892e-001	-1.934960e+000	-1.934960e+000	
5.180000e-001	-7.054807e-001	-2.396838e+000	-2.396838e+000	-6.555143e+001	-7.911069e+001	2.808893e+002	-5.692814e+001	8.868859e+001	8.868859e+001	-5.779998e-001	-1.942922e+000	-1.942922e+000	
5.190000e-001	-7.125168e-001	-2.548283e+000	-2.548283e+000	-5.915717e+001	8.866471e+001	2.686647e+002	-5.466694e+001	6.875485e+001	6.875485e+001	-5.682680e-001	-2.010476e+000	-2.010476e+000	
5.200000e-001	-7.309160e-001	-2.277765e+000	-2.277765e+000	-6.215242e+001	7.188563e+001	2.518856e+002	-5.621070e+001	-8.263822e+001	9.736178e+001	-5.673061e-001	-2.095984e+000	-2.095984e+000	
5.210000e-001	-7.086766e-001	-2.438417e+000	-2.438417e+000	-5.763116e+001	4.759137e+001	2.275914e+002	-5.566035e+001	7.975385e+001	7.975385e+001	-5.642803e-001	-2.020620e+000	-2.020620e+000	
5.220000e-001	-7.171896e-001	-2.292693e+000	-2.292693e+000	-5.638824e+001	-8.220096e+001	9.779904e+001	-5.225823e+001	8.862023e+001	8.862023e+001	-5.610360e-001	-1.879593e+000	-1.879593e+000	
5.230000e-001	-7.110371e-001	-2.332924e+000	-2.332924e+000	-5.557374e+001	5.756310e+001	2.375631e+002	-5.334469e+001	-8.980148e+001	9.019852e+001	-5.602596e-001	-2.054209e+000	-2.054209e+000	
5.240000e-001	-7.225364e-001	-2.342006e+000	-2.342006e+000	-5.697771e+001	7.837322e+001	2.583732e+002	-5.701066e+001	6.559199e+001	6.559199e+001	-5.580283e-001	-1.982187e+000	-1.982187e+000	
5.250000e-001	-7.083464e-001	-2.321125e+000	-2.321125e+000	-5.725920e+001	-7.669919e+001	2.833008e+002	-6.115323e+001	-8.746087e+001	9.253913e+001	-5.664290e-001	-2.073647e+000	-2.073647e+000	
5.260000e-001	-6.999571e-001	-2.474984e+000	-2.474984e+000	-6.112932e+001	-7.379702e+001	2.862030e+002	-5.807538e+001	1.755747e+001	1.975575e+002	-5.817570e-001	-1.977764e+000	-1.977764e+000	
5.270000e-001	-7.054087e-001	-2.371367e+000	-2.371367e+000	-5.579180e+001	6.881281e+001	2.488128e+002	-5.623745e+001	4.325586e+001	2.232559e+002	-5.609683e-001	-1.986794e+000	-1.986794e+000	
5.280000e-001	-7.241112e-001	-2.403137e+000	-2.403137e+000	-5.541907e+001	7.619467e+001	2.561947e+002	-5.769934e+001	-7.168239e+001	1.083176e+002	-5.542659e-001	-1.994190e+000	-1.994190e+000	
5.290000e-001	-7.075409e-001	-2.352372e+000	-2.352372e+000	-5.742773e+001	-8.609077e+001	2.739092e+002	-5.827289e+001	8.381789e+001	8.381789e+001	-5.645186e-001	-2.044136e+000	-2.044136e+000	
5.300000e-001	-7.163478e-001	-2.332756e+000	-2.332756e+000	-5.777990e+001	-5.981899e+001	3.001810e+002	-5.779557e+001	-8.754710e+001	9.245290e+001	-5.578319e-001	-2.133361e+000	-2.133361e+000	
5.310000e-001	-7.125665e-001	-2.357353e+000	-2.357353e+000	-5.196958e+001	-7.616712e+001	2.838329e+002	-5.758782e+001	6.254556e+001	6.254556e+001	-5.580908e-001	-2.049667e+000	-2.049667e+000	
5.320000e-001	-7.178456e-001	-2.340536e+000	-2.340536e+000	-5.713510e+001	7.108050e+001	2.510805e+002	-5.445596e+001	6.036918e+001	6.036918e+001	-5.625147e-001	-2.031766e+000	-2.031766e+000	
5.330000e-001	-6.963872e-001	-2.508846e+000	-2.508846e+000	-5.414329e+001	7.654790e+001	2.565479e+002	-5.320232e+001	-8.820037e+001	9.179963e+001	-5.633975e-001	-2.071964e+000	-2.071964e+000	
5.340000e-001	-6.951508e-001	-2.311444e+000	-2.311444e+000	-5.162299e+001	6.540651e+001	2.454065e+002	-5.515984e+001	8.390822e+001	8.390822e+001	-5.436505e-001	-2.033992e+000	-2.033992e+000	
5.350000e-001	-7.196271e-001	-2.514233e+000	-2.514233e+000	-5.730000e+001	7.526037e+001	2.552604e+002	-5.376460e+001	-7.331702e+001	1.066830e+002	-5.636075e-001	-2.153798e+000	-2.153798e+000	
5.360000e-001	-7.181391e-001	-2.400735e+000	-2.400735e+000	-5.506579e+001	5.621494e+001	2.362149e+002	-5.419681e+001	8.430600e+001	8.430600e+001	-5.756806e-001	-2.038361e+000	-2.038361e+000	
5.370000e-001	-7.057279e-001	-2.427737e+000	-2.427737e+000	-7.040306e+001	-6.162402e+001	1.183760e+002	-5.893180e+001	-7.012857e+001	1.098714e+002	-5.574530e-001	-2.139499e+000	-2.139499e+000	
5.380000e-001	-7.084474e-001	-2.386907e+000	-2.386907e+000	-5.235757e+001	-8.538958e+001	9.461042e+001	-5.875254e+001	8.731532e+001	8.731532e+001	-5.720034e-001	-2.001159e+000	-2.001159e+000	
5.390000e-001	-7.058337e-001	-2.401426e+000	-2.401426e+000	-5.563766e+001	5.562870e+001	5.562870e+001	-5.094778e+001	8.388155e+001	8.388155e+001	-5.531129e-001	-2.179714e+000	-2.179714e+000	
5.400000e-001	-7.193996e-001	-2.414926e+000	-2.414926e+000	-5.528847e+001	-8.724524e+001	9.275476e+001	-5.897281e+001	8.280650e+001	8.280650e+001	-5.676935e-001	-2.054353e+000	-2.054353e+000	
5.410000e-001	-7.158194e-001	-2.488982e+000	-2.488982e+000	-5.860895e+001	-8.400070e+001	9.599930e+001	-5.405338e+001	-6.112377e+001	1.188762e+002	-5.641681e-001	-2.193754e+000	-2.193754e+000	
5.420000e-001	-7.146737e-001	-2.410318e+000	-2.410318e+000	-5.512421e+001	-6.348737e+001	1.165126e+002	-5.661370e+001	8.798024e+001	8.798024e+001	-5.515698e-001	-2.092342e+000	-2.092342e+000	
5.430000e-001	-7.149146e-001	-2.440883e+000	-2.440883e+000	-5.068440e+001	5.299431e+001	2.329943e+002	-5.633956e+001	6.387782e+001	6.387782e+001	-5.588418e-001	-2.081462e+000	-2.081462e+000	
5.440000e-001	-7.090718e-001	-2.480923e+000	-2.480923e+000	-5.932828e+001	5.793559e+001	2.379356e+002	-5.531089e+001	4.890758e+001	4.890758e+001	-5.563635e-001	-2.069034e+000	-2.069034e+000	
5.450000e-001	-6.915250e-001	-2.408156e+000	-2.408156e+000	-6.010260e+001	8.682567e+001	2.668257e+002	-6.308410e+001	7.850483e+001	7.850483e+001	-5.687133e-001	-2.099050e+000	-2.099050e+000	
5.460000e-001	-7.051798e-001	-2.588235e+000	-2.588235e+000	-5.267606e+001	8.837555e+001	2.683755e+002	-5.937972e+001	7.478301e+001	7.478301e+001	-5.506366e-001	-2.107389e+000	-2.107389e+000	
5.470000e-001	-7.018549e-001	-2.395753e+000	-2.395753e+000	-5.461173e+001	8.998819e+001	2.699882e+002	-5.803635e+001	8.383393e+001	8.383393e+001	-5.572448e-001	-2.072807e+000	-2.072807e+000	
5.480000e-001	-7.090629e-001	-2.410662e+000	-2.410662e+000	-5.659936e+001	-6.433697e+001	2.956630e+002	-5.462993e+001	-8.776272e+001	9.223728e+001	-5.679324e-001	-2.202299e+000	-2.202299e+000	
5.490000e-001	-7.098863e-001	-2.305314e+000	-2.305314e+000	-5.263006e+001	7.138612e+001	4.313861e+002	-5.514085e+001	8.307816e+001	8.307816e+001	-5.692321e-001	-2.179351e+000	-2.179351e+000	
5.500000e-001	-7.086011e-001	-2.450707e+000	-2.450707e+000	-5.221518e+001	8.798948e+001	4.479895e+002	-5.533616e+001	5.889581e+001	5.889581e+001	-5.571560e-001	-2.134579e+000	-2.134579e+000	
5.510000e-001	-7.180932e-001	-2.527297e+000	-2.527297e+000	-5.544195e+001	-7.715657e+001	4.628434e+002	-5.117044e+001	7.460984e+001	7.460984e+001	-5.539471e-001	-2.010084e+000	-2.010084e+000	
5.520000e-001	-7.121493e-001	-2.303272e+000	-2.303272e+000	-5.951443e+001	5.908786e+001	5.990879e+002	-5.536730e+001	7.909917e+001	7.909917e+001	-5.614845e-001	-2.149994e+000	-2.149994e+000	
5.530000e-001	-7.128543e-001	-2.501851e+000	-2.501851e+000	-5.952768e+001	6.358855e+001	6.035886e+002	-5.459738e+001	-8.181684e+001	9.818316e+001	-5.673881e-001	-2.075219e+000	-2.075219e+000	
5.540000e-001	-7.150864e-001	-2.415908e+000	-2.415908e+000	-5.381724e+001	6.576412e+001	6.057641e+002	-5.798835e+001	4.038630e+001	2.203863e+002	-5.511478e-001	-2.069228e+000	-2.069228e+000	
5.550000e-001	-7.174299e-001	-2.438976e+000	-2.438976e+000	-5.700181e+001	8.545940e+001	6.254594e+002	-5.522186e+001	-7.136057e+001	1.086394e+002	-5.566066e-001	-2.159131e+000	-2.159131e+000	
5.560000e-001	-7.210032e-001	-2.363176e+000	-2.363176e+000	-5.774253e+001	8.497545e+001	6.249754e+002	-5.673758e+001	4.506234e+001	2.250623e+002	-5.572918e-001	-2.084747e+000	-2.084747e+000	
5.570000e-001	-6.980507e-001	-2.485536e+000	-2.485536e+000	-5.428102e+001	-5.086742e+001	4.891326e+002	-5.307235e+001	-8.139119e+001	9.860881e+001	-5.713742e-001	-2.119071e+000	-2.119071e+000	
5.580000e-001	-7.156138e-001	-2.488250e+000	-2.488250e+000	-6.082935e+001	7.348697e+001	6.134870e+002	-5.442010e+001	5.276946e+001	2.327695e+002	-5.537513e-001	-2.080218e+000	-2.080218e+000	
5.590000e-001	-7.200488e-001	-2.417116e+000	-2.417116e+000	-6.343561e+001	8.243118e+001	6.224312e+002	-6.224870e+001	5.927748e+001	2.392775e+002	-5.604569e-001	-2.088764e+000	-2.088764e+000	
5.600000e-001	-7.082915e-001	-2.428041e+000	-2.428041e+000	-5.540026e+001	-8.990944e+001	6.300906e+002	-5.341492e+001	7.783777e+001	2.578378e+002	-5.716938e-001	-2.056932e+000	-2.056932e+000	
5.610000e-001	-7.143788e-001	-2.529407e+000	-2.529407e+000	-5.192570e+001	8.614084e+001	6.261408e+002	-5.517514e+001	5.301808e+001	2.330181e+002	-5.597254e-001	-2.089955e+000	-2.089955e+000	
5.620000e-001	-7.183231e-001	-2.584893e+000	-2.584893e+000	-5.774013e+001	3.478461e+001	5.747846e+002	-5.540212e+001	7.999481e+001	2.599948e+002	-5.442051e-001	-2.184491e+000	-2.184491e+000	
5.630000e-001	-7.049803e-001	-2.416172e+000	-2.416172e+000	-5.743381e+001	4.780040e+001	5.878004e+002	-5.597542e+001	6.293858e+001	2.429386e+002	-5.733799e-001	-2.112093e+000	-2.112093e+000	
5.640000e-001	-7.083703e-001	-2.441621e+000	-2.441621e+000	-6.057857e+001	8.469507e+001	6.246951e+002	-5.282862e+001	6.733140e+001	2.473314e+002	-5.706167e-001	-2.140169e+000	-2.140169e+000	
5.650000e-001	-7.189431e-001	-2.495472e+000	-2.495472e+000	-5.377926e+001	5.063954e+001	5.906395e+002	-5.899979e+001	6.851186e+001	2.485119e+002	-5.620273e-001	-2.127824e+000	-2.127824e+000	
5.660000e-001	-7.158836e-001	-2.515644e+000	-2.515644e+000	-5.649980e+001	-5.431377e+001	4.856862e+002	-5.801888e+001	6.765862e+001	2.476586e+002	-5.529378e-001	-1.953015e+000	-1.953015e+000	
5.670000e-001	-7.052500e-001	-2.478904e+000	-2.478904e+000	-5.703251e+001	8.032014e+001	6.203201e+002	-5.462246e+001	5.434799e+001	2.343480e+002	-5.579989e-001	-2.110313e+000	-2.110313e+000	
5.680000e-001	-7.184327e-001	-2.449007e+000	-2.449007e+000	-5.546689e+001	-8.617390e+001	6.338261e+002	-5.990552e+001	7.407098e+001	2.540710e+002	-5.519535e-001	-2.118971e+000	-2.118971e+000	
5.690000e-001	-7.146668e-001	-2.501454e+000	-2.501454e+000	-5.501428e+001	8.344309e+001	6.234431e+002	-5.291044e+001	7.777773e+001	2.577777e+002	-5.543884e-001	-2.040433e+000	-2.040433e+000	
5.700000e-001	-7.114677e-001	-2.429049e+000	-2.429049e+000	-5.184305e+001	7.429512e+001	6.142951e+002	-5.443621e+001	8.744150e+001	2.674415e+002	-5.683573e-001	-2.191146e+000	-2.191146e+000	
5.710000e-001	-7.185587e-001	-2.473298e+000	-2.473298e+000	-5.506241e+001	-8.415779e+001	6.358422e+002	-5.802048e+001	-6.992841e+001	2.900716e+002	-5.393403e-001	-2.177139e+000	-2.177139e+000	
5.720000e-001	-7.218407e-001	-2.506471e+000	-2.506471e+000	-5.801511e+001	6.321184e+001	6.032118e+002	-5.407127e+001	6.608247e+001	4.260825e+002	-5.546342e-001	-2.122027e+000	-2.122027e+000	
5.730000e-001	-7.010855e-001	-2.432536e+000	-2.432536e+000	-5.896881e+001	-6.664667e+001	4.733533e+002	-5.706258e+001	-8.411784e+001	4.558822e+002	-5.651860e-001	-2.173670e+000	-2.173670e+000	
5.740000e-001	-7.131002e-001	-2.484188e+000	-2.484188e+000	-5.386208e+001	-8.454288e+001	4.554571e+002	-5.442671e+001	5.677705e+001	4.167771e+002	-5.597059e-001	-2.135419e+000	-2.135419e+000	
5.750000e-001	-6.940770e-001	-2.469423e+000	-2.469423e+000	-5.553502e+001	8.029260e+001	4.402926e+002	-5.279481e+001	-8.248411e+001	2.775159e+002	-5.549233e-001	-2.182252e+000	-2.182252e+000	
5.760000e-001	-7.273790e-001	-2.459174e+000	-2.459174e+000	-5.594341e+001	-8.087399e+001	4.591260e+002	-5.672770e+001	7.622539e+001	2.562254e+002	-5.569380e-001	-2.220034e+000	-2.220034e+000	
5.770000e-001	-7.202198e-001	-2.420048e+000	-2.420048e+000	-5.741309e+001	6.743970e+001	4.274397e+002	-5.461564e+001	7.799911e+001	2.579991e+002	-5.682738e-001	-2.143125e+000	-2.143125e+000	
5.780000e-001	-7.151331e-001	-2.479890e+000	-2.479890e+000	-5.289822e+001	6.500243e+001	4.250024e+002	-5.426054e+001	-7.779308e+001	2.822069e+002	-5.888283e-001	-2.163791e+000	-2.163791e+000	
5.790000e-001	-7.286831e-001	-2.504352e+000	-2.504352e+000	-5.883333e+001	7.010989e+001	4.301099e+002	-5.307772e+001	5.138055e+001	4.113805e+002	-5.570552e-001	-2.082776e+000	-2.082776e+000	
5.800000e-001	-7.198665e-001	-2.466217e+000	-2.466217e+000	-5.706560e+001	-8.501539e+001	4.549846e+002	-5.684605e+001	-8.760813e+001	2.723919e+002	-5.667446e-001	-2.160520e+000	-2.160520e+000	
5.810000e-001	-7.200970e-001	-2.555121e+000	-2.555121e+000	-5.595036e+001	4.982041e+001	5.898204e+002	-5.606780e+001	8.246168e+001	2.624617e+002	-5.600429e-001	-2.204317e+000	-2.204317e+000	
5.820000e-001	-7.157139e-001	-2.486385e+000	-2.486385e+000	-5.183947e+001	-8.647758e+001	4.535224e+002	-5.163393e+001	8.362597e+001	2.636260e+002	-5.705925e-001	-2.197954e+000	-2.197954e+000	
5.830000e-001	-7.257119e-001	-2.503934e+000	-2.503934e+000	-5.732087e+001	7.734687e+001	4.373469e+002	-5.625846e+001	8.073105e+001	2.607311e+002	-5.550997e-001	-2.220892e+000	-2.220892e+000	
5.840000e-001	-7.173642e-001	-2.620137e+000	-2.620137e+000	-5.411427e+001	5.517336e+001	4.151734e+002	-5.597758e+001	7.040050e+001	2.504005e+002	-5.541539e-001	-2.209164e+000	-2.209164e+000	
5.850000e-001	-7.138033e-001	-2.433919e+000	-2.433919e+000	-5.556888e+001	8.926345e+001	4.492635e+002	-5.606661e+001	-4.525399e+001	1.347460e+002	-5.670373e-001	-2.140757e+000	-2.140757e+000	
5.860000e-001	-7.057859e-001	-2.392292e+000	-2.392292e+000	-5.035096e+001	6.554328e+001	4.255433e+002	-5.702517e+001	-7.801072e+001	1.019893e+002	-5.814601e-001	-2.105492e+000	-2.105492e+000	
5.870000e-001	-7.097073e-001	-2.438865e+000	-2.438865e+000	-5.680121e+001	8.030884e+001	4.403088e+002	-5.375971e+001	-6.015696e+001	1.198430e+002	-5.807863e-001	-2.251621e+000	-2.251621e+000	
5.880000e-001	-7.215837e-001	-2.446567e+000	-2.446567e+000	-5.279880e+001	4.517230e+001	4.051723e+002	-5.610306e+001	-8.414841e+001	9.585159e+001	-5.577999e-001	-2.202181e+000	-2.202181e+000	
5.890000e-001	-7.156435e-001	-2.485965e+000	-2.485965e+000	-5.285630e+001	7.146457e+001	4.314646e+002	-5.353182e+001	2.439721e+001	2.043972e+002	-5.602476e-001	-2.237173e+000	-2.237173e+000	
5.900000e-001	-7.146595e-001	-2.534363e+000	-2.534363e+000	-5.507205e+001	-7.441998e+001	4.655800e+002	-5.496268e+001	6.683551e+001	2.468355e+002	-5.722501e-001	-2.166588e+000	-2.166588e+000	
5.910000e-001	-7.257542e-001	-2.570839e+000	-2.570839e+000	-5.573318e+001	6.805884e+001	4.280588e+002	-5.726557e+001	-6.836049e+001	1.116395e+002	-5.653671e-001	-2.279630e+000	-2.279630e+000	
5.920000e-001	-7.070023e-001	-2.468558e+000	-2.468558e+000	-4.939495e+001	-8.871117e+001	4.512888e+002	-5.708120e+001	5.054571e+001	2.305457e+002	-5.630243e-001	-2.106841e+000	-2.106841e+000	
5.930000e-001	-7.198737e-001	-2.527140e+000	-2.527140e+000	-5.705732e+001	8.869455e+001	4.486945e+002	-5.768964e+001	-7.789516e+001	1.021048e+002	-5.643337e-001	-2.208315e+000	-2.208315e+000	
5.940000e-001	-7.026681e-001	-2.550424e+000	-2.550424e+000	-5.225788e+001	-7.552804e+001	4.644720e+002	-5.388845e+001	-6.882186e+001	1.111781e+002	-5.652869e-001	-2.175837e+000	-2.175837e+000	
5.950000e-001	-7.270286e-001	-2.500697e+000	-2.500697e+000	-5.459183e+001	-7.655035e+001	4.634496e+002	-5.586277e+001	4.628301e+001	2.262830e+002	-5.597801e-001	-2.137936e+000	-2.137936e+000	
5.960000e-001	-6.949656e-001	-2.537100e+000	-2.537100e+000	-5.587833e+001	-8.413949e+001	4.558605e+002	-5.590802e+001	7.325729e+001	2.532573e+002	-5.490041e-001	-2.215770e+000	-2.215770e+000	
5.970000e-001	-7.208896e-001	-2.547970e+000	-2.547970e+000	-5.737056e+001	8.487867e+001	4.448787e+002	-5.222842e+001	-7.281859e+001	2.871814e+002	-5.617426e-001	-2.177022e+000	-2.177022e+000	
5.980000e-001	-7.037284e-001	-2.531069e+000	-2.531069e+000	-5.523406e+001	-8.542093e+001	4.545791e+002	-5.771588e+001	-8.871517e+001	2.712848e+002	-5.535137e-001	-2.146182e+000	-2.146182e+000	
5.990000e-001	-7.321218e-001	-2.611860e+000	-2.611860e+000	-5.441529e+001	8.863931e+001	4.486393e+002	-5.333088e+001	-8.999320e+001	2.700068e+002	-5.575127e-001	-2.190584e+000	-2.190584e+000	
6.000000e-001	-7.016872e-001	-2.569234e+000	-2.569234e+000	-5.723092e+001	8.858709e+001	4.485871e+002	-5.602244e+001	6.870653e+001	2.487065e+002	-5.668808e-001	-2.259092e+000	-2.259092e+000	
6.010000e-001	-7.133261e-001	-2.588045e+000	-2.588045e+000	-5.719772e+001	-8.704586e+001	4.529541e+002	-5.637871e+001	7.183064e+001	2.518306e+002	-5.554114e-001	-2.221796e+000	-2.221796e+000	
6.020000e-001	-7.064137e-001	-2.506463e+000	-2.506463e+000	-5.596815e+001	-7.139046e+001	4.686095e+002	-5.234947e+001	7.887966e+001	2.588797e+002	-5.502465e-001	-2.220763e+000	-2.220763e+000	
