!Keysight Technologies,M9374A,MY55442783,A.12.55.05
!Date: Thursday, May 20, 2021 18:17:22
!Correction: S11(Full 2 Port(1,2)) 
!S21(Full 2 Port(1,2)) 
!S12(Full 2 Port(1,2)) 
!S22(Full 2 Port(1,2)) 
!S2P File: Measurements: S11, S21, S12, S22:
# Hz S  RI   R 50
500000000 -0.87400997 0.066600993 -5.6479716e-005 -0.0011134687 -0.00017620684 -0.00044387858 -0.8723495 0.060138896
501000000 -0.87377506 0.068209298 -0.0012416461 -0.0013394676 -0.00047353492 -0.0016200807 -0.87205863 0.060408894
502000000 -0.87478173 0.066954076 -2.1752827e-005 -0.0010916053 0.00021524246 -0.00053822336 -0.8729499 0.061364941
503000000 -0.87326467 0.064720996 0.00071660551 -0.0011254705 0.00055098772 -0.0011241053 -0.87169868 0.062184934
504000000 -0.87339264 0.067379698 0.00038519147 -0.0015791552 0.0008345531 -0.001034181 -0.87165469 0.060251914
505000000 -0.87406451 0.066493936 -0.00032872707 -0.0016880487 -0.00024577035 -0.0023982441 -0.87257612 0.06219459
506000000 -0.8738209 0.067854792 -5.4848701e-005 -0.00097893493 -0.00047044249 -0.00086033717 -0.87264603 0.060450204
507000000 -0.87179857 0.06643945 -0.00032313299 -0.000811973 3.2413256e-005 -0.00075830205 -0.87215793 0.063742332
508000000 -0.87320626 0.069297664 0.00019201002 -0.00098844315 0.00039173555 -3.6717254e-005 -0.87186426 0.061623819
509000000 -0.874102 0.068853997 0.00020968511 -0.00084100902 -0.00044280544 7.8975725e-005 -0.87283313 0.062483918
510000000 -0.87399566 0.067405269 -0.00035986412 -0.0017182892 0.00017357816 -0.0017942585 -0.87193692 0.061704211
511000000 -0.87123424 0.068109207 -0.00046286138 -0.0011441424 -0.00049987581 -0.0010566947 -0.87220216 0.061008457
512000000 -0.87329471 0.067728072 -0.00069004885 -0.00047497495 -0.00097299763 -0.00094739144 -0.8723051 0.061831348
513000000 -0.87423646 0.068724178 -0.00091383507 -0.0012426728 0.00069936324 -0.0014171636 -0.8714686 0.061185114
514000000 -0.87232929 0.068866953 0.00041412836 -0.0011873178 -0.00064907072 -0.0010819181 -0.8715719 0.063002512
515000000 -0.87270284 0.068091772 -0.00086602406 -0.0015105089 1.8444634e-005 -0.0010018417 -0.87082815 0.064149775
516000000 -0.87297022 0.06950473 -0.00097805541 -0.0010188309 0.0017373844 -0.001472556 -0.87239105 0.063412912
517000000 -0.87378007 0.068544492 -0.00029937862 -0.00097637501 -0.00049010915 -0.0011927515 -0.87225568 0.062846117
518000000 -0.87251478 0.068470761 0.00020976573 -0.0015152473 0.00059729721 -0.0029914961 -0.87242305 0.063279517
519000000 -0.87328368 0.06851536 0.00028131492 -0.0011245873 -0.00033157057 -0.0011111263 -0.87143457 0.062532358
520000000 -0.87196934 0.068117946 -0.00042004933 -0.0009691412 -0.00028589604 -0.00076311588 -0.87100327 0.064280108
521000000 -0.87253654 0.069281511 0.0006276528 -0.0015413463 -0.00010851958 -0.0012858307 -0.87128943 0.062494937
522000000 -0.87337685 0.069676034 0.00045212693 -0.0011500014 -0.00028989511 -0.00020529985 -0.87231147 0.064101674
523000000 -0.87365353 0.068856627 -9.418821e-005 -0.0020686788 -0.00023211227 -0.00092545897 -0.87093425 0.064433292
524000000 -0.87352896 0.070757657 -0.00043407432 -0.00057326775 -3.3518943e-005 -0.00047553965 -0.87345046 0.064284779
525000000 -0.8720752 0.06989681 0.00032511761 -0.00056208303 -0.00091647549 -5.9331833e-005 -0.871153 0.06386406
526000000 -0.87375933 0.071119905 -0.00054075755 -0.0009065349 -0.00027470558 -0.00060275779 -0.87074757 0.065401666
527000000 -0.87220025 0.070512734 -0.0012681801 -0.00075536501 0.00085563539 -0.0016358062 -0.8706609 0.06476257
528000000 -0.87263137 0.070836484 0.0009516002 -0.00052911369 -0.0011989255 -0.0019530104 -0.86995476 0.067350946
529000000 -0.87511331 0.071552321 -0.0005088395 -0.0010321887 0.00058018585 -0.0017946882 -0.87160242 0.066173263
530000000 -0.87344021 0.071180291 0.0004050135 -0.00063542929 0.0008800833 -0.0012571822 -0.87283045 0.064710073
531000000 -0.8722896 0.072743438 -0.0010677197 -0.00013010655 0.0013878731 -0.0012672063 -0.8711887 0.066423424
532000000 -0.87242973 0.071127705 -0.00095198851 -0.0022019846 0.00081207609 -0.00044745643 -0.87248349 0.065386347
533000000 -0.87321466 0.071725987 2.9143946e-005 -0.0013611499 -0.00011179941 -0.00049912249 -0.87158191 0.065742597
534000000 -0.87281138 0.071826763 -0.00073703722 -0.00094733894 -0.0005562412 -0.0015140271 -0.87235665 0.064769298
535000000 -0.87435997 0.073637649 -0.00029428102 -0.00077009422 -0.00057985639 -0.0019749047 -0.87160945 0.06596002
536000000 -0.87412494 0.072128318 0.00059218367 -0.00035703776 -0.00062608143 -0.00068443251 -0.87094963 0.066522047
537000000 -0.87167305 0.071546569 0.00025186181 -0.0010366768 0.0010973617 -0.00074001576 -0.87094533 0.067131691
538000000 -0.87281984 0.071657076 0.00039667654 -0.001329393 -0.00079412066 -0.00094693765 -0.87111682 0.066277765
539000000 -0.87107652 0.072936073 0.00050343067 -0.0010755119 -0.00031722742 -0.0017336039 -0.87099653 0.067562096
540000000 -0.87247819 0.073160939 -0.00041419931 -0.0012574912 0.00038063765 -0.0014013214 -0.87196374 0.067578226
541000000 -0.87303746 0.072445199 0.00045985993 -0.00092482177 -0.00036775219 -0.0011251601 -0.87114137 0.067369863
542000000 -0.87259138 0.072946012 -0.00022090292 -0.001332487 0.00015129989 -0.0010527282 -0.86944318 0.066667683
543000000 -0.87127233 0.072644599 -0.00037413428 -0.0014797979 -0.00042966605 5.2108539e-005 -0.87254006 0.068647072
544000000 -0.87220514 0.072207853 -0.00079805288 -0.0010321531 0.00044899495 -0.0018207994 -0.87205589 0.067944616
545000000 -0.87176836 0.073197089 0.00096284156 -0.00015974711 0.00051228347 -0.0013121504 -0.87175989 0.066724449
546000000 -0.8724699 0.074328847 2.9962206e-005 -0.00086824765 0.00056695292 -0.00024668034 -0.87167406 0.069723576
547000000 -0.87434208 0.071744688 0.00079174829 -0.00061066216 -0.00048225556 -0.0015553603 -0.87061572 0.067819431
548000000 -0.87227827 0.07368093 -0.00075681804 -0.001251671 -0.00055297255 -0.0016217588 -0.87219799 0.066584155
549000000 -0.87137717 0.072405212 0.0017083186 -0.0011808226 0.00022839944 -0.0017334371 -0.87247193 0.068631254
550000000 -0.87221497 0.073113501 -0.00037093426 -0.0018394399 0.00047151468 -0.0013199965 -0.87140709 0.06867636
551000000 -0.87309802 0.073081382 -0.00036717957 -0.0011930343 -3.9882536e-005 -0.0020820205 -0.87083369 0.067374945
552000000 -0.87277168 0.072969042 0.00065970304 -0.00068875472 0.00016344775 -0.0027291772 -0.87308031 0.065387189
553000000 -0.87352288 0.073939607 -0.00014462424 -0.001533535 -0.00059966807 -0.00087006588 -0.87121415 0.067462459
554000000 -0.8727262 0.07324259 -0.0002296616 -0.0012951453 -0.00013423871 -0.0012248817 -0.87072045 0.064863116
555000000 -0.87190366 0.072148345 0.0007901733 -0.001411399 -0.0008026897 -0.00051163341 -0.87223691 0.066163786
556000000 -0.87280715 0.072846942 -0.00094808947 -0.0017777086 -0.00068897998 -0.00026660389 -0.8720116 0.068611301
557000000 -0.87246001 0.074618988 -0.00029253823 -0.0012009905 0.00017440869 -0.001025014 -0.87332171 0.067393944
558000000 -0.87212092 0.073747486 -0.0013100167 -0.00080441323 7.4701718e-005 -0.00069692556 -0.87104189 0.067820199
559000000 -0.87242717 0.073354051 -0.00072181743 -0.00023530745 -0.00056267396 -0.0020728011 -0.87127465 0.06836199
560000000 -0.8741762 0.073712036 0.00026744386 -0.0002303377 -0.00027051286 -0.00096337945 -0.87270421 0.067351177
561000000 -0.87319303 0.073896676 -0.00082872191 -0.00070961332 -0.0004878749 -0.0010698313 -0.87262487 0.068488955
562000000 -0.8728202 0.07383693 5.4031466e-006 -0.0019866433 -0.00081826659 -0.00070307852 -0.87308478 0.068190299
563000000 -0.87357128 0.074476682 -0.00050665095 -0.0016394098 -0.00047826365 -0.00081025367 -0.87153637 0.069233119
564000000 -0.87330943 0.075218342 -0.00071462174 -0.0016593415 0.00017027884 -0.0010673822 -0.87043142 0.067314781
565000000 -0.87267023 0.073969245 -0.00022338868 -0.00082155369 0.00037545228 -0.00028787376 -0.87137884 0.068812683
566000000 -0.87345332 0.072031774 0.0010472814 -0.0013245119 -0.00034782843 -0.0017513295 -0.87137127 0.069866069
567000000 -0.87307513 0.075318269 -0.00036883965 -0.0014704559 0.00080345315 -0.00092239591 -0.87207305 0.067728862
568000000 -0.87280619 0.073006243 -0.00037477349 -0.0014688601 -3.7578164e-005 -0.00024623337 -0.87190259 0.068116203
569000000 -0.87095946 0.073800385 0.00040004656 -0.0014888521 -4.5211666e-005 -0.00080059055 -0.87169528 0.068206891
570000000 -0.87214458 0.074099123 -6.9048794e-005 -0.00063074206 0.00013830388 -0.00045140326 -0.87190086 0.069384165
571000000 -0.87175024 0.073783882 -1.8787265e-005 -0.0016764561 0.000343144 -0.0012774259 -0.87133259 0.069472589
572000000 -0.87208718 0.074072421 -3.4147699e-005 -0.00097123563 -0.00065275311 -0.0011590058 -0.87059045 0.067994498
573000000 -0.87314385 0.073913068 0.00023530878 -0.0017331479 0.00016848452 -0.0021799684 -0.87155294 0.068391778
574000000 -0.87064493 0.074664332 0.00084605423 -0.00077330595 0.00039049768 -0.0011195296 -0.87151229 0.069067739
575000000 -0.87250859 0.074100368 -0.00010033296 -0.00075659819 0.00016255875 -0.0008958315 -0.8713851 0.067891069
576000000 -0.87164283 0.075133897 0.00030958018 -0.0011359054 0.00048945844 -0.0014555055 -0.87019068 0.0678664
577000000 -0.87352753 0.075020395 -0.00039020879 -0.0019242543 -0.00015651521 -0.0014244905 -0.87139165 0.067436725
578000000 -0.87174779 0.074659914 -0.00056975539 -0.0018516809 -0.00017001403 -0.00062099495 -0.87189823 0.068048313
579000000 -0.87078512 0.075864002 0.0004071203 -0.0011309752 -0.00076745509 -0.0013843734 -0.87305707 0.069204822
580000000 -0.87235761 0.07458128 0.00086046208 -0.0014261588 -0.0004898656 -0.00069359917 -0.87137836 0.071347147
581000000 -0.8723461 0.074392743 -0.00074064324 -0.0011907483 0.0012801861 -0.00019341477 -0.87280118 0.069937289
582000000 -0.87251222 0.07582821 0.00034583901 -0.00059303106 -0.0012920054 -0.00052855565 -0.8712011 0.068573169
583000000 -0.8726539 0.076523624 -0.0006610144 -0.0010111096 -0.0004197525 -0.00090575626 -0.8726027 0.069676988
584000000 -0.87171423 0.075148523 0.000329273 -0.0022461442 0.00035792962 4.2903874e-005 -0.87011164 0.070222035
585000000 -0.87255573 0.075007044 0.00065033743 -0.00055284711 -0.00050177344 -0.0015762302 -0.87111986 0.068571404
586000000 -0.87160605 0.074961945 -9.3495772e-005 -0.00095598353 -0.00015891722 -0.0024521474 -0.87147993 0.069094241
587000000 -0.87137318 0.075397246 -0.0011945816 -0.0012456034 -7.6655873e-005 -0.001711003 -0.87027586 0.071666561
588000000 -0.87071377 0.073971972 0.00047082952 -0.00080959353 0.00053234131 -0.0019997428 -0.87172276 0.069922864
589000000 -0.87128377 0.077332467 0.00039372934 -0.00053166877 -0.00081199012 -0.00099592388 -0.87067389 0.071086913
590000000 -0.87166411 0.077006355 0.00029672822 -0.0011149922 -0.0013594024 -0.00096200488 -0.8695122 0.070607498
591000000 -0.8732484 0.077614203 -0.00086541567 -0.0017373391 -0.00041406613 5.9167898e-005 -0.87081301 0.071802288
592000000 -0.87200254 0.074590407 -0.00024018601 -0.0012479898 -3.0284677e-005 -0.0012120227 -0.87176651 0.070250675
593000000 -0.87042892 0.076879345 -0.00083967258 9.178405e-006 -0.00054078095 -0.0016370972 -0.87254566 0.071605057
594000000 -0.87147522 0.077382825 0.00019571788 -0.001189722 0.00053751981 -0.0019691829 -0.87140173 0.073006831
595000000 -0.87223208 0.076652288 5.1272084e-005 -0.0011329046 -2.6215019e-005 -0.0006333334 -0.87062842 0.071998596
596000000 -0.86992645 0.077890992 -0.00057936762 -0.0014914502 -0.0016699256 -0.001174421 -0.87053758 0.071479194
597000000 -0.87154055 0.077674687 -0.00083994563 -0.0015168565 -0.0012043446 -0.00064098288 -0.87070328 0.070918858
598000000 -0.87231869 0.078227744 -0.00085747719 -0.001333712 0.00017924859 -0.0021365085 -0.87148899 0.071258537
599000000 -0.87041473 0.076814696 -0.00011205687 -0.00078459381 -0.00090479595 -0.00096324855 -0.87096906 0.072253674
600000000 -0.8718158 0.079247713 -0.00069476158 -0.0011430853 -0.0017704441 -0.00094362115 -0.8707357 0.072989181
601000000 -0.87187737 0.076158829 0.00051813299 -0.00010791024 -0.00083556288 -0.00091011717 -0.87145644 0.071939938
602000000 -0.87104195 0.077741712 -0.00051232323 -0.00035246703 0.00037092416 -0.0016958017 -0.87223762 0.072669327
603000000 -0.87405705 0.078048803 2.3099345e-005 -0.0018967285 1.7886794e-005 -0.00056866917 -0.86994326 0.072994709
604000000 -0.87239009 0.079018846 -0.00013894933 -0.00035632521 0.00010615415 -0.001457008 -0.87120306 0.072723597
605000000 -0.87139904 0.078920528 0.0005613566 7.3507421e-005 -0.00055770378 -0.0010315103 -0.87066591 0.072297707
606000000 -0.87131512 0.079496667 0.00030902645 -0.0013140487 -0.00048899464 -0.001683833 -0.87057585 0.072888836
607000000 -0.87256289 0.079599239 -0.00085461722 -0.00063675601 -0.00076231145 -0.00027998592 -0.87063277 0.071524471
608000000 -0.87037009 0.079939634 0.00049833237 -0.0021969823 -0.00030645012 -0.0012932228 -0.87039739 0.073459364
609000000 -0.87151563 0.080777198 0.00030855899 -0.0016295388 -0.00026515633 -0.0012987155 -0.86906552 0.072615825
610000000 -0.87218595 0.080186762 -0.00064894353 -0.0022532414 0.00095397886 -0.0024497493 -0.86982465 0.073326394
611000000 -0.87074655 0.079776503 0.00037426047 -0.0017858903 -0.00090592518 -0.00098495279 -0.87014294 0.073730536
612000000 -0.87240267 0.080211595 -0.0021003303 -0.0017380135 -0.0013046663 -0.0010316139 -0.87209934 0.073735498
613000000 -0.87123781 0.079529218 0.0011333647 -0.00088549434 -0.0011561119 -0.0016522219 -0.87069196 0.073330417
614000000 -0.87092459 0.079661444 0.00047254894 -0.0002983032 -9.1515634e-005 -0.0013835736 -0.87076354 0.073748365
615000000 -0.86975545 0.079652108 -0.00062113977 -0.00144551 -0.0004460178 -0.0011959017 -0.87112004 0.074452817
616000000 -0.87107432 0.082346328 -0.00016647657 -0.0014580104 0.00021697134 -0.0020653 -0.86986017 0.076333635
617000000 -0.869932 0.082293481 -0.00027300671 -0.0012706521 -0.00059491844 -0.0011745711 -0.86965984 0.074726559
618000000 -0.87255543 0.08194495 0.0002204262 -0.0011219017 -6.8004297e-006 -0.0011369501 -0.8715902 0.074413024
619000000 -0.87052226 0.08293061 0.00039937531 0.00018974961 -0.00018487083 -0.0013045842 -0.87182915 0.073783278
620000000 -0.87163007 0.082349166 -0.0006466175 -0.0019857492 -0.00071631768 -0.0012254568 -0.87126452 0.075792566
621000000 -0.8721202 0.081941061 0.00081132137 -0.0026213187 7.2021062e-006 -0.0017101408 -0.86885631 0.074782602
622000000 -0.87121391 0.083720811 -0.00031955648 -0.00082592457 -0.00031100601 -0.0012828879 -0.87138551 0.075068802
623000000 -0.87076139 0.083965398 -0.00027903265 -0.0012886607 -0.00048319023 -0.00053888914 -0.87064117 0.075471058
624000000 -0.87019396 0.082241103 -0.00076324027 -0.0011413578 -0.00071553269 -0.0011564067 -0.8702594 0.074502878
625000000 -0.8702625 0.082989782 -0.00029870993 -0.0013064322 -0.00057666824 -0.00096985989 -0.86978537 0.073124066
626000000 -0.87132394 0.083603397 -0.00066872832 -0.00083800277 -0.00085616525 -0.00178034 -0.86923969 0.078386024
627000000 -0.87138063 0.084579036 0.00029003422 -0.00046950797 -0.00064140063 -0.0011242683 -0.87151414 0.074543461
628000000 -0.87229276 0.084852397 -0.00035879368 -0.0012499162 -0.00035398331 -0.0014191522 -0.87170231 0.076936856
629000000 -0.87057984 0.084017642 0.00019330753 -0.0014195979 -0.00069522107 -0.0010715988 -0.86893338 0.078038968
630000000 -0.87145185 0.085505776 -0.0005311775 -0.0012660619 -0.00011778154 -0.0009430325 -0.87006241 0.075581886
631000000 -0.87115037 0.084338106 -0.00065955956 -0.00053076877 -0.00056972756 -0.0014465576 -0.87012094 0.076539062
632000000 -0.87133831 0.084352762 -0.0017332418 -0.00098676502 -0.00012593638 -0.0019838645 -0.86930329 0.077503376
633000000 -0.87148827 0.084589861 -0.00062262296 -0.000803228 -0.00032286433 -0.00069843384 -0.87074322 0.076415621
634000000 -0.87224257 0.08638528 -0.00047218872 -0.0016184176 0.00061249261 -0.00071160821 -0.87013292 0.07640741
635000000 -0.87068892 0.082798943 -0.0008181826 -0.0014711813 -0.00026973974 -0.0010818618 -0.87091833 0.077260807
636000000 -0.87119734 0.083742119 0.00038317652 -0.00096981891 0.00041375365 -0.0017818267 -0.86982793 0.07650122
637000000 -0.8702758 0.08427383 -0.0002275115 -0.00080117868 0.00021295257 -0.0010539758 -0.86973757 0.077449813
638000000 -0.87041134 0.084777243 -0.00077428558 -0.0015086523 -0.00045295159 -0.0018756606 -0.87058324 0.077342018
639000000 -0.87335807 0.085842155 -8.3015919e-005 -0.0010358567 -0.00056727574 -0.0015933017 -0.86963832 0.077171445
640000000 -0.87144595 0.08580143 4.0409021e-005 4.6005462e-005 0.00027490233 -0.00097190542 -0.86890239 0.07719361
641000000 -0.87066424 0.085699916 2.781038e-005 -0.00054304814 0.00025792324 -0.00032800337 -0.86942691 0.076604456
642000000 -0.87191409 0.086018249 -0.00024473644 -0.001317779 -0.00069145742 -0.00099872088 -0.87140447 0.078109346
643000000 -0.87092495 0.0859304 -9.5888863e-005 -0.00091188517 -1.8690613e-005 1.5541284e-005 -0.87128997 0.078222223
644000000 -0.87094748 0.086450793 -0.00085659616 -0.0017778778 -0.0008466416 -0.0010559189 -0.86973685 0.077400737
645000000 -0.87096298 0.08580602 -0.00015663312 -0.0010847778 -0.00022508277 -0.0017420419 -0.87114114 0.079351522
646000000 -0.869807 0.087368086 0.00013602198 -0.00019060024 0.00067752553 -0.0016274969 -0.87058938 0.077028856
647000000 -0.87140423 0.086972475 -0.00099237845 -0.0007896836 -0.00026765108 -0.00079257682 -0.87141067 0.077408351
648000000 -0.87117219 0.087609433 -0.00058534805 -0.0025592346 0.00064028805 -0.0023020378 -0.86922854 0.079326183
649000000 -0.86983103 0.086648665 0.00018308763 -0.0020395215 -0.00059736997 -0.0015566339 -0.87049145 0.079272762
650000000 -0.8693766 0.086306453 -3.6478181e-005 -0.0017313337 0.00011029886 -0.0018338247 -0.87033755 0.078385964
651000000 -0.8692736 0.085804433 -0.000509409 -0.00086366478 -0.00012406847 -0.0019840759 -0.87039828 0.079120226
652000000 -0.86950082 0.088636115 0.00016781405 -0.0012945405 0.000137852 -0.001559291 -0.86835611 0.077866428
653000000 -0.87185341 0.086751319 -0.00023284923 -0.0017510838 0.00033297969 -0.0015004103 -0.87034112 0.078458719
654000000 -0.87012798 0.088293523 -2.6168107e-005 -0.0011065804 -0.0010726026 -0.00054893736 -0.87052774 0.079738311
655000000 -0.87109536 0.086782828 -0.00043241482 -0.0016853112 0.00053776562 -0.001813737 -0.87006754 0.079288609
656000000 -0.87109268 0.086902484 -0.00093307992 -0.0016158955 1.275386e-006 -0.001568584 -0.8707189 0.078565732
657000000 -0.87081623 0.087876596 0.00024411565 -0.0011278847 5.1471645e-005 -0.0015675792 -0.86923873 0.078928217
658000000 -0.87089157 0.087007657 -5.8391797e-005 -0.0018519277 -6.2608953e-005 -0.0014362938 -0.8698858 0.079083711
659000000 -0.87029302 0.088759951 -0.0013914574 -0.0015709852 -0.00016689282 -0.0013612843 -0.86869937 0.077858008
660000000 -0.86960256 0.08894898 0.00096637383 -0.0011386382 6.9582769e-005 -0.0022034338 -0.87001795 0.078369573
661000000 -0.86997068 0.08826194 -0.00015219611 -0.0020710274 -0.00012856362 -0.0014906531 -0.86984056 0.07848984
662000000 -0.87109792 0.087052122 0.00088342343 -0.001185424 -5.5604592e-005 -0.00082513795 -0.86980379 0.080234952
663000000 -0.87073517 0.086685173 -0.00027473268 -0.0019608431 -0.00020065448 -0.0011584922 -0.86849785 0.079452962
664000000 -0.86874866 0.08930511 3.1801766e-005 -0.0023997144 -0.0019037002 -0.0013405468 -0.86962157 0.078486592
665000000 -0.87073928 0.087484613 -0.00011142448 -0.0023366569 -0.0005924647 -0.00095957727 -0.8699308 0.080106713
666000000 -0.87055284 0.087278493 0.00043656281 -0.0012936655 -0.0013239922 -0.0018597399 -0.87193698 0.079747312
667000000 -0.87055743 0.087604001 -0.00023119852 -0.0018983072 -7.1640919e-005 -0.0017801179 -0.86945814 0.079873756
668000000 -0.87045658 0.087823354 0.00086071796 -0.0016557544 -0.0008586155 -0.00063838606 -0.87088835 0.080322325
669000000 -0.87085235 0.088387057 -0.00041512211 -0.0017998329 -0.0005410352 -0.0017844171 -0.8689912 0.079385728
670000000 -0.8697648 0.088924602 0.00068807212 -0.0012551565 7.9096688e-005 -0.0019858056 -0.86857241 0.080242015
