!Keysight Technologies,M9374A,MY55442783,A.12.55.05
!Date: Thursday, May 20, 2021 18:10:54
!Correction: S11(Full 2 Port(1,2)) 
!S21(Full 2 Port(1,2)) 
!S12(Full 2 Port(1,2)) 
!S22(Full 2 Port(1,2)) 
!S2P File: Measurements: S11, S21, S12, S22:
# Hz S  RI   R 50
500000000 -0.87455499 0.066128448 0.00018459915 -0.0016581195 0.00022648918 -0.00011296348 -0.87252986 0.059429355
501000000 -0.87399977 0.067058928 0.00042654623 -0.00080265693 0.00068147428 -0.0013281376 -0.87058955 0.059868567
502000000 -0.87318802 0.066199236 -0.00022982608 -0.00066271162 -0.00046370787 -0.00039863432 -0.87356299 0.060167823
503000000 -0.87275487 0.067008659 -0.0003766306 -0.00083725475 -0.00048698412 -0.001206109 -0.87177908 0.062502533
504000000 -0.8733291 0.069011196 -0.00037230621 -0.00030456152 -0.00086412876 -0.0015258243 -0.87168378 0.062073685
505000000 -0.87417531 0.066978216 -0.00052969862 -0.00090064888 -0.00054655032 -0.0011456511 -0.87278938 0.059552509
506000000 -0.87276071 0.068433933 -0.00032485693 -0.00028942004 -3.4534904e-005 -0.00075757009 -0.87099957 0.061637633
507000000 -0.87218791 0.0667331 0.00037283282 -0.001356112 0.00013918905 -0.00023069463 -0.87211043 0.061726626
508000000 -0.87307423 0.068492882 0.00021046148 -0.0017844075 -0.00082622573 -0.0013644963 -0.87211114 0.062115129
509000000 -0.87318885 0.067825399 0.00045124465 -0.00098325964 8.5970009e-005 -0.00061926688 -0.87356114 0.061922252
510000000 -0.87288272 0.068359561 0.00052713876 -0.00061835669 -0.0016318769 -0.002081855 -0.87212175 0.063653767
511000000 -0.87258208 0.068235509 -0.0001774906 -0.00074554596 0.00042639938 -0.001878664 -0.87062687 0.063065261
512000000 -0.87281144 0.067019261 -0.0010956145 -0.0011131749 0.00043859493 -0.0011183555 -0.87195224 0.062728643
513000000 -0.87396932 0.068386011 1.3533408e-005 -0.00090969307 -0.00039897367 -0.00051808712 -0.87133729 0.062001303
514000000 -0.87358284 0.069011435 -0.00054680975 -0.00069357344 -0.00026437038 -0.00064378552 -0.87296999 0.063740045
515000000 -0.87404871 0.068485349 0.00045882806 -0.00196715 -0.00075180345 -0.001704131 -0.87227339 0.065094471
516000000 -0.87451243 0.069390967 -0.00050899974 -0.0015678793 -0.00025500546 -0.0021433102 -0.87333816 0.063625611
517000000 -0.8733077 0.069830701 -0.00029703189 -0.0011661546 0.00082850177 -0.00097485766 -0.87226403 0.06471125
518000000 -0.87329739 0.069487348 -0.00021423474 -0.00065533933 -0.0014198332 -0.00099548441 -0.87164819 0.063008949
519000000 -0.8735348 0.069872126 0.00065884861 -0.0014890205 -0.00067237014 -0.0016738069 -0.87279248 0.064528793
520000000 -0.87292844 0.070655122 -0.00079555006 -0.0016572133 0.00068110653 -0.00016157159 -0.87145102 0.064854555
521000000 -0.87394494 0.070456937 7.6464799e-005 -0.00083402736 -0.00043478105 -0.0011692315 -0.87081259 0.065197334
522000000 -0.87346762 0.069747753 -0.00057911064 -0.0018312694 -0.00026389569 -0.00099907094 -0.87089843 0.06471967
523000000 -0.87531388 0.070628658 0.00085037778 -0.0013229152 -0.00078391505 -0.00068860338 -0.86978227 0.06423711
524000000 -0.8731162 0.0706321 -0.00082545052 -0.00041348633 -6.3395928e-006 -0.0008604289 -0.8726263 0.064040646
525000000 -0.87310499 0.070379004 0.0004074664 -0.0015404269 0.0008344141 -0.0010179811 -0.87249386 0.065991037
526000000 -0.87305248 0.071896017 0.00064760417 -0.00078105915 0.00043133865 -0.0011990522 -0.87134331 0.066118866
527000000 -0.87240511 0.072141819 -0.000570754 -0.0016184443 0.00047875528 -0.0005672063 -0.87236804 0.065743074
528000000 -0.87246937 0.071507655 -0.00016264195 -0.0020422728 -0.00057904888 -0.0018114618 -0.87329125 0.065348335
529000000 -0.87400901 0.070623897 -2.3162327e-006 -0.00084407744 4.2330598e-006 -0.0012319123 -0.87171757 0.065136477
530000000 -0.87319463 0.073155157 -0.0001664234 -0.00069892057 0.00013705732 -0.00080854929 -0.87134129 0.066244483
531000000 -0.87362164 0.07216534 0.00046298673 -0.0019784074 -0.00067680085 -0.0018021913 -0.87134659 0.065005928
532000000 -0.87212968 0.071521394 0.0004514867 -0.0013635127 -0.00017503013 -0.00024311036 -0.86961532 0.065348946
533000000 -0.87372524 0.071931563 -0.00039695937 -0.00056021247 0.00068867125 -0.001092309 -0.87065065 0.066303201
534000000 -0.87260962 0.071645625 -0.00035406437 -0.0011199855 0.00053101161 -0.001276481 -0.87265497 0.066462748
535000000 -0.87261128 0.071773656 -0.00036455604 -0.0011258513 0.00029664821 -0.0015028518 -0.87209702 0.065164521
536000000 -0.87245786 0.071097784 0.00080174225 -0.0010032107 0.00051839533 -0.0011243422 -0.87269253 0.066397332
537000000 -0.87263376 0.07108552 -0.00057536573 -0.0019594973 -0.00022836062 -0.0015639227 -0.8701902 0.066862173
538000000 -0.87301588 0.073440388 -0.00035054545 -0.00019533462 -0.00016626251 -0.0018481247 -0.87188041 0.066140227
539000000 -0.87409592 0.071815319 -0.0003560425 -0.00097416417 -0.00014277681 -0.00089515513 -0.8718735 0.066099286
540000000 -0.87336642 0.072328821 0.00015584496 -0.0012235332 -8.2514045e-005 -0.0011552066 -0.87158883 0.065642871
541000000 -0.87275833 0.071911633 -0.00026968709 -0.00085726066 -0.00053676596 -0.00046325324 -0.87115622 0.065442681
542000000 -0.87085181 0.074669383 -0.00036721851 2.7871833e-005 -3.567505e-005 -0.0016214193 -0.87116724 0.067053735
543000000 -0.87291807 0.070721507 -9.566771e-005 -0.0010765337 0.00022614883 -0.00042681294 -0.87110806 0.066422522
544000000 -0.87283981 0.072831385 -0.00018668851 -0.0011343138 -0.00031641001 -0.0011788406 -0.87154567 0.066607483
545000000 -0.87138432 0.072949886 0.00039079494 -0.00059392361 -0.00094338274 -0.00057482516 -0.8717187 0.067313097
546000000 -0.87242538 0.073387526 -0.0003743906 -0.00013454753 0.0008830615 -0.0011565079 -0.87067151 0.067949221
547000000 -0.87364537 0.072706625 -0.00053769682 -0.0011326474 0.00042875315 -0.00093005097 -0.87234014 0.068395384
548000000 -0.87133896 0.072090723 -0.00046193774 0.00013028449 -0.00053679541 -0.00085709692 -0.87265033 0.068277113
549000000 -0.87130469 0.072462536 0.00030387443 -0.0010841398 -0.00036301726 -0.00051920145 -0.87341809 0.068214029
550000000 -0.87416315 0.074130677 -2.5177957e-005 -0.00092467031 0.00015174253 -0.00067464111 -0.87279052 0.068204835
551000000 -0.87393785 0.074106812 -2.1433252e-005 -0.0012641827 -9.6885495e-005 -0.0011497044 -0.87209892 0.066997379
552000000 -0.87351108 0.072865568 2.6162164e-005 0.00034725142 0.00066359091 -0.00076900492 -0.87235814 0.067631446
553000000 -0.87143636 0.072594717 -0.00091753376 -0.0015641365 -0.00034793734 -0.00061988825 -0.87248605 0.06640856
554000000 -0.87221348 0.073203951 -0.0007206783 -0.00046082097 -0.00097164838 -0.0011610676 -0.87230664 0.06663885
555000000 -0.87106079 0.073969193 -0.0010892148 -0.00069627055 -0.0011299065 -0.0011913213 -0.87177378 0.066286176
556000000 -0.87247431 0.073502943 0.0004525941 -0.00069120881 -0.00075976568 -0.0013781517 -0.87283874 0.067620859
557000000 -0.87251025 0.07258606 0.00019445622 -0.00049279263 -0.00015765271 -0.0013763221 -0.87137568 0.068794727
558000000 -0.8723489 0.073822424 0.00050578307 -0.0019032243 0.00074281753 -0.0014158428 -0.87168074 0.068191089
559000000 -0.87256223 0.072818071 0.00081959658 -0.0014800164 0.00070054072 -0.0013564829 -0.87265998 0.067310616
560000000 -0.87303752 0.073667005 0.00016574332 -0.00082894444 -0.0007165795 -0.00083988719 -0.87154782 0.067818858
561000000 -0.87284458 0.07445886 0.001008271 -0.0011305612 -0.00043600341 -0.0015562207 -0.87253511 0.069362566
562000000 -0.87371635 0.07472761 -0.00042516322 -0.0020334742 -0.00042895402 -0.0014362284 -0.87122416 0.06876345
563000000 -0.87207538 0.074241683 -0.00020543671 -0.0011656159 0.00047937199 -0.0009573453 -0.87067342 0.06878189
564000000 -0.87370437 0.072886929 -0.00015517637 -0.0019309191 0.00012813868 -0.00068025716 -0.87293297 0.069534868
565000000 -0.87364638 0.074939132 -9.8992263e-005 -0.00087571976 -0.00041226385 -0.0013411277 -0.87146842 0.068521515
566000000 -0.87190431 0.073725127 -0.00023463588 -0.00086095539 0.00044521751 -0.00094842265 -0.87264818 0.069178335
567000000 -0.87252015 0.073139876 -0.0010284538 -0.0011109414 -0.00055039604 -0.0010467885 -0.87171578 0.06898129
568000000 -0.87178296 0.074080631 -0.00025271007 -0.0016302292 -0.00017777309 -0.0010237321 -0.8719095 0.068262599
569000000 -0.87235957 0.074259646 -0.00039480758 -0.00076784496 -0.00050364365 -0.001374507 -0.87303525 0.070927396
570000000 -0.87223876 0.074467003 -0.0002997104 -0.0018870422 -0.00038486125 -2.0569159e-006 -0.87098676 0.06932088
571000000 -0.87465811 0.074820958 -0.00077361276 -0.00076169445 -0.00044296289 -0.0012935512 -0.87262189 0.069049366
572000000 -0.87239707 0.074255601 -0.00094643782 -0.0015282759 0.00075366831 -5.6357654e-005 -0.86909539 0.06804195
573000000 -0.8712371 0.074310154 0.00037961281 -0.0016632286 3.5020254e-005 -0.001805717 -0.87051982 0.070361525
574000000 -0.87137508 0.073111609 -0.00023156218 -0.0017922224 -0.00036666539 -0.00084163644 -0.87159133 0.069258161
575000000 -0.87308377 0.07417319 -1.1575761e-005 -0.00085646496 -0.00048384932 -0.00062109501 -0.87369156 0.070325658
576000000 -0.8717702 0.074471526 0.00099586789 -0.0020064367 -0.00073662068 -0.0012120915 -0.8703267 0.070882909
577000000 -0.87174952 0.074874237 0.00081793393 -0.0011456009 -0.0011158913 -0.0018952652 -0.8726126 0.067611702
578000000 -0.87290072 0.075589217 -0.00088481657 -0.0013981274 -0.0002897316 -0.0010392865 -0.87393981 0.06908264
579000000 -0.87072086 0.074899554 5.3988399e-005 -0.00021661702 -6.5237e-005 -0.0010136544 -0.87080407 0.070454322
580000000 -0.87137806 0.074913397 8.3386985e-005 -0.0011137959 -0.00072049809 0.0002485865 -0.87090737 0.070846565
581000000 -0.87161791 0.075652286 0.00069164159 -0.0017282187 -0.00037010628 -0.0011662935 -0.87263441 0.070763119
582000000 -0.87302351 0.074651346 -0.00032480934 -0.0016189996 7.4003539e-005 -0.0021077131 -0.87300873 0.071168378
583000000 -0.87323791 0.075806111 0.00070157181 -0.0019182073 0.00024377748 -0.0012321188 -0.86978006 0.070081577
584000000 -0.87277853 0.076386251 -0.00060732244 -0.0017520805 0.00057444256 -0.0012895841 -0.87081605 0.070137218
585000000 -0.87216753 0.076628082 -6.3508651e-006 -0.0017294614 -0.00026449549 -0.00098017533 -0.87076497 0.070285909
586000000 -0.87054974 0.077792563 0.0012131929 -0.0014798713 0.00075167074 -0.0007746261 -0.87182724 0.069372386
587000000 -0.87060189 0.076501809 -1.9391142e-005 -0.00084932864 -9.7769676e-005 -0.0016541722 -0.87048924 0.070472687
588000000 -0.87077731 0.076102227 -0.00057051866 -0.00078159058 -0.0014700547 -0.00018444814 -0.87272561 0.07100492
589000000 -0.87174821 0.075149171 0.0002744477 -0.0019797506 -0.00023207731 -0.00043184194 -0.87201571 0.069925629
590000000 -0.87241101 0.075921558 -3.5348807e-005 -0.0012010313 -0.00065265747 -0.0021400738 -0.87301952 0.070132628
591000000 -0.87237686 0.077832289 0.00020814341 -0.0017714228 0.0001507234 -0.0018704333 -0.87139082 0.07210283
592000000 -0.87005764 0.076442577 0.00011058538 -0.00059205358 -0.00043797999 -0.0008433006 -0.87200505 0.070512101
593000000 -0.8700422 0.076306112 -0.00080901716 -0.0002911709 0.00034582458 -0.00075963489 -0.87261742 0.071823992
594000000 -0.87123799 0.076989554 0.00014391917 -0.0012562129 -0.00031623006 -0.00070827117 -0.87111837 0.072117597
595000000 -0.87228328 0.077116683 -4.4247583e-005 -0.0019253423 5.2039359e-005 -0.001375481 -0.87000859 0.070510134
596000000 -0.87211847 0.07717894 -0.0015170239 -0.00093057862 0.00013642818 -0.0017362834 -0.87111592 0.072057724
597000000 -0.87128574 0.076843612 -5.15137e-005 -0.0022461319 -0.00028563486 -0.00095900829 -0.87129557 0.070667677
598000000 -0.87163401 0.077920817 -0.00044030108 -0.0027926357 -0.00014049026 -0.0014317165 -0.8708266 0.071498454
599000000 -0.87292778 0.077840671 0.00086554966 -0.0016496888 -7.7009718e-005 -0.0009736059 -0.87209749 0.072344773
600000000 -0.87229466 0.078088932 -0.00051839277 -0.00030352062 -0.0010967533 -0.00094476604 -0.87101328 0.072749704
601000000 -0.87203872 0.07741718 -0.000575146 -0.0013143708 -0.0011906965 -0.0015957392 -0.87129474 0.072003908
602000000 -0.87319297 0.079245292 -0.0018377937 0.00017287125 -6.0011789e-005 -0.0015901405 -0.87211251 0.071817011
603000000 -0.87380224 0.078703441 -0.00018457463 -0.00047333568 -8.5351166e-005 -0.0020302129 -0.86928189 0.073204987
604000000 -0.87069327 0.077858426 0.00032982556 -0.0012546461 -0.0006640139 -0.0026256191 -0.872895 0.07432358
605000000 -0.87214506 0.079591475 -0.00046673283 -0.0023346338 -0.00045309303 -0.0011079124 -0.87057126 0.073723041
606000000 -0.87144071 0.078333557 0.00058327708 -0.0014329567 0.00073211017 -0.00080155459 -0.87145734 0.072451666
607000000 -0.87280458 0.079183325 0.00048008599 -0.00065203011 -0.00029778975 -0.0018285045 -0.87243307 0.07375659
608000000 -0.87241429 0.079651833 0.00091777719 -0.0011675797 -0.00078566553 -0.00038673315 -0.86914927 0.073194161
609000000 -0.87191075 0.080101684 0.0001865856 -0.0016332133 -0.00014282293 -0.0015760084 -0.87051588 0.072660193
610000000 -0.8720575 0.07997527 -0.00071214302 -0.0011581843 0.00051941571 -0.00171062 -0.87089449 0.073692314
611000000 -0.87122113 0.080272168 0.00014284538 -0.00092129578 0.00096668297 -0.0014728436 -0.87062287 0.073522493
612000000 -0.87112725 0.080523752 -0.0004279103 -0.00092550839 -0.00016493052 -0.0009760278 -0.87015957 0.074038051
613000000 -0.87021875 0.081111521 -0.0017500571 -0.00061656517 -0.00053628668 -0.0013926403 -0.87267917 0.074141391
614000000 -0.86955971 0.081492521 0.00023674881 -0.00040824211 -0.00072598079 -0.0015061013 -0.87215585 0.074718356
615000000 -0.86987007 0.08201094 0.00059360941 -0.00098496408 0.00046484976 -0.0012504925 -0.86980546 0.074315839
616000000 -0.87069452 0.081655785 -0.00082154974 -0.0019214215 -1.6879187e-005 -0.00062260387 -0.87126011 0.074457519
617000000 -0.8707214 0.082482487 -0.00082924834 -0.0011047174 -0.00020278381 -0.0015512113 -0.87080431 0.075780526
618000000 -0.86993569 0.082326718 0.00024927093 -0.0020497779 -0.00014399721 -0.0011001357 -0.87084723 0.075028196
619000000 -0.87136525 0.081931569 -8.4254534e-005 -0.001641053 0.00048428326 -0.0016740027 -0.87114578 0.07518141
620000000 -0.87024426 0.082164533 -0.00092994323 -0.0017619187 -0.00058962835 -0.001034404 -0.87026221 0.075904965
621000000 -0.8716628 0.081995703 0.00052478234 -0.0011760825 0.00014963694 -0.00226163 -0.87061858 0.074481331
622000000 -0.8686161 0.082236119 0.0010094737 -0.0011826052 0.00059363386 -0.0012190839 -0.8707788 0.076062255
623000000 -0.87072968 0.081755213 0.0007299835 -0.0017360526 -0.00090612861 -0.00042837669 -0.8713125 0.076507993
624000000 -0.87091553 0.081324086 -0.00030455994 -0.0019102365 0.00016429508 -0.00089805102 -0.87013084 0.075762451
625000000 -0.87081504 0.083146505 0.00022016851 -0.00092772464 0.0006893776 -0.00062804238 -0.8706795 0.075406045
626000000 -0.87031251 0.083410822 -0.0003620419 -0.0016877484 -0.00011085413 -0.00087382231 -0.87055558 0.076618463
627000000 -0.87246722 0.08291544 -0.00025342402 -0.00064757426 0.00026091308 -0.0010694028 -0.87136102 0.074105389
628000000 -0.87110531 0.082669906 0.0003442688 -0.0012572866 -0.00094277808 -0.00040691567 -0.87143666 0.076087289
629000000 -0.87156576 0.083954915 0.00060693175 -0.00047233459 -0.00034097407 -0.00055217894 -0.8708896 0.077206485
630000000 -0.87038219 0.083761394 -0.00070903316 -0.0012382978 -0.00028573809 -0.0015312872 -0.87099391 0.078372486
631000000 -0.87275308 0.082371876 0.00083273754 -0.0014096536 -0.00041084868 -0.0018336886 -0.87165165 0.077284001
632000000 -0.87225223 0.084867485 -0.00030336907 -0.00065422762 -0.00050178106 -0.0021117376 -0.87076199 0.076878756
633000000 -0.87104857 0.083500102 -0.00020498603 -0.00024263967 -0.0008134839 -0.00147816 -0.87072307 0.07672216
634000000 -0.87043595 0.085715324 6.9588874e-005 -0.0011307532 0.00036890886 -0.0014309452 -0.87238759 0.076589942
635000000 -0.871171 0.083454691 -0.00020886911 -0.0016019364 -0.0007160111 -0.0011151882 -0.87073869 0.077209428
636000000 -0.8691774 0.085091881 -0.00033068433 -0.0020321927 0.00055669528 -0.0010729621 -0.87042797 0.077406429
637000000 -0.87139136 0.085158743 -0.00043751948 -0.0015816538 -0.00098027301 -0.00060441304 -0.86903554 0.078178644
638000000 -0.87075853 0.085267447 -0.00046403657 -0.00091788219 -0.00036440184 -0.00068001763 -0.87085372 0.077632777
639000000 -0.86961895 0.087207593 0.000101719 -0.0011730273 -0.00091028825 -0.0013387501 -0.87149787 0.07866127
640000000 -0.87052435 0.086212173 0.00051255705 -0.0023138069 -0.00024549954 -0.0011422648 -0.87144923 0.077478565
641000000 -0.86936682 0.085850418 0.00077875354 -0.0019261229 0.00058609102 -0.0017457251 -0.86873752 0.07833866
642000000 -0.8716324 0.086794846 0.00041286129 -0.00052404078 -0.00059136201 -0.0019679752 -0.87169003 0.080002971
643000000 -0.8701486 0.087306775 -0.00029693762 -0.0011523945 0.00079456449 -0.0013125122 -0.87091196 0.077158041
644000000 -0.86985016 0.087415844 2.641002e-005 -0.0019263938 2.1839176e-005 -0.0012224085 -0.87018424 0.0794397
645000000 -0.87067574 0.08757937 -0.00060285925 -0.0018855487 -0.00020911833 -0.0014191914 -0.87087291 0.077017188
646000000 -0.86911404 0.088095181 -0.0011712242 -0.0017562079 -0.00021144195 -0.00044372704 -0.86980563 0.07836397
647000000 -0.8716079 0.087070294 0.00024397239 -0.0025143125 0.00013455964 -0.001907788 -0.8695237 0.078916736
648000000 -0.86965108 0.088118196 0.0010935301 -0.0010630469 -9.4873911e-005 -0.0027423543 -0.86930799 0.079726011
649000000 -0.87077385 0.087657012 -2.2653458e-005 -0.0022287439 -0.00037176593 -0.0010366305 -0.86983263 0.079237707
650000000 -0.87064725 0.08787743 -0.00030796294 -0.0018112191 -2.1310898e-005 -0.00093301752 -0.86891544 0.079277836
651000000 -0.87026304 0.087671489 -0.00068142643 -0.00096927269 0.00031903788 -0.00083595951 -0.86908138 0.079369143
652000000 -0.86937386 0.086699702 -0.0014175687 -0.00097826333 -0.00059704384 -0.0013630453 -0.87074959 0.079315975
653000000 -0.87007642 0.087645613 -0.0013672677 -0.001482401 -0.000664805 -0.00072371727 -0.87067223 0.078902215
654000000 -0.87025279 0.086033121 -0.0003454973 -0.0019094581 -0.0001838859 -0.00056992745 -0.86938411 0.078366168
655000000 -0.86935282 0.087677121 -0.00011935481 -0.0012494357 0.00017018705 -0.00099895475 -0.87085837 0.078960769
656000000 -0.87055892 0.087082468 -0.0012002928 -0.001992841 -0.00079204142 -0.0018728033 -0.87090254 0.080146596
657000000 -0.86940718 0.087600745 -0.0013040162 -0.001399102 -0.00028365097 -4.41183e-005 -0.87027514 0.079879932
658000000 -0.86940318 0.088241637 -0.00024226739 -0.0010988639 0.00028038226 -0.0015877164 -0.86951917 0.079509862
659000000 -0.87014085 0.088538721 -0.00021043353 -0.00068315765 -0.00020979877 -0.00070767791 -0.87061882 0.080085784
660000000 -0.87030512 0.088795647 -0.0010510113 -0.00095135445 -0.00061087857 -0.001340278 -0.86997396 0.079209708
661000000 -0.8713783 0.089255325 -3.4545788e-005 -0.0017532733 -0.000498084 -0.0019724774 -0.87068379 0.079710707
662000000 -0.86980242 0.089063086 0.00013333645 -0.0017168723 0.00029811444 -0.0019842794 -0.87089878 0.07915473
663000000 -0.87112439 0.089182228 -0.00029489663 -0.0017850727 -0.00034348777 -0.0022844058 -0.8701027 0.079000853
664000000 -0.87034881 0.08882349 0.001153721 -0.00077938283 -2.4324117e-005 -0.0015326447 -0.87101662 0.081802092
665000000 -0.8714183 0.088404551 -0.00052857678 -0.00136973 0.00035830765 -0.0017393652 -0.86900288 0.081266299
666000000 -0.87180245 0.089548506 5.1900879e-005 -0.001683569 -0.00043585672 -0.0010822753 -0.87002921 0.080862924
667000000 -0.87118006 0.090183042 -0.00022128648 -0.0017853817 0.00047012002 -0.0010855957 -0.87059253 0.08009126
668000000 -0.8704505 0.087191835 0.00039010242 -0.0015341053 -0.00076442235 -0.0019039052 -0.8708691 0.079928942
669000000 -0.87139994 0.088470913 -0.0011919333 -0.00092665246 -0.00034110362 -0.0018507584 -0.86969107 0.078258075
670000000 -0.86966008 0.089087911 -0.00054154469 -0.0020627072 0.00048859452 -0.0016320057 -0.86911064 0.080018304
