!Keysight Technologies,M9374A,MY55442783,A.12.55.05
!Date: Thursday, May 20, 2021 18:04:26
!Correction: S11(Full 2 Port(1,2)) 
!S21(Full 2 Port(1,2)) 
!S12(Full 2 Port(1,2)) 
!S22(Full 2 Port(1,2)) 
!S2P File: Measurements: S11, S21, S12, S22:
# Hz S  RI   R 50
500000000 -0.87295693 0.067718007 -0.0016221199 -0.00018914501 -0.00014410981 0.00035694684 -0.87149829 0.06029157
501000000 -0.87191772 0.068068638 -0.0009538444 0.00030390962 -0.00060538598 0.00019335734 -0.87132818 0.061061155
502000000 -0.87227887 0.066014148 -0.00072261418 -3.2820619e-005 0.00029388224 -0.0017630801 -0.87306452 0.061244205
503000000 -0.8724727 0.067373335 2.8331524e-005 -0.00054301834 -0.00087745237 -0.0013538034 -0.8731885 0.059429023
504000000 -0.87270063 0.068767078 -0.00018229704 -0.00064182881 -0.00012257254 -0.0019877276 -0.87242502 0.062032491
505000000 -0.87259996 0.067521296 -0.00072814332 -0.0014029951 -0.00049876014 -0.0013394331 -0.87290865 0.062283825
506000000 -0.87110102 0.068091244 0.00037555388 -0.00092393532 0.0003411634 -0.0002492257 -0.87279117 0.060858034
507000000 -0.87254679 0.068770468 3.7527647e-005 -0.00067866605 -0.00013085845 -0.0014901251 -0.87206507 0.062524527
508000000 -0.87295604 0.068166405 0.00052497775 -0.00073452893 0.00027235204 -0.0011005327 -0.87309158 0.062165812
509000000 -0.87256622 0.069742069 1.6969218e-005 -0.0016622654 -0.00061781908 -0.0016350115 -0.87322879 0.062573582
510000000 -0.87410212 0.068441398 -0.00076734863 -0.0014938382 -0.00072033872 -0.0017018938 -0.87163788 0.061844077
511000000 -0.8729499 0.068792127 -0.0008602473 -0.00014789843 -0.00019033441 -0.001694402 -0.87274814 0.061065432
512000000 -0.87184745 0.06859839 -0.00059806777 -0.0011760702 0.00067372387 -0.0014705432 -0.87344402 0.063297421
513000000 -0.8727169 0.067444615 -0.00067931711 -0.00047621125 -2.7574006e-005 -0.00089719601 -0.87089187 0.061162207
514000000 -0.87162036 0.067887485 0.00046193006 -0.001120405 0.00079656416 -0.00094854535 -0.87350076 0.063482508
515000000 -0.87243223 0.069549821 0.0004961025 -0.0013888087 5.3075895e-005 -0.00098479283 -0.87244564 0.06363558
516000000 -0.8711428 0.068156779 0.00027411905 -0.0003979982 -0.00015473552 -0.0013697644 -0.87290257 0.062814198
517000000 -0.8724708 0.069682434 0.00073176116 -0.0009959751 0.0010521535 -0.00076057727 -0.87321013 0.062922299
518000000 -0.87199217 0.07082469 -0.00010058418 -0.0018246295 -0.00036493549 -0.00099101453 -0.87306577 0.063562423
519000000 -0.87264204 0.071387976 0.00018287297 -0.0011909985 0.00018828515 -0.001453619 -0.87267041 0.065136343
520000000 -0.8713994 0.068724297 -0.00031107481 -0.0022061365 -0.0018602863 -0.0017629702 -0.87292069 0.063532099
521000000 -0.87169033 0.07048545 0.00017961845 -0.0015610466 -0.0010246582 -0.001480768 -0.87311733 0.065227769
522000000 -0.87293416 0.072445661 -0.00042576744 -0.0014391189 9.9902041e-005 -0.0011662709 -0.8714689 0.064449817
523000000 -0.87245059 0.069697641 -0.0013224987 -0.00054479291 -0.00067627412 -0.00048194631 -0.87143207 0.065232083
524000000 -0.87247175 0.071179256 -0.00020910721 -0.002247774 -0.00074610009 -0.0012966181 -0.87259048 0.065987065
525000000 -0.87186998 0.07174211 -0.00050526875 -0.0011758007 -0.00017941592 -0.0016214724 -0.87287569 0.064645611
526000000 -0.87387902 0.070370138 -0.00072670268 -0.0013567598 -0.00017774623 -0.0015589511 -0.87184268 0.064999588
527000000 -0.87204498 0.072840735 -0.0003605019 -0.001297576 0.00017953831 -0.0019587209 -0.87337703 0.066238694
528000000 -0.87093675 0.072374448 0.00042616462 -0.0010683378 -0.0014920457 -0.00091371901 -0.87194771 0.064681903
529000000 -0.87374079 0.070971161 -0.00026607129 -0.0010774983 -0.00091217738 -0.0024759988 -0.87242955 0.065012716
530000000 -0.87265575 0.073819451 0.001175286 -0.0010936951 -7.9605197e-005 -0.0011473541 -0.87252706 0.06531734
531000000 -0.87212944 0.071718246 0.00014221434 -0.001455394 0.00033044684 -0.0010056163 -0.87346333 0.065823041
532000000 -0.87199461 0.071089432 0.00019630964 -0.00092681043 -0.00017092514 -0.0013878003 -0.87068599 0.067712776
533000000 -0.87295735 0.072607867 -0.00074139721 -0.00043757542 -0.00073796656 -0.00083698903 -0.87131375 0.066476718
534000000 -0.87291473 0.071191981 0.00068742159 -0.0010766647 -0.00012922217 -0.0017270929 -0.87274313 0.065618426
535000000 -0.87141687 0.072904639 0.0006501457 -0.0011613197 0.00023444521 -0.0019683891 -0.87143737 0.066701457
536000000 -0.87309748 0.072459891 -0.00083253626 -0.0021767472 -7.8341713e-005 -0.0019984676 -0.87082577 0.066848554
537000000 -0.86912233 0.07354793 -0.00048115928 -0.0021224148 -0.00069965795 -0.0007971212 -0.87259895 0.06786105
538000000 -0.87062621 0.071024552 -0.0013277224 -0.0014915909 0.00071836257 -0.0014826606 -0.87216032 0.066403396
539000000 -0.87223244 0.073480904 -0.00031273477 -0.0014686929 -0.00044662401 -0.0014198783 -0.87196428 0.068462454
540000000 -0.87252766 0.073437601 4.1260708e-007 -0.0016577012 -0.00011843548 -0.0015904201 -0.87241137 0.067204989
541000000 -0.87233692 0.071488053 -0.00077774317 -0.0013596979 0.00011092773 -0.0018993111 -0.87221295 0.067085944
542000000 -0.87106729 0.07260628 -0.00016856914 -0.0017413062 0.00085417507 -0.00062115729 -0.87201089 0.06724152
543000000 -0.8715322 0.073574759 -0.00062326092 -0.00097427866 0.00051236298 -0.0015034218 -0.87108701 0.066908754
544000000 -0.87094182 0.074576959 0.00033561306 -0.0015928424 -0.00031018376 -0.0005142765 -0.87220746 0.066516206
545000000 -0.87116361 0.072632886 0.00038951787 -0.0015698717 0.0011854682 -0.00075773435 -0.87199575 0.068871364
546000000 -0.87110192 0.074899845 -7.9627192e-005 -0.0009169706 -0.00086230872 -0.00079721416 -0.87292743 0.067673102
547000000 -0.87224436 0.073892981 -0.0008583499 -0.0011826887 -0.0010060028 -0.00075468369 -0.87222552 0.066622943
548000000 -0.87184262 0.073354118 -0.00080709759 -0.0016784152 -0.00022381006 -0.0015062955 -0.8707372 0.067802355
549000000 -0.87210852 0.074354358 7.8210338e-005 -0.0015064061 0.00086807582 -0.00077394425 -0.87274623 0.069027118
550000000 -0.87166601 0.072870374 0.00048708019 -0.0014722715 -0.00014581851 -0.0016167813 -0.87250906 0.069260098
551000000 -0.87125093 0.072935373 -0.00043526856 -0.00064843614 -0.00096372206 -0.00082125061 -0.87148136 0.068993598
552000000 -0.87180126 0.072402105 0.00036081459 -0.00098114624 -0.00056777842 -0.0017483544 -0.87198287 0.069471143
553000000 -0.87248564 0.073412336 -0.00087814545 -0.0021519712 -0.00027793157 -0.0011134762 -0.87248266 0.068560891
554000000 -0.87234402 0.071530998 -0.00094428606 -0.00038822231 0.00053503265 -0.0023358357 -0.87181538 0.06656006
555000000 -0.87093145 0.074077003 -0.00015314519 -0.0022274414 0.00011209615 -0.0015776039 -0.87215966 0.067880027
556000000 -0.87081218 0.07333836 -0.00047802532 -0.0012721198 -0.0003504433 -0.0006122365 -0.87264544 0.070187926
557000000 -0.87276524 0.074224859 -0.00073638267 -0.001079515 -0.00082388375 -0.0009774887 -0.87219656 0.069456264
558000000 -0.87231451 0.073932 -0.0006834314 -0.00079288136 -0.0009780149 -0.0016860226 -0.87273896 0.067165434
559000000 -0.87172467 0.07280118 -0.00024942891 0.00021466606 0.00050729036 -0.0010264595 -0.87313241 0.068819389
560000000 -0.87115306 0.074157625 0.00029127911 -0.0010341527 -0.00089806673 -0.0015401279 -0.87235379 0.068144321
561000000 -0.8713786 0.074456081 0.00014016833 6.2669475e-005 -0.00093193748 -0.0019000545 -0.87296784 0.069519453
562000000 -0.87210876 0.075253136 -0.0014353365 -0.001043007 -9.8082353e-005 -0.0018737088 -0.87107962 0.070406415
563000000 -0.87302381 0.074719764 -0.00016922118 -0.00099805649 -0.00044520106 -0.0019055032 -0.87298888 0.068621457
564000000 -0.87254035 0.075226359 5.703828e-005 -0.0020070567 -0.00023198151 -0.0014121038 -0.87332827 0.068839975
565000000 -0.87138063 0.072880551 -0.00012571026 -0.0003547649 8.2557657e-005 -0.00065724429 -0.87196988 0.068725795
566000000 -0.87080336 0.07296472 -0.00016471974 0.00013927999 -0.00065527862 -0.0014073945 -0.87210983 0.069197021
567000000 -0.87337488 0.074546374 -0.00036768676 -0.0014865666 -0.00013613379 -0.001028463 -0.87223113 0.069092274
568000000 -0.87183356 0.074531436 -0.0013208558 -0.0014030536 -0.00036047632 -0.0012357994 -0.87349504 0.068574078
569000000 -0.87217498 0.075424045 -0.0003463632 -0.0011516383 6.2589993e-006 -0.0017766942 -0.87225193 0.069204755
570000000 -0.86992115 0.073884793 -0.00011231723 -0.00068613485 -4.6091071e-005 -0.0010815549 -0.87152112 0.069936335
571000000 -0.87128967 0.075111791 0.00020146013 -0.0012207347 -0.0012777604 -0.00075235596 -0.87254626 0.069690868
572000000 -0.87051004 0.074321531 -0.0018994003 -0.0010576494 -0.00052373722 -0.0019174059 -0.87280679 0.070140541
573000000 -0.87285489 0.074390195 -0.00033927703 -0.00074862881 -0.00047253209 -0.001563638 -0.87280065 0.070033431
574000000 -0.87035716 0.075136252 -0.00036190642 -0.00048329498 -0.00034172591 -0.0019710122 -0.87221223 0.069531761
575000000 -0.87050402 0.074011393 -0.00059491041 -0.0011652466 -4.4704055e-005 -0.0003254498 -0.87331975 0.069221519
576000000 -0.87083745 0.074799001 0.00067660777 -0.0018679876 0.0011436411 -0.00046855237 -0.87237334 0.070147894
577000000 -0.87021756 0.076516159 -0.00033875095 -0.002114841 -9.6320809e-006 -0.0016663439 -0.87371069 0.069004267
578000000 -0.87176764 0.07557562 -8.6573928e-005 -0.0014963042 -0.00058194814 -0.0010309641 -0.87278199 0.068873182
579000000 -0.87122601 0.075070322 -0.00079730246 0.00014821123 -0.00053979678 -0.00092937896 -0.87239981 0.069062673
580000000 -0.87283856 0.075766221 0.00054449844 -0.00077481137 -0.00035114869 -9.0692905e-005 -0.87237293 0.070728846
581000000 -0.87080818 0.074355543 -0.0002077313 0.00039075915 -0.00050126784 -0.0015727868 -0.87226629 0.0705918
582000000 -0.87197256 0.074776769 5.963166e-005 -0.0012758349 -0.0013368732 -0.0019532971 -0.87342274 0.070380673
583000000 -0.87031543 0.074094929 -0.0013663759 -0.0017162273 -0.00064333295 -0.0005078573 -0.87141997 0.069307074
584000000 -0.87165773 0.076675892 0.00028001019 -0.001482799 0.00028540086 -0.0012813822 -0.87152237 0.070209049
585000000 -0.87067461 0.077021062 -0.00052989897 -0.0011790643 6.5108798e-005 -0.00097499101 -0.87107974 0.071508273
586000000 -0.8721202 0.075593531 3.55868e-005 -0.0004003428 -0.0004577662 -0.0018619018 -0.87284333 0.071665838
587000000 -0.87074709 0.076112494 0.00015354728 -0.0012937519 -0.0002195203 -0.00085484143 -0.87045848 0.071133621
588000000 -0.8703267 0.07569465 0.00013600837 -0.0015862074 -9.3123759e-005 -0.0002729946 -0.87229508 0.072613433
589000000 -0.87070113 0.075963937 -0.0002888937 -0.0010584432 0.00012845907 -0.0017170617 -0.87224895 0.072911762
590000000 -0.86990368 0.076020382 -0.00014211537 -0.0014693398 -0.00020657296 -0.0011055011 -0.87256444 0.070376083
591000000 -0.87251127 0.076542228 -0.00091913703 7.0655566e-005 -0.00014103962 -0.0020435003 -0.87319475 0.070479162
592000000 -0.87227464 0.075272411 0.00052638509 -0.001375652 -0.00039303198 -0.0012089487 -0.87291437 0.072525844
593000000 -0.86918193 0.076760545 -0.00081709487 -0.00045303622 -3.7864003e-005 -0.0015420144 -0.87235737 0.072054863
594000000 -0.87111294 0.07663618 -0.00072554522 -0.00038104711 0.0015422092 -0.001314563 -0.87325323 0.072513886
595000000 -0.87139577 0.077354379 0.00041514088 -0.0013245112 0.00082020694 -0.001343622 -0.87205654 0.071424983
596000000 -0.87019038 0.079492934 -6.965873e-005 -0.0011959106 -0.00059452065 -0.00089168374 -0.87075651 0.072955847
597000000 -0.87047887 0.07760293 -0.00019603762 -0.0014754573 -0.00053561351 -0.0017253065 -0.87127525 0.072827406
598000000 -0.86996818 0.079391211 0.0010508479 -0.00056721724 -0.00045259335 -0.001083095 -0.87213415 0.07179004
599000000 -0.87179947 0.080179676 -0.00024906805 -0.0022588775 -0.00028370813 -0.0015876008 -0.8720203 0.07221701
600000000 -0.87057346 0.077075057 1.4111958e-005 -0.0013116546 -0.00016048351 -0.0014733567 -0.87277901 0.073205963
601000000 -0.86946493 0.078794442 0.00030577369 -0.0011010922 0.00064472464 -0.00098625943 -0.87284207 0.073173285
602000000 -0.87019283 0.078821197 0.00019804535 -0.00037738174 -0.00087576499 -0.0008829537 -0.86944246 0.07239195
603000000 -0.87183875 0.078831285 0.00014578414 -0.00019812603 -0.00052319985 -0.0020224538 -0.87255162 0.073969468
604000000 -0.87077874 0.081028953 0.00068961718 -0.00083744049 -0.00049279386 -0.0010812541 -0.87140357 0.07306473
605000000 -0.87025595 0.080620237 -0.00064325501 -0.00064581935 0.00039584705 -0.0010090115 -0.87112504 0.072736211
606000000 -0.87103057 0.079119325 -0.00081705552 -0.0019612352 0.0003114992 -0.00054525404 -0.8737489 0.073783435
607000000 -0.8718825 0.080093153 -4.0812447e-005 -0.00037915909 -0.00029982114 -0.0011375273 -0.87257475 0.076159492
608000000 -0.87187213 0.079575196 -0.00027833888 -0.0015141371 -0.00017935572 -0.0022994808 -0.87170315 0.073667392
609000000 -0.87050933 0.080320939 -0.0012525205 -0.0010263923 -0.0009202389 -0.0015773926 -0.87141383 0.075764984
610000000 -0.87028378 0.079284988 -0.00016797014 -0.0011813187 -0.0013204674 -0.0012968604 -0.87142253 0.073575445
611000000 -0.86885828 0.079502366 -0.0012811692 -0.0012953337 -9.7059215e-005 -0.00055177748 -0.87059587 0.074682139
612000000 -0.87006283 0.082501568 -0.0001196162 -0.0013903209 -0.0014155821 -0.00090712204 -0.86997378 0.07425148
613000000 -0.86878693 0.080775782 0.0012277046 -0.0012318313 -0.0010951215 -0.0012966064 -0.87127775 0.072909422
614000000 -0.87011629 0.080865636 -0.001813275 -0.0010957659 -0.00032728747 -0.00077630742 -0.87298107 0.075634554
615000000 -0.86999035 0.081431225 0.00063379452 -0.0011934837 -0.0008295119 -0.00085311587 -0.87112093 0.074796215
616000000 -0.87111217 0.082856238 -6.5316606e-005 -0.0011909973 0.00090791681 -0.0014720595 -0.87204993 0.075048365
617000000 -0.87042928 0.081721097 -0.0002254353 -0.0025075471 6.4992899e-005 -0.0022685144 -0.87095988 0.075411633
618000000 -0.87077552 0.083055981 0.00012788569 -0.00079315534 0.00021314132 -0.0014677519 -0.87172455 0.075582862
619000000 -0.87033951 0.082878791 0.00081041694 -0.00053661678 -0.0015644593 -0.0016832879 -0.87106407 0.075040445
620000000 -0.86907852 0.08291585 -0.00038137048 -0.0012429318 0.00076050864 -0.0010408167 -0.86989599 0.075030066
621000000 -0.86987001 0.082450584 0.00031250599 -0.0011469652 0.00033726319 -0.0014286328 -0.87186253 0.075229399
622000000 -0.87193471 0.081985168 -0.00049767055 -0.0002677119 0.00011494293 -0.00080009876 -0.87141311 0.076114655
623000000 -0.87030959 0.082481466 -0.00093329436 -0.00061066251 -0.00089603034 -0.0012119949 -0.87108701 0.076957241
624000000 -0.8694253 0.082769431 0.00015552827 -0.0019536889 0.0013211949 -0.0019486538 -0.87177986 0.075548679
625000000 -0.869986 0.084240623 -0.00031972767 -0.0022935937 -5.688328e-005 -0.00092703989 -0.8710205 0.07704369
626000000 -0.87044692 0.084383652 0.00028375021 -0.0011146307 0.00027861839 -0.0007322632 -0.87135899 0.076160349
627000000 -0.87003791 0.085746378 -0.00065624912 -0.0011337039 -0.00061432901 -0.00097230042 -0.87175262 0.075019278
628000000 -0.87058377 0.084469475 -0.00050571695 -0.00045531473 4.1885443e-005 -0.001341252 -0.87151206 0.075712152
629000000 -0.87054682 0.084161438 -2.7223228e-005 -0.0011221156 -0.00020308791 -0.00051234593 -0.87135237 0.078032993
630000000 -0.86881673 0.084832735 -0.0011666168 -0.0015163627 -0.00040515058 -0.00079870346 -0.87183106 0.078364901
631000000 -0.87004209 0.085149527 4.4272128e-005 -0.0009326564 -0.00017645415 -0.00016803946 -0.87075645 0.079092972
632000000 -0.87050307 0.085582867 -0.00011980884 -0.0022892181 0.00011718336 -0.0012769228 -0.87136686 0.07703694
633000000 -0.87015867 0.08540377 -0.00010471533 -0.0018407183 -0.00028070612 -0.0022834809 -0.87220019 0.076968014
634000000 -0.869829 0.085710108 0.0007774877 -0.0010987645 -0.001106599 -0.0011055165 -0.87189072 0.078839198
635000000 -0.86957765 0.084093235 0.00097655813 -0.00069647213 -5.2587689e-005 -0.0018751193 -0.87043732 0.077230617
636000000 -0.86933625 0.085395053 -0.00071074377 -0.0017725197 0.0008699742 -0.0018688129 -0.87068164 0.077688999
637000000 -0.86955678 0.084466942 -0.00033915252 -0.0010062561 -0.00050215964 -0.0004303017 -0.87065977 0.079273649
638000000 -0.8699975 0.084491432 -0.00030881254 -0.0014935929 -0.00069477496 -0.0014472188 -0.87042344 0.075793713
639000000 -0.87083763 0.085150383 -0.00089084607 -0.0014188322 -0.00093506771 -0.0017658902 -0.871005 0.079198129
640000000 -0.87091506 0.086829893 0.00048672452 -0.0010470041 -0.00062744843 -0.0025963392 -0.87056518 0.076386265
641000000 -0.87171882 0.086241148 -0.0010431386 -0.0012147813 -0.0001311032 -0.0014055066 -0.8698976 0.077374786
642000000 -0.8702355 0.086544752 0.00073969248 -0.00061364862 0.00019559504 -0.00090844306 -0.87116605 0.078686535
643000000 -0.87024117 0.08727321 0.00083117624 0.0002864821 -0.00067940704 -0.00055991905 -0.87218064 0.077651218
644000000 -0.87015593 0.085664451 -0.00089055247 -0.0015159347 0.00054846361 -0.0018639412 -0.87124372 0.078007467
645000000 -0.86929286 0.086124875 -0.00057294796 -0.0010715731 -0.00061126339 -0.0016399611 -0.87127054 0.079363205
646000000 -0.86997867 0.087058358 -0.00035436466 -0.0011323687 0.000258468 -0.0021870749 -0.86931896 0.078416228
647000000 -0.86971158 0.087436162 -0.00055117358 -0.0013329507 -0.00055787194 -0.001221225 -0.87035811 0.079272538
648000000 -0.87087512 0.087171875 -0.00047045806 -0.00092849915 -0.0003991811 -0.00039509175 -0.86919749 0.080086164
649000000 -0.86901253 0.087421022 -0.00039321848 -0.0011650008 0.00015755591 -0.00017014677 -0.87120122 0.07985194
650000000 -0.86938423 0.088049076 -0.0008585974 -0.001071873 -0.00023419195 -0.0021767882 -0.87100399 0.079212248
651000000 -0.86843562 0.087238796 0.00079838751 -0.00074646802 -0.00020022204 -0.0017036629 -0.87132788 0.079839498
652000000 -0.86907685 0.085939288 0.00049509894 -0.0016406067 -0.00021588919 -0.00080835924 -0.87015593 0.078380205
653000000 -0.86917168 0.088317461 -0.00018121372 -0.0011178585 -0.0010347175 -0.0011811915 -0.86950767 0.080385968
654000000 -0.87104046 0.087953635 0.00042261509 -0.0020917128 0.00045436222 -0.0016948716 -0.86982846 0.079824887
655000000 -0.86966038 0.08867687 -0.00038507668 -0.00053295871 0.0001045389 -0.001151639 -0.87024772 0.080078878
656000000 -0.87057459 0.089091904 3.7367321e-005 -0.0014391071 -0.00015728245 -0.001179868 -0.87065089 0.078994818
657000000 -0.87072438 0.088116206 0.00065951125 -0.0019746029 -0.00028790513 -0.001218089 -0.87084073 0.079531759
658000000 -0.87037063 0.089055493 3.3417484e-005 -0.0015336759 7.9849102e-005 -0.0020890646 -0.87100387 0.079253063
659000000 -0.86891216 0.088393986 -0.00010506409 -0.001610565 -0.00078846875 -0.0012786504 -0.86953211 0.078532569
660000000 -0.86821663 0.088457555 -0.00048059478 -0.0015265391 -0.00088284857 -0.0016741524 -0.87019169 0.08039619
661000000 -0.86941838 0.08853817 0.00031844931 -0.0020554913 0.00010196756 -0.00012857227 -0.87141746 0.080585867
662000000 -0.86926842 0.088256724 0.00097735482 -0.0013643082 -0.0010361904 -0.0012022064 -0.87199724 0.079750277
663000000 -0.87098646 0.088065147 0.00027086822 -0.00080572208 -4.9924303e-005 -0.0013388676 -0.86957335 0.079674616
664000000 -0.86968881 0.088957191 -0.00070817344 -0.0015621074 0.00029333704 -0.0015139822 -0.87094653 0.079707369
665000000 -0.86867499 0.088044047 -7.8862489e-005 -0.0020095774 6.4121457e-005 -0.0010541535 -0.87026495 0.08045844
666000000 -0.86820322 0.088111453 -0.00016842649 -0.0005243934 -0.00050150487 -0.00039792669 -0.87152332 0.079265878
667000000 -0.8692705 0.088646367 0.00030364873 -0.0015834662 -0.001039878 -0.0015667084 -0.87074649 0.081272967
668000000 -0.86954045 0.088622294 -0.00086368283 -0.0019347531 -0.00044104405 -0.00080803275 -0.87032932 0.079536751
669000000 -0.8703652 0.088929802 0.00033864612 -0.00095447432 -0.00086962245 -0.0012289237 -0.86936122 0.080206037
670000000 -0.87022066 0.08780387 1.6175534e-005 -0.0011850358 -0.00028198046 -0.00029145821 -0.87132919 0.079745933
