!Keysight Technologies,M9374A,MY55442783,A.12.55.05
!Date: Thursday, May 20, 2021 18:23:49
!Correction: S11(Full 2 Port(1,2)) 
!S21(Full 2 Port(1,2)) 
!S12(Full 2 Port(1,2)) 
!S22(Full 2 Port(1,2)) 
!S2P File: Measurements: S11, S21, S12, S22:
# Hz S  RI   R 50
500000000 -0.87400663 0.067164809 0.00031527312 -0.00058499788 -0.00020904232 -0.0017041727 -0.87219536 0.058994539
501000000 -0.87558597 0.066213615 -0.00027652289 -0.001128527 0.00014617773 -0.0015831757 -0.87245148 0.05854604
502000000 -0.87350905 0.065742463 -0.00026747299 -0.00032232446 0.00051527878 -0.0017712219 -0.87276995 0.059346691
503000000 -0.87475222 0.068307362 -0.00055175414 0.00035297914 0.0003834668 -0.0011953274 -0.87195343 0.060841776
504000000 -0.87339485 0.065768905 -0.00020373463 -0.0011782347 -0.00011478296 -0.0011160072 -0.87308776 0.061182365
505000000 -0.87273282 0.066933259 -0.00051702693 -0.0025070119 -0.0005605577 -0.0014878294 -0.87282622 0.061213471
506000000 -0.87426794 0.066521905 4.5854576e-005 -0.0015943961 -0.00030888751 -0.0015038262 -0.87249392 0.059574578
507000000 -0.87433094 0.067259327 0.0010180658 -0.0014317369 -1.3942589e-005 6.6744426e-005 -0.87192822 0.061998054
508000000 -0.87426364 0.06911236 -0.00049083162 -0.0015310212 -7.1308976e-005 -0.00060708157 -0.87364566 0.063383065
509000000 -0.87426555 0.066702597 -0.00083779846 -0.0013362715 -0.0011614587 -0.00049962598 -0.87077361 0.062249955
510000000 -0.87482607 0.06860476 -0.00065809512 -0.0011950941 -0.00033861047 -0.0015139991 -0.87281954 0.063424312
511000000 -0.87520248 0.069213018 0.0011271782 -0.0016639797 -0.00027549706 -0.001465201 -0.87296957 0.06222564
512000000 -0.87373495 0.067650802 -0.00036116532 -0.0012868404 -0.00091626303 -0.0016451387 -0.87217391 0.06227443
513000000 -0.87602466 0.067968614 0.00016726712 -0.00046190416 0.00045101065 -0.00081261212 -0.87200099 0.062119324
514000000 -0.87319577 0.068457976 0.0010222131 -0.00015291937 -0.0015078529 -0.0011646273 -0.87341011 0.061577953
515000000 -0.87517929 0.068257503 -0.0010985646 -0.0010807109 -0.00078659371 -0.0013473427 -0.87203157 0.063754231
516000000 -0.87599695 0.069778755 -3.1212599e-005 -0.0014183488 -0.001181356 -0.0011845306 -0.87174761 0.062786333
517000000 -0.87475699 0.070507511 9.7134223e-005 -0.00031464096 0.00043049236 -0.0010501735 -0.87094986 0.06249319
518000000 -0.87489736 0.070131063 -0.00013258313 -0.00060473115 -4.2601455e-006 -0.00086354977 -0.87250072 0.063474283
519000000 -0.87354982 0.068762749 -0.00020325299 -0.0017143146 0.00026680957 -0.0012364708 -0.87056112 0.063836686
520000000 -0.87277603 0.067904249 -0.00070211745 -0.0010248198 -7.0089278e-005 -0.00065246859 -0.8717503 0.063519031
521000000 -0.87271714 0.06927453 0.00078598387 -0.00095600041 0.00037204503 -0.00027043701 -0.87301934 0.063112825
522000000 -0.874147 0.068577915 -0.00075378356 -0.00089014397 -0.00033531609 -0.00080931716 -0.87170267 0.065117992
523000000 -0.87235391 0.06977208 -0.00037628098 0.00013984456 0.00024541127 -0.0010779775 -0.87268335 0.064920411
524000000 -0.87283683 0.070946157 0.00094596163 -0.0011203331 -0.00027686812 -0.0010385307 -0.87239724 0.065667897
525000000 -0.87280846 0.070369631 0.00048078602 -0.0010262204 -8.9034322e-005 0.00013227689 -0.87182009 0.064924926
526000000 -0.8727833 0.070995353 -0.00041790077 -0.0012759798 -0.00020481707 -0.0016534803 -0.87230253 0.064438395
527000000 -0.87414312 0.070287734 0.0010711009 -0.00084323011 -3.89009e-005 -0.00055720541 -0.87231284 0.065467939
528000000 -0.8742348 0.072010174 -0.0018922503 -0.0019692937 0.00017717121 -0.0027153823 -0.87158597 0.06391798
529000000 -0.87393588 0.071421273 -0.0002853178 -0.0011106234 5.1213661e-005 -0.00098233612 -0.87111932 0.065544859
530000000 -0.87388015 0.071028136 4.1394633e-005 -0.00075219461 -0.00015738886 -0.0011016482 -0.87139106 0.065550119
531000000 -0.87268245 0.068878934 -9.2457609e-005 -0.00037719694 -0.0010089718 -0.00076290028 -0.87305939 0.065122269
532000000 -0.87375617 0.071893282 9.4961964e-005 -0.0008998987 -0.00080065592 0.0001523324 -0.87274855 0.0653859
533000000 -0.87356704 0.070430443 -0.00027485832 -0.00066699751 -0.00028818034 -0.0023554086 -0.87175518 0.06688638
534000000 -0.87353212 0.070461832 0.00014878446 -0.00074685639 -0.00050128408 -0.0010769949 -0.8734166 0.066157781
535000000 -0.87249374 0.072959229 -0.00050429074 -0.0013879886 -0.00013063361 -0.0012438003 -0.87053847 0.066030331
536000000 -0.87232304 0.072141357 -0.00069229008 -0.00078041048 -0.0014155011 -0.0014078201 -0.87104928 0.064856797
537000000 -0.8728922 0.072694659 -0.0012907067 -0.0012889629 0.00014369558 -0.00049210468 -0.87091351 0.06740544
538000000 -0.87385017 0.072885074 -0.00043161373 -0.0013236031 -0.00039837079 -0.00075760414 -0.87291056 0.066206813
539000000 -0.8732214 0.072191574 -0.0011990431 -0.0011970521 -1.3616375e-005 -0.001128128 -0.87190211 0.066789962
540000000 -0.8727839 0.072914146 -0.00048226421 -0.0010345544 -0.0007762594 -0.00089971017 -0.87176168 0.066605844
541000000 -0.87534457 0.072358035 -0.00016137738 -0.00071264827 -0.00054710777 -0.00092076242 -0.87172705 0.066110119
542000000 -0.87439477 0.073291466 -0.00034193209 9.7745742e-006 -0.00014290107 -0.0012838546 -0.870655 0.065067366
543000000 -0.87352854 0.07426478 0.00035915623 -0.00035834708 0.0004208133 -0.0014233937 -0.87281501 0.066303708
544000000 -0.87409192 0.071918689 0.00027597966 -0.00031522298 -5.199818e-005 -0.0011627449 -0.87206531 0.06704358
545000000 -0.87427312 0.073470242 -0.0005495376 -0.0013412331 0.00020011856 -0.00043334856 -0.87003773 0.066508286
546000000 -0.87402636 0.072428234 -0.0014634692 -0.0011077505 -0.00052102492 -0.00084508926 -0.87208712 0.066636063
547000000 -0.87465692 0.072940022 -4.5506691e-005 -0.0014001764 -0.00056142232 -0.0015649328 -0.87141359 0.068040736
548000000 -0.87288165 0.071926199 -0.00037708232 -0.0013403813 0.00039171972 -0.00057827507 -0.87135893 0.066321544
549000000 -0.87361455 0.072765619 -0.00025839815 -0.00051633682 -0.00031206993 -0.00096234586 -0.87308985 0.06791275
550000000 -0.87268752 0.073885247 -0.00038610303 -0.0013779247 -0.0003303189 -0.00098048721 -0.87246704 0.067124009
551000000 -0.87446338 0.074115634 -0.0004631833 -0.0016442804 0.0010216961 -0.0012996896 -0.87140572 0.067566313
552000000 -0.87502265 0.072802238 0.00022160518 -0.0012279201 -0.0001372648 -0.0011745308 -0.87258375 0.067631051
553000000 -0.87367874 0.073242873 -0.00051935227 -0.00084715325 -9.8425939e-005 -0.0018357731 -0.87206727 0.066438451
554000000 -0.87312323 0.073683746 -0.00053558312 -0.0012959209 3.4071613e-006 -0.00049184897 -0.87277085 0.06811586
555000000 -0.87317407 0.073318005 8.600422e-005 -0.00085607846 1.5777921e-005 -0.0014416677 -0.87098294 0.067017175
556000000 -0.87472481 0.073192246 0.00011813889 -0.001260765 -0.00022694873 -0.0013973279 -0.87222022 0.069291823
557000000 -0.8732658 0.072457425 -0.00015356819 -0.00097922829 -5.8345799e-005 -0.001150339 -0.871108 0.066906877
558000000 -0.87431854 0.072478853 -0.0007037649 -0.00084516476 -0.0005130365 -0.0012927019 -0.87106395 0.067546435
559000000 -0.8742435 0.072665416 -0.0004396853 -0.00093276944 0.00026202673 -0.0014933842 -0.87348008 0.069217116
560000000 -0.87207317 0.072388038 -0.0011361302 -0.0017891455 -0.0008377746 -0.001150994 -0.87090385 0.068235666
561000000 -0.87378603 0.07460051 -0.00018100628 -0.00081554928 -0.00045526362 -0.0015002665 -0.87225395 0.068697251
562000000 -0.87386638 0.073578753 5.4446376e-005 -0.0012368079 -0.00051504944 -0.0012464746 -0.87169063 0.067636013
563000000 -0.87294608 0.07313408 -0.00058227731 -0.0017874972 6.0391609e-005 -0.0007703157 -0.87231815 0.068190232
564000000 -0.87384963 0.073366225 -0.00010761359 -0.0018999826 -3.9632574e-005 -0.0014404878 -0.8703329 0.067835338
565000000 -0.87331909 0.074190885 -8.6658758e-005 -0.000190772 -0.00078990636 0.00018113102 -0.87316144 0.068812355
566000000 -0.87238395 0.073972657 -0.00099291175 -0.001220554 -0.00044662561 -0.0023206978 -0.87208724 0.066774882
567000000 -0.87168175 0.074604779 8.0035279e-005 -0.0015104618 -0.00075195177 -0.00070152694 -0.87328553 0.068999276
568000000 -0.87385571 0.072859436 -0.0018472194 -0.0017777847 -0.0004145971 -0.00132923 -0.87134928 0.067772038
569000000 -0.87287182 0.074895784 0.00070358964 -0.00085663842 -0.00071643037 -0.001645633 -0.87112999 0.066464029
570000000 -0.8729139 0.074260473 -0.00066902541 -0.0010543964 -0.00024061462 -0.00068140827 -0.87223065 0.068725154
571000000 -0.87255692 0.072615974 -0.00069068163 -0.0015024565 6.6953959e-007 -0.0015279755 -0.87192732 0.070463866
572000000 -0.87364566 0.074413776 0.00057192193 -0.001070814 -0.00044076072 -0.00065333681 -0.87058187 0.069861047
573000000 -0.87256533 0.07338547 -0.00051388738 -0.00069651619 -0.00022300008 -0.0029289119 -0.87070036 0.069213696
574000000 -0.87254578 0.074758776 0.00019415288 -0.0016648968 -0.00039209487 -0.0016840128 -0.87156236 0.068194784
575000000 -0.87202424 0.074959114 -0.00036493642 -0.00094885094 8.067162e-005 -0.00071272539 -0.87251735 0.070049599
576000000 -0.87345052 0.075457625 -0.00075310195 0.00013176874 0.000609048 -0.0012664557 -0.87170702 0.070561662
577000000 -0.87316227 0.073812485 -0.00014625024 -0.00050427311 0.00028999848 -0.0010898579 -0.87192947 0.07063514
578000000 -0.87231416 0.074133761 -0.00057469244 -0.0002804689 0.00065553072 -0.00073510048 -0.87156451 0.068282299
579000000 -0.87327862 0.075642645 -9.8031822e-005 -0.0015083903 -0.00021807555 -0.0019844517 -0.87261391 0.069701485
580000000 -0.87369817 0.074866906 0.00028348647 -0.0011131059 -0.00023514889 -0.00055028754 -0.87249118 0.070035435
581000000 -0.87294745 0.075385898 9.1872214e-005 -0.00088932778 -0.00048284084 -0.00035846565 -0.87229961 0.070108123
582000000 -0.87310779 0.074114881 -0.00028584691 -0.0024767176 -0.00042126531 -0.00056640204 -0.87127423 0.069022544
583000000 -0.87257516 0.07729362 0.0003082373 -0.00071380025 -0.00031816281 -0.001257629 -0.87120783 0.069608837
584000000 -0.87258184 0.073733777 -0.00040284818 -0.00088816759 0.00034858938 -0.0013320723 -0.87033778 0.070687629
585000000 -0.87401217 0.07488589 -0.00022885027 -0.00046184473 -0.00022901784 -0.0017983405 -0.87104207 0.070055276
586000000 -0.87231666 0.075429134 -1.0227135e-006 -0.00097522285 -0.00054858637 -0.0005216854 -0.87210113 0.070461497
587000000 -0.87287295 0.076302081 -6.2340216e-005 -0.00038477706 -0.00065594754 -0.001315182 -0.87121725 0.070963308
588000000 -0.87406212 0.076810256 -0.00055814668 -0.00092679734 -0.0005643359 -0.00035115323 -0.87174183 0.07079263
589000000 -0.87227041 0.076376572 0.00047913898 -0.0010200003 -0.0002432817 -0.0011805198 -0.87060225 0.070633456
590000000 -0.87164676 0.074930973 -0.0002165355 -0.0013359638 -3.8568505e-005 -0.0022634661 -0.87230438 0.070488587
591000000 -0.87276071 0.077298269 0.00045182457 -0.0018462298 0.00013509081 -0.0008056587 -0.87095326 0.070698053
592000000 -0.87180638 0.076504141 -0.00034138621 -0.0015788976 -0.0017405824 -0.0014905124 -0.8713811 0.070860684
593000000 -0.87169337 0.074346617 -0.00053358998 -0.0013225249 -0.00034063993 -0.00012433635 -0.86968666 0.070416972
594000000 -0.87199974 0.075010784 -0.0002404749 -0.0010508093 -0.000226248 -0.0020607347 -0.87138456 0.070376098
595000000 -0.87132287 0.077917978 7.7052799e-005 -0.001800265 -0.00023132673 -0.0011075471 -0.87185693 0.071332373
596000000 -0.87127841 0.07634142 0.00021620581 -0.0016128002 -0.00026854809 -0.001377489 -0.87233967 0.071673088
597000000 -0.87336469 0.075922765 0.00043297926 -0.00031457731 0.00010475448 -0.0015038388 -0.87143016 0.071700662
598000000 -0.874367 0.0782656 0.00032900125 -0.0010341144 0.00095002766 -0.0017315729 -0.87044585 0.071340889
599000000 -0.87308544 0.077101909 0.00076241599 -0.0012094688 -0.00086739683 -0.001472127 -0.8703934 0.070101462
600000000 -0.87207836 0.076626375 -0.00035252853 -0.0022160946 -0.0012552938 -0.0013433704 -0.87165189 0.072252996
601000000 -0.87105203 0.07620728 0.00038011131 -0.0023539104 -9.9738616e-005 -0.0010112256 -0.87032598 0.071951322
602000000 -0.87209916 0.07854227 0.00041521084 -0.00090703234 -0.00055840693 -0.0014149576 -0.87182087 0.073408894
603000000 -0.87530047 0.077378005 1.5815724e-005 -0.0013199756 -0.00045839502 -0.00085120177 -0.87202531 0.074045897
604000000 -0.87342781 0.079051495 -0.00088816765 -0.0019323316 0.00099603389 -0.0014596138 -0.87214857 0.073797189
605000000 -0.87260026 0.079286806 -0.0010977822 -0.0014113408 -0.00015876636 -0.00037454089 -0.87134588 0.072854325
606000000 -0.87225181 0.07913322 -0.00043304701 -0.00073879736 -0.0013598588 -0.0010014329 -0.87052983 0.072951376
607000000 -0.87253189 0.079319298 -0.00028893785 -0.002020953 -0.0006454424 -0.0018324865 -0.87081504 0.07184229
608000000 -0.87165171 0.079931967 0.00047458705 -0.00075483107 -0.00016431356 -0.0021643804 -0.8723262 0.070531219
609000000 -0.87317801 0.078624032 -0.0011186278 -0.0019542358 -0.00052499393 -0.0018400758 -0.8703568 0.073298156
610000000 -0.87314844 0.080101065 -5.0302508e-005 -0.0011464066 -0.00034913071 -0.0016459293 -0.87009716 0.07391876
611000000 -0.87196034 0.079833508 -0.0011497074 -0.0022088771 -0.00056141621 -0.0018143021 -0.86951828 0.07312829
612000000 -0.87232155 0.080161117 -0.00094555615 -0.001816601 -0.00049631851 -0.0016827234 -0.87107962 0.074770443
613000000 -0.87248218 0.081113748 -0.00066679914 -0.0020606993 -0.00086127373 -0.00035806315 -0.8688491 0.072389841
614000000 -0.87065238 0.079508573 -9.3524126e-005 -0.0016114502 0.00033130634 -0.0015690337 -0.87162232 0.074251153
615000000 -0.871952 0.081391022 -0.00054499891 -0.0021588006 -5.6352361e-005 -6.3300089e-005 -0.87160712 0.073427923
616000000 -0.87154913 0.08050359 -9.9565092e-005 -0.00012785746 -4.2084808e-005 -0.00092761876 -0.87064874 0.074920334
617000000 -0.87074596 0.080612861 -0.00034065565 -0.0002782029 -8.2252183e-005 -0.0016667288 -0.87167853 0.074578352
618000000 -0.87229532 0.08194676 -0.00038256336 2.4044612e-005 -0.00017516495 -0.0015474317 -0.87147105 0.074985571
619000000 -0.87277037 0.08239647 0.00052158686 -0.0016783151 -0.00079591112 -0.0017999726 -0.87129545 0.075677715
620000000 -0.87169808 0.081368469 -0.00051366241 -0.0010011402 -0.00024543586 -0.002537095 -0.87013125 0.074498214
621000000 -0.87300819 0.083284259 -0.00097296591 -3.3253731e-005 0.00075996458 -0.00047914064 -0.87116027 0.074083969
622000000 -0.87188047 0.0815963 -0.00032914922 -0.0015376755 -0.00031508031 -0.0017850709 -0.87133443 0.075386934
623000000 -0.86987495 0.082234465 -0.00016644779 -0.00083930447 -0.00042833429 -0.001769982 -0.87172186 0.072955176
624000000 -0.87188822 0.083707146 -0.00023885527 -0.0016050858 -0.0007678796 -0.0016138251 -0.87102133 0.07557366
625000000 -0.8721444 0.081539162 -0.00035079246 -0.00059733342 0.00026600581 -0.0013769807 -0.87114614 0.074619114
626000000 -0.87108129 0.084209964 -0.00055205077 -0.0021544266 -0.00072028954 -0.0013756752 -0.87109685 0.076734543
627000000 -0.87098241 0.082963184 -0.00054360414 -0.00016060066 -0.00056919258 -0.0010636724 -0.87022841 0.07427568
628000000 -0.87156755 0.082351625 0.00051172159 -0.0011917697 -0.00028247217 -0.0013000733 -0.86970985 0.077403396
629000000 -0.87324303 0.084467024 0.00069245161 -0.00090589933 2.9227536e-005 -0.0017589449 -0.86937451 0.075323887
630000000 -0.87223953 0.082789861 0.00033662695 -0.00020211807 0.00054692465 0.00013111478 -0.87191778 0.077023685
631000000 -0.87114912 0.084252276 -0.0012201156 -0.0010037943 -0.00057865022 -0.0024978553 -0.86906058 0.074981697
632000000 -0.87204945 0.08356782 -0.0003146024 -0.00017689128 -0.0002543857 -0.0013154446 -0.87032855 0.07613802
633000000 -0.87221026 0.08417584 -0.00016622155 -0.0021145314 0.00036226175 -0.0017880993 -0.87145948 0.077845991
634000000 -0.87279457 0.084053755 -0.00039267159 -0.0012545028 -0.0005092466 -0.00074779004 -0.8724308 0.076609254
635000000 -0.87263805 0.084290788 -0.00010981307 -0.0021123514 9.0101312e-005 -0.0013280984 -0.87121594 0.077179067
636000000 -0.86997855 0.084890798 0.00045001134 -0.00066552567 0.00059679954 -0.0011964847 -0.86985683 0.07749559
637000000 -0.87086767 0.084686764 -0.00024941249 -0.0013979772 5.6275392e-005 -0.00021646584 -0.86869508 0.076893128
638000000 -0.8697508 0.084287487 -0.00089440815 -0.00090239523 -0.00014948158 -0.0014213431 -0.87005436 0.076278515
639000000 -0.87228376 0.08552628 0.00013023421 -0.0015513201 -0.00024809709 -0.00092246558 -0.86953014 0.07733383
640000000 -0.87078428 0.086123966 -1.2731285e-005 -0.00042077617 -0.00080000889 -0.0018569092 -0.86948895 0.076905161
641000000 -0.87052292 0.084585063 -0.0005253409 -0.0003548387 0.00056947087 -0.0011674975 -0.87071031 0.078410238
642000000 -0.87150508 0.087048709 5.4328924e-005 -0.0017602056 0.00073219201 -0.0022653472 -0.87054694 0.077387862
643000000 -0.8709873 0.085867271 -0.001032197 -0.00088171748 -0.00039115592 -0.00097847567 -0.87011433 0.078079186
644000000 -0.87253118 0.085699216 0.00028660559 -0.0011920348 0.00040705592 -0.0011277884 -0.8688857 0.077619411
645000000 -0.87090695 0.085007541 -0.00067304389 -0.0010496698 -0.00045049863 -0.00060013239 -0.87069154 0.077959634
646000000 -0.87227726 0.086901203 0.00057614484 -0.0017145976 -0.00019218987 -0.0014932771 -0.86941409 0.078374378
647000000 -0.87275356 0.085555457 -0.00079816126 -0.0014972286 -0.001086413 -0.0014566933 -0.87070888 0.076520249
648000000 -0.8709628 0.086124137 -0.0012742307 -0.0011251142 -0.0003394596 -0.00022388746 -0.87198037 0.077750504
649000000 -0.8721897 0.08771687 0.00022567261 -0.00043569689 -0.00040130632 -0.0017868141 -0.86970538 0.078480504
650000000 -0.87212127 0.087268412 0.00012601406 -0.0014225006 0.00024887396 -0.00098251377 -0.8698653 0.078905448
651000000 -0.87026817 0.088173643 0.00017464212 -0.0013310551 -0.00014463514 -0.0023748132 -0.87026399 0.07958027
652000000 -0.87135708 0.086646438 -0.00043146158 -0.0012008854 0.00053877657 -0.0012296889 -0.87031025 0.077189639
653000000 -0.87053794 0.087144099 -0.00037728937 -0.0018234806 -4.8176695e-005 -0.00079077308 -0.86950684 0.077988535
654000000 -0.87121922 0.087483421 9.3316849e-005 -0.001079583 -0.0009012135 -0.0014642966 -0.87036693 0.078348026
655000000 -0.87005836 0.088185057 -5.4816119e-005 -0.00057456386 0.00023976779 -0.0006757931 -0.86968869 0.079053283
656000000 -0.87165248 0.087938868 0.0001382639 -0.0016802086 -0.00081848068 -0.0011830442 -0.87084621 0.080584727
657000000 -0.87257499 0.087558717 0.00022747104 -0.0007499067 -0.00049989705 0.00011506647 -0.87050247 0.078631192
658000000 -0.87189978 0.086522058 0.0016172683 -0.00049875589 4.9353373e-005 -0.00083377043 -0.86902052 0.079181358
659000000 -0.87156582 0.087129697 -0.0006571908 -0.002154795 -0.00062396767 -0.0019355164 -0.8708449 0.079519168
660000000 -0.87142289 0.088043779 1.8999785e-005 -0.0013565648 0.00016006948 -0.0016883989 -0.86868745 0.079282455
661000000 -0.87239659 0.087006785 -0.0012574991 -0.0010541455 -2.608379e-005 -0.00091690331 -0.87022793 0.07893873
662000000 -0.87146109 0.087692358 0.00080374617 -0.0016323575 -0.00061498245 -0.0010372646 -0.87047732 0.078252502
663000000 -0.87151891 0.086912401 -0.00047531602 -0.0017866709 -0.00056077732 -0.0015710897 -0.87126899 0.078047767
664000000 -0.87165797 0.08764527 0.00038668461 -0.0013592478 -0.00013095076 -0.0014311802 -0.87038344 0.079191133
665000000 -0.87216705 0.086698733 0.00016825664 -0.0021546527 0.00065014308 -0.0015318819 -0.8685022 0.078736126
666000000 -0.87118673 0.088428766 -0.00053240272 -0.00067339401 -4.0559131e-005 -0.001364946 -0.87086987 0.078564323
667000000 -0.86988956 0.08701586 -0.00042721117 -0.0017744586 -0.00035047316 -0.00048602087 -0.8708356 0.07922402
668000000 -0.87162262 0.087714694 5.1672567e-005 -0.0016336518 -0.00012438236 -0.0014972519 -0.87050164 0.080602109
669000000 -0.87048608 0.088184267 0.00031215762 -0.0025914428 -0.00034819651 -0.0013005076 -0.86986113 0.079380222
670000000 -0.87123764 0.089051038 -0.00036360032 -0.0012755827 -0.00030393252 -0.0017213539 -0.86949879 0.081048124
