!Keysight Technologies,M9374A,MY55442783,A.12.55.05
!Date: Thursday, May 20, 2021 17:51:31
!Correction: S11(Full 2 Port(1,2)) 
!S21(Full 2 Port(1,2)) 
!S12(Full 2 Port(1,2)) 
!S22(Full 2 Port(1,2)) 
!S2P File: Measurements: S11, S21, S12, S22:
# Hz S  RI   R 50
500000000 -0.87437683 0.068966612 -0.0010886526 -0.00039259068 -4.3985627e-005 -0.0019251511 -0.87241441 0.061467797
501000000 -0.87559557 0.06943398 -0.00043196909 -0.0018941375 -0.00028323758 -0.0011846188 -0.87199557 0.062290944
502000000 -0.87527931 0.068310328 -0.00024373957 -0.0012061908 -1.6761713e-006 -0.0005043787 -0.87057984 0.063967593
503000000 -0.87494648 0.068077013 0.00012016249 -0.0020953242 -0.00065719138 -0.00064597972 -0.87295622 0.061031602
504000000 -0.8748914 0.067670375 1.3735628e-005 -0.00059847627 -0.00077083573 -0.0008194535 -0.87209451 0.063105032
505000000 -0.87548703 0.069003157 -0.00014790033 -0.00050752412 0.00028479283 -0.00049660966 -0.87269956 0.062946968
506000000 -0.87453187 0.06917949 0.00019414793 -0.00061184302 -0.00060399511 -0.0011191862 -0.87315613 0.063425198
507000000 -0.87427211 0.070269331 -0.00047907821 -0.00068862725 0.00042003268 -0.00082249916 -0.87149411 0.06511189
508000000 -0.87410176 0.069664225 0.00071936258 -0.0013087804 -0.0010216528 -0.0010329122 -0.87211144 0.06397181
509000000 -0.87488711 0.070416011 -2.1277951e-005 -0.0009443555 0.00014600434 -0.0011977786 -0.87258965 0.063543826
510000000 -0.87358594 0.072415173 0.00070733257 -0.00029686603 3.2718367e-006 -0.0013485738 -0.87224871 0.063675866
511000000 -0.87457067 0.07069952 -0.00040612629 -0.00071380346 -0.00080508972 -0.00102292 -0.87235993 0.064530775
512000000 -0.87498432 0.069713593 8.0489706e-005 -0.0018350714 0.00047267796 -0.00060274627 -0.87145311 0.065653116
513000000 -0.87468481 0.069884107 -0.00057226466 -0.00055779918 -0.00040358535 -0.00082444563 -0.87405258 0.064644396
514000000 -0.87449503 0.068376869 0.00046601734 -0.00023968343 0.00030271959 -0.00030074065 -0.8722766 0.065149732
515000000 -0.87517422 0.072362728 -0.00098058442 -0.0014381895 -0.0015591652 -0.0018862269 -0.87196237 0.066769846
516000000 -0.87386352 0.069609433 0.000155849 -0.0010973722 -0.00042755954 -0.00081082812 -0.87131727 0.065797187
517000000 -0.87647849 0.073287092 -4.7389105e-005 -0.00075441366 -0.00020442336 -0.00079279247 -0.87121248 0.06550701
518000000 -0.87430984 0.07144811 0.00074610749 -0.00067006942 -0.00032647865 -0.00059880858 -0.87168127 0.066079378
519000000 -0.87483287 0.070767336 -0.00052965642 -0.0010624081 9.6835674e-006 -0.0016144572 -0.87139702 0.065467104
520000000 -0.87233073 0.072434083 -0.00056442001 -0.0013655146 4.6968191e-005 -0.00062360341 -0.87198436 0.065612212
521000000 -0.87495959 0.071101911 -0.00013172063 -0.00043860634 0.00040978155 -0.0010441586 -0.87318331 0.065330066
522000000 -0.87438679 0.072802298 -0.0012958833 -0.0015772929 -0.0011163215 -0.0019271289 -0.87290192 0.067005277
523000000 -0.87477022 0.070677735 0.00029960359 -0.0014838927 0.00015763742 -6.4369e-005 -0.87216514 0.067518204
524000000 -0.8744719 0.072544023 -0.00092755485 -0.002043403 -0.00083600899 -0.0016859646 -0.87260675 0.065806635
525000000 -0.87421191 0.071638085 -0.00047478912 -0.0011146754 0.00039824549 -0.00052650785 -0.87130284 0.065951884
526000000 -0.87483293 0.070525311 -0.000366969 -0.0016052593 -0.00026780795 -0.0011294429 -0.87153649 0.066242658
527000000 -0.87577504 0.071713537 -4.0186801e-006 -0.0015301042 -0.00034765474 -0.00084424164 -0.87328857 0.065846361
528000000 -0.874084 0.07220903 -0.00069382874 -0.00059002341 -0.00096970017 -0.00081920053 -0.87179756 0.066279843
529000000 -0.87517309 0.071852356 -0.00028064151 -0.0013504513 0.00038363668 -0.00020977565 -0.87209368 0.066154569
530000000 -0.87311476 0.072160929 0.00029476197 -0.00014566349 -0.00010570919 -0.00065895123 -0.87228805 0.066808
531000000 -0.87443465 0.071619473 0.00010274642 -0.0014294588 -0.00093996397 -0.00025140986 -0.87106675 0.067198053
532000000 -0.87420487 0.072846711 0.00057447876 -0.0012975555 0.00026560255 -9.1791e-005 -0.87102377 0.068349227
533000000 -0.87466139 0.07252378 2.2883547e-005 -0.00083049323 -2.7237666e-005 -0.0010872785 -0.87265021 0.068391472
534000000 -0.87373608 0.071067125 -0.0003178794 -0.00072757987 0.00015834007 -0.00017624034 -0.87006491 0.066958852
535000000 -0.87398076 0.073386408 0.00052905327 -0.0010531815 -0.00022993929 0.00014057569 -0.87199223 0.068590298
536000000 -0.87341595 0.074986085 3.6840324e-006 -0.00085105031 1.7739816e-005 -0.00022703192 -0.87159419 0.067569889
537000000 -0.87328583 0.072705396 -3.0939937e-005 -0.00051641115 -0.00071574264 -0.0017017932 -0.87248468 0.066716999
538000000 -0.87417865 0.074367881 0.00047848839 -0.0013710532 0.00064673251 -0.0013995726 -0.8718698 0.069130488
539000000 -0.87332511 0.075008869 0.00032289012 -0.00050234521 -0.00081689993 -0.0013676557 -0.87270617 0.069642641
540000000 -0.8754217 0.0735493 -0.00060792512 -0.0013549333 -0.00030323313 -0.0018258919 -0.87165111 0.068327822
541000000 -0.87251437 0.075788893 0.00037037875 -0.0017003076 -0.00021330571 -0.0015260925 -0.87066543 0.068184882
542000000 -0.87489992 0.074699059 0.00038561111 -0.00078537682 -0.00026161331 -0.0015023269 -0.87213528 0.070162214
543000000 -0.87396473 0.074123599 -4.7501344e-005 -0.00060371991 -0.00033704736 -0.00064844853 -0.87173289 0.067720532
544000000 -0.8734799 0.075780258 -0.0008626437 -0.00068352546 -0.00024750276 -0.0013916333 -0.87275153 0.068950407
545000000 -0.87490243 0.074253932 -0.00053117849 -0.00089291239 -0.001427669 0.00014065058 -0.87094092 0.068561949
546000000 -0.87389934 0.07490024 0.0005705966 -0.00035403919 5.6224446e-005 -0.0022141603 -0.87293327 0.067946799
547000000 -0.87399322 0.073171616 -0.00035686154 -0.00060215837 -0.00051714561 -0.0014210272 -0.87168616 0.069246724
548000000 -0.87327677 0.074966602 0.00079731108 -0.00064149569 -0.00022387432 0.00012231838 -0.87044114 0.068704978
549000000 -0.87438792 0.07470911 0.00031020149 -0.00081399584 2.5790867e-005 -0.0016422404 -0.87124372 0.06959407
550000000 -0.87446314 0.075261042 0.0010824195 -0.0010213278 0.00014120419 -0.0013483004 -0.87165946 0.069229387
551000000 -0.87366307 0.074456513 -0.00029203203 -0.00097414659 -0.00083045539 -0.00068067509 -0.87103486 0.068855688
552000000 -0.87386203 0.07470724 -0.00020508916 -0.00042367337 0.00038913003 -0.0014481257 -0.87046081 0.069729984
553000000 -0.87517941 0.076368168 -0.00050230889 -0.00085048669 0.00036468031 -0.00094234222 -0.87239015 0.068409741
554000000 -0.87306893 0.075560763 0.00010056431 -0.0022426841 -0.00036127359 -0.00094037584 -0.87091625 0.07038404
555000000 -0.87213105 0.074094214 -0.00085623912 -0.0017283922 0.0001115733 -0.0011062588 -0.87153029 0.070151575
556000000 -0.87222046 0.074832797 0.00059918303 -0.0017296775 -0.00045517815 -0.00070166442 -0.87124944 0.070477992
557000000 -0.8729344 0.076663345 -0.00071254087 -0.0012677618 0.00033956426 -0.0017416609 -0.87210685 0.069103971
558000000 -0.87448138 0.075411126 0.001341464 -0.00011296738 0.00017979987 -0.0013505777 -0.87060064 0.071247324
559000000 -0.87390739 0.075486273 0.00038118145 -0.00059968716 -0.0014424338 -0.0015330553 -0.87283546 0.06969735
560000000 -0.87284386 0.075941138 -0.00025699651 -0.00039625025 0.00031750224 -0.000990398 -0.8710776 0.068764351
561000000 -0.87282413 0.075436786 0.00025862883 -0.00078392343 0.00030643662 -0.00080934627 -0.87128419 0.070453905
562000000 -0.87488782 0.075614788 0.00035652783 -0.00081206812 0.0004624383 -0.0010459031 -0.87155563 0.071251348
563000000 -0.8738274 0.075458258 -0.00047166733 -0.0014105821 -0.00018867746 -0.0014947278 -0.87044448 0.069503196
564000000 -0.87488335 0.075048275 -0.00044564746 -0.0012577825 -0.00063170173 -0.0012652782 -0.87263072 0.069440968
565000000 -0.87480688 0.075186804 -0.00074274081 -0.00027811687 -0.00013311894 -0.0012186551 -0.87194115 0.07076177
566000000 -0.87436718 0.076122358 -0.0013716765 -0.002143906 0.00066495087 -0.0018987724 -0.87137121 0.069756597
567000000 -0.8740375 0.074006408 -0.00026042789 -0.00076203985 -0.00055942242 -0.00057753653 -0.87199885 0.069576085
568000000 -0.87331992 0.077124648 -0.00058545329 -0.00045465928 -0.00043020592 -0.0010503924 -0.87317139 0.070574701
569000000 -0.87340766 0.076615743 -0.00037299385 -0.00096703548 0.00013704342 -0.0011566241 -0.87155807 0.070987269
570000000 -0.8723551 0.07556513 0.00073112349 -0.00088410074 0.00048085183 -0.0019111506 -0.86903208 0.070886239
571000000 -0.87329441 0.076155663 0.00068379799 -0.00039171652 0.00038145034 -0.0011389734 -0.8729499 0.071292721
572000000 -0.87429518 0.074899592 0.00030990862 -0.00077948085 -0.00029786429 -0.0012104654 -0.87187564 0.07096824
573000000 -0.87303191 0.075012408 -5.6704972e-005 -0.00022338108 -0.00013036089 -0.0020458072 -0.87331533 0.070274979
574000000 -0.87499535 0.076273575 3.068029e-005 -0.0012299764 -0.00095942308 -0.0021165756 -0.87127793 0.071741499
575000000 -0.87346601 0.076395556 -0.0014632544 -0.0016934308 2.8685912e-005 -0.00083791179 -0.87245011 0.070751071
576000000 -0.87250435 0.075801067 -0.00021442771 -0.0017686838 -2.8623479e-005 -0.00091355568 -0.87104267 0.073128276
577000000 -0.87106717 0.077267811 -0.00020971005 -0.0010274826 -0.0003514782 -0.0014270265 -0.87220412 0.070935734
578000000 -0.8724758 0.076569825 0.00010867786 -0.001453204 0.00012102368 -0.0011212729 -0.87050903 0.070336573
579000000 -0.87421256 0.077425405 -0.00072246045 -0.0012385492 -0.00060545857 -0.0021406126 -0.8720144 0.070160687
580000000 -0.87284952 0.078247614 0.00016840066 -0.00092416862 -0.00087491743 -0.0015986129 -0.87203103 0.0721737
581000000 -0.87371945 0.075433418 1.3368905e-005 0.00023946402 0.00060355046 -0.00135412 -0.87251389 0.069846645
582000000 -0.87377357 0.076485865 0.0010462715 -0.00096782291 -0.00013364948 -0.0009017408 -0.87083721 0.071991213
583000000 -0.87412053 0.077499427 0.00022803112 -0.00077368866 -0.00066749722 -0.00011306121 -0.87201518 0.070696443
584000000 -0.87235796 0.077419542 0.00053439941 -0.0014829088 0.00053070683 -0.0002476355 -0.87216514 0.071921997
585000000 -0.8732233 0.077805065 0.00010437181 -0.0011087332 0.0008816261 -0.0021149979 -0.87188059 0.072981253
586000000 -0.87271565 0.076839343 -0.0013014833 -0.0022570339 0.00091553293 -0.00074604369 -0.8706404 0.072470315
587000000 -0.87267751 0.078256167 0.00039308061 -0.0013143088 0.0001176986 -0.00099283946 -0.87081808 0.072821192
588000000 -0.8732878 0.076516829 -3.3555352e-005 -0.0015182245 0.00069567829 -0.00071361818 -0.87202305 0.073941201
589000000 -0.87282032 0.077193595 -0.00081505906 -0.0012829941 -0.00052616833 -0.0012172174 -0.87154293 0.07208398
590000000 -0.87299573 0.077734299 0.0010453814 -0.0014244075 -0.00070805947 -0.0010861947 -0.87103486 0.071916677
591000000 -0.87465596 0.078870006 -0.00013441892 -0.00051390275 0.0012238487 -0.0016279435 -0.87228179 0.07401114
592000000 -0.87234682 0.078143299 -0.00044536655 -0.0017226641 0.00050261919 -0.00077475241 -0.87171209 0.071377113
593000000 -0.87295884 0.077787153 4.7003272e-005 -0.0014346344 -1.803942e-005 -0.00054685387 -0.87328219 0.072673842
594000000 -0.87193537 0.078408584 -0.0001576286 -0.00069847389 -0.0002944115 -0.0007888953 -0.87188298 0.076470003
595000000 -0.87276733 0.078985825 0.00032098638 -0.0012492574 -0.00032566421 -0.0016190937 -0.87139779 0.073357783
596000000 -0.87341595 0.077226691 -9.4652634e-005 -0.0011804053 -0.00073234079 -0.00094549195 -0.86995274 0.073785454
597000000 -0.87262034 0.080449283 0.00029528077 -0.0007232565 -0.00091639895 -0.00082587363 -0.87023067 0.074126467
598000000 -0.87307483 0.079426385 -0.00058826216 -0.0022073509 -0.0005630441 -0.0013601892 -0.87023902 0.074118562
599000000 -0.87307084 0.079218648 0.00022042927 -0.00083914504 -0.00079624838 -0.00077307021 -0.87271315 0.073107809
600000000 -0.87357062 0.078689441 -1.0604283e-005 -0.0013442157 -0.00050867401 -0.0021039865 -0.8694005 0.073894583
601000000 -0.87264234 0.08004953 -4.4791988e-005 -0.0014837454 -0.00084968656 -0.0010343469 -0.87004709 0.075327858
602000000 -0.87295485 0.079443797 -0.00094683567 -0.00092302298 0.00094604585 -0.001171571 -0.87101048 0.073681779
603000000 -0.87200278 0.080003314 -0.00080022408 -0.0015476485 -1.477713e-005 -0.0024218783 -0.87120491 0.074083589
604000000 -0.874551 0.081121057 0.00014653681 -0.0010665943 -0.00084711873 -0.0012449326 -0.87072247 0.0754015
605000000 -0.87278837 0.081055209 1.0712828e-005 -0.0009932901 -0.00062955666 -0.0014434138 -0.86981982 0.075604685
606000000 -0.87255639 0.08111649 -0.00017775506 -0.0011020504 -0.00044519574 -0.00147078 -0.86954218 0.075184502
607000000 -0.87256896 0.081100732 0.0005583259 -0.0010302198 0.00011123266 -0.0015352174 -0.86926693 0.07454443
608000000 -0.87330282 0.082326792 -0.0003490219 -0.0014793015 0.00041560672 -0.0013610035 -0.87032729 0.075172096
609000000 -0.87206852 0.081190482 -0.00045519439 -0.0010747391 -0.000601476 -0.0025405616 -0.87113953 0.075892679
610000000 -0.87204546 0.081619792 -0.00055847986 -0.0011055976 -0.0012483578 -0.0020937347 -0.87066567 0.076302655
611000000 -0.87359202 0.082297102 0.00028263978 -0.0010740135 -0.00031508188 -0.0020647051 -0.87042415 0.075233504
612000000 -0.87173504 0.082505971 -4.6768524e-005 -0.00083453429 -1.8857198e-005 -0.0024056092 -0.87207413 0.07513947
613000000 -0.87215835 0.082427695 -0.00053083943 -0.0010450955 0.00030420968 -0.0018781765 -0.87068868 0.075379588
614000000 -0.87170172 0.083846681 -3.7299051e-005 -0.001367387 -0.00032786379 -0.0014727406 -0.87191421 0.074350275
615000000 -0.87050974 0.083492212 -0.00040727356 -0.0011370396 -0.00049526413 -0.0018723467 -0.87071931 0.076622956
616000000 -0.87217081 0.082165301 -0.00071923312 -0.00085496058 0.00033702588 -0.0022708911 -0.86901444 0.075899981
617000000 -0.87293941 0.082517244 -0.00035121845 -0.0014561518 0.00021739227 -0.00079251477 -0.87039965 0.076750293
618000000 -0.8720665 0.084222235 7.2830124e-005 -0.0017087992 0.0002983108 -0.0017805737 -0.87046075 0.07735201
619000000 -0.87046641 0.084018148 -0.00073410996 -0.0011201063 -0.0011726121 -0.001269303 -0.87076771 0.076728329
620000000 -0.87198842 0.084456511 -9.5483985e-005 -0.00028170127 -0.00065822725 -0.0013688608 -0.87094259 0.077723786
621000000 -0.87356567 0.084291264 -0.0006892244 -0.00077621563 0.00030922244 -0.00074496132 -0.87149155 0.076021649
622000000 -0.8720749 0.082239114 -0.00044560921 -0.0014891461 0.00011064227 -0.0017797359 -0.87010831 0.076210432
623000000 -0.87216532 0.084357373 0.00026394599 -0.0012919813 0.0001406847 -0.0011436756 -0.86998683 0.076182239
624000000 -0.87189078 0.083974272 0.00046401707 -0.0027500396 -0.00067309494 -0.00023339097 -0.87026983 0.078100748
625000000 -0.87248248 0.086376138 -0.00043892118 -0.00099592155 -0.00024309827 -0.00094625226 -0.87094939 0.076229118
626000000 -0.87394035 0.084166855 -0.00060435024 -0.0018457329 0.000512434 -0.00097231648 -0.86982882 0.07778544
627000000 -0.87258452 0.085130587 -8.0187856e-006 -0.0014649152 0.00032832604 -0.0023992048 -0.87052006 0.077600896
628000000 -0.87204242 0.085780509 -0.00061470992 -0.00062398316 -0.00022343415 -0.0012922236 -0.87194085 0.079146095
629000000 -0.87301189 0.086570859 0.00049003487 -0.0014897039 0.00062445697 -0.00063407578 -0.869995 0.078915693
630000000 -0.8712976 0.085932083 -0.0012015456 -0.0013703783 0.00011518742 -0.0014417454 -0.87203413 0.078963727
631000000 -0.87123549 0.085180506 -0.00045657303 -0.0011310234 0.00084036402 -0.001828401 -0.87207431 0.078963347
632000000 -0.87278455 0.085887037 0.00031725958 -0.00039121843 -0.0014846459 -0.0019436551 -0.86968333 0.079202555
633000000 -0.87171906 0.085360229 1.7712393e-005 -0.00098239037 0.00073035236 -0.0023773941 -0.87069046 0.078704126
634000000 -0.87180036 0.087484941 -0.00095196703 0.00019896646 0.0010696928 -0.0011742032 -0.87070632 0.078551017
635000000 -0.87209582 0.086230949 -0.00039085935 -0.0010952279 0.00028835639 -0.0010066443 -0.8702684 0.079271138
636000000 -0.87152123 0.08720652 -0.00022090643 -0.0021832893 -0.00050163409 -0.00081274228 -0.87148482 0.078665793
637000000 -0.87259072 0.086659253 0.00013332002 -0.0026272514 0.00031988666 -0.0019969058 -0.86972958 0.077864066
638000000 -0.87230968 0.08877562 -0.00048741195 -0.0011390654 -0.00027670909 -0.00094580074 -0.87049073 0.079985701
639000000 -0.87188691 0.087468021 8.9587753e-005 -0.0011621738 0.00045310307 -0.00051305391 -0.87050879 0.080519751
640000000 -0.87043583 0.086312719 -0.00037205243 -0.0018213821 0.00053367467 -0.0013727185 -0.86924207 0.079525627
641000000 -0.87090164 0.08713071 0.00017669819 -0.0011978491 -0.00022250564 -0.0013002154 -0.86968184 0.078729235
642000000 -0.87279743 0.087769359 -0.00022691565 -0.0019068295 -0.0005849888 -0.0012628479 -0.86910141 0.080072202
643000000 -0.87174976 0.090423614 0.00060622377 -0.00083212473 3.1630094e-005 -0.0016044293 -0.87037247 0.080425806
644000000 -0.87105036 0.086707696 0.00059675955 -0.0016582439 0.00033439227 -0.00094568881 -0.87241375 0.081047922
645000000 -0.87099403 0.088807523 -0.0011995353 -0.0014712567 -0.00068189896 -0.00079726224 -0.87031996 0.080505081
646000000 -0.87147027 0.088323683 -0.00017694438 -0.0010888419 -0.00024908333 -0.0013818911 -0.87032598 0.08028128
647000000 -0.8731845 0.088367045 0.00036706406 -0.0010513716 -1.2150555e-005 -0.0020367042 -0.87041509 0.081210539
648000000 -0.87284213 0.088884473 -0.00031403106 -0.0012168408 -0.0013401329 -0.0013271529 -0.87051553 0.080739304
649000000 -0.87291461 0.088351987 0.0010674106 -0.0011077872 0.00075212587 -0.0019278752 -0.86965823 0.081285238
650000000 -0.87110245 0.089586452 -0.00041601266 -0.0013709656 3.2220501e-005 -0.00079769187 -0.8700915 0.081768386
651000000 -0.871436 0.090123929 -0.00015329513 -0.0011097176 -0.0011229271 -0.0028995292 -0.87040317 0.08037702
652000000 -0.87287211 0.088457659 -0.00087966636 -0.0011085176 0.0008301771 -0.001212946 -0.87058669 0.080488369
653000000 -0.8730213 0.087919518 0.00038917392 -0.0018243773 0.001009525 -0.00096979318 -0.87008333 0.079763949
654000000 -0.87105101 0.09050554 8.761047e-006 -0.0021398943 -0.00012358555 -0.0021055334 -0.87182444 0.081071213
655000000 -0.87073219 0.089481384 6.089572e-005 -0.00075698533 0.00051759736 -0.0020004457 -0.86958665 0.082445376
656000000 -0.8718074 0.08904656 -0.00035718188 -0.00063847034 -0.00029537088 -0.001198241 -0.8700214 0.082046315
657000000 -0.87199843 0.089041874 -0.0004372579 -0.0011213272 -0.0011185841 -0.0017084946 -0.86984193 0.081394039
658000000 -0.872293 0.090741634 -0.00083196373 -0.00034623258 6.6342225e-005 -0.0010659432 -0.86945516 0.080071002
659000000 -0.87119895 0.08988706 0.00063221867 -0.00024864785 0.00072853861 -0.0017461024 -0.86983883 0.082042657
660000000 -0.87095314 0.091634639 -0.00084967673 -0.00096662302 -0.00064077904 -0.0010585282 -0.86917782 0.081620663
661000000 -0.87241632 0.090056621 -0.00083830138 -0.0015959301 -0.0006389044 -0.0024438081 -0.87148744 0.08219938
662000000 -0.8720789 0.090033948 -0.00027438358 -0.0018959409 -0.00028419096 -0.001606143 -0.87016028 0.080892883
663000000 -0.87292832 0.090520054 -0.00031440938 -0.00080612395 0.00026834916 -0.00095079764 -0.87050891 0.079840131
664000000 -0.87237561 0.090384759 -0.00012372401 -0.0020956763 0.00029168878 -0.0015020708 -0.86989802 0.082383156
665000000 -0.87114459 0.090886898 -0.00030380613 -0.0015739184 0.00047636635 -0.0014927157 -0.86873317 0.082034737
666000000 -0.87239021 0.090041935 4.0840896e-005 -0.0014693203 -0.0010588792 -0.0012746832 -0.86915928 0.081681579
667000000 -0.8716256 0.091772564 -0.00051482621 -0.0010115991 0.00043048602 -0.0019283574 -0.86976767 0.082218096
668000000 -0.87168175 0.090747632 -0.00021742078 -0.0014784459 -0.00049532088 -0.0015112207 -0.8713243 0.081526287
669000000 -0.87158567 0.090505578 -1.1790178e-005 -0.0013617583 -0.0013586991 -0.0022180928 -0.86992776 0.080858946
670000000 -0.87135088 0.090796143 1.5660413e-005 -0.0009432917 0.00061219133 -0.00028888276 -0.86905521 0.082255319
