!Keysight Technologies,M9374A,MY55442783,A.12.55.05
!Date: Thursday, May 20, 2021 18:07:40
!Correction: S11(Full 2 Port(1,2)) 
!S21(Full 2 Port(1,2)) 
!S12(Full 2 Port(1,2)) 
!S22(Full 2 Port(1,2)) 
!S2P File: Measurements: S11, S21, S12, S22:
# Hz S  RI   R 50
500000000 -0.87539011 0.067306645 0.00028641976 -0.00055675156 -0.0013069202 -0.0015033138 -0.87441784 0.061367866
501000000 -0.87354827 0.068095237 -0.00027482928 -0.00055693742 -0.0012869266 -0.00055070588 -0.87358683 0.059717614
502000000 -0.8743307 0.067003518 -0.00077847298 -0.00054041931 -0.0012220051 -0.0018320212 -0.87326628 0.062793575
503000000 -0.87394613 0.067511521 -7.0807575e-005 -0.0010118721 0.00011392674 -0.0016886019 -0.87133145 0.062216152
504000000 -0.87403846 0.066321857 0.00016648298 -0.0021008807 -0.00019299245 -0.0011076517 -0.8726632 0.061541412
505000000 -0.87415296 0.067283317 -0.00013163498 -0.00077125081 0.00025960006 -0.0016045332 -0.87262881 0.061709028
506000000 -0.87308812 0.066378243 -0.0009029042 -0.0013141371 -0.0010905811 -0.00066268671 -0.87133712 0.061579991
507000000 -0.8734197 0.06692373 0.00021774159 -0.0003434456 -0.0014212653 -0.0004613671 -0.8720876 0.062590994
508000000 -0.87483984 0.068144821 0.0009264744 -0.00044847757 -0.00034601989 -0.00094403577 -0.87276685 0.063146234
509000000 -0.87304324 0.068790101 0.00048675697 -0.0010541603 -0.00024094412 -0.00066217 -0.87267047 0.062245376
510000000 -0.87442261 0.069505394 -0.0002812437 -0.00049630104 0.00061585894 -0.00053713075 -0.87216812 0.063699372
511000000 -0.87394667 0.067746922 0.00044751572 -0.0011734685 -0.00034963459 -0.0024345082 -0.87157798 0.064292245
512000000 -0.87333 0.067525513 -0.00044662334 -0.001244013 -0.00022149619 -0.00081921503 -0.87211943 0.062137891
513000000 -0.87208211 0.068734385 -0.00040464243 -0.00069126632 0.00023395816 -0.0010283039 -0.87273377 0.061635483
514000000 -0.87289596 0.069123119 -0.00061584887 -0.001101956 -0.00053801044 -0.001604946 -0.87480068 0.062854975
515000000 -0.87299234 0.070497207 0.00042161709 -8.6091066e-005 2.1409409e-005 -0.0013993228 -0.87375993 0.06310831
516000000 -0.87229866 0.06765046 -0.00056465791 -0.0010649447 -0.00058218959 -0.00028227968 -0.87351853 0.061930217
517000000 -0.87352133 0.068698175 0.00018535038 0.00028905697 0.00012574853 -0.00090165716 -0.87241668 0.063949049
518000000 -0.87127405 0.068768524 0.00020234403 -0.0012007527 0.00040733127 -0.00041460712 -0.87372696 0.061995789
519000000 -0.87291873 0.068343483 0.00012750771 0.00061278796 -0.00043839277 -0.00043803375 -0.87222415 0.06490083
520000000 -0.87168002 0.069676794 -0.00024671006 -0.00087320484 8.2044658e-005 -0.0011908767 -0.87277949 0.063279539
521000000 -0.87328804 0.070290148 -0.00030245242 -0.0011125315 0.00023644611 -0.00069249939 -0.87286508 0.066143885
522000000 -0.87367213 0.070483811 -8.1240622e-005 -0.0010757811 -0.00027489185 -0.0016414907 -0.87270015 0.064808726
523000000 -0.87366158 0.06969367 -0.00016245946 -0.0020244964 -0.00024549378 -0.00092629268 -0.87238336 0.066312723
524000000 -0.87377518 0.070001408 -0.0010372821 -0.00075407501 -0.00024802657 -0.0010772126 -0.87315369 0.065196954
525000000 -0.87106073 0.070526846 -0.00013496737 -0.0012726691 9.9131394e-005 -0.00024146422 -0.87232745 0.065680139
526000000 -0.87348109 0.07134822 -0.00031459719 -0.0016335286 -0.00055693701 -0.0013948175 -0.87348926 0.067122452
527000000 -0.87293684 0.071062028 0.0007838342 -0.0012708949 4.7647947e-005 -0.00082827732 -0.87232554 0.065124638
528000000 -0.87220597 0.071902856 -0.00023020795 -0.00085085043 -0.00067740324 -0.0013886712 -0.87281376 0.064389177
529000000 -0.87298697 0.072377145 0.00039627784 -0.00088952453 -0.00062187342 -0.00046135255 -0.87147993 0.06616848
530000000 -0.87370777 0.071382239 0.00064758892 -0.0010846215 -0.00049395068 -0.0014020234 -0.87381232 0.064249806
531000000 -0.8734014 0.071975306 -0.00069711299 -0.00082278589 1.7899902e-006 -0.0014648568 -0.87285459 0.064134866
532000000 -0.87332922 0.072341375 -0.00018902154 -0.0013629907 -0.00059596682 -0.0011438644 -0.8717503 0.065543428
533000000 -0.873016 0.070803486 0.00031599295 -0.0014787028 0.00017897766 -0.0011002604 -0.87294877 0.067009941
534000000 -0.87368453 0.071940787 -0.00043858765 -0.00090785016 0.00018175805 -0.0016676284 -0.87242734 0.064829111
535000000 -0.87289578 0.072574563 -0.00049466587 -0.0016924827 -0.00017933661 -0.0002300763 -0.87223834 0.067348905
536000000 -0.87273759 0.073019117 0.00092853198 -0.0012688905 -0.00032302848 -0.0010390527 -0.87269801 0.065793201
537000000 -0.87344891 0.072366431 0.00045453425 -0.00022889272 -0.0015293581 -0.0011927283 -0.87339133 0.067818239
538000000 -0.87327743 0.07286866 0.00081724813 -0.0022520428 -0.00023638825 -0.001535991 -0.87222123 0.065696508
539000000 -0.8727234 0.072552525 -0.00053523731 -0.00048499258 -0.00029823562 -0.00048315918 -0.87197417 0.06652268
540000000 -0.87396365 0.074104391 -5.1582574e-005 -0.00014042953 -0.00010540807 -0.0016374298 -0.87370116 0.067428119
541000000 -0.87261623 0.0747789 -4.7243816e-006 -0.0009241557 0.00054902374 -0.0012899667 -0.87314081 0.066388644
542000000 -0.8728081 0.073525213 0.00028294002 -0.0013956284 -0.00085045671 -6.457467e-005 -0.87044781 0.067304797
543000000 -0.87334496 0.072647832 -0.0011585266 -0.0013189712 0.00029210601 -0.00061693601 -0.87201601 0.067459859
544000000 -0.87246084 0.071425468 7.6943863e-005 0.00020913657 -0.00083002896 -0.0019637824 -0.87203544 0.066854574
545000000 -0.87337506 0.071111411 0.0002230817 -0.0021250919 -0.0005426819 -0.0013861555 -0.87190145 0.067523174
546000000 -0.87360752 0.072660297 0.00042277676 -0.0021414331 2.0303492e-005 -0.0010682776 -0.87220275 0.066357031
547000000 -0.87393939 0.074558035 -0.00065607723 -0.00089524745 -8.5931526e-005 -0.0017931728 -0.87247968 0.066902578
548000000 -0.87078476 0.073450975 -0.0010020281 -0.0011105175 -0.00014155518 -0.0010122451 -0.87306279 0.067235902
549000000 -0.87335807 0.07322789 -0.00045003471 -0.00012956184 -0.00065592845 -0.00043420852 -0.8732174 0.06829574
550000000 -0.87278318 0.072472647 0.00047912326 -0.0014507194 -0.00018771848 -0.0013302256 -0.87187487 0.069284067
551000000 -0.8728019 0.073654927 -0.00059876731 -0.0011941717 -0.00083077839 -0.00010319547 -0.8714 0.068747662
552000000 -0.87151653 0.072939955 0.0008858029 -0.0012469291 -0.00077221444 -0.00076324528 -0.87108123 0.066358075
553000000 -0.87409538 0.073224507 -0.00081782968 -0.0012888603 -0.00015001721 -0.0013912902 -0.87139308 0.068677671
554000000 -0.87170875 0.074486494 -0.0001314859 -0.00043212401 -0.00040971881 -0.00082862144 -0.87245411 0.068269379
555000000 -0.87148654 0.073693067 0.00056225265 -0.0010301397 -0.00042750567 -0.00041256536 -0.87245506 0.067454182
556000000 -0.87183464 0.072757289 -0.00047316149 -0.00055449212 0.000302417 -0.00062025129 -0.87268507 0.068163909
557000000 -0.8734411 0.074389875 3.9064758e-005 -0.0011732135 -0.00037586462 -0.00071486674 -0.87081498 0.068957783
558000000 -0.87261093 0.073117502 4.8562051e-005 -0.00043494476 -0.00014650154 -0.00044469122 -0.87156582 0.068286635
559000000 -0.8710646 0.073848791 0.00034849596 -0.0012748026 0.00061357277 -0.0013663487 -0.87164336 0.068457916
560000000 -0.87469536 0.075105518 -0.00060094421 -0.0021425309 -0.00078657997 -0.0012443123 -0.87351084 0.066927135
561000000 -0.87394685 0.073387839 -0.00093804573 -0.00034182495 0.00019132819 -0.0012761967 -0.87221354 0.06746763
562000000 -0.87310857 0.074333288 0.00011392462 -0.0010721978 0.00064933166 -0.0011264328 -0.87147474 0.069848709
563000000 -0.87176883 0.07298401 -0.00021824277 -0.001331005 -0.00016834197 -0.00095225178 -0.87414312 0.06987714
564000000 -0.87279493 0.072998375 0.00090885791 -0.00040771376 -0.00060161104 -0.0014009564 -0.87196362 0.069467157
565000000 -0.87252015 0.074280486 -0.0011329339 -0.0015110539 -0.00082734064 -0.0013828037 -0.87114787 0.068487592
566000000 -0.87293494 0.072675459 -7.3219408e-006 -0.00098221656 -0.00021611911 -0.0015516065 -0.87265837 0.068791509
567000000 -0.8711223 0.07410939 0.00032529709 -0.0019044458 -0.00062838575 0.00045647568 -0.87199897 0.068663284
568000000 -0.87289619 0.073871456 6.4036009e-005 -0.00089918508 -0.00037765742 -0.00096168299 -0.87132227 0.071255557
569000000 -0.87330151 0.075548917 -0.00062314433 -0.0013157816 -0.000816099 -0.0013100005 -0.87169212 0.069286533
570000000 -0.87195891 0.075342007 0.00052574545 -0.00099961064 -0.00032749295 -0.0011587475 -0.87224716 0.068015799
571000000 -0.87083805 0.074029744 -0.00042621689 -0.0010127365 0.00042474811 -0.0011004489 -0.87270099 0.068994388
572000000 -0.87202072 0.073221847 -0.00087000674 -0.00058954861 -0.0010228866 -0.00043149543 -0.87237698 0.069124877
573000000 -0.87248027 0.074118286 0.00073151116 -0.00084682961 -0.00058653142 -0.0016394313 -0.87431407 0.071839355
574000000 -0.87071502 0.075013973 -0.00078541617 -0.0013636457 -0.00035181688 -0.0010481998 -0.8725186 0.070495948
575000000 -0.87261581 0.07553491 -0.00091638736 -0.0016565882 0.00011972717 -0.0015453738 -0.8724283 0.069862612
576000000 -0.87084597 0.073667526 -0.00076192158 -0.0013654457 -6.8805894e-005 -0.0011246487 -0.87291682 0.06948559
577000000 -0.87099862 0.076383553 -0.00075086224 -0.0015030489 -0.00037258354 -0.00093878992 -0.87274879 0.068881981
578000000 -0.87088698 0.07587716 -0.00093417772 -0.0016349765 -0.00010662127 -0.0002245158 -0.87277776 0.068958908
579000000 -0.87073261 0.076882578 -0.00036678714 -0.0014413415 0.00063574844 -0.002311944 -0.87221366 0.070317507
580000000 -0.87194288 0.076614425 7.8828758e-005 -0.0019586091 -0.00019205597 -0.0013525151 -0.87171674 0.071739711
581000000 -0.87218785 0.074992865 -4.7960031e-005 -0.0012005589 -0.00017530138 -0.00087144837 -0.87355524 0.069274336
582000000 -0.87174207 0.075638041 8.6844237e-005 -0.0010010244 0.00074958772 -0.0010008594 -0.8729828 0.070454441
583000000 -0.87341976 0.075423449 -0.00059239403 -0.0018342981 -0.00082886266 -0.00046575314 -0.87339771 0.068339802
584000000 -0.870691 0.076209351 0.0006420617 -0.0014892558 -0.00098085729 -0.0012448938 -0.87184089 0.070233107
585000000 -0.87286431 0.07539618 -0.00018208186 -0.0019656799 -0.00084505411 -0.00073470839 -0.87159711 0.069532648
586000000 -0.87099105 0.075947285 0.00033880939 -0.000730764 -0.0009956616 -0.00031560354 -0.87054229 0.071222819
587000000 -0.87159133 0.076545916 -0.00031211099 -0.0016778226 -0.00051926071 -0.0013093845 -0.87119597 0.071559988
588000000 -0.87284303 0.075399496 0.00083612237 -0.00048667289 0.00030702015 -0.00060785573 -0.87178457 0.069158889
589000000 -0.87243134 0.074696295 0.0011969268 -0.0010056574 -0.00096835959 -0.00081570528 -0.87054253 0.07213252
590000000 -0.86978769 0.076698467 -0.00032642434 -0.00097859988 -0.00076733675 -0.00039172755 -0.87194425 0.070570573
591000000 -0.87243152 0.077049397 -0.00048064021 -0.0017144327 0.000107279 -0.00097602297 -0.871494 0.072468095
592000000 -0.87233472 0.078400984 0.00052042684 -0.0012046619 -0.00080104393 -0.0013266967 -0.87231648 0.070867471
593000000 -0.87136191 0.077548906 -0.00058279437 -0.0010272445 -0.00016838915 -0.0019010518 -0.87295729 0.071531527
594000000 -0.8707605 0.077848516 -0.00030695833 -0.0012269109 -0.0009220058 -0.0018064834 -0.87241739 0.072067842
595000000 -0.87132865 0.076339208 -0.00092949002 -0.0015964523 0.00034834386 -0.0018486108 -0.87248027 0.072116315
596000000 -0.8719154 0.0774047 -0.0014416545 -0.0012119478 -0.0010693597 -0.00025996851 -0.87351191 0.070809022
597000000 -0.87218046 0.07697273 0.00019137537 -0.0014165151 -0.0017517846 -0.0011699079 -0.87127262 0.071207464
598000000 -0.87073803 0.079425983 -0.0006956851 -0.00068544253 0.00083851197 -0.0023037212 -0.87183666 0.074080765
599000000 -0.87098956 0.077488922 -0.00033264523 -0.0013081183 0.00025856751 -0.0015830602 -0.87215841 0.071511261
600000000 -0.87191135 0.077585444 -0.00056112802 -0.0017305218 -0.00015702486 -0.0013499371 -0.87163836 0.07216341
601000000 -0.87153774 0.07868363 -0.00039830597 -0.0011139796 -0.00079213351 -0.001807353 -0.87267697 0.071258269
602000000 -0.87195635 0.078602232 1.9286234e-005 -0.0011826485 -0.00027724582 -0.00074128091 -0.87261343 0.07221026
603000000 -0.872491 0.079513773 0.00041152071 -0.0013724539 0.00078150531 -0.0016001695 -0.87248713 0.073057048
604000000 -0.87146217 0.079427019 0.0010663847 -0.0016962205 -0.00055752374 -0.00030161231 -0.8713122 0.074169703
605000000 -0.87106144 0.077726044 0.00080919563 -0.0014074949 -0.00013379854 -0.00093389448 -0.8704437 0.07245928
606000000 -0.87142825 0.080427647 0.00051607558 -0.0008522406 -0.0013404214 0.00047781243 -0.87111354 0.074195363
607000000 -0.87100059 0.079426475 0.00047340916 -0.00086200761 0.00044716371 -0.00093530852 -0.87115145 0.072233327
608000000 -0.87303203 0.080907635 -0.00020171146 -0.0020141981 0.00013439156 -0.00054347678 -0.87218696 0.07197196
609000000 -0.87050146 0.080085665 -0.00048982713 -0.001684041 0.0001439053 -0.001310191 -0.87150747 0.074395038
610000000 -0.8727414 0.080162667 0.00084447337 -0.0025860099 -0.00093070272 -0.00014184965 -0.86979777 0.074256554
611000000 -0.87139845 0.080355585 -0.00094416394 -0.0010754046 0.00063308014 -0.00083326921 -0.87102568 0.074392959
612000000 -0.86995924 0.081758395 -0.00026351676 -0.0022312887 -0.00043693525 -0.0016249873 -0.87306774 0.074515894
613000000 -0.87014186 0.081375428 -7.152358e-005 -0.0015255583 -0.00067955576 -0.0021431975 -0.8706103 0.074349381
614000000 -0.87126738 0.08090131 -0.00039903389 -0.0013430336 -0.00087764533 -0.00051584776 -0.87171012 0.074694268
615000000 -0.87104952 0.081130072 0.00047743146 -0.00044913587 8.0303762e-005 -0.00073373318 -0.87203532 0.074227259
616000000 -0.87098098 0.082249798 0.00053580391 -0.0012838561 -0.00038491329 -0.00064126041 -0.87146354 0.076270841
617000000 -0.87142152 0.081623778 -0.0008154473 -0.0014993737 -0.00026868394 -0.0015097375 -0.87200373 0.075882323
618000000 -0.87178296 0.081759363 0.00035957454 -0.0022782933 -0.0018422358 -0.0012720709 -0.87120003 0.074710406
619000000 -0.87025291 0.082602412 0.0013790084 -0.00097616331 0.00059387408 -0.0014646006 -0.87166762 0.074627429
620000000 -0.87085527 0.083113484 -0.00045660735 -0.0015572937 -0.00040735671 -0.0014704762 -0.87097061 0.074377403
621000000 -0.87096077 0.07973171 -7.4879681e-005 -0.00028505028 0.00025436969 -0.00099275482 -0.87009972 0.075213261
622000000 -0.87129176 0.08174821 -0.00047067829 -0.0019643954 -0.0011236055 -0.00019101694 -0.8700425 0.075252362
623000000 -0.87104577 0.081876002 -0.00050124625 -0.00094872317 -0.00067085086 -0.0014339634 -0.86997622 0.074649155
624000000 -0.87180358 0.084045716 0.00037172018 -0.00018258335 -0.00019879438 -0.001523262 -0.87056607 0.076268628
625000000 -0.87005717 0.084262423 0.00029066263 -0.0015456467 -0.00023147919 -0.0015277729 -0.870377 0.075535432
626000000 -0.87056625 0.08371184 0.0011284241 -0.00010431017 0.00015080217 -0.0014850757 -0.87298125 0.077582888
627000000 -0.87153733 0.083733819 -7.4183808e-005 -0.00094591751 -0.00058816001 -0.00080380274 -0.87059802 0.075920261
628000000 -0.87106967 0.083704621 0.00016953895 -0.0018684156 -0.00052023557 -0.00083295465 -0.87118894 0.077085368
629000000 -0.87190735 0.083251454 -0.0003414113 -0.0008156604 0.0012704211 -0.0015107184 -0.87010586 0.075944521
630000000 -0.87063438 0.085241549 -0.0010337511 -0.0015236782 0.00037277001 -0.00097051845 -0.87126189 0.077794224
631000000 -0.87231016 0.084966265 0.00012922255 -0.00161287 -0.00083618774 -0.00028889292 -0.87212479 0.07741788
632000000 -0.86876559 0.085682787 0.00037242239 -0.0012221826 5.483484e-005 -0.00023656302 -0.86903286 0.075416453
633000000 -0.87049907 0.08444491 -0.00071148871 -0.0013075239 -9.4889612e-005 -0.0022411314 -0.87041545 0.076795958
634000000 -0.87068087 0.086553089 -0.00093585131 -0.0017737503 0.00022613051 -0.00062577892 -0.87073219 0.076595604
635000000 -0.86877906 0.085295178 -0.00013022748 -0.001927632 0.00014674837 -0.00034707782 -0.87145233 0.077904969
636000000 -0.87130147 0.086113758 -0.00047318396 -0.00087613391 0.00010481993 -0.0020066625 -0.87040854 0.077254377
637000000 -0.86958271 0.084694602 -0.00074840127 -0.0012392986 -0.00023396926 -0.0015433872 -0.87049234 0.076992832
638000000 -0.870525 0.084105693 -0.00064385787 -0.0015361628 -0.00072404364 -0.001141543 -0.87056828 0.077207431
639000000 -0.87133372 0.08664874 -0.00040485914 -0.0012654199 -0.00015709267 -0.0014948484 -0.86998552 0.078285001
640000000 -0.86890072 0.0862002 -0.00068109913 -0.0011077001 0.00042829063 -0.0016048908 -0.87023336 0.077238917
641000000 -0.87239188 0.086721502 4.5030592e-005 -0.00095173268 -0.00080609485 -0.00073623378 -0.87075508 0.077259108
642000000 -0.87064552 0.085821331 -0.00030682774 -0.0015161161 0.00096683681 -0.0014362657 -0.8715961 0.077269584
643000000 -0.87004739 0.086605698 0.00025450307 -0.0011066267 -0.00077002525 -0.0018956099 -0.87096506 0.077566601
644000000 -0.8715505 0.086381823 -0.00052306906 -0.0020001736 -0.00064594939 -0.001417182 -0.87120295 0.079566658
645000000 -0.8716442 0.086818986 -0.00083850831 -0.0016317647 -0.00082817866 -0.0020010856 -0.87197769 0.078119494
646000000 -0.87048995 0.088144988 -0.00088639237 -0.0011342664 0.00083429087 -0.00074444519 -0.8697477 0.076754451
647000000 -0.87136084 0.08620356 9.6933414e-005 -0.00087755558 -0.00065342191 -0.0013470649 -0.87122083 0.078956649
648000000 -0.86995965 0.087174177 -0.00042495775 -0.0012889247 -0.0010791231 -0.00080423884 -0.8701672 0.078961641
649000000 -0.87026787 0.086961761 -0.00078522653 -0.0005675875 0.00037147978 -0.0011123046 -0.87251198 0.079581067
650000000 -0.86970884 0.086397588 -0.00059309549 -0.001237432 -0.00011541132 -0.00068586151 -0.87044466 0.079742208
651000000 -0.87040639 0.087201796 -0.0001357407 -0.0012075006 -0.00041365696 -0.0015421574 -0.87065548 0.07815551
652000000 -0.87060547 0.086813428 -0.00029266559 -0.0010918151 0.00017096594 -0.0017540519 -0.86941093 0.078693613
653000000 -0.87137336 0.088046446 -0.0010419628 -0.001879742 0.00051535096 -0.0013232962 -0.87023646 0.077759743
654000000 -0.87116498 0.08745306 -0.00087116618 -0.0015557543 -0.00072736037 -0.0011157932 -0.87102717 0.078040048
655000000 -0.8695159 0.088148318 -0.00038971865 -0.0013256721 -9.3028175e-005 -0.0016032445 -0.87019664 0.080057159
656000000 -0.86969233 0.088932969 0.00028555567 -0.0012927544 -0.00020672518 -0.0012966173 -0.87099004 0.080528826
657000000 -0.87033856 0.088718124 -0.00060174376 -0.00084454188 -0.00028934082 -0.00126405 -0.87106258 0.079262525
658000000 -0.8696568 0.088338792 0.00075080141 -0.00052933692 -0.0013439881 -0.0015492139 -0.87110132 0.079458393
659000000 -0.87044102 0.088260576 -1.7765826e-005 -0.0010708739 -0.00014565088 -0.0010334664 -0.87125313 0.079477549
660000000 -0.87104738 0.089990094 -0.00025670699 -0.0017376133 -3.9030274e-005 -0.0010837562 -0.87009692 0.08136142
661000000 -0.87030447 0.08747559 0.00075794075 -0.0012750912 -0.00049824949 -0.0014849491 -0.87092882 0.081719898
662000000 -0.87089384 0.087836839 6.2960979e-005 -0.00089676108 -0.00034876369 -0.00097344874 -0.87026805 0.079652168
663000000 -0.87164688 0.088050351 -0.00041501087 -0.0017065186 0.00038184502 -0.001157498 -0.87012279 0.079934478
664000000 -0.87081319 0.088622555 -0.00049266557 -0.0012124499 -0.00037987836 -0.0011851821 -0.86974502 0.080335073
665000000 -0.87011355 0.087786131 -0.00019434997 -0.0012758356 -0.00083654473 -0.00063025724 -0.87221837 0.079735614
666000000 -0.86943656 0.089352399 -0.00071537192 -0.001692799 -0.00025357958 -0.00099087437 -0.87212193 0.08017835
667000000 -0.87105703 0.090443105 0.00031312034 -0.0015581587 -0.00032652021 -0.0011606606 -0.87040192 0.079341196
668000000 -0.8704142 0.087318569 0.00017706398 -0.00072605349 -0.00017832401 -0.0018206512 -0.87167108 0.079188325
669000000 -0.8712678 0.088737398 0.00042297217 -0.0021694142 -0.0002125539 -0.001350813 -0.87035286 0.080433697
670000000 -0.86942565 0.08888039 0.00054765877 -0.002315491 -0.00011030577 -0.0019036026 -0.86965293 0.08056058
