!Keysight Technologies,M9374A,MY55442783,A.12.55.05
!Date: Thursday, May 20, 2021 18:14:08
!Correction: S11(Full 2 Port(1,2)) 
!S21(Full 2 Port(1,2)) 
!S12(Full 2 Port(1,2)) 
!S22(Full 2 Port(1,2)) 
!S2P File: Measurements: S11, S21, S12, S22:
# Hz S  RI   R 50
500000000 -0.87339246 0.066608012 -0.00061489956 -0.002028096 -0.0017035597 -0.00012049117 -0.87166762 0.061383277
501000000 -0.87521404 0.06772837 4.0226361e-005 -0.0003162752 0.00070280553 -5.4407403e-005 -0.87356544 0.061297432
502000000 -0.87331063 0.06579636 -0.00032125329 -0.0010630793 -0.00043753328 -0.0012818496 -0.87230706 0.060851812
503000000 -0.87291712 0.066680253 0.0012200566 -0.0016365728 0.00050243619 -0.00053280953 -0.87232554 0.060310595
504000000 -0.87273413 0.067819998 -0.00093493744 -0.00048221718 0.00010752447 -0.00050021539 -0.87334687 0.060497299
505000000 -0.87390435 0.0673168 -0.00072869146 -0.0015473936 -0.00069613749 -9.545753e-005 -0.87237757 0.06060537
506000000 -0.87228185 0.068397053 -0.00051075773 -0.0013440724 -0.00046845738 -0.001913209 -0.87219024 0.062131681
507000000 -0.87425959 0.069101408 -0.00033139589 -0.0002887345 -0.00042346586 -0.0012101217 -0.87313354 0.062044796
508000000 -0.87329966 0.069661558 -0.000454439 -0.00054899219 -0.00026515441 -0.0014261116 -0.87236303 0.061002586
509000000 -0.87344855 0.066481888 -0.00098458969 -0.00056490162 0.00058068777 -0.00039238 -0.87298626 0.063187793
510000000 -0.87400693 0.068858348 0.00019651427 0.00015220408 0.00042678913 -0.0012693355 -0.87194836 0.062667221
511000000 -0.87299055 0.068972521 -0.00083847705 -0.00026397844 0.0013143485 -0.0015906534 -0.87159503 0.062263597
512000000 -0.87363231 0.068990372 -0.000249907 -0.00058891333 0.00047016505 -0.0014068322 -0.87230384 0.061997805
513000000 -0.87372154 0.070360743 -0.00043815607 -0.0025861678 -0.00049059931 -0.0012537019 -0.87278175 0.063143507
514000000 -0.87374413 0.068449534 3.5978755e-005 -0.001667026 -0.00055653148 -0.00057983981 -0.87273282 0.062672891
515000000 -0.87405765 0.070386253 -0.00074282137 -0.0014948332 9.9961879e-005 -0.0018065592 -0.87144184 0.06277898
516000000 -0.87376636 0.068617798 0.0001197575 -0.0014384185 -3.6259473e-005 -0.00077590731 -0.87053436 0.061722104
517000000 -0.87244302 0.069605596 -0.0002020847 -0.0016573773 0.00048836687 -0.00090074248 -0.87186581 0.062906206
518000000 -0.87191951 0.069797985 0.0007990427 -0.00076679228 -0.00011497262 -0.0011173016 -0.87204546 0.062688246
519000000 -0.87160671 0.068248957 -0.0014387614 -0.00067106256 0.00032801356 -0.00088027224 -0.87294042 0.063493721
520000000 -0.87423444 0.07030315 0.00019764186 -0.00017915924 0.00043124426 -0.00066500262 -0.87033004 0.063883923
521000000 -0.87325269 0.070955768 0.00032226398 -0.00083309028 0.0003870794 -0.0016443708 -0.87149364 0.064561531
522000000 -0.87458974 0.070811726 0.00015722054 -0.00011455538 -0.0015557356 -0.0021339303 -0.87206089 0.065641671
523000000 -0.87338138 0.069039807 -0.00074311072 -0.00062341063 -2.0022397e-005 -0.001182766 -0.87179416 0.064837195
524000000 -0.87356728 0.069338605 0.0004979652 -0.0010427061 -2.5635767e-005 -0.0018890233 -0.8730275 0.065070771
525000000 -0.87324572 0.06897068 -0.0005191348 -0.00083369028 7.4623036e-005 -0.00032494712 -0.87062985 0.063631408
526000000 -0.87435323 0.071318291 2.8147319e-005 -0.0015112037 -0.00098348199 -0.0012382683 -0.87169915 0.064973615
527000000 -0.87366295 0.071541958 -0.00026126232 -0.0015860995 -7.8047502e-005 -0.0016792901 -0.87234837 0.065685362
528000000 -0.87340289 0.071165226 0.00065064267 -0.00065079797 -0.00032161802 -0.0012216809 -0.87143105 0.066350006
529000000 -0.87321097 0.07015162 -0.00014492118 -0.0018908101 -9.5282558e-005 -0.00024910111 -0.86983949 0.065853037
530000000 -0.87247294 0.069690406 0.00034189934 -0.0004577006 -0.00098546443 -0.00097041309 -0.87322247 0.064885631
531000000 -0.87345374 0.069852166 0.00096130656 -0.0019679661 0.00042175732 -0.001120262 -0.87254024 0.065763362
532000000 -0.87244928 0.069873229 -0.00012036241 -0.00013279429 -2.0081499e-005 -0.0014256056 -0.8711282 0.065324165
533000000 -0.87358403 0.071391188 0.00013381476 -0.0014555128 -0.00033278146 -0.0015970363 -0.87101603 0.065357104
534000000 -0.87382489 0.070567384 0.0010221924 -0.00097922527 -0.00062930823 -0.0012491071 -0.87276357 0.065519392
535000000 -0.87350726 0.071397319 0.00015085 -0.0012149356 -0.0002677147 -0.0015927156 -0.86977392 0.065303028
536000000 -0.8731457 0.07303904 -0.00022015354 -0.00093221175 0.00026942953 -1.7369512e-005 -0.87131226 0.065763205
537000000 -0.87185687 0.070927553 -0.00057603535 -0.00088098098 -0.0013820282 -0.0007620239 -0.8720417 0.064651787
538000000 -0.8742643 0.071267202 -9.4997777e-005 -0.0018334285 0.00032472672 -0.0015763766 -0.87115633 0.065838732
539000000 -0.8719582 0.072004139 0.00010542342 -0.0023589043 0.00042015751 -0.00099613331 -0.87139595 0.06706062
540000000 -0.87325239 0.072984733 -0.00053618191 -0.0013882047 0.0005328402 -0.00041769355 -0.87069684 0.067420065
541000000 -0.87125462 0.071715772 -0.00019202256 -0.00085474522 -0.0012911154 -0.0014922352 -0.873474 0.066547513
542000000 -0.87173194 0.073015943 0.00083605811 -0.00072851067 -0.00047061007 -0.00087166094 -0.87223291 0.066052422
543000000 -0.87144297 0.070544809 0.00016500044 -0.00034033984 -0.00013401006 -0.00091832702 -0.87281543 0.068580866
544000000 -0.87326324 0.073637322 -0.0015032517 -0.0020597472 0.00052156573 -0.00086870632 -0.87222695 0.067640536
545000000 -0.87453258 0.071026005 2.5721596e-005 -0.0015923096 0.00051566039 -0.0012444016 -0.87140405 0.066939637
546000000 -0.87354636 0.073001884 0.00017229753 -0.00019581782 0.0003136833 -0.0017470845 -0.87089896 0.068324275
547000000 -0.87373203 0.073628075 -0.00022092009 0.00052761921 0.00050589611 -0.00085757644 -0.87117064 0.066512175
548000000 -0.87270981 0.072325408 0.0005491667 -0.001043993 0.00042331175 -0.00077778997 -0.87043482 0.067556314
549000000 -0.87422484 0.073414192 -2.1365047e-005 -0.00061367027 0.00010138025 -0.00095637189 -0.87157917 0.067105696
550000000 -0.87245303 0.075140864 -0.00067076931 -0.00058888475 -0.00037538839 -0.00073411426 -0.87156481 0.067638598
551000000 -0.87384975 0.072402366 -0.0013726761 -0.0010788201 -0.00057150057 -0.00084132515 -0.87127268 0.067221783
552000000 -0.87342966 0.073872618 0.001539645 -0.0010455215 -0.00058171968 -0.0013370989 -0.8724606 0.068344213
553000000 -0.87379307 0.07374607 -0.0011177558 -0.0016025447 0.00072651583 -0.00088415784 -0.87233645 0.067170896
554000000 -0.87223136 0.07338839 0.00013668121 -0.0012140831 -1.7443341e-005 -0.00018705083 -0.87192732 0.068832166
555000000 -0.87293702 0.072735794 0.00043610792 -0.00088417035 -0.00015110002 -0.00062990666 -0.87246221 0.068070434
556000000 -0.8724708 0.07200636 -9.2958697e-005 -0.0012611587 -0.00010907093 -0.00077682879 -0.87066132 0.067706987
557000000 -0.87411767 0.074693367 0.00022658697 -0.00086053525 -0.0011163523 -0.0011100462 -0.87395895 0.067385837
558000000 -0.87217945 0.073559903 -0.0010006877 -0.00071715575 2.1234175e-005 -0.001164562 -0.87121999 0.067999735
559000000 -0.87213224 0.073107451 3.1161566e-005 -0.00067605125 -0.00068828819 8.1372389e-005 -0.87334144 0.067949399
560000000 -0.87183356 0.073726386 -0.00024980004 -0.0011254833 -0.00014522961 -0.0019133098 -0.87104863 0.068493605
561000000 -0.87372512 0.072943628 -0.00034962111 -0.00062550185 -0.00072544138 -0.0017024352 -0.87139207 0.067371026
562000000 -0.87385178 0.074325912 -0.00043621959 -0.00048812947 -0.00068523519 -0.00088821177 -0.8726607 0.069454826
563000000 -0.87201387 0.072453909 0.00019012208 -0.0011185268 -0.0009573492 -0.0013934141 -0.87206322 0.068316504
564000000 -0.8722434 0.073838867 0.00073013728 -0.00029354557 -0.00022804819 -0.002133931 -0.87095976 0.067652471
565000000 -0.87166774 0.072334558 -0.00086670817 -0.0012555341 -0.00091609929 -0.0010502065 -0.87177044 0.068450488
566000000 -0.87105507 0.073972985 -2.6704496e-005 -7.0318791e-005 0.00029372569 -0.0011457427 -0.87114084 0.06942334
567000000 -0.87321162 0.072794214 -0.00093451008 -0.0012586573 -4.3703105e-005 -0.0017514417 -0.872881 0.067283966
568000000 -0.87202114 0.072466671 -0.00029916674 -0.00019642484 -0.00039817594 -0.00075223634 -0.86965865 0.069279939
569000000 -0.87256467 0.074790739 0.00066018663 -0.0015014177 0.0004879988 -0.00058857223 -0.87244809 0.071335964
570000000 -0.87180007 0.07554204 -0.00052483083 -0.0014344831 -0.00029965505 -0.0014819128 -0.87081385 0.069419533
571000000 -0.87215787 0.074067265 -0.00087218778 -0.00084863958 0.00035336174 -0.00090997614 -0.87300223 0.068864107
572000000 -0.87024677 0.07407403 0.0003610618 -0.0011214027 0.00025403698 0.00028149446 -0.87077957 0.070198551
573000000 -0.87288469 0.074306227 0.00056878634 -0.0023739012 0.00012494127 -0.00089020527 -0.87217826 0.069197208
574000000 -0.87394863 0.074100211 -0.00076091231 -0.0013589181 -0.00011697623 -0.00038744666 -0.87067962 0.068962336
575000000 -0.87294894 0.074516244 -0.00061157742 -0.0011720717 0.00013540481 -0.00087018963 -0.87271577 0.068672493
576000000 -0.87249213 0.074925952 8.7895278e-005 -0.0015747047 -0.00017773866 -0.0010577725 -0.87164384 0.068689376
577000000 -0.87237424 0.07457757 -0.00028261539 -0.0020296685 -0.00038767027 -0.00061473454 -0.87178349 0.07097847
578000000 -0.87165195 0.074990094 -0.00023082497 -0.0013766305 3.3957704e-006 -0.0015078995 -0.87012267 0.069157049
579000000 -0.87182271 0.075127535 3.1287058e-005 -0.0021106917 0.00035823139 -0.00068889832 -0.87285757 0.068409078
580000000 -0.87212527 0.075319953 -0.00053160143 -0.00090550032 2.9817842e-005 -0.0023567327 -0.8712005 0.071052834
581000000 -0.87207365 0.074107423 -0.00042971427 -0.00025304881 0.00059334876 0.00084754085 -0.87206107 0.070746027
582000000 -0.8719092 0.074712493 -0.00024421862 -0.00071136042 0.00022676088 -0.00071173045 -0.86926037 0.06900163
583000000 -0.8700366 0.075891241 -0.00041008566 -0.0010990478 -0.0010914147 -0.0018423853 -0.87216657 0.069749601
584000000 -0.87105608 0.075098418 -0.00021560259 -0.0014881529 0.00017108713 -0.001403049 -0.8702389 0.071586393
585000000 -0.87262201 0.0751855 -0.00012760903 3.1304193e-005 -2.9896755e-005 -0.00089198275 -0.87249678 0.07049942
586000000 -0.8716377 0.075514227 0.00074252818 -0.0011291822 -0.00023676991 -0.0018814888 -0.87228447 0.070737109
587000000 -0.87297153 0.077171333 -0.00011797948 -0.00061459595 6.6223831e-005 -0.0012029341 -0.87208867 0.070974275
588000000 -0.8715151 0.07644479 -0.00062660757 -0.0013260536 -0.00058782299 -0.0015849237 -0.87374556 0.071802057
589000000 -0.87139618 0.07521458 -0.00031412052 -0.0010882388 -0.00047018245 -0.00070555863 -0.87288916 0.071380652
590000000 -0.87119907 0.076090716 0.00020624489 -0.00079985941 -0.00015075902 -0.0016477067 -0.87058508 0.071735784
591000000 -0.87219775 0.076563776 3.4540233e-005 -0.0013393626 -0.0012789207 -0.002212262 -0.87222242 0.070586212
592000000 -0.87273318 0.076639093 -0.00084254402 -0.00099390442 -0.0010749425 -0.002026726 -0.87087363 0.07084886
593000000 -0.87048298 0.075457454 -0.00025157124 -0.00069942442 -0.00052183674 -0.0021351085 -0.87152594 0.07120242
594000000 -0.87109226 0.077167213 -0.0010644484 -0.00041004689 0.0001082942 -0.00068400806 -0.87227452 0.07208883
595000000 -0.87048495 0.077278323 0.00024321518 -0.0017667311 -0.00053907407 -0.00068257592 -0.87121356 0.070767954
596000000 -0.87232625 0.077700131 -0.00068458554 -0.0009498669 0.00077134982 -0.0021411891 -0.87163574 0.071712151
597000000 -0.87148744 0.07704863 0.00049079274 -0.00088337809 -0.00055168435 -0.001158006 -0.87215668 0.071792483
598000000 -0.8713572 0.07759618 0.00032869854 -0.0018175012 -0.00051002257 -0.0013366269 -0.87216586 0.072405472
599000000 -0.87102628 0.077176139 0.00047040574 -0.0014382494 -0.00036823357 -0.0021427651 -0.87020487 0.070957422
600000000 -0.87087953 0.076566249 1.5427726e-005 -0.0013084071 0.0010144996 -0.0011321565 -0.87140179 0.072032921
601000000 -0.87140548 0.078370504 0.00012785236 -0.00077099196 -0.0001618207 -0.0010133 -0.87259948 0.072355919
602000000 -0.87141734 0.078801475 -4.7443576e-005 -0.0013365035 3.7143425e-005 -0.0020241463 -0.87122566 0.072824553
603000000 -0.87252802 0.078118972 -0.00011063427 -0.0014766816 -0.0012630511 -0.0016300393 -0.87147099 0.072482668
604000000 -0.87064022 0.078938432 -0.00045347135 -0.0010986374 0.0005847516 -0.0011823967 -0.8718459 0.074311785
605000000 -0.87089664 0.080442868 -0.00098889112 -0.0025962905 -0.00013860417 -0.00044392745 -0.87160939 0.073492996
606000000 -0.87241322 0.080285653 -0.00027361605 -0.0018085457 0.00043961039 -0.0009060952 -0.8690902 0.073989809
607000000 -0.87172806 0.079340406 0.00081579498 -0.0016207193 -0.0012650061 -0.0013766218 -0.87286818 0.071354218
608000000 -0.8729738 0.079557963 -0.0009363328 -0.00069884298 -0.00067208055 -0.0011488355 -0.87033182 0.074422121
609000000 -0.87131679 0.079940222 3.1589156e-005 -0.0020731799 -0.00067144138 -0.0018350201 -0.87070417 0.073558152
610000000 -0.87175304 0.081032239 -0.00060344604 -0.0011142326 -0.00051000371 -0.0012509088 -0.86978793 0.07396698
611000000 -0.87122333 0.080352873 -0.00039339421 -0.00098039792 0.00063870178 -0.0012481284 -0.87032753 0.073437788
612000000 -0.87006146 0.07993181 -0.0012704208 -0.0010655621 -0.0006675708 -0.00067896524 -0.87189335 0.07334087
613000000 -0.87046707 0.080588862 -8.7616299e-006 -0.0014303618 -0.00062368781 -0.0015722183 -0.87186778 0.073867053
614000000 -0.87018341 0.080371991 0.00019957528 -0.00082798308 0.00034031231 -0.0016195693 -0.87176913 0.074837729
615000000 -0.87257391 0.081298001 0.00077050918 -0.0014320889 -0.00089144113 -0.002419451 -0.87165505 0.072922714
616000000 -0.87165219 0.080303699 -0.00062256254 -0.0011927041 -0.00012561253 -0.0016401466 -0.86928564 0.076082259
617000000 -0.87162477 0.081072837 -0.0013503723 -0.00040278013 0.00018856276 -0.0021573498 -0.870444 0.075513497
618000000 -0.87203711 0.080277137 -0.00090666179 -0.0011227338 -0.00028725495 -0.0007222296 -0.87103415 0.076407067
619000000 -0.87231821 0.084079608 5.9060385e-006 -0.0012847453 0.0001897429 -0.0015517019 -0.87019593 0.073176749
620000000 -0.86988509 0.081625365 -0.0011839621 -0.0011043298 0.00010112765 -0.0019445929 -0.87141579 0.074601665
621000000 -0.87038195 0.081953935 0.00090820849 -0.00073809194 0.00039471459 -0.0014582776 -0.86991 0.07540042
622000000 -0.87058377 0.080857091 -0.00069327536 -0.0013310304 -0.00080343016 -0.001524511 -0.86936712 0.076140828
623000000 -0.87147653 0.081414737 -1.6206897e-005 -0.0012318634 -0.00087572919 -0.0024147846 -0.87012511 0.076252282
624000000 -0.86959028 0.081457525 -0.00054765289 -0.0014711426 -0.00046372981 -0.00041349276 -0.86941546 0.076318659
625000000 -0.87112981 0.08326447 0.00087058439 -0.0025423891 0.00083433511 -0.0012507743 -0.87042797 0.075944714
626000000 -0.87201214 0.08309903 0.00064205058 -0.0017058325 -9.0221001e-005 -0.0010986641 -0.87193018 0.075392589
627000000 -0.87033886 0.083151892 0.0002813444 -0.0010205823 -0.00080366392 -0.001861465 -0.86892867 0.076876298
628000000 -0.87166816 0.084139787 9.3087707e-005 -0.00085447938 -0.00080882997 -0.0014642011 -0.87129807 0.075848483
629000000 -0.87157291 0.083851971 -2.1813654e-005 -0.0010443111 -0.00012331324 -0.0022165771 -0.87043869 0.076706998
630000000 -0.87062043 0.084706545 -0.0001419239 -0.00049979758 0.00076914672 -0.0014422203 -0.87174731 0.076838322
631000000 -0.86989796 0.083109185 -0.00018409023 -0.00138544 -0.00061571493 -0.00069028919 -0.87109137 0.077035405
632000000 -0.87138528 0.084703133 -0.001159332 -0.0015246271 0.00025765545 -0.0015512529 -0.86956608 0.076867998
633000000 -0.87118942 0.084039301 -7.2625728e-005 -8.8275679e-005 -0.00054032484 -0.0017674825 -0.87034029 0.077170491
634000000 -0.87045068 0.085249037 0.00012517597 -0.0014376693 -0.0011617896 -0.0015129118 -0.87029922 0.076579534
635000000 -0.87112546 0.083517648 0.00022902319 -0.00087234779 -0.00073873479 -0.0012712799 -0.87028283 0.076285653
636000000 -0.87189716 0.084534943 -0.00033135034 -0.00046246298 0.0004417884 -0.0017323041 -0.87158489 0.077518374
637000000 -0.87177616 0.084354952 0.00098220271 -0.0012486584 -0.00207126 -0.0014121396 -0.86911649 0.076283172
638000000 -0.87184262 0.083993204 -6.0358947e-005 -0.0019520704 -0.00080253626 -0.0023914492 -0.87162101 0.07690239
639000000 -0.87123311 0.08575277 0.00084953179 -0.00065353385 -7.5858552e-005 -0.0013828839 -0.87000972 0.077837721
640000000 -0.87049764 0.086302139 -0.00026681408 -0.0019337864 0.00020008396 -0.00079272274 -0.87021589 0.07653366
641000000 -0.87013608 0.086512297 -0.00081434002 -0.0016571637 -0.00031479402 -0.0017275925 -0.86919808 0.078835972
642000000 -0.87028778 0.086837851 -0.00030251875 -0.00083899847 -0.00089176593 -0.001202016 -0.87102157 0.077800229
643000000 -0.86902779 0.087246157 -0.0001002186 -0.0014416854 -0.0008509226 -0.0013705168 -0.87020504 0.078436196
644000000 -0.87109667 0.086231142 0.00050104311 -0.0021380307 0.00010338308 -0.0012082858 -0.87027496 0.07800813
645000000 -0.87079352 0.086897463 -0.00056947296 -0.00153448 0.00013333635 -0.0010333169 -0.87060225 0.077388003
646000000 -0.87086779 0.085732274 -0.00072449766 -0.00087355461 -0.001158573 -0.00053101929 -0.8701241 0.07878539
647000000 -0.87085766 0.086765595 -0.00088698923 -0.0013186689 -0.00032269643 -0.0014566149 -0.87058407 0.079277039
648000000 -0.86956483 0.087339602 -0.00024079681 -0.00082432316 -0.00036319377 -0.0017799686 -0.86924183 0.078996547
649000000 -0.87057894 0.088302426 0.00051737652 -0.00095429656 0.00032264425 -0.0021228427 -0.87054789 0.079855293
650000000 -0.86963832 0.087067813 -0.00017088019 -0.0016770787 0.00016791109 -0.0017035983 -0.86975163 0.080221146
651000000 -0.87163299 0.087484121 -0.00088751264 -0.0013313933 0.0004224678 -0.00074510439 -0.86956179 0.078424498
652000000 -0.871378 0.087505192 -0.00023862634 -0.0018902818 -0.00015911988 -0.0010093307 -0.87018555 0.079362378
653000000 -0.87138158 0.087784149 -0.00074028107 -0.0016652701 -0.00096206396 -0.0018018795 -0.87120759 0.078936115
654000000 -0.86967891 0.087299511 -0.00033508058 -0.0010041854 -0.00044291068 -0.00093857414 -0.87028384 0.078069776
655000000 -0.86942452 0.087486506 -0.00036202744 -0.0012631178 -0.0010825683 -0.0011329034 -0.869717 0.080675557
656000000 -0.87054652 0.090727188 -0.00066103501 -0.00085652416 0.00050317484 -0.00031077748 -0.87060249 0.078437664
657000000 -0.87138009 0.089285634 -0.00028652011 -0.00094177009 5.7652371e-005 -0.0016621023 -0.87018836 0.078585833
658000000 -0.87261695 0.089484125 -0.00042210854 -0.00058233831 -0.0003183636 -0.00098179316 -0.86980337 0.078584045
659000000 -0.87036484 0.087516114 -0.00083944737 -0.0016112375 -0.00037889721 -0.0016550777 -0.86950654 0.078818627
660000000 -0.87055117 0.088776201 -0.00060094142 -0.0013892434 0.00033745027 -0.00085814169 -0.86946255 0.079377271
661000000 -0.87020797 0.087550655 -0.00068156258 -0.0013272212 -0.00054556772 -0.001540508 -0.86859387 0.07912343
662000000 -0.87217158 0.08898741 -0.00016010139 -0.0013162455 0.00034903109 -0.0013646116 -0.86981541 0.080340475
663000000 -0.87083602 0.088520728 -0.00032934063 -0.0019140224 -0.00048613411 -0.0008187702 -0.86947042 0.078324974
664000000 -0.86903465 0.08910881 -0.00010732053 -0.0015174027 4.5811717e-005 -0.0013237102 -0.87151062 0.078891017
665000000 -0.87011647 0.088580705 -0.00064137706 -0.0014364099 -0.00040090448 -0.0011499643 -0.86900657 0.079801574
666000000 -0.87127423 0.088415697 -0.00033336628 -0.0016806053 7.1348717e-005 -0.0018445695 -0.87039572 0.080415107
667000000 -0.87062657 0.090194575 -0.00061598211 -0.0011924044 0.00048742662 -0.0014524888 -0.86976725 0.079182751
668000000 -0.87124693 0.088181786 -0.00058890571 -0.0016878843 0.00048983068 -0.0015239718 -0.87026459 0.080121227
669000000 -0.87117851 0.087779686 -0.00012623995 -0.0013821468 0.00012630149 -0.00043482447 -0.86863494 0.080846265
670000000 -0.87048221 0.089838453 -0.00073689024 -0.0020724658 -0.00057950715 -0.0012395064 -0.8693611 0.081127904
