!Keysight Technologies,M9374A,MY55442783,A.12.55.05
!Date: Thursday, May 20, 2021 18:01:13
!Correction: S11(Full 2 Port(1,2)) 
!S21(Full 2 Port(1,2)) 
!S12(Full 2 Port(1,2)) 
!S22(Full 2 Port(1,2)) 
!S2P File: Measurements: S11, S21, S12, S22:
# Hz S  RI   R 50
500000000 -0.8736102 0.066386759 0.00050027395 -0.00077867479 0.00037826455 0.00031085004 -0.87333375 0.061247356
501000000 -0.87391293 0.066470213 -0.00054999714 -0.001913525 -0.0015028339 -0.00085826113 -0.87208045 0.062037248
502000000 -0.87514949 0.067493849 -0.00076974934 -0.00088142697 -7.6311037e-005 -0.0016661059 -0.87221968 0.060980979
503000000 -0.87385666 0.067359723 -2.1430174e-005 -0.0011295453 -2.6401065e-005 -0.0011514535 -0.87290227 0.063202828
504000000 -0.87261331 0.06763386 0.00074688363 -0.00044190002 -0.0011689225 -0.0005467544 -0.87254167 0.062339406
505000000 -0.87382621 0.067066148 -0.00013036352 0.00012817816 0.00084961409 2.2143282e-005 -0.87232405 0.061345931
506000000 -0.87391043 0.068412937 -6.2566709e-005 -0.0021957334 -0.00030982128 -0.001660599 -0.87316775 0.062459596
507000000 -0.87358117 0.067544341 0.0007737102 -0.0021666889 -0.00013823889 -0.00044144804 -0.87143797 0.06277518
508000000 -0.87542254 0.069271244 2.9868757e-005 -0.00090383028 0.0004330982 -0.0015362425 -0.87070388 0.063096955
509000000 -0.87410921 0.068977289 -0.0012082321 -0.00071328244 0.00018025032 -0.0018136931 -0.87132978 0.060775731
510000000 -0.87381887 0.069338106 0.00030873105 -0.00098857936 0.00033759465 -0.00094795501 -0.87192839 0.063692242
511000000 -0.87396961 0.069790483 0.00098499819 -0.0010655063 -0.0013033984 -0.00052208436 -0.87120938 0.063340291
512000000 -0.87422866 0.068147086 0.00046236289 -0.00077576051 1.5934378e-005 -0.0011615679 -0.87190872 0.062082987
513000000 -0.87350464 0.069250911 0.00048171397 -0.0003908746 -0.00048509194 -0.001783438 -0.87153643 0.063394628
514000000 -0.87367034 0.06934467 -0.00048534002 -0.001151007 -0.0014754471 -0.0013569755 -0.87268507 0.061230589
515000000 -0.8735463 0.070820183 0.00060250377 -0.0012678937 3.4571491e-005 -0.0003127355 -0.87230098 0.063578896
516000000 -0.87392229 0.070414327 -0.00095607003 -0.00073924108 -0.00040650385 -0.0019611607 -0.8726368 0.063107014
517000000 -0.87230253 0.070195548 0.0015333301 -0.001379207 0.00014087236 -0.0022817082 -0.87127417 0.065181583
518000000 -0.87393916 0.070345432 -0.00066693884 -0.0010245627 -0.00053561502 -0.00087382318 -0.87111235 0.062819146
519000000 -0.87409323 0.068479098 0.00048570041 -0.0013343552 -0.00011331902 -0.0010045622 -0.8698985 0.064711511
520000000 -0.87368107 0.068139188 0.00031728533 -0.0011046103 -0.00026690535 -0.0013527115 -0.87205011 0.063954838
521000000 -0.87251568 0.072403051 0.00031882394 -0.0021192152 0.00014818323 -0.0017420474 -0.87158674 0.065296598
522000000 -0.87450606 0.071387917 -0.0012648763 -0.00056461972 0.00051427109 -0.00084295816 -0.87065238 0.063889518
523000000 -0.87268758 0.070319489 7.7277382e-006 -0.002111844 0.00055339379 -0.00087267824 -0.87008387 0.064561822
524000000 -0.87477779 0.071384378 -0.00021706063 -0.0015298399 -0.00044678719 -0.0014416275 -0.87105674 0.064572319
525000000 -0.8739174 0.071596175 9.0683912e-005 -0.0018294028 0.00017418343 -0.0010129664 -0.87181753 0.065266646
526000000 -0.87300211 0.070763908 0.00077615591 -0.0016163306 0.00023706621 -0.00038738447 -0.8712523 0.064559534
527000000 -0.87229234 0.071326867 -0.00015324642 -0.00077475677 0.00062217528 -0.0013888598 -0.87158281 0.065545924
528000000 -0.87363499 0.072445929 -0.00032867704 -0.0010065393 0.00048655359 -0.0011749909 -0.87133479 0.067086913
529000000 -0.87298262 0.072149113 0.00032448664 -0.00059458555 -0.00046461888 -0.00054192485 -0.87112802 0.066461913
530000000 -0.87395877 0.073907986 -0.00033418075 -0.00073058024 -0.00023880236 -0.0010839137 -0.8709119 0.066273525
531000000 -0.87395465 0.07194382 -0.00023084147 -0.00096145901 -7.0937778e-005 -0.00047558584 -0.87265027 0.064923592
532000000 -0.87248492 0.0735116 -0.00081470254 -0.00053643767 -0.00086543552 -0.00078637956 -0.8720383 0.067197897
533000000 -0.87349391 0.073274523 0.00014902932 -0.00092652539 -0.00024077322 -0.0010694028 -0.87050289 0.067253076
534000000 -0.87461448 0.071831323 -0.00010748122 -0.0012767595 -0.00061944046 -0.0016865854 -0.87147659 0.066699803
535000000 -0.87330562 0.07302428 0.00028421695 -0.00034941104 0.00019554517 -0.0010208172 -0.87114006 0.067093208
536000000 -0.87303084 0.072392799 -0.00045959599 -0.0009995834 -0.00016432691 -0.0015737917 -0.87272662 0.06579826
537000000 -0.87489027 0.072147742 0.00049735443 -0.001370828 -0.00024805195 -0.0016462306 -0.87067223 0.067890383
538000000 -0.87283784 0.071920447 3.8496692e-006 -0.0023446174 -5.942841e-005 -0.0012603196 -0.87147212 0.066653103
539000000 -0.87362379 0.072594658 -0.00098539528 -0.0013695123 -0.00098948507 -0.00059761782 -0.87104887 0.068085462
540000000 -0.87313646 0.072098054 -0.0002306354 -0.0011487161 -0.00022168807 -0.00134633 -0.87133199 0.0688482
541000000 -0.87310851 0.072436638 0.0002660857 -0.0014115478 1.2225237e-005 -0.00037793705 -0.87193376 0.066837259
542000000 -0.87226957 0.072917454 -0.00037912978 -0.00095330895 6.4556385e-005 -0.00074129016 -0.87130094 0.066933759
543000000 -0.8737607 0.07268095 0.00015650502 -0.0017441798 5.2825904e-005 -0.0025286067 -0.87157452 0.067621306
544000000 -0.87344265 0.072053298 -0.00072692736 1.287218e-005 0.0006683814 -0.00071193045 -0.87199318 0.066736847
545000000 -0.87404436 0.072434582 -0.00076971087 -0.00085712265 -0.00020065252 -0.00085190986 -0.87026387 0.06888482
546000000 -0.87286717 0.073195659 -0.0010522096 -0.0010549285 -0.00040908082 -0.001838046 -0.87095481 0.067817271
547000000 -0.87456191 0.074217051 0.00038596013 -0.0011056159 -0.00058536598 -0.00097510894 -0.87111264 0.06776996
548000000 -0.87282687 0.072822139 -0.00039336426 -0.0016227501 -0.0011461105 -0.0021781276 -0.87142026 0.068353377
549000000 -0.87384629 0.072506145 -0.0007864841 -0.0014901941 -2.0703863e-005 -0.0016341121 -0.8709569 0.068926223
550000000 -0.87229353 0.074736916 0.00032373556 -0.0012653483 0.00059044099 -0.00030355266 -0.87172306 0.068432391
551000000 -0.8727805 0.075491689 0.00051117694 8.1859813e-005 0.00021949317 -0.0019116597 -0.87209272 0.067949064
552000000 -0.87427634 0.072543427 -0.00045245176 -0.00088452321 0.00068277656 -0.00081302633 -0.87103438 0.068195127
553000000 -0.87365389 0.074110515 0.00015983789 -0.0010462723 0.00013312227 -0.0006207726 -0.87139827 0.066843934
554000000 -0.87231201 0.07223738 0.00043243746 -0.0011938057 -0.00015381112 -0.0010065881 -0.87066883 0.069258459
555000000 -0.87397116 0.072599754 0.00076839479 -0.001611759 0.00034478534 -0.00087947713 -0.87066942 0.068927146
556000000 -0.87261182 0.073452115 -0.00013236211 2.1353933e-005 0.0001641722 -0.0013243834 -0.87096334 0.068438634
557000000 -0.87291557 0.074173458 -0.00041066587 -0.0018116818 2.5697973e-005 -0.00084776105 -0.87141466 0.070329204
558000000 -0.87342584 0.073859021 -0.0007023167 -0.0013904404 -0.00044807512 -0.00089498202 -0.87150884 0.068033032
559000000 -0.8728103 0.074304298 -0.00058782514 -0.0010552292 -0.00014208975 -0.00065539207 -0.87167668 0.068894103
560000000 -0.87068617 0.075902596 -0.00058303564 -0.0016181072 -0.00013409216 -0.0018050811 -0.87149471 0.06856817
561000000 -0.87179083 0.074231885 -0.0007505322 -0.00088356191 -0.00050094404 -0.00094666576 -0.87043381 0.068592012
562000000 -0.87443936 0.074808165 -0.0002352864 -0.0010812941 -0.00077381544 -0.0015742565 -0.87184978 0.069553643
563000000 -0.87275147 0.074815191 -0.0003872003 -0.0012936338 -0.001220264 -0.00081656041 -0.87169766 0.069877312
564000000 -0.8741467 0.073512018 -0.00050142111 -0.0012079527 0.00047150016 -0.0018399903 -0.87199831 0.070523642
565000000 -0.87224358 0.073714636 -0.0013924491 -0.0015602311 -0.00066825224 -0.0024147753 -0.87078351 0.067145355
566000000 -0.87434006 0.07298521 -0.00098184776 -0.00076548872 -0.0011378594 -0.0011136739 -0.87171745 0.069388494
567000000 -0.8730523 0.073747128 0.00015261244 -0.0013500185 0.00020842309 -0.0014737528 -0.87226242 0.068192847
568000000 -0.87341291 0.074097954 -0.00087342469 -0.001083901 0.00010146377 3.7659778e-005 -0.87117797 0.068975091
569000000 -0.87211722 0.074390322 -0.00020151542 -0.0017181776 -0.0010846839 -0.0009454891 -0.87203211 0.068532296
570000000 -0.87231529 0.074832939 -0.00045375444 -0.0012782044 3.5303969e-005 -0.0010566713 -0.8706857 0.069013938
571000000 -0.87197512 0.07465519 -0.00014440018 -0.00076885201 -0.00024799132 -0.0014040601 -0.87109542 0.070209831
572000000 -0.87261486 0.074508376 0.00055574917 -0.0020137674 -0.00022700168 -0.0012462224 -0.87141836 0.069430321
573000000 -0.87362927 0.074080542 -1.2609392e-005 -0.00036706141 -0.00021528749 -0.0020846983 -0.87040937 0.070711687
574000000 -0.87259883 0.074537612 -0.0011653659 -0.0015141251 -0.00069995614 -0.0011411346 -0.87290281 0.072203495
575000000 -0.87328416 0.075886123 -0.00049868273 -0.00051381433 -9.4716015e-005 -0.0020736197 -0.87160766 0.069397554
576000000 -0.87261486 0.076155782 -0.00016139752 -0.0013308853 -0.00086179347 -0.0010602867 -0.87102842 0.070349626
577000000 -0.87295705 0.074620068 -0.00036625323 -0.0014040504 -0.00088155386 -0.0018318729 -0.87315577 0.069413796
578000000 -0.874264 0.076934114 -0.00049623149 -0.00072799681 0.00027940344 -0.00043094845 -0.87094134 0.06919764
579000000 -0.87254596 0.074653797 -0.00090312428 -0.0016849849 -0.00061950542 -0.0015823771 -0.87170839 0.069721051
580000000 -0.87275672 0.075827189 -0.00080595817 -0.0012670719 -1.8253091e-005 -0.00076387037 -0.87125331 0.07170596
581000000 -0.87316489 0.075520292 0.0007150328 -0.00094619521 -0.0001722452 -0.0019178478 -0.87287587 0.06962093
582000000 -0.87137532 0.077064745 -0.00025177284 -0.00078364118 -0.00077623129 -0.00088420784 -0.87282586 0.070186354
583000000 -0.87196791 0.076275073 0.00040305528 -0.00172252 -4.4354296e-005 -0.0015951612 -0.87239337 0.07050465
584000000 -0.87198746 0.076197214 -0.0003582167 -0.00067375653 0.0010506078 -0.00071365747 -0.87015814 0.0698689
585000000 -0.87278497 0.075527869 -0.00044559114 -0.0017647602 -0.0013705515 -0.0010070644 -0.87245846 0.070796348
586000000 -0.872298 0.07753861 0.00089739985 -0.0012242998 0.00020430585 -0.0014577921 -0.87115908 0.071179479
587000000 -0.87375057 0.077184781 -0.00094566843 -0.0011271291 0.00044670791 -0.0010193473 -0.87070489 0.069652319
588000000 -0.87143636 0.075734988 1.033915e-005 -0.00010801471 -0.0016268463 -0.0020952567 -0.87313199 0.071734376
589000000 -0.87232095 0.07661134 1.0564735e-005 -0.0014465853 -0.0008063938 -0.0013880829 -0.87053072 0.071248591
590000000 -0.87207222 0.076814063 -0.0012179994 -0.0011276436 -0.00031921803 -0.00051681307 -0.87089306 0.070428781
591000000 -0.87087947 0.076835364 -3.0834883e-005 -0.0008171958 -0.00036316362 -0.0013569767 -0.87141341 0.070287757
592000000 -0.87309092 0.07789474 -0.00021897125 -0.0012798624 -0.00078235834 -0.0011332221 -0.87077647 0.070417196
593000000 -0.87167329 0.078519568 5.8514055e-005 -0.0018992454 -0.00033990131 -0.0011037705 -0.8716464 0.072458111
594000000 -0.87274468 0.078230605 2.2906743e-005 -0.0021510413 -0.0017387781 -0.0018450475 -0.87238932 0.072281897
595000000 -0.87145066 0.077201106 0.00049509254 -0.00046994365 0.00089170097 -0.0013388314 -0.87073356 0.072837591
596000000 -0.87176389 0.078478731 -1.014668e-005 -0.0014139581 -0.00061496865 -0.0002547733 -0.870978 0.073667623
597000000 -0.8734768 0.079085931 0.00059527776 -0.0017974379 -0.00028243559 -0.0013708695 -0.86842114 0.073187679
598000000 -0.87303835 0.076226071 -0.00029004802 -0.00079857348 -0.00012663325 -0.0011258791 -0.87246513 0.072532445
599000000 -0.87138915 0.07940083 0.00017035287 -0.00074217346 -0.00059726287 -0.00094432954 -0.87074363 0.071398191
600000000 -0.87348223 0.080279671 -0.0010457961 -0.00085754384 0.00041518436 -0.0011189018 -0.87344885 0.072144702
601000000 -0.87229192 0.080162197 -0.00062308612 -0.0020160293 -0.0005804493 -0.00047935706 -0.87053102 0.073680438
602000000 -0.87116492 0.080837257 3.4267534e-005 -0.0015124758 -0.00055119221 -0.0025755034 -0.87022638 0.073635049
603000000 -0.87289292 0.079905897 -0.00054777513 -0.00041711036 0.00081265479 -0.00091227295 -0.87250584 0.07342796
604000000 -0.87228644 0.078827433 0.0011890852 -0.0010690094 -0.00074245373 -0.00080487342 -0.87123835 0.073966287
605000000 -0.87254685 0.079721995 3.3053988e-005 -0.00072648883 -0.00024056305 0.00022527986 -0.86994267 0.072778635
606000000 -0.87126464 0.079745524 0.00090823113 -0.00090895593 -0.00055340299 -0.00084215525 -0.87168378 0.072427996
607000000 -0.87162554 0.080046795 -3.2132783e-005 -0.0012100851 -0.00025912077 -0.001107031 -0.87023824 0.075867519
608000000 -0.87206388 0.081132285 -0.00027982786 -0.0015186178 0.00058102043 -0.001210067 -0.87095475 0.073706858
609000000 -0.87186855 0.08169578 0.0001908007 -0.0012010959 0.00034864247 -0.0010531432 -0.87114298 0.073141813
610000000 -0.87212926 0.08191175 0.0012631415 -0.0013345425 -0.00067660277 -0.002228203 -0.86998475 0.073879443
611000000 -0.87300926 0.081362277 3.789437e-005 -0.00031423679 -0.00044773723 -0.0013125304 -0.87197745 0.073521592
612000000 -0.87168264 0.081869885 -0.00091081316 -0.0017126452 -0.0011495821 -0.00037887698 -0.87026364 0.075470909
613000000 -0.87136197 0.081142142 -0.00053998001 -0.00096872315 -0.00060703384 -0.0013089428 -0.87181675 0.074001141
614000000 -0.87160259 0.081424952 -9.3611001e-005 -0.0015590016 -0.00037072832 -0.0013046956 -0.87127155 0.074404918
615000000 -0.87306482 0.082084268 -0.00066964776 -0.0016779901 -0.000843335 -0.00070692768 -0.87142378 0.075324744
616000000 -0.87149733 0.082668968 0.0003443929 -0.0015005458 0.00051837816 -0.00050772476 -0.86980587 0.075820945
617000000 -0.8690809 0.081584841 0.00020362763 -0.0016499115 0.00019165654 -0.0013306384 -0.87116838 0.076235428
618000000 -0.872697 0.083373256 -0.00033987095 -0.0010998182 0.0021237333 -0.001738011 -0.8707968 0.075211033
619000000 -0.87180483 0.083952427 -0.00058400835 -0.00034970843 0.00011452152 -0.002355573 -0.87119889 0.073533811
620000000 -0.87222999 0.084096871 0.00039637636 -0.0015173595 0.00015063112 -0.0010539212 -0.87129396 0.076109335
621000000 -0.87349236 0.082499154 0.00085891673 -0.0021077325 0.00068332168 -0.00078484497 -0.87116885 0.075738721
622000000 -0.87082195 0.082864434 0.00027524112 -0.0014159505 0.00014859019 -0.0013740679 -0.86973447 0.075613201
623000000 -0.87091923 0.081601232 -0.0011080821 -0.00051705039 -0.00065620878 -0.00070668606 -0.86992079 0.076713659
624000000 -0.87148428 0.083749428 -0.00044131398 -0.0016623243 0.00030493108 -0.0012517122 -0.8703959 0.076369837
625000000 -0.87263215 0.083502322 -0.00050497131 -0.0015895638 0.00040710354 0.00011606679 -0.87041408 0.076783091
626000000 -0.87302381 0.084873326 -0.00019792809 -0.0010815741 0.00076161901 -0.00079642923 -0.86874884 0.077274062
627000000 -0.87185001 0.085589759 -0.00013841483 -0.00069955457 -0.00016686575 -0.00071327895 -0.87089187 0.077845052
628000000 -0.87173116 0.083623372 -0.00023789097 -0.001217659 0.00094621407 -0.0020391736 -0.87018389 0.077712126
629000000 -0.87236309 0.084537715 -3.8877632e-005 -0.0015805507 0.00057253969 -0.0010399671 -0.87020439 0.075721338
630000000 -0.86880147 0.084251925 -0.00079533958 -0.001554192 -0.00032656608 -0.00073354499 -0.87110227 0.077175796
631000000 -0.87020695 0.084950522 -0.0015209995 -0.00087195198 -0.00013743377 -0.0018909128 -0.87029421 0.077616751
632000000 -0.87282503 0.085636444 -0.00024553094 -0.0013636771 0.0010234212 -0.0012625674 -0.87010276 0.076620974
633000000 -0.87021703 0.086135365 0.000419296 -0.0016718887 -0.0007902917 -0.0016364648 -0.86981457 0.076452136
634000000 -0.87144047 0.08592698 -0.00038504327 -0.0012386182 -0.00022950239 -0.0015354074 -0.87104911 0.077564165
635000000 -0.87095571 0.084939964 -0.00052109623 -0.0016740612 -0.00039058007 -0.0020846066 -0.87160343 0.076540262
636000000 -0.87166256 0.085325338 -0.00060725905 -0.001609585 -0.0011002715 -0.0014345583 -0.87163723 0.076570503
637000000 -0.87017751 0.083980419 -0.00056975801 -0.0012863483 0.00032604489 -0.001679516 -0.87124747 0.07744763
638000000 -0.87187088 0.086054012 -0.00037311646 -0.0021200795 -0.00039746962 -0.0014723025 -0.87063223 0.078228302
639000000 -0.87150669 0.086559594 -0.00018186975 -0.0016731038 -0.00033962299 -0.0014321106 -0.86990732 0.077787653
640000000 -0.87033135 0.085609101 -9.7778873e-005 -0.0018142443 -0.00086903776 -0.001130527 -0.87058645 0.078655802
641000000 -0.8728072 0.085990936 -0.0010403432 -0.00054740079 7.2286603e-005 -0.0017145982 -0.87036455 0.078272194
642000000 -0.87194932 0.088794596 0.0002008648 -0.00049103837 -2.3483624e-005 -0.0011158414 -0.86981231 0.078585319
643000000 -0.87073445 0.086833984 0.001465751 -0.0010029642 0.00014776665 -0.0017566646 -0.87092304 0.078341216
644000000 -0.87233508 0.087645583 0.00054225657 -0.0013042024 -0.00044010513 -0.00039412509 -0.87128454 0.078956626
645000000 -0.87161767 0.086215295 -0.00019399294 -0.0018235914 -0.00034243957 -0.0018900476 -0.87062085 0.08020632
646000000 -0.87156874 0.087622486 0.00050234911 -0.0011465367 0.00019803173 -0.0015136412 -0.86996615 0.079157621
647000000 -0.87104511 0.08716879 -3.0414733e-006 -0.001642278 -0.00079627748 -0.0012848466 -0.87111145 0.078183383
648000000 -0.87172014 0.087342896 -0.00035161816 -0.0015789842 -0.00090123178 -0.00089071842 -0.87110656 0.078803606
649000000 -0.87088174 0.087319851 -0.001124413 -0.0014331433 -0.00098702917 -0.0018270463 -0.86964858 0.080222368
650000000 -0.87186438 0.088117056 0.00011405586 -0.0013755067 0.00025885148 -0.00069626083 -0.87136221 0.08057446
651000000 -0.87142438 0.087760285 0.00045723817 -0.00066633982 0.00057637179 -0.0010468741 -0.86849254 0.079789549
652000000 -0.87154686 0.087745309 -0.00014116283 -0.0010169101 -0.00058936485 -0.00091426988 -0.86915958 0.079402603
653000000 -0.8704313 0.088407919 7.2719624e-005 -0.0018621319 0.00058329903 -0.0013742199 -0.86983287 0.079987638
654000000 -0.87064266 0.089107148 -0.00086537556 -0.0016786293 -0.00083656312 -0.002177668 -0.870354 0.078574963
655000000 -0.86962807 0.089018814 0.00066335499 -0.0011191901 -0.00028772291 -0.00093219243 -0.8695609 0.080094814
656000000 -0.87087435 0.088232681 -0.00012969111 -0.0015447211 -0.0006882883 -0.0019086088 -0.86991245 0.079587646
657000000 -0.87129629 0.088517547 -0.00025052277 -0.001383657 -0.00028178477 -0.00098305626 -0.87023419 0.078864798
658000000 -0.87100685 0.08790119 -0.00035496784 -0.00071796664 -0.0001559994 -0.0016404054 -0.86873937 0.079558633
659000000 -0.87054205 0.088645585 -0.00081224542 -0.00071661285 1.3540222e-005 -0.0011816957 -0.86989611 0.080748126
660000000 -0.8718859 0.09018302 -0.00053483201 -0.0014060562 -0.00060475559 -0.0010920732 -0.87014008 0.080069214
661000000 -0.87200749 0.089268409 0.0007856689 -0.0022665542 -0.00093403686 -0.0021169228 -0.86963207 0.080601461
662000000 -0.87100106 0.088129826 -0.00016169291 -0.0011770061 0.00091862184 -0.00036664875 -0.86966169 0.080923684
663000000 -0.87192935 0.089427739 0.00014703209 -0.0020917212 0.00051506661 -0.0012072235 -0.86995965 0.081315137
664000000 -0.8705644 0.089156896 -6.4881417e-005 -0.00059545547 -0.00038862907 -0.00080471771 -0.87100053 0.08065971
665000000 -0.87100685 0.089016214 -0.00074143795 -0.001644085 -0.00070712087 -0.001308363 -0.86922592 0.081035309
666000000 -0.87170446 0.088978291 0.00066917052 -0.0013469384 -0.00070947665 -0.0019190311 -0.87033576 0.08056546
667000000 -0.87073451 0.088314965 -0.00026953206 -0.0015569382 6.4840613e-005 -0.0015737163 -0.86953855 0.081597403
668000000 -0.87103611 0.089645445 -0.00095582008 -0.00085782522 -0.00012932176 -0.0010849779 -0.87032527 0.080679514
669000000 -0.87189233 0.090369143 8.3348714e-005 -0.00096293853 0.00028913937 -0.0019103871 -0.86973357 0.079720661
670000000 -0.87016374 0.088367447 2.2630618e-005 -0.0025679239 -1.8673227e-005 -0.00095374434 -0.87049448 0.081265651
