!Keysight Technologies,M9374A,MY55442783,A.12.55.05
!Date: Thursday, May 20, 2021 18:20:35
!Correction: S11(Full 2 Port(1,2)) 
!S21(Full 2 Port(1,2)) 
!S12(Full 2 Port(1,2)) 
!S22(Full 2 Port(1,2)) 
!S2P File: Measurements: S11, S21, S12, S22:
# Hz S  RI   R 50
500000000 -0.87446964 0.06724339 -0.00037180132 -0.00026216224 0.00011420502 -0.00193068 -0.87203014 0.058825284
501000000 -0.87449628 0.066832282 5.2260501e-005 -0.0011125111 -0.00069853297 -0.00078840833 -0.87227023 0.058651574
502000000 -0.87349159 0.066295885 -0.00085318414 -0.00093498983 -0.00016890302 -0.0013521526 -0.87332606 0.06094645
503000000 -0.87324864 0.068181351 -0.00036724278 -0.0001542973 -0.00028880269 -0.0006914335 -0.87054527 0.060265325
504000000 -0.87446755 0.068330377 0.00052763138 -0.0018151138 0.00027754094 -0.0012604949 -0.87155986 0.060124282
505000000 -0.87306935 0.066480905 0.000433637 -0.00060495624 0.00019603445 -0.0017426474 -0.87259215 0.06130271
506000000 -0.87317806 0.067125246 -0.00079440471 -0.00093877572 -0.00029026769 -0.00050619466 -0.87160236 0.060774557
507000000 -0.8728627 0.065639086 0.00040179468 -0.00054980867 -0.00033139793 -0.0012436012 -0.8721717 0.061454132
508000000 -0.87302619 0.066948846 -0.001094789 -0.0010397615 -1.3951074e-005 -0.0013251399 -0.87170303 0.060655843
509000000 -0.87359273 0.06826333 -9.1677794e-005 -0.0018462901 -3.4619967e-005 -0.00091021176 -0.87417954 0.062179685
510000000 -0.87354511 0.068586133 0.00012486741 -0.0018757457 -0.0008344634 -0.0011601064 -0.87050515 0.061875932
511000000 -0.8726685 0.067709275 -0.00068829895 -0.0014642915 0.00032805448 -0.00067973958 -0.87068838 0.063262984
512000000 -0.87326288 0.067634761 0.0003066966 -0.0018194899 -0.00084047671 -0.0015215637 -0.87193805 0.060173064
513000000 -0.87293416 0.068595357 0.00030141935 -0.0014271055 -0.00054073601 -0.0010230594 -0.87178618 0.061674025
514000000 -0.87401342 0.068701707 2.838651e-005 -0.0014090227 0.00024072263 -0.0010132761 -0.87071818 0.063008055
515000000 -0.87282681 0.069526695 -0.00055453728 -0.00024049942 -0.00039920775 -0.0015694874 -0.87147248 0.063378371
516000000 -0.87284422 0.069265299 -1.0770395e-005 -0.00086554192 -0.00016926184 -0.0016899839 -0.87147278 0.062793724
517000000 -0.87378848 0.069331296 0.00083051436 -0.0013159532 0.00022772445 -0.0010856201 -0.87257534 0.061750613
518000000 -0.8736431 0.069234475 -3.8768587e-005 -0.0012897061 -0.00069791148 -0.0019956112 -0.87204295 0.062242169
519000000 -0.8749907 0.069598585 0.00024493333 -0.00023899355 -0.00035069711 -0.0011846987 -0.87256289 0.06462267
520000000 -0.87464648 0.068460144 -0.00063912949 -0.0014481115 0.0002587293 -0.00089618849 -0.87103027 0.063735351
521000000 -0.87544072 0.069725111 -0.00081876758 -0.00048951246 0.00059283915 -0.001261684 -0.87082916 0.063680261
522000000 -0.87462616 0.070682302 -0.00027166947 -0.001015925 0.00084546173 -0.00063583947 -0.87239981 0.064752221
523000000 -0.87270182 0.068870544 -0.00089698849 -0.0019248269 -0.00081183459 -0.0010970032 -0.87170857 0.063342534
524000000 -0.87264568 0.069656335 -0.00027723919 -0.0012704338 0.00017845613 -0.0024747653 -0.87357134 0.066241987
525000000 -0.87192559 0.070549957 0.0001955905 -0.0010918676 0.000488472 -0.0021722813 -0.87325728 0.064189695
526000000 -0.8737002 0.070218056 -2.1095713e-005 -0.00050328649 0.00030744658 -0.001524339 -0.87139988 0.06650719
527000000 -0.8736369 0.071349107 -0.00013287888 -0.0014402786 0.00059422705 -0.0015764957 -0.87078798 0.06386435
528000000 -0.87225485 0.071008019 3.3231034e-005 -0.0020263258 -0.0003240034 -0.00027912451 -0.87122971 0.06509085
529000000 -0.87281322 0.071361974 -0.00098432868 -0.0010085781 0.00052228989 -0.00071106735 -0.87231141 0.065948099
530000000 -0.87177241 0.071339771 0.00080425252 -0.0011359279 -0.00085924065 -0.00063997158 -0.87179112 0.064010412
531000000 -0.87302536 0.0696733 -0.0005629661 -0.0022308468 -0.00060094788 -0.00087158399 -0.87211359 0.067038618
532000000 -0.87318027 0.07106214 -0.00061604049 -0.0013303262 0.00019066162 -0.0012980005 -0.87141621 0.064982474
533000000 -0.87330437 0.070030898 0.00010479761 -0.0011252841 -5.4644312e-005 -0.0013463196 -0.8702299 0.0675501
534000000 -0.87269449 0.0715013 3.6930451e-005 -0.0016653996 -0.00014533209 -0.0016367823 -0.87271988 0.065239854
535000000 -0.87309271 0.0714586 -0.0008056935 -0.00052959216 -0.00039573916 -0.0012557488 -0.87068224 0.067540877
536000000 -0.87359542 0.072782241 0.00051155325 -0.0015657517 -5.5682307e-005 -0.0015460936 -0.86985475 0.066837095
537000000 -0.87497264 0.072521538 -0.00061886047 -0.0020763832 -0.00060150312 0.00011346211 -0.87173718 0.065677099
538000000 -0.87288684 0.070817731 -0.0001259196 -0.00064909895 0.00044645538 -0.0013536047 -0.87188715 0.066695102
539000000 -0.87291402 0.07324864 -0.00057165918 -0.00097151374 -0.00072044681 -0.0014559991 -0.87176841 0.066133223
540000000 -0.87384588 0.071912065 0.00015431926 0.00011839952 -0.0012827426 -0.00090530975 -0.8722865 0.065888301
541000000 -0.87358683 0.071667023 -0.00048151115 -0.0016856093 -4.8016282e-005 -0.00047747575 -0.87132663 0.066591196
542000000 -0.87105221 0.072462678 0.00074155489 -0.0015311313 0.00035529706 -0.00096121 -0.87071013 0.065845989
543000000 -0.87503636 0.072806261 -0.00013440054 -0.0015919914 0.00050083303 -0.00074372272 -0.87188435 0.066706009
544000000 -0.87311804 0.073120348 0.0002233499 -0.0011239424 0.00042415506 -0.0010365731 -0.87215084 0.067357533
545000000 -0.87483042 0.071455926 -0.00060016901 -0.00061716809 0.00019439956 -0.0010865552 -0.8711139 0.065645978
546000000 -0.87273782 0.073595203 -8.7038236e-005 -0.00077604986 -0.00038061789 -0.00071220245 -0.870731 0.066730872
547000000 -0.87349749 0.072582819 -0.0002843666 -0.0018546898 -0.0008745548 -0.0010974499 -0.87263286 0.067027375
548000000 -0.87257946 0.073935755 -0.0009167259 -0.0016969477 -0.00060469576 -0.0016132777 -0.87118936 0.068126425
549000000 -0.87419522 0.072391316 -0.00034823263 -0.0017448547 -0.00053318479 -0.00089062838 -0.87043035 0.069170892
550000000 -0.87257397 0.072775126 -0.00025935436 -0.001188285 -3.3690198e-005 -0.00099322374 -0.87171817 0.068419449
551000000 -0.87175268 0.070449419 -0.00014080574 -0.00061538036 6.6220447e-005 -0.00093330903 -0.87207884 0.068424806
552000000 -0.8734653 0.071201794 8.8634428e-005 -0.0012965852 -0.00090953556 -0.00155673 -0.87127829 0.067492038
553000000 -0.87424642 0.074051164 0.00067633361 -0.00062921713 -0.00038963574 -0.00058885018 -0.87170762 0.066671506
554000000 -0.87365478 0.073196389 -0.00030321875 -0.0009217867 1.4457696e-005 -0.0018804728 -0.87207848 0.067884639
555000000 -0.87175804 0.073033348 1.7952725e-005 -0.00071820756 -0.00024520676 -0.0013346558 -0.87097239 0.066605188
556000000 -0.87224102 0.072385192 1.6323371e-005 -0.001853946 -0.00046718042 -0.0017033271 -0.87093687 0.067766964
557000000 -0.87241083 0.072663486 -0.00029785052 -0.0014541096 3.7330599e-005 -0.0006655227 -0.87298983 0.068361528
558000000 -0.87162936 0.073910862 -9.7550092e-006 -0.0015446686 -0.00032715517 -0.0016413329 -0.87122828 0.067509934
559000000 -0.87271458 0.074813858 0.00023456768 -0.00032143903 0.00034418306 -0.00064976217 -0.8723582 0.068306834
560000000 -0.87377799 0.073450305 -1.4679965e-005 -0.0015065977 -0.00084491813 -0.0017167047 -0.87259036 0.068175904
561000000 -0.87121302 0.073323518 -0.00051034638 -0.0022160201 0.00031748257 -0.00066699373 -0.87138486 0.068467833
562000000 -0.87224936 0.074258164 -3.8682061e-005 -0.0013621189 0.00023428531 -0.001207061 -0.87198299 0.068763353
563000000 -0.87256563 0.072171599 -0.00051529601 -0.0010288901 -0.00039225229 -0.00052962708 -0.87075442 0.069369271
564000000 -0.87200612 0.074476473 -0.00065834087 -0.0018056289 -0.00024558223 -0.0010931909 -0.87180555 0.067452908
565000000 -0.87346232 0.073788539 0.00053031824 -0.00081315555 -0.00010476255 -0.0012306621 -0.87184656 0.068323255
566000000 -0.87309599 0.07423494 -0.00099721027 -0.0013028823 9.5706906e-005 -0.00086613669 -0.87192023 0.069201887
567000000 -0.87315154 0.073347323 -0.00051418634 -0.0009769419 -0.00052925985 -0.00089957821 -0.87180793 0.069340169
568000000 -0.87202561 0.07309375 -0.0011540825 -0.0012874947 -0.0012390156 -0.001642957 -0.87022489 0.068055741
569000000 -0.87201363 0.075416446 0.00050039339 -0.0016829178 0.00028292113 -0.0011611424 -0.87284297 0.069239743
570000000 -0.87324077 0.073234402 -0.00043960536 -0.0014763044 -0.00058259803 -0.0010940834 -0.86994785 0.069770038
571000000 -0.87136883 0.072594978 -0.0010414959 -0.00067274721 -0.00041134888 -0.00045326041 -0.87210971 0.069026113
572000000 -0.87197781 0.073543407 -0.00013101545 -0.0019119764 -3.4289903e-006 -0.0013241246 -0.87050313 0.069941342
573000000 -0.87416303 0.073813945 0.0003401915 -0.00084042636 -0.0011446901 -0.00059412827 -0.87327218 0.069244772
574000000 -0.87218142 0.074300341 -0.00098801602 -0.0019883267 -0.00065713667 -0.00094977964 -0.87212396 0.070339195
575000000 -0.87254018 0.074937366 -0.00034119652 -0.00093455124 0.00013205929 -0.0014354307 -0.87188905 0.06770692
576000000 -0.87312961 0.072659656 -0.00082564604 -0.0010912564 -0.00023660861 -0.0023518526 -0.87216759 0.069261409
577000000 -0.87240374 0.073600449 0.00052221288 -0.0013461529 0.00014516586 -0.0019046272 -0.8707366 0.070187457
578000000 -0.87250566 0.07626012 -0.00012158556 -0.0013539279 -0.00045122873 -0.0008803606 -0.87164783 0.06939248
579000000 -0.87288839 0.075147972 -0.00076283468 -0.00074953696 -0.00020781466 -0.00052233337 -0.87043947 0.068637572
580000000 -0.87139153 0.074576452 0.00042394572 -0.00076827104 -0.00027624052 -0.0012178582 -0.87057644 0.071058311
581000000 -0.87262678 0.074393667 0.00010653697 -0.00092806766 -0.00027492768 -0.0015199838 -0.87286055 0.068273276
582000000 -0.87233144 0.074947216 -0.00015234204 -0.001038801 1.8701474e-005 -0.0019711715 -0.87272596 0.070137262
583000000 -0.8730725 0.075617008 0.0001783404 -0.00056823861 0.00038626595 -0.0014652713 -0.87131876 0.070620202
584000000 -0.87200403 0.075932056 -0.00066645333 -0.0013954727 2.1790051e-005 -0.0011316283 -0.87219363 0.070254147
585000000 -0.8722688 0.074452907 -7.345443e-005 -0.0017341642 0.00013359416 6.3953747e-005 -0.87138808 0.071392834
586000000 -0.87247443 0.077103481 -9.9662699e-005 -0.00096186128 -0.00091524213 -0.0028227002 -0.8714236 0.069673643
587000000 -0.87234646 0.077614538 0.00034516997 -0.00083326688 0.0002846024 0.00020478776 -0.87348181 0.069897488
588000000 -0.87170005 0.076183505 -7.4233594e-006 -0.00030244948 -0.00027293473 -0.00084272888 -0.87208349 0.069069818
589000000 -0.86988485 0.076053828 -0.0011075588 -0.0020267332 -0.0010015726 -0.0013751438 -0.87217891 0.070066825
590000000 -0.87086725 0.076441348 -0.00016309637 -0.0010149451 -0.00090171274 -0.00030575326 -0.87106436 0.07188604
591000000 -0.87314487 0.077082522 -0.0010301006 -0.0020824878 -0.0010490962 -0.00041975736 -0.87260342 0.070759527
592000000 -0.87299895 0.076346695 0.00014985212 -0.00096414483 0.00022695804 -0.00038373427 -0.87173092 0.06928429
593000000 -0.87234306 0.077630877 -0.00035722859 -0.00080469495 0.00059650332 -0.0014295408 -0.87159395 0.069136575
594000000 -0.87013084 0.077237785 -0.00089850259 -0.00176296 -0.00030466163 -0.00075079018 -0.8709504 0.070574015
595000000 -0.87141049 0.07737194 -0.00028198873 -0.00034022712 -0.00024828297 -0.0011521667 -0.87151849 0.072028957
596000000 -0.87103426 0.076139048 -0.00065733108 -0.0019183004 -0.00024387061 -0.0015013725 -0.87136859 0.07258229
597000000 -0.87228912 0.076755002 0.00062326988 -0.001317984 -0.00067329465 -0.00025810735 -0.87184972 0.071885161
598000000 -0.87285733 0.077991068 0.00017576826 -0.0018757173 0.00036944446 -0.00088424678 -0.87255657 0.072336495
599000000 -0.87214327 0.078010686 -0.00063682592 -0.0014920711 0.00018660963 -0.0012998878 -0.873227 0.072500646
600000000 -0.87121212 0.079440854 -0.00076899026 -0.0015703277 -0.00054735411 -0.0003985434 -0.87118882 0.071183078
601000000 -0.87265515 0.079545707 -0.00059260888 -0.00067582825 -0.0009554514 -0.0017980663 -0.87208086 0.071385823
602000000 -0.87275904 0.076630563 -0.00042538936 -0.0016331039 1.5192681e-005 -0.0011986166 -0.87146455 0.074316002
603000000 -0.87228328 0.079534248 -0.0006337291 -0.00095394085 -0.0002612829 -0.0010726483 -0.87119335 0.073169328
604000000 -0.87159175 0.078809433 0.00077582855 -0.0019502208 -0.00015961408 -0.0016476607 -0.86993068 0.073366277
605000000 -0.87180299 0.079353705 6.374855e-005 -0.0013111817 -0.0013577798 -0.0014191861 -0.87212515 0.072012641
606000000 -0.87173158 0.080136523 -0.0010735998 -0.00098571472 -0.00019721579 -0.0012477638 -0.87102526 0.072810762
607000000 -0.8721028 0.07764414 -0.00022796921 -0.00099937653 -0.0011254551 -0.00010417717 -0.87111431 0.073384099
608000000 -0.87230206 0.079642825 4.2733976e-005 -0.0017631885 -0.00022628535 -0.00079154631 -0.87043327 0.073444702
609000000 -0.87160319 0.078517802 0.00014176243 -0.00025864784 0.00079711759 -0.0015440675 -0.87165761 0.073535934
610000000 -0.87182802 0.078521527 -0.00061317708 -0.00097118173 -0.00043063835 -0.0020318166 -0.87000167 0.071401492
611000000 -0.87193274 0.080808081 -0.0011488692 -0.0021366943 1.2753467e-005 -0.0014790965 -0.87081331 0.074422508
612000000 -0.87166381 0.081717461 -7.2918054e-005 -0.0015858206 -0.00029168488 -0.00080003508 -0.87114549 0.073909424
613000000 -0.8735863 0.079754271 -0.00061579212 -0.0011156839 -0.00039546614 -0.0012729114 -0.87038714 0.074809767
614000000 -0.87167037 0.080273159 -0.00050370471 -0.0011707585 -0.00048018934 -0.00087686017 -0.8705492 0.074500881
615000000 -0.87148231 0.080177747 0.00013456342 -0.00088578527 0.00043784251 -0.0010458302 -0.8711133 0.073564693
616000000 -0.87157398 0.082150251 -0.00060790789 -0.00075027213 0.00033264598 -0.0010157031 -0.86956751 0.073994257
617000000 -0.87029064 0.082044847 -0.0010531753 -0.0011081741 0.000303557 -0.001164434 -0.8713755 0.07451202
618000000 -0.87106365 0.081267029 0.0014645491 -0.0018517605 -0.00064219633 -0.0012049533 -0.87083983 0.074383087
619000000 -0.87026989 0.082572021 -0.00099361525 -0.0013199049 -0.00039632584 -0.0010641295 -0.87084013 0.074772522
620000000 -0.8721227 0.081258178 -0.0005972092 -0.0017926601 6.9767913e-005 -0.0020833262 -0.87042576 0.074857168
621000000 -0.8725577 0.082084551 0.00070153474 -0.0011314735 -0.00060665386 -0.001666959 -0.87026429 0.075359203
622000000 -0.87180579 0.081796169 -0.0010858607 -0.0013525592 -0.00067152927 -0.00059046445 -0.8710205 0.075836107
623000000 -0.87144661 0.083996266 0.0001833131 -0.0013669862 0.0002252626 -0.0017398263 -0.87037623 0.076116629
624000000 -0.87083101 0.082734488 0.00015506813 -0.00071771024 -1.8004504e-006 -0.0015246719 -0.87051308 0.075436488
625000000 -0.87089759 0.083444707 -0.00088109984 -0.0020406537 -0.00063702068 -0.0015575369 -0.87028629 0.074855223
626000000 -0.87267941 0.083379939 0.00016325293 -0.00042171686 -0.00082320924 -0.0012594013 -0.87034065 0.07610283
627000000 -0.87095201 0.083306715 3.8186379e-005 -0.001835116 -0.00023156406 -0.0012203223 -0.87070793 0.075566866
628000000 -0.87225652 0.083494969 -0.00050079514 -0.00048457467 -0.00035144776 -0.0014472854 -0.87050688 0.076559886
629000000 -0.87307441 0.081544369 -5.0204722e-005 -0.00045108004 0.00049388502 -0.0013707749 -0.86948103 0.076163307
630000000 -0.87035179 0.084734663 0.0014465713 -0.0016130571 -0.00089871231 -0.0011547247 -0.87029296 0.078901514
631000000 -0.87314391 0.084186584 0.00062999182 -0.0016952129 5.9511047e-005 -0.0024034323 -0.872199 0.077175342
632000000 -0.87260509 0.084357761 -8.3096042e-005 -0.00050764257 0.00014654118 -0.0012053029 -0.87047571 0.077097736
633000000 -0.87217891 0.082520008 -0.00029551997 -0.0019385018 0.00049616362 -0.0013249456 -0.8715201 0.075727671
634000000 -0.87022293 0.084570639 0.00016285708 -0.00096253137 -0.00050716539 -0.00069975422 -0.8713547 0.076421224
635000000 -0.87063557 0.085241757 -0.00053926196 -0.0013758227 -0.00046178405 -0.00092440745 -0.87114561 0.075149938
636000000 -0.87074935 0.08524067 0.00077059347 -0.0014283132 0.00045546392 -0.0012332493 -0.8714326 0.07658048
637000000 -0.87097293 0.085215487 -0.00027219727 -0.002654691 -0.00040809534 -0.0013017787 -0.86884999 0.078455366
638000000 -0.87128472 0.086088538 0.00037103985 -0.00085104042 -0.00055183796 -0.0014049967 -0.87127489 0.077318959
639000000 -0.87158555 0.086110547 3.9326733e-005 -0.00079849269 -0.00041701552 -0.0018502817 -0.87116176 0.077132471
640000000 -0.87104374 0.086779758 0.00032483318 -0.00091934286 -0.00055420026 -0.000792943 -0.86937362 0.077668279
641000000 -0.87080169 0.087038442 0.00034023001 -0.0014503914 0.00057480106 -0.001638229 -0.86966318 0.07746882
642000000 -0.86968696 0.086718865 -0.0013549328 -0.0010367369 0.00027829956 -0.0018833347 -0.87036091 0.077705957
643000000 -0.87088341 0.087714642 -0.00084838166 -0.0010689939 0.00092077971 -0.00079792854 -0.86966503 0.077455051
644000000 -0.87011361 0.0862602 -0.00036822955 -0.00076040084 -0.00014330192 -0.0011848018 -0.8696419 0.078256965
645000000 -0.87183946 0.087017938 -6.1777078e-005 -0.00077275233 -0.00054102112 -0.0011287262 -0.87047559 0.077715687
646000000 -0.87087017 0.086900204 -0.0010489614 -0.00087840116 0.00048314998 -0.00057763164 -0.86953402 0.077623203
647000000 -0.87140262 0.086581081 -0.00041854029 -0.0012574474 0.00075567031 -0.0011723577 -0.86940151 0.077636868
648000000 -0.87106436 0.087390259 -0.0006075197 -0.00098551833 0.00060692191 -0.0018876286 -0.87042928 0.0774711
649000000 -0.8705374 0.087228492 0.00026027599 -0.0013426694 0.00058195682 -0.00086919678 -0.87057757 0.078563489
650000000 -0.87128448 0.086481474 7.6290817e-005 -0.00080382475 -0.00040690112 -0.0016653006 -0.87095773 0.078285441
651000000 -0.87078059 0.088171206 -7.0934788e-005 -0.00062251749 -0.00025958702 -0.0010002295 -0.86938173 0.078027487
652000000 -0.87012118 0.087389357 0.00031770996 -0.0017433133 6.9938236e-005 -0.00052976148 -0.86989039 0.077751644
653000000 -0.87145835 0.085993566 -0.00095314317 -0.00032785928 -0.00034322424 -0.0018323042 -0.86941022 0.079043835
654000000 -0.87145299 0.085933484 -0.00011312884 -0.0016264112 0.00030390816 -0.0011278376 -0.87203646 0.078046396
655000000 -0.87129337 0.088082194 0.00053425308 -0.0013030833 -0.00080732844 -0.0013991109 -0.86976218 0.079792216
656000000 -0.86984336 0.087955728 -0.00013544745 -0.0012652384 -0.0012789801 -0.00051248522 -0.87142289 0.078013673
657000000 -0.87007833 0.087422118 0.00058693608 -0.0014039526 -0.00039892978 -0.0011745249 -0.87150413 0.078341946
658000000 -0.87219107 0.08794675 -0.00055949204 -0.0010492933 5.4110438e-005 -0.0013329425 -0.86971903 0.079384491
659000000 -0.87070912 0.086907998 -0.00077158166 -0.0025160646 -0.00063720281 -0.0013408054 -0.87090349 0.079947501
660000000 -0.87130725 0.088335969 -0.00070857059 -0.0013927859 -0.00028236563 -0.0024150554 -0.87017196 0.078310505
661000000 -0.87077963 0.08792378 -0.00055398082 -0.0015205384 0.00029762925 -0.0010451764 -0.86843133 0.078257628
662000000 -0.87127173 0.088199764 -0.00048297274 7.0397393e-005 0.00041081614 -0.0013160388 -0.87039948 0.079973899
663000000 -0.87128031 0.0871493 -0.00013546103 -0.000930237 0.00057803158 -0.0019499237 -0.86858135 0.077422477
664000000 -0.87195379 0.088681869 0.00036968701 -0.0011932714 5.7044879e-005 -0.0020761376 -0.8688646 0.079345509
665000000 -0.87259591 0.088100024 -2.8887807e-006 -0.0017813306 -0.00065402949 -0.0008985998 -0.87041056 0.081321128
666000000 -0.87076765 0.088208042 -0.00086760096 -0.0019537632 -0.0010329426 -0.0012453588 -0.87004489 0.07970009
667000000 -0.86934555 0.089603469 0.0003069542 -0.0013304821 -0.00096793956 -0.0015226847 -0.87146991 0.080228828
668000000 -0.87180674 0.088951036 0.00032231075 -0.00083188532 -0.00043683135 -0.0014740903 -0.8703689 0.078875035
669000000 -0.87003326 0.087849423 -0.00043469993 -0.0017255166 -0.0012045344 -0.0016059267 -0.86940449 0.079929814
670000000 -0.87151814 0.088650785 -0.00069230929 -0.0024611943 -0.00061564212 -0.00076866028 -0.86958414 0.080208145
