!Keysight Technologies,M9374A,MY55442783,A.12.55.05
!Date: Thursday, May 20, 2021 17:57:59
!Correction: S11(Full 2 Port(1,2)) 
!S21(Full 2 Port(1,2)) 
!S12(Full 2 Port(1,2)) 
!S22(Full 2 Port(1,2)) 
!S2P File: Measurements: S11, S21, S12, S22:
# Hz S  RI   R 50
500000000 -0.87543535 0.066640742 -0.00094610464 -0.00068016094 0.00060964964 -0.0014943333 -0.87271392 0.060798187
501000000 -0.87464315 0.067889795 0.00013276668 -0.0010728388 0.00066772004 -0.0011905889 -0.87315929 0.061904654
502000000 -0.87518293 0.065263227 -3.7900303e-005 -0.00046921259 -0.00029947734 -0.00019859249 -0.87335676 0.06069015
503000000 -0.87382156 0.066758737 0.00073962996 -0.0014808001 -0.0010933123 -0.00092508236 -0.87310803 0.061961617
504000000 -0.87418455 0.068195254 -4.5514138e-005 -0.0006021302 -0.00022102542 -0.0019037906 -0.87320572 0.062904075
505000000 -0.87320447 0.067095704 0.00032969165 -0.001021897 -0.0005630955 -0.00043211246 -0.87314761 0.062959328
506000000 -0.87512594 0.067410946 -0.00088287907 -0.00085786806 0.00020000552 -0.0012875723 -0.87229186 0.062655844
507000000 -0.87399757 0.068385184 -0.0013029308 -0.0013554204 5.3768283e-005 -0.00089911395 -0.87260479 0.063192002
508000000 -0.87366605 0.069742881 -0.0014926264 -0.0020576883 7.3219235e-005 -0.00090880814 -0.87348288 0.064401001
509000000 -0.87470675 0.07019563 -0.00043351523 -0.001404213 -0.00054592034 -0.0007850228 -0.87265754 0.062544473
510000000 -0.87500542 0.068115182 -9.0016169e-005 -0.0013067133 -0.00038202669 -0.0017436601 -0.87204468 0.06309256
511000000 -0.87238854 0.068970218 -0.00066361559 -0.00025636231 -0.00016829289 -0.00038020729 -0.87309808 0.063251205
512000000 -0.87427503 0.069044545 4.5663019e-005 -0.00071416644 0.00084935525 -0.00093895604 -0.87270969 0.063057028
513000000 -0.87518984 0.070711873 -0.00082946126 -0.0023198966 -0.00024661099 -0.00066384964 -0.87348014 0.063401297
514000000 -0.87367886 0.06915094 -0.00054660247 -0.0010361506 0.0005876412 -0.0017155613 -0.87381077 0.061723314
515000000 -0.87309659 0.068591766 -0.000261298 -0.0004153362 0.00047238157 -0.0008375785 -0.87315416 0.063745774
516000000 -0.87452972 0.06999667 -0.0010593726 -0.0011933661 -0.00051760476 -0.0011662293 -0.87362921 0.064147376
517000000 -0.87526083 0.070317268 -0.0005891188 -0.0003886279 0.00026864556 -0.0012556844 -0.87254083 0.064022698
518000000 -0.87326252 0.069459036 -0.00041951166 -0.0012895998 -0.00017823782 -0.0012423305 -0.87269443 0.064761288
519000000 -0.87424088 0.070240013 -0.00053344894 -0.00094272202 -0.0010675519 -0.0014657622 -0.87263793 0.064762518
520000000 -0.87388265 0.070236124 0.00034298937 -0.00082927896 -0.00026599126 -0.00054068322 -0.87204605 0.065572619
521000000 -0.87369901 0.071447581 -6.0778078e-005 -0.0015185034 -0.00058263191 -0.0014046403 -0.87293142 0.064768992
522000000 -0.87493581 0.070316389 -1.2709706e-005 -0.00079955178 0.00047369019 -0.0013347621 -0.87214422 0.064866081
523000000 -0.87253821 0.070219442 -0.0014732922 -0.0019636415 0.00083521591 0.00037125399 -0.87089109 0.064291306
524000000 -0.87260222 0.070442781 0.0002671667 -0.0012209471 -0.00043774891 -0.00087841618 -0.87220949 0.065158188
525000000 -0.87399286 0.073182464 6.634587e-006 -0.0018481447 -0.00071672571 -0.00058792019 -0.87260264 0.065407678
526000000 -0.87379587 0.07321994 -0.0012474104 -0.0012349806 0.0004528788 -0.0012233753 -0.87317532 0.066360414
527000000 -0.8749426 0.071497835 -0.00082651793 -0.00083676033 -0.0006529938 -0.0011624085 -0.87212855 0.066142678
528000000 -0.87431794 0.07241565 -0.00032650467 -0.00078523951 0.00012934762 -0.00052223267 -0.8725844 0.067374773
529000000 -0.87396377 0.071883939 -0.00019416072 -0.0012608378 -0.00053069182 -0.0017121091 -0.8709358 0.067333505
530000000 -0.8728987 0.071729355 -0.00021289472 -0.0012366831 -0.00056553591 -0.00076048018 -0.8718971 0.065629914
531000000 -0.87397587 0.071194999 -0.00067636475 -0.00076137763 -0.0010026087 -0.0017639202 -0.87193334 0.066292457
532000000 -0.87578225 0.071028426 -0.00052929291 -0.00083967531 0.00036138232 -0.0013743498 -0.8729496 0.066624843
533000000 -0.87415421 0.072037265 -0.00052267319 -0.0022782087 0.0012630807 -0.00091814919 -0.87170482 0.066429943
534000000 -0.87411511 0.071513578 -0.00057623046 -0.0010323224 0.00040882904 -0.0018305274 -0.8729251 0.066124916
535000000 -0.87538123 0.073626377 0.0003433107 -0.00095599919 -0.00039427957 -0.0019113236 -0.87145191 0.067255706
536000000 -0.87284023 0.072690085 -0.0007744258 -0.00057958771 0.00035003049 -0.00020740727 -0.87218636 0.067810453
537000000 -0.87424183 0.073146544 5.0562827e-005 -0.0014860136 -0.0014547512 -0.0019930215 -0.87090534 0.067068726
538000000 -0.8747282 0.072615847 0.00058309978 -0.001343511 -0.00026971352 -0.001436353 -0.87288904 0.066665605
539000000 -0.87388629 0.071595281 0.0015277317 -0.0010364447 -0.00064872875 -0.0018403977 -0.87280893 0.067770191
540000000 -0.8748256 0.073640652 -0.00043818072 -0.0015769002 0.00026867856 -0.0014285024 -0.87037903 0.069259681
541000000 -0.8739931 0.074067555 -0.00023753062 -0.00057908799 -0.00028380554 -0.0006757541 -0.87263465 0.067540891
542000000 -0.87468892 0.073084503 -0.00078464719 -0.0024127385 -0.00051409152 -0.00068602466 -0.87113088 0.066483751
543000000 -0.87392646 0.075004645 -0.00033453788 -0.0016628782 -0.00099723355 -0.0021547638 -0.87208229 0.067349322
544000000 -0.87376082 0.074501485 -0.00053659279 0.00050330907 -0.00023285301 -0.0013346717 -0.87279361 0.067209437
545000000 -0.87331325 0.071650535 -0.00067375757 -0.0015795117 0.00038146027 -0.001108718 -0.86995393 0.068048753
546000000 -0.87356949 0.073525555 -0.00052781089 -0.0025731816 -1.2513272e-005 -0.00055706466 -0.87195641 0.067867756
547000000 -0.87359476 0.075003013 -0.00032953141 -0.00033582281 3.336239e-005 -0.0020177157 -0.87251836 0.068814181
548000000 -0.8727752 0.074833229 0.00050017412 -0.00016759927 0.00084790972 -0.00072380266 -0.87301511 0.068863958
549000000 -0.8744092 0.074152417 -0.00012718134 -0.0017788021 -0.00035065523 -0.00043223234 -0.87164044 0.068307385
550000000 -0.87301826 0.074101254 -0.00070235669 -0.0024188566 -0.0008062569 -0.00075781811 -0.87234688 0.068740956
551000000 -0.87299728 0.07295543 -0.00034281623 -0.00018532912 0.00080681214 -0.0015433169 -0.87163615 0.069264241
552000000 -0.87481076 0.073928379 -0.00076349138 -0.002642171 0.00010581038 -0.0014842106 -0.87086487 0.0669934
553000000 -0.87377858 0.073587693 0.00012587562 -0.0013188762 -0.00090980995 -0.0011379112 -0.87211502 0.068259031
554000000 -0.87369001 0.075105175 -0.00046136812 -0.0016060342 -0.00068319158 -0.0018614478 -0.8707121 0.067362927
555000000 -0.87410086 0.073983125 -0.00075468339 -0.0021263203 0.00020056893 -0.00073365052 -0.87152082 0.067055605
556000000 -0.87423509 0.073885843 -0.00012245146 -0.0016323171 0.00088821194 -0.001847612 -0.8718307 0.069198638
557000000 -0.87308162 0.07316754 -0.0016504392 -0.0021158636 -0.00020372045 -0.0007495489 -0.87204868 0.0684136
558000000 -0.87435657 0.073719516 8.4674924e-005 -0.0018087205 -0.00067867612 -0.00037999125 -0.87155956 0.069502734
559000000 -0.87479264 0.074091353 0.00051280326 -0.0017367403 -0.00027406556 -0.00052972225 -0.87204194 0.067586571
560000000 -0.87419415 0.075702503 0.00045770983 -0.0011446793 -0.00014252009 -0.00086847605 -0.87201566 0.068122007
561000000 -0.87242347 0.073821925 0.00039590435 -0.00057481398 -0.00015241862 -0.0018157515 -0.87210548 0.068955339
562000000 -0.87232339 0.075067215 -0.00091446075 -0.00084534229 -0.00072739198 -0.0015563393 -0.8730312 0.070348941
563000000 -0.87311524 0.074202143 0.00020585064 -0.0010810279 -0.00011365575 -0.0014577997 -0.87138009 0.070292577
564000000 -0.87435347 0.074656256 0.00065682502 -0.00034673343 -0.00054298184 -0.0014624207 -0.87249744 0.069060996
565000000 -0.87395442 0.073989518 -0.00060912489 -0.0012141486 0.00067633868 -0.0013339946 -0.87271512 0.068711258
566000000 -0.87317109 0.07403598 0.00018339847 -0.0010761688 -0.00080620142 -0.0013502764 -0.87119424 0.068353571
567000000 -0.87250137 0.073851079 -0.00063288549 -0.0021529715 6.1356353e-005 -0.0018535588 -0.87142956 0.068939567
568000000 -0.87289214 0.075238787 -0.00057341531 -0.0010693187 -0.00026340358 -0.0013128076 -0.87101364 0.069983475
569000000 -0.87186915 0.075954907 0.00023748736 -0.0011438563 0.00043698796 -0.00087532384 -0.87222534 0.067832902
570000000 -0.87488699 0.075393736 0.00030876262 -0.00052460062 0.00011857009 -0.0011319115 -0.87258828 0.069727495
571000000 -0.87387866 0.07447321 -0.00053789368 -0.0015567002 -0.0006978868 -0.0011565997 -0.87286949 0.070895948
572000000 -0.87189901 0.076939598 0.00041785697 -0.00099715916 -0.00039883269 -0.0014664015 -0.87285936 0.069854066
573000000 -0.87420768 0.075655825 -0.00030482144 -0.00037954879 0.00037365127 -0.00070343033 -0.87046009 0.069121137
574000000 -0.87284571 0.074419551 -0.00093542144 -0.00078959559 -0.0010169432 -0.0015846916 -0.87193042 0.069722921
575000000 -0.87331349 0.078520566 -0.00056276546 -0.00071862916 -0.00037606654 -0.001105758 -0.87311983 0.070988081
576000000 -0.87276232 0.076107897 5.5054323e-005 -0.00093168335 -0.00013815433 -0.0019401825 -0.86989242 0.072464556
577000000 -0.87351543 0.076149032 -9.9351448e-005 -0.00065270346 -0.00028458887 -0.0017110718 -0.87153274 0.068790235
578000000 -0.87369138 0.074603193 -0.0003322626 -0.0016079007 0.0001352877 -0.0011446829 -0.87095022 0.070430622
579000000 -0.87288022 0.07624995 -0.00075576181 -0.0012213079 -0.00073624187 -0.0013136911 -0.87290812 0.069396786
580000000 -0.87270159 0.074566439 -7.4310519e-005 -0.00094964803 -0.00037189681 -0.0007716986 -0.87247932 0.070931032
581000000 -0.87499523 0.075442463 0.00022749603 -0.0017787693 -0.00056862604 -0.0015033777 -0.87243563 0.070369117
582000000 -0.873384 0.07539165 -0.00080045353 -0.0016492637 -0.0005602545 -0.0022515762 -0.8719613 0.071266115
583000000 -0.87272418 0.076043792 0.00019492603 -0.00077982963 -0.00045683992 -0.0014964077 -0.87226993 0.070101403
584000000 -0.87236702 0.076563828 -0.00078099943 -0.0019751303 -0.00025790886 -0.00083464559 -0.87201369 0.072250269
585000000 -0.87247485 0.07635814 -0.00024689132 -0.0021034733 0.00012534006 -0.0012684255 -0.87158734 0.071597338
586000000 -0.87341684 0.074822165 0.00020029643 -0.0021819461 -0.0005329515 -0.0015308382 -0.87289065 0.069415323
587000000 -0.87323588 0.076707982 6.3858106e-006 -0.0012098225 -0.00066202914 -0.0014848454 -0.8715983 0.072645947
588000000 -0.8729651 0.077570841 -5.6623001e-005 -0.0011007614 -0.00043554179 -0.0015162004 -0.8715108 0.070800096
589000000 -0.8728925 0.07686086 -0.00064783834 -0.001734593 -0.00051058974 -0.0012159158 -0.87255579 0.070876375
590000000 -0.87191534 0.077910215 -0.0016704919 -0.0018455539 -0.0001609363 2.2028838e-005 -0.87152958 0.072149433
591000000 -0.87320757 0.078310803 -0.00086769182 -5.314486e-005 -8.111183e-005 -0.0013362585 -0.87262082 0.073806547
592000000 -0.87246341 0.077982537 -0.00038122913 -0.00063487474 -0.00044045682 -0.0010904789 -0.87317878 0.071051545
593000000 -0.87339729 0.078446753 -0.00034127376 -0.00076308299 -0.00015163227 -0.00013716194 -0.87155694 0.071252652
594000000 -0.8721047 0.076791875 -0.0016324058 -0.0013031124 0.00055370439 -0.0010428807 -0.87170756 0.072478049
595000000 -0.87409753 0.076282106 -0.00065046555 -0.0011819914 0.00054513925 -0.0017386143 -0.87173152 0.072770745
596000000 -0.87269312 0.07787843 0.00062528386 -0.0015428191 -0.00023322276 -0.00077228376 -0.87332201 0.072535656
597000000 -0.87402213 0.078016549 -0.0003995444 -0.00087349513 0.00057226227 -0.0012953441 -0.87110567 0.072267503
598000000 -0.87294847 0.079627365 -0.00033888861 -0.0010281642 -0.00053965766 -0.00059391366 -0.87294543 0.072554067
599000000 -0.87181801 0.078213327 0.0010527696 -0.0017095386 -0.00037723943 -0.00056267547 -0.87130779 0.072032429
600000000 -0.87127197 0.078563884 0.00032951028 -0.00089438353 -0.0011982416 -0.0011867546 -0.8726542 0.07317964
601000000 -0.87220126 0.079240426 0.001272257 -0.0014190159 0.00047948569 -0.0022198707 -0.87470174 0.073034778
602000000 -0.87277615 0.079237215 -0.00062498462 -0.0017523307 0.00022445276 -0.00058165839 -0.87098467 0.072788335
603000000 -0.87236392 0.079500005 -0.00076566462 -0.0015331612 -0.00020749614 -0.0011217826 -0.87229872 0.075086251
604000000 -0.87244326 0.080424994 0.00068536802 -0.0018571304 -0.00010411038 -0.0012109691 -0.87128705 0.07354296
605000000 -0.87252122 0.079813078 0.00030554712 -0.0014614825 -0.00010547452 -0.00041704337 -0.87136507 0.073439308
606000000 -0.8737371 0.082132205 -0.0004683031 -0.0022902682 -0.00031629711 -0.0018849371 -0.87048256 0.075457394
607000000 -0.87269539 0.07955455 0.00067151495 -0.0010204115 9.7000746e-005 -0.00088993006 -0.87154919 0.075295717
608000000 -0.87272251 0.080446579 0.00039974821 -0.0004327347 -1.9570645e-005 -0.0010420635 -0.87139136 0.074123427
609000000 -0.87134182 0.080362126 0.00088503014 -0.0017772964 -5.0457536e-005 -0.002594732 -0.87060219 0.072740547
610000000 -0.87170881 0.079242155 4.490056e-005 -0.0011126106 -0.00048773101 -0.0018026199 -0.87030035 0.073532574
611000000 -0.87404424 0.081210025 -0.0016869545 -0.0013687677 -1.7538212e-005 -0.00036575543 -0.87128615 0.074173518
612000000 -0.87315804 0.080291256 -0.00095122791 -0.0019037572 0.00014381604 -0.00026474652 -0.8703056 0.07402195
613000000 -0.8727929 0.082839847 -0.00028924164 -0.0011099257 2.2066501e-005 -0.0014683626 -0.87209958 0.073605739
614000000 -0.87381279 0.081470147 -0.0002356745 -0.0010147338 -0.00065835757 -0.0011052002 -0.8713038 0.07559935
615000000 -0.87248355 0.08170341 -0.0010504222 -0.0012559235 0.00024743148 -0.00046018363 -0.87046242 0.074562535
616000000 -0.87187785 0.081876412 -0.000213979 -0.0010409062 -0.00054299965 -0.001143132 -0.87173134 0.075201169
617000000 -0.87319672 0.083044536 -6.7363639e-005 -0.0010858363 -0.00080464868 -0.00093104382 -0.87061161 0.076351643
618000000 -0.87195843 0.081844173 2.8546569e-006 -0.00029690127 -0.00038208577 -0.000614991 -0.87203211 0.074630164
619000000 -0.87295318 0.082720026 -0.00019565012 -0.00013770044 -0.00051212375 -0.0019640215 -0.87163347 0.077119023
620000000 -0.87259191 0.083575986 0.0010172871 -0.0011465834 0.00012817977 -0.00064660434 -0.87199956 0.076102942
621000000 -0.87201262 0.082086846 -0.00025614191 -0.0013602484 -0.00011536229 -0.0017744404 -0.87103635 0.075700678
622000000 -0.87138277 0.082703955 -0.0015242025 -0.0016576563 -0.00051147962 -0.0017661337 -0.87113595 0.076616421
623000000 -0.87326306 0.083240181 -0.00061307539 -0.0013138161 0.0010419311 -0.0018126292 -0.87074208 0.076891199
624000000 -0.87057567 0.083224341 -0.00023153506 -0.0012987945 -6.0325405e-005 -0.002242378 -0.86974752 0.076053441
625000000 -0.87193358 0.083720058 0.00045641445 -0.00088948762 -1.5766433e-005 -0.0012757437 -0.8705278 0.07590045
626000000 -0.87139374 0.083035558 -0.00051707239 -0.00059812306 -0.00014018871 -0.0014379672 -0.87024641 0.077809714
627000000 -0.87178153 0.084884763 0.000453493 -0.00095448742 -0.00043235067 -0.00078023755 -0.87118119 0.078487299
628000000 -0.87195969 0.083962403 0.00050020631 -0.0019314785 -4.719865e-005 -0.0018439793 -0.86973935 0.076100521
629000000 -0.87173486 0.084073983 0.00030954171 -0.00010549906 -0.00065272505 -0.0013020416 -0.87094444 0.077361099
630000000 -0.87152916 0.086457655 0.00013252259 -0.001809543 -0.00044692491 -0.0013156806 -0.87134987 0.076910347
631000000 -0.87082499 0.08475218 -0.00034675913 -0.0015342564 0.00030103364 -0.0014084638 -0.87066662 0.077623531
632000000 -0.87326467 0.084978834 0.00033601432 -0.00065654103 2.441369e-005 -0.00070386246 -0.87046701 0.077950202
633000000 -0.87143177 0.085475974 -4.5824559e-005 -0.0010709964 -0.0010989449 -0.0018584196 -0.87098777 0.077535599
634000000 -0.87332273 0.086407952 -0.00069640268 -0.001567816 0.00030355359 -0.0015518564 -0.8708927 0.078572221
635000000 -0.86942989 0.085344657 -0.0010269904 -0.0015764004 0.00043503512 -0.0013619434 -0.87102628 0.077407084
636000000 -0.87082624 0.08526352 -0.0016871269 -0.0016578003 -0.00089302426 -0.001394442 -0.87140894 0.076886259
637000000 -0.87116092 0.087554008 -0.00112914 -0.0019017218 -0.00060802035 -0.00080014311 -0.87031722 0.078457735
638000000 -0.87202072 0.087182038 -0.00091587083 -0.0017187361 -0.00037019304 -0.0017891451 -0.8704204 0.077910192
639000000 -0.87205923 0.087342367 0.00072442717 -0.00090099178 0.00050332997 -0.0016645725 -0.87046981 0.076863609
640000000 -0.87062192 0.087920822 -0.00026002622 -7.0874717e-005 -0.00063892221 -0.0016668051 -0.86907005 0.078460597
641000000 -0.87039143 0.086085938 0.00090559572 -0.0013081584 -0.00074541086 -0.0024533833 -0.87022173 0.079328418
642000000 -0.87063694 0.085359111 2.2050725e-005 -0.00091268233 -0.00035991659 0.00040602562 -0.87040013 0.079600297
643000000 -0.87181741 0.088061236 -0.00045789868 -0.0009364179 -0.0012514147 -0.00055797404 -0.87089342 0.078449793
644000000 -0.87260854 0.087867573 -0.00084344123 -0.0013155289 -0.00078727526 -0.0014159991 -0.87114412 0.079332091
645000000 -0.87095767 0.087719381 -7.1598086e-005 -0.00078748888 0.001120877 -0.00038685813 -0.87112862 0.078868456
646000000 -0.87037975 0.087244026 0.00060596823 -0.0017361206 -0.0004485262 -0.0011690254 -0.87088996 0.077449858
647000000 -0.87065434 0.086763777 -1.8261506e-005 -0.00083337107 -0.00029751463 -0.0015923877 -0.87158465 0.078425534
648000000 -0.8708064 0.087035194 0.00031226035 -0.0011833594 -0.00062041677 -0.0023418143 -0.87058198 0.079166628
649000000 -0.87148494 0.08884383 -0.00040904735 -0.0008750222 -0.0015905541 -0.00090850715 -0.87203395 0.07995753
650000000 -0.87119734 0.087515645 -0.0015128364 -0.0010624747 -0.00027894857 -0.0013692083 -0.87274361 0.080217361
651000000 -0.87336957 0.087316349 -2.3229437e-005 -0.0015355095 -0.00095595443 -0.0013676184 -0.86918837 0.079414912
652000000 -0.87196022 0.088137724 0.00011423419 -0.001101717 -0.00063561252 -0.0028485358 -0.86964816 0.079195715
653000000 -0.87037766 0.088197254 -0.00098373636 -0.00078972854 2.596006e-005 -0.00038481917 -0.87085879 0.079327203
654000000 -0.87066513 0.088979617 -0.00021056324 -0.0012768207 0.00029581034 -0.00096512272 -0.86967498 0.079838522
655000000 -0.87087876 0.08943291 0.00035540515 -0.0016253017 -0.00012453846 -0.0015168355 -0.8689521 0.079511575
656000000 -0.87239122 0.089581147 -0.00029572402 -0.0018111508 -0.0012045535 -0.0022171398 -0.86965513 0.079896472
657000000 -0.8721773 0.089347802 0.00032231642 -0.0011436653 -0.00039694362 -0.0010961652 -0.87109739 0.081374124
658000000 -0.87166327 0.087719366 -1.0250183e-005 -0.0012213859 -1.831509e-005 -0.0018342463 -0.87113822 0.079123162
659000000 -0.87169361 0.090529755 -0.0004523744 -0.0012783341 -0.00091824384 -0.0013998024 -0.87140828 0.080121063
660000000 -0.86990279 0.089451425 0.00035490899 -0.0014200578 0.00078927906 -0.0015739076 -0.86944425 0.08076746
661000000 -0.87127036 0.088581808 -0.00038548079 -0.0015358424 7.4887481e-005 -0.0010487901 -0.87162632 0.081211194
662000000 -0.87378085 0.088677265 -0.0010701177 -0.00037724708 8.0431739e-005 -0.001391382 -0.87150669 0.082097203
663000000 -0.87349385 0.089052148 0.00025595285 -0.001815769 -0.00033632299 -0.0008394196 -0.87038094 0.079509027
664000000 -0.87130308 0.087728351 -0.0003800283 -0.001288258 7.2252151e-005 -0.0016761619 -0.87041521 0.081279725
665000000 -0.87276566 0.09005443 -0.00051317946 -0.002067215 -3.8695871e-005 -0.0015202387 -0.87031215 0.080052383
666000000 -0.87012655 0.089876555 -0.0010382228 -0.0015779285 -0.00021940189 -0.0012189772 -0.87090844 0.081598692
667000000 -0.87036508 0.090232745 -0.00029855609 -0.0014214991 0.00055066304 -0.0012209027 -0.87094647 0.079293057
668000000 -0.87088138 0.087254561 -0.0005780076 -0.0018595253 -0.00068170042 -0.0016679937 -0.86809033 0.079574674
669000000 -0.87193859 0.089588277 3.8171387e-005 -0.00073088083 -0.0010921491 -0.0017423684 -0.87084901 0.080429368
670000000 -0.87309933 0.088943303 6.8654881e-005 -0.0014699672 0.00034773682 -0.00094523327 -0.87026376 0.081597894
