!Keysight Technologies,M9374A,MY55442783,A.12.55.05
!Date: Thursday, May 20, 2021 18:27:03
!Correction: S11(Full 2 Port(1,2)) 
!S21(Full 2 Port(1,2)) 
!S12(Full 2 Port(1,2)) 
!S22(Full 2 Port(1,2)) 
!S2P File: Measurements: S11, S21, S12, S22:
# Hz S  RI   R 50
500000000 -0.87540889 0.065262578 -0.00020676211 -0.00089213083 0.00032470463 -0.00043356448 -0.87261128 0.061683021
501000000 -0.87403983 0.066952318 0.0011541491 -0.001579357 -0.0012519138 -0.0004564269 -0.87451756 0.061237957
502000000 -0.87433577 0.065927632 -0.00039420999 -0.00079470029 0.00092349685 0.00032442025 -0.87301236 0.059596047
503000000 -0.87338895 0.066901289 -0.00050170696 -0.0012553477 -5.5610672e-005 -0.0011660948 -0.87348676 0.060228992
504000000 -0.87331551 0.066999294 0.00069085596 -0.00084765966 -1.2226752e-005 -0.00028476675 -0.87325239 0.060027339
505000000 -0.87669009 0.065135561 0.00030007548 -0.001085515 0.0004216416 -0.0021717167 -0.87254971 0.06108721
506000000 -0.87556517 0.067206725 0.00042353512 -0.0016013223 0.001249244 -0.00070816965 -0.87183243 0.060827278
507000000 -0.8740344 0.068036556 0.00067052536 -0.00038768191 0.00047910766 -0.00013950594 -0.87302613 0.063009359
508000000 -0.87467819 0.067949817 9.4046307e-005 -0.001611173 3.0007279e-005 -0.0016292004 -0.87484497 0.060631335
509000000 -0.87464935 0.067327783 -0.0010606553 -0.0018664651 0.00033928268 -0.001099131 -0.87434822 0.061471544
510000000 -0.87451577 0.066263914 -0.00067475339 -0.0002671066 -0.00011616197 0.0004003318 -0.87059438 0.061233837
511000000 -0.8748188 0.068614528 -0.00032541712 -0.001322192 0.00039023373 -0.0011126053 -0.87201959 0.062142793
512000000 -0.87478185 0.067527033 -0.00016834277 -0.00041799131 -0.00078885828 0.00013101446 -0.87284201 0.061583571
513000000 -0.87498516 0.068742394 0.00049235055 -0.00024824761 -0.00032176543 -0.0014153059 -0.8721261 0.062284261
514000000 -0.87488157 0.069981165 0.00021601502 -0.0031756544 -8.7065717e-005 -0.0014692558 -0.87314445 0.062953256
515000000 -0.87481087 0.069634989 -0.00043679716 -0.0010091282 -0.00027694352 -0.0016547946 -0.87211084 0.062624313
516000000 -0.87501192 0.069715559 -0.00080598699 -3.6177025e-005 -0.00054872915 -0.00074025051 -0.87269956 0.062212519
517000000 -0.87465596 0.067903541 0.00046124263 -0.00058985484 -0.00062323071 -0.0010727313 -0.87301445 0.061126579
518000000 -0.87405789 0.068161108 -0.00080681744 -0.0011143911 -0.00013376934 -0.001051049 -0.87222242 0.063413776
519000000 -0.87370145 0.068836264 0.00090578286 -0.0018110472 0.00038702463 -0.0017194229 -0.87287104 0.064993069
520000000 -0.87380856 0.070168331 -0.00015249485 -0.00060712424 0.00052943651 -0.0021906076 -0.87262911 0.062111527
521000000 -0.87513423 0.071354978 -0.00063025142 -0.00050504686 -0.00093027065 -0.00021386397 -0.87329865 0.064074695
522000000 -0.87463313 0.071047999 -3.6513436e-005 0.00037961113 0.0010490021 -0.001330605 -0.87475777 0.063930549
523000000 -0.874071 0.068858251 -0.00031025667 -0.0010744901 0.00015707503 -0.00081940228 -0.87058342 0.062971383
524000000 -0.8737793 0.068923362 0.00017056271 -0.0015712737 -0.0011913489 -0.0013276176 -0.87405509 0.064323381
525000000 -0.87485826 0.070260406 0.00022768778 -0.0015639372 -3.2584609e-005 -0.0013308657 -0.87291354 0.064040698
526000000 -0.87420601 0.069623306 0.00025646304 0.00095328188 -0.00098590786 -0.00038563207 -0.87311745 0.064832501
527000000 -0.87374473 0.070829809 0.00018310214 -0.0011719686 -0.00087992247 -0.0015945151 -0.87356842 0.06461373
528000000 -0.87560666 0.07085298 -0.001087997 -0.0011474161 0.0012321483 -0.0008975942 -0.87260133 0.065395869
529000000 -0.87245077 0.070744835 0.00015502778 -0.00077419606 -0.001358605 -0.00075641106 -0.8725872 0.064784616
530000000 -0.87360829 0.071070805 0.00041362955 -0.00049410237 -0.00092965591 -0.0010431545 -0.87235487 0.066012517
531000000 -0.87478918 0.070843972 -0.00052242627 -0.0010862487 -0.00027984992 -0.00054748153 -0.87094438 0.065962836
532000000 -0.87324363 0.070287794 -0.00043205157 -0.0017436232 0.0005796742 -0.0013114113 -0.87203008 0.064720519
533000000 -0.87478268 0.071772009 -0.00038097007 -0.00076178985 -0.0010189249 -0.00026384785 -0.87248957 0.06699916
534000000 -0.87467146 0.07109151 -4.3657105e-006 1.6214708e-005 7.6303753e-005 -0.0014071111 -0.8717038 0.064767577
535000000 -0.87314081 0.072194748 -0.0010973002 -0.001341187 -0.00070754375 -0.00061318278 -0.87237811 0.06476061
536000000 -0.87405634 0.070961982 0.00019820401 -0.00050039246 0.00013603897 -0.0013900549 -0.87139463 0.063780852
537000000 -0.87519681 0.070867196 -0.00071819621 -0.00099938095 -0.0002894986 -0.00013461849 -0.8717801 0.066058286
538000000 -0.87388152 0.071479268 -0.00051590934 -0.00093419844 -0.00039252674 -0.00080128526 -0.87075239 0.06612242
539000000 -0.87425703 0.072506279 -2.5352159e-005 -0.0014955503 -0.00024705156 -0.00078673905 -0.87201822 0.067734465
540000000 -0.87277496 0.073793508 8.0485064e-005 -0.0010922311 -0.00028275346 -0.001542331 -0.87278587 0.065328024
541000000 -0.87365562 0.070953272 9.9874414e-005 -0.0021853896 -0.0011978337 -0.00073719025 -0.87151557 0.06681902
542000000 -0.87416059 0.073040262 0.00014398369 -0.0016176323 -0.0012316005 -0.0010634224 -0.87280542 0.066333637
543000000 -0.87566257 0.071381301 -0.00030648339 -0.00073623669 0.00030841096 -0.0012249282 -0.87099111 0.067988925
544000000 -0.87402117 0.071461521 -0.0011536509 -0.0015281033 0.00033408724 -0.00034023754 -0.87241369 0.065946363
545000000 -0.87522519 0.071943343 0.00032446804 -0.00034773623 -0.00096260261 -0.00088674953 -0.87274599 0.065696537
546000000 -0.87277877 0.071521707 0.00020329918 -0.0012899928 0.00017199772 -0.00091639766 -0.87346894 0.067507483
547000000 -0.87456441 0.070775151 -9.9675963e-005 -0.00034227961 0.00012703089 -0.0018731782 -0.8717925 0.067061521
548000000 -0.87506539 0.070976578 -0.00019553352 -0.00050383015 -0.0012446844 -0.0015632458 -0.87277192 0.067021981
549000000 -0.8743667 0.07093896 -0.00044505554 -0.0010263177 0.00011090273 -0.00096471165 -0.87199318 0.067242295
550000000 -0.87375557 0.07364703 0.00017363421 -0.00079554121 -0.00079107058 -0.0025926372 -0.8720147 0.067476399
551000000 -0.87268466 0.072846308 5.6651199e-005 -0.00092803576 -0.0011559195 -0.00022850846 -0.87147141 0.067416474
552000000 -0.87454998 0.07224451 -0.00037410684 -0.00083547673 -0.0005808209 -0.0014029059 -0.87177777 0.066904463
553000000 -0.87463754 0.073491618 -0.00057241519 -0.001508582 0.00041113535 -0.00090157427 -0.87207216 0.067989826
554000000 -0.87407291 0.073094033 0.00026510662 -0.0012441364 0.00053801027 -0.00064710609 -0.87386107 0.064591005
555000000 -0.87477958 0.073493302 -3.7306127e-005 -0.0021125425 0.00042473679 -0.001608129 -0.87323231 0.068353027
556000000 -0.87436831 0.071988449 0.00042279676 -0.0010826985 -0.00045324559 -0.00030835264 -0.87313205 0.068445027
557000000 -0.8732391 0.073086306 0.00028537124 -0.00059458322 0.00017702406 -0.00036563326 -0.87196529 0.066992491
558000000 -0.8750385 0.073329352 -0.0011760351 -0.00054569944 5.1887375e-005 -0.0017779006 -0.87196082 0.068627305
559000000 -0.87431449 0.073528402 2.2382714e-005 -0.0014438127 -0.00057467533 -0.00064225291 -0.87363416 0.068562664
560000000 -0.87456399 0.072698317 -4.4435069e-006 -0.00092922075 0.00046114755 -8.9884661e-006 -0.87230277 0.067616113
561000000 -0.87354988 0.073757507 0.00045020317 -0.00042084072 -0.00039251338 -0.0010061341 -0.87312055 0.068034343
562000000 -0.8747111 0.073270939 0.00037997917 -0.0018109333 -0.0011183511 5.6969486e-005 -0.87280476 0.066330843
563000000 -0.87464136 0.073158525 9.7607168e-005 -0.00026176678 -0.00056199153 -0.001435675 -0.87236798 0.068210177
564000000 -0.87405419 0.073951893 2.6906848e-005 -0.0011337135 2.6764099e-005 -0.0018144586 -0.87165046 0.068768002
565000000 -0.87296605 0.073880501 -0.0012706405 -0.0014747077 -8.6842389e-005 -0.0010368337 -0.87199944 0.067288578
566000000 -0.87281024 0.072772019 -0.00039456735 -0.00091253524 -0.0005210634 -0.00079812214 -0.87198508 0.068021774
567000000 -0.87365204 0.072910316 -0.00034162504 -0.0010999137 0.00062754023 -0.0012547181 -0.87290138 0.068735905
568000000 -0.87322593 0.073094562 -7.8286132e-005 -0.00088882883 0.00061386445 -0.001792382 -0.87363476 0.068315394
569000000 -0.8730126 0.075120017 -0.00039240482 -0.0021936086 0.00017165481 -0.0014268077 -0.87126815 0.069623344
570000000 -0.87218094 0.073498994 0.00046232954 -0.0017162818 0.00024464374 -0.00078126683 -0.87313241 0.069466278
571000000 -0.87384021 0.074670695 -0.0011215372 -0.00042510935 -0.00017995681 -0.0017941698 -0.87285912 0.068033054
572000000 -0.8732397 0.074304186 0.00034087111 -0.0010784005 0.00071777351 -0.00093468104 -0.87174839 0.068829395
573000000 -0.87436414 0.074309461 -0.00030219994 -0.0014238954 2.7139422e-005 -0.0015984768 -0.87271982 0.071758248
574000000 -0.87234259 0.073783256 -0.00083149062 -0.0013286199 0.00056936004 -0.00099565252 -0.87297809 0.069664583
575000000 -0.87321281 0.073916487 0.00122179 -0.0018179793 -0.00093434122 -0.00025645207 -0.87291843 0.069435284
576000000 -0.87203246 0.073873207 -0.00021833432 -0.0019050976 7.1390205e-005 -0.0014273938 -0.87135392 0.069138214
577000000 -0.87446606 0.074116848 0.00032605566 -0.0015745192 0.00053495559 -0.00041377053 -0.87214088 0.069149032
578000000 -0.872967 0.073138729 -0.00072247797 -0.0017013067 -0.0010834865 -0.0012578542 -0.87104291 0.068695679
579000000 -0.87444407 0.076169506 0.00047096444 -0.00099921948 -9.5678821e-005 -0.001453234 -0.87446427 0.068724014
580000000 -0.87169808 0.073965214 0.00099386985 -0.0020134626 -0.00032590382 -0.0013323231 -0.87073988 0.070954718
581000000 -0.8720299 0.074265912 -0.00053905451 -0.0013672539 -0.00021876083 -0.00090742693 -0.87188905 0.068554051
582000000 -0.87214696 0.07456217 -0.0001025354 -0.0020014064 -0.00016282106 -0.0008948436 -0.87213206 0.070401512
583000000 -0.87386942 0.074508734 -0.00057649566 -0.00085562724 -0.00048459641 -0.0011172746 -0.87175274 0.069312148
584000000 -0.87227857 0.075421937 8.3723498e-005 -0.0013778603 -5.4634391e-005 -0.0012304514 -0.87310654 0.070142686
585000000 -0.87278759 0.075573526 0.00015783038 -0.00049688481 0.00028751642 -0.0020115559 -0.8717528 0.069767013
586000000 -0.8745178 0.074882016 -0.00071094313 -0.0015142291 0.00081360521 -0.00174893 -0.87215728 0.069021605
587000000 -0.87524462 0.07593406 0.00012067785 -0.0014404791 4.9079477e-005 -0.00064088567 -0.87169594 0.072477959
588000000 -0.87259215 0.075671084 -0.00085537368 -0.0010512813 -0.0017589887 -0.0013886335 -0.87316316 0.070981286
589000000 -0.87329793 0.075646281 0.00024537925 -0.0012317455 -0.00043146688 -0.0010363082 -0.87154001 0.071907707
590000000 -0.87457275 0.074818812 -0.00010455251 -0.0013207879 -0.0017402947 -0.00028313405 -0.870938 0.070739791
591000000 -0.87429059 0.075362243 -9.0445516e-005 -0.0013038029 -0.00055946538 -0.00076836842 -0.8722387 0.071369596
592000000 -0.87239045 0.076750465 6.7472974e-005 -0.0016005934 -0.0010593429 -0.0011971205 -0.87256885 0.070469089
593000000 -0.87264889 0.076758377 -0.0008134711 -0.0017121247 -5.5850414e-005 -0.0014311878 -0.87119651 0.070357256
594000000 -0.87094623 0.077181764 -0.00042806449 -0.00052933331 0.0001511498 -0.0012732726 -0.87268418 0.073674627
595000000 -0.87216169 0.078274712 -0.00024338764 -0.00096725067 0.00010825437 -0.0013114189 -0.87207085 0.071244046
596000000 -0.87248373 0.076249152 0.00039811086 -0.0005871288 -8.3980871e-005 -0.0014740854 -0.87222165 0.071685471
597000000 -0.8718487 0.077131957 -0.00033028424 -0.00084866059 -0.00016028086 -0.00055258418 -0.87204355 0.070707574
598000000 -0.87164348 0.07693202 -0.00095363671 -0.00042162251 -0.00011540758 -0.001192263 -0.87296414 0.071007229
599000000 -0.87344527 0.076557189 -0.00060530694 -0.0012616976 -0.00040028585 -0.0011080025 -0.87189925 0.072716482
600000000 -0.87344354 0.077973522 -0.00036960165 -0.0014000902 0.00096476619 -0.0015228665 -0.87128311 0.072146654
601000000 -0.87248749 0.077538997 -0.00027174942 -0.0010054795 0.00041636062 -0.0024863151 -0.87094486 0.07077875
602000000 -0.87331259 0.077947341 0.00026557894 -0.0013053998 -0.00028305894 -0.0019459694 -0.87191719 0.072313294
603000000 -0.87124366 0.076697931 0.00015453657 -0.0012531083 -0.00063883403 0.00015936527 -0.87105322 0.072353065
604000000 -0.87353939 0.078332372 0.00032868405 -0.00080637343 -0.00066559651 -0.001454402 -0.87154585 0.072385632
605000000 -0.87178689 0.078381091 0.00028146384 -0.0023467955 -0.00050816202 -0.00017209139 -0.87124705 0.072558932
606000000 -0.87246752 0.078361139 0.00037335555 -0.00092584483 -0.00085988449 -0.00086551358 -0.87159854 0.071192957
607000000 -0.87273598 0.078558058 -0.00054359721 -0.0012022301 -0.00094451819 -0.00070435152 -0.87220418 0.073061474
608000000 -0.87364489 0.079031609 0.00011020002 -0.0011067537 -0.00014515678 -0.00099798583 -0.87181944 0.073939934
609000000 -0.87219924 0.078383401 -1.3100153e-005 -0.001616726 -0.00057164178 -0.00063589978 -0.87206328 0.073106118
610000000 -0.8730523 0.080834948 -0.00090355333 -0.00095952529 8.8546185e-005 -0.00078874134 -0.87004656 0.073946394
611000000 -0.87236774 0.079132661 0.00025489449 -0.00088718056 -0.00015684434 -0.00062311778 -0.87248868 0.072983146
612000000 -0.87216693 0.080302723 1.1575035e-005 -0.0013281783 0.00010832734 -0.0024430852 -0.87138927 0.073655277
613000000 -0.87336707 0.079083331 0.00060692453 -0.0010940599 -0.00043007216 -0.00079736632 -0.87112057 0.072070189
614000000 -0.87215072 0.080605753 -0.00054521539 -0.00082566409 -0.00076490105 -0.00021464928 -0.87150526 0.073432691
615000000 -0.87135506 0.079025112 4.3480715e-005 -0.0017462405 -0.00079791481 -0.0017101291 -0.87196928 0.073476255
616000000 -0.87352538 0.081240192 -0.00047583407 -0.0010528413 -4.5949208e-005 -0.00052147964 -0.87233424 0.074468337
617000000 -0.87172019 0.081432834 -0.00095598772 -0.0015921969 -0.00072420685 -0.0015967542 -0.87277192 0.075178482
618000000 -0.87324089 0.081176631 0.00083218876 -0.0021043243 -0.0012176629 0.00013310886 -0.87187952 0.074681751
619000000 -0.87122726 0.082454041 -0.00011443417 -0.0015614608 0.00027959349 -0.0016237368 -0.8711499 0.075162172
620000000 -0.87268895 0.081322327 -0.00074544578 -0.001315859 -0.00026140333 -0.00045189259 -0.87272638 0.074287876
621000000 -0.8723709 0.082164988 0.00046865485 -0.0016135786 -0.00090033276 -0.00097896892 -0.8701281 0.075785384
622000000 -0.87154013 0.080722302 2.9467719e-005 -0.00079265784 0.00042535507 0.00019494677 -0.87199843 0.076901637
623000000 -0.87201667 0.081663869 -7.2127274e-005 -0.0012644895 -0.00080221391 -0.0013525032 -0.87116331 0.076212436
624000000 -0.87285846 0.082653776 0.00066169287 -0.00038128585 0.00040287571 -0.0013451417 -0.87158805 0.074991621
625000000 -0.87072301 0.083099857 -9.3022165e-005 -0.00080973277 -0.00022440839 -0.00046858692 -0.87213957 0.073574014
626000000 -0.87344611 0.084328465 -0.00010800658 -0.0017866151 1.1171274e-005 -0.00098464824 -0.87149107 0.075822502
627000000 -0.8734768 0.08326599 -0.00068097754 -0.0010783327 0.00038761398 -0.0014782018 -0.87160832 0.076141037
628000000 -0.87208277 0.083389863 -0.00014784365 -0.0018956709 -0.00069492526 -0.0026580538 -0.87243599 0.077303134
629000000 -0.87120408 0.083449759 -0.00022633417 -0.00030621042 -6.3859858e-005 -0.0023169173 -0.87337887 0.076101668
630000000 -0.8711251 0.082441367 -0.00034904343 -0.0023273109 0.00025426364 -0.0011527534 -0.87205225 0.078514583
631000000 -0.87157148 0.083121672 -0.00047662863 -0.0007876936 0.00026110804 -0.0018632204 -0.87145877 0.077323914
632000000 -0.87247467 0.083806112 -9.2170936e-005 -0.00095850136 -0.0013116779 -0.0019400708 -0.87130755 0.076455317
633000000 -0.8709088 0.084462732 5.2241692e-005 -0.00098329294 -0.0007405582 -0.00088265253 -0.87342882 0.075907037
634000000 -0.87254274 0.085087821 -0.00025714404 -0.0011643206 -0.00052627304 -0.0010979826 -0.87193805 0.077878527
635000000 -0.87158179 0.083917581 4.5606234e-006 -0.001226311 -0.00068095949 -0.0012691432 -0.87242758 0.076845095
636000000 -0.87199616 0.084312342 -0.00087830506 -0.0001746857 0.00031122542 -0.00072262489 -0.87033689 0.077208892
637000000 -0.87001932 0.084847614 0.00039278882 -0.0010153083 -0.00039021898 -0.00088702573 -0.87137055 0.075367182
638000000 -0.87205452 0.084568053 -0.00051256106 -0.0011768111 -0.00022612825 -0.0012115743 -0.87072951 0.077978931
639000000 -0.87214988 0.086037435 -0.00031930653 -0.001296369 0.00014338324 -0.0012354621 -0.86915654 0.077233173
640000000 -0.86990786 0.084674306 -0.00056507782 -0.0020794689 -0.0009111687 -0.0013756009 -0.87194437 0.077400781
641000000 -0.87276274 0.084531233 -6.4669824e-005 -0.0011277257 -0.00049865997 -0.00093348976 -0.87109089 0.078843884
642000000 -0.87252361 0.085331522 -0.0006268564 -0.0013298998 -0.0010180551 -0.0023405084 -0.87077725 0.076973781
643000000 -0.87086052 0.087471306 -0.00066811079 -0.001584494 -0.00062192034 -0.0015911605 -0.8697753 0.076683186
644000000 -0.8738203 0.086157456 -0.00042122844 -0.0011341417 -0.00069477409 -0.00067711651 -0.87033671 0.079183184
645000000 -0.87172276 0.084736176 0.0006147513 -0.001977663 -0.00078386784 -0.0011398821 -0.87174416 0.07739751
646000000 -0.87192476 0.087189429 -0.00048868003 -0.0011080048 0.00025660393 -0.0013609857 -0.87022507 0.077452399
647000000 -0.87045223 0.087335899 5.0818388e-005 -0.0010571858 -0.00059960852 -0.0011397463 -0.87059343 0.077458702
648000000 -0.87187564 0.087089397 0.00028946422 -0.00083211524 -0.00015097857 -0.00068693975 -0.87191683 0.08011084
649000000 -0.87113202 0.087360643 -0.00028332663 -0.00074878655 -0.00013311906 -0.0012143826 -0.87088734 0.078677282
650000000 -0.87174547 0.085252151 0.00013050099 -0.0014341652 -0.00064556487 -0.002423876 -0.87039614 0.078644931
651000000 -0.87067765 0.086011454 -3.7937989e-005 -0.0013095305 2.5150141e-005 -0.0012710125 -0.8710714 0.078688547
652000000 -0.87082505 0.085224777 -0.00043337757 -0.00059862447 0.00037602711 -0.001658772 -0.87134951 0.07792329
653000000 -0.87083226 0.088864319 -0.00070344098 -0.0018486865 -7.5558441e-005 -0.0018971924 -0.87034535 0.07833349
654000000 -0.87150544 0.08734186 0.00020833136 -0.00084322097 -0.00071194087 -0.00091669726 -0.87158448 0.079384312
655000000 -0.87133765 0.088278003 -0.00046269072 -0.0010601284 -0.00059650565 -0.0019419373 -0.87025362 0.078428186
656000000 -0.8715803 0.088464789 -0.00057734532 -0.000991676 3.32499e-005 -0.0021996326 -0.87214601 0.07860519
657000000 -0.8715089 0.088694572 0.00016673592 -0.0017974692 -5.3605636e-005 -0.0016802138 -0.870175 0.079078682
658000000 -0.87289208 0.088695072 -0.00011145716 -0.0015763895 -0.00019963109 -0.0005227637 -0.87097472 0.079344131
659000000 -0.87210387 0.088444754 -0.0010269808 -0.0010970734 -0.00015309121 -0.0016644023 -0.87054205 0.079853006
660000000 -0.871086 0.088377342 -0.00052134285 -0.0013614555 -0.0009954602 -0.0016004224 -0.86927265 0.080368407
661000000 -0.8707391 0.088028014 -0.00048557235 -0.0022964175 -4.1589265e-005 -0.00067258795 -0.87104321 0.079549976
662000000 -0.87057817 0.087899864 0.00018233345 -0.00018768529 0.00025005211 -0.0014464896 -0.87215853 0.0791483
663000000 -0.86995244 0.088926494 -0.00035101385 -0.0017197953 -0.0001282739 -0.0016525103 -0.86987388 0.07871177
664000000 -0.87118572 0.087587364 -0.00082241016 -0.0010884088 -0.00029758777 -0.00087983033 -0.87120515 0.080022134
665000000 -0.87234926 0.088647678 -0.000105184 -0.0012332896 9.8935867e-005 -0.0022754658 -0.87061805 0.079051808
666000000 -0.87182111 0.087543629 -0.00086200133 -0.0010868713 0.0010791795 -0.0022382436 -0.87088722 0.079770848
667000000 -0.87206537 0.089138605 -0.00056852645 -0.002245506 -0.00012958827 -0.0014187415 -0.87090451 0.079004742
668000000 -0.87164778 0.087006196 -0.0002282405 -0.0017753341 -6.5821492e-005 -0.00073000038 -0.86949086 0.079534873
669000000 -0.87133068 0.089397393 -0.00094635377 -0.0018830155 -0.00077468605 -0.00046457368 -0.87044239 0.077288918
670000000 -0.87220216 0.088160113 -0.00085806753 -0.0012997994 0.00052275381 -0.00061098835 -0.87049645 0.080429025
