!Keysight Technologies,M9374A,MY55442783,A.12.55.05
!Date: Thursday, May 20, 2021 17:54:45
!Correction: S11(Full 2 Port(1,2)) 
!S21(Full 2 Port(1,2)) 
!S12(Full 2 Port(1,2)) 
!S22(Full 2 Port(1,2)) 
!S2P File: Measurements: S11, S21, S12, S22:
# Hz S  RI   R 50
500000000 -0.87376273 0.067839891 0.00020422864 -0.0007660198 0.00067434 -0.0013298691 -0.87244487 0.062373608
501000000 -0.87237144 0.067685001 -0.00092475879 -0.00057810656 -0.00046275504 -0.00059415464 -0.87219292 0.062978171
502000000 -0.87200773 0.067404523 0.00030681412 -0.002306483 -0.00031944609 -0.001263609 -0.8735745 0.06116375
503000000 -0.87269217 0.067462452 0.00064975611 -0.00091908273 0.00025042822 -0.0012619933 -0.87181801 0.060602151
504000000 -0.87209153 0.06880445 0.00038614077 -0.0025251212 -2.354315e-006 -0.00012121564 -0.87224108 0.061979193
505000000 -0.87267649 0.067218244 -0.00018414947 -4.3674798e-005 2.6909305e-005 -0.0025375374 -0.87239057 0.061329652
506000000 -0.87300771 0.067755774 0.00027062901 -0.0002113982 -0.00064169685 -0.0010068312 -0.87246394 0.062883988
507000000 -0.87131363 0.066719361 -0.00022119794 -0.0012590131 0.00035941132 -0.0010431735 -0.87257349 0.06250412
508000000 -0.87272733 0.068052195 0.00043017461 0.00079386611 0.0002985156 -0.0012003388 -0.87247819 0.062998205
509000000 -0.87430477 0.069137581 0.00043125564 -0.00022279473 -0.00013100976 -0.00078913604 -0.87076366 0.064895436
510000000 -0.87368393 0.069200709 -0.0013523526 -0.0020569253 -0.00053802365 -0.0011222026 -0.87309486 0.063105196
511000000 -0.87068868 0.07033325 -0.00054736197 -0.00048751538 0.00029978962 -0.0014588814 -0.87201548 0.064552046
512000000 -0.87073785 0.068986915 -0.00030174616 -0.00093504961 -0.00088369462 -0.0009359605 -0.8715257 0.064854108
513000000 -0.87252998 0.067885876 -0.00053188554 -0.00039010221 0.00043745287 -0.0010076042 -0.87139148 0.06214999
514000000 -0.87231815 0.069655076 0.00056627678 -0.0010705595 0.00077090488 -0.0010495114 -0.87116182 0.064531326
515000000 -0.87186545 0.069359615 1.5113535e-005 -0.00080098608 0.00079560961 -0.00097311323 -0.87221771 0.064474277
516000000 -0.87100297 0.070254304 0.0014671149 -0.0010342242 -0.00037359961 -0.0018160373 -0.8718155 0.065902598
517000000 -0.87318879 0.070868962 -0.00033899653 -0.0012012434 -0.00046574685 -0.0020901016 -0.87108082 0.063713185
518000000 -0.87160873 0.070675597 -0.00031128083 -0.00097393902 -0.00032173091 -0.0012795315 -0.87238085 0.064696401
519000000 -0.87128937 0.070878573 -0.0014930661 -0.00074389257 0.00069542858 -0.0006640238 -0.87353194 0.064638406
520000000 -0.8720749 0.071905576 0.00031043543 -0.00073622359 0.00053061679 -0.0020281549 -0.87121218 0.064889863
521000000 -0.87038761 0.071436696 -0.00015787533 -0.0012116529 -3.8158239e-005 -0.0011658481 -0.87233377 0.064579479
522000000 -0.87318778 0.071211465 -0.00013313361 -0.00082872203 -0.00070677255 -0.0021421581 -0.87096572 0.066212729
523000000 -0.87190938 0.070118941 0.00034623366 -0.00070487504 -0.0007623625 -0.00098319736 -0.87247288 0.064998776
524000000 -0.87202501 0.071050845 -0.00091984181 -0.0018531178 -0.00087918632 -0.0012757616 -0.87215006 0.06630744
525000000 -0.87133175 0.070379607 -0.0012154673 -0.0019330726 -0.0010625973 -0.00095111126 -0.87157267 0.065654725
526000000 -0.87106031 0.071954109 0.00012308109 -0.0026114846 0.0013565203 -0.0010240797 -0.87256563 0.067361437
527000000 -0.87194288 0.072464749 -0.0014465355 -0.000378517 -0.00013858582 -0.0019705361 -0.87224138 0.065739319
528000000 -0.87090099 0.073989049 -0.00060251419 -0.0015803745 -8.1376915e-005 -0.0006356184 -0.87032408 0.067145079
529000000 -0.87050134 0.072119139 -0.00042522387 -0.0017342848 -0.00028883974 -0.0018264696 -0.8704893 0.067184955
530000000 -0.87189496 0.072998218 0.0001153213 -0.00098037673 0.00061161473 -0.0008842625 -0.87155688 0.067852214
531000000 -0.87288982 0.071722567 -0.0003585956 -0.00085117458 0.00094274088 -0.00065674074 -0.87224728 0.066754915
532000000 -0.87110138 0.07253971 0.00091007428 -0.0015718233 -0.00021208003 -0.00083651277 -0.87191522 0.066837043
533000000 -0.8714422 0.071546979 -0.00014579772 -0.0010753199 -0.0014919371 -0.00038037743 -0.87033951 0.067608707
534000000 -0.87221199 0.071819611 -0.00048424539 -0.00017696877 -0.00084237073 -0.0013365417 -0.87227529 0.066584729
535000000 -0.87098998 0.072589666 -0.00055443379 -0.0015252721 0.00062107766 -0.00066837465 -0.87118942 0.06720382
536000000 -0.86941206 0.072273672 -0.00031211649 -0.0011561665 -0.00059501344 -0.0010463299 -0.87191349 0.066508554
537000000 -0.87097919 0.071240701 -0.0003350153 -0.0012646021 -0.00010650126 -0.00034459296 -0.87270284 0.067612268
538000000 -0.87361336 0.072758071 -0.0011530746 -0.0010128212 8.5117346e-005 -0.00038267599 -0.87234235 0.066929489
539000000 -0.87116975 0.072215036 -0.00060078671 -0.0021199677 -0.00071766152 -0.0013872666 -0.87361592 0.068482503
540000000 -0.87149423 0.07327003 5.210669e-005 -0.0013134785 0.00026014313 -0.0011628474 -0.87228173 0.068186313
541000000 -0.87152249 0.073064335 -0.0007668765 -0.0007210683 -0.0008364704 -0.0015555003 -0.87171638 0.067989126
542000000 -0.87021518 0.073991589 0.0006639206 -0.0010655193 -0.00049280096 -0.00097669777 -0.8723157 0.068267778
543000000 -0.8703506 0.073611781 -0.00010430012 -0.00095382787 -0.00059316185 -0.0010858249 -0.87235439 0.0684008
544000000 -0.87221706 0.072864905 -0.0015368096 -0.0012681934 0.00010121766 -0.00046136035 -0.87143415 0.067936927
545000000 -0.87178636 0.073075086 -0.00030268467 -0.0010820448 -0.00061035127 -0.00089380587 -0.87052572 0.068012431
546000000 -0.87208247 0.074024729 -4.7998594e-005 -0.00052457827 0.00032478833 -0.0010532133 -0.87218171 0.067388795
547000000 -0.87130505 0.074562363 -0.00024118047 -0.00045571043 -0.00019057206 -0.00066141051 -0.87115067 0.068322219
548000000 -0.87166649 0.073090062 -0.00041875042 -0.0015663052 -0.00042483659 -0.0015013365 -0.87173599 0.067350678
549000000 -0.87124455 0.0734687 -0.00029995749 -0.0014554542 -0.00088942575 -0.0011245591 -0.86927354 0.069847122
550000000 -0.86985368 0.074774384 -0.00011222823 -0.00071855501 -2.079045e-005 -0.0013924303 -0.87220621 0.07034307
551000000 -0.87189353 0.072270811 -0.00078911765 -0.0010767367 0.00010638709 -0.001458956 -0.87062532 0.068082392
552000000 -0.87205189 0.072899751 -0.00044903523 -0.0005599311 -0.0005090998 -0.001001899 -0.87221211 0.068535507
553000000 -0.87230027 0.074130274 -0.00045768393 -0.00038606697 0.00030794524 -0.0020646311 -0.87367523 0.067954913
554000000 -0.87135845 0.074905254 -0.00038308016 -0.0010667014 -0.00078574591 -0.0013061716 -0.87014496 0.06895785
555000000 -0.87111259 0.073098533 0.00019506953 -0.0013638148 -0.0003813598 -0.0014304672 -0.87169367 0.069386378
556000000 -0.86974013 0.07454963 0.00029121648 -0.001435831 0.00054379477 -0.0012949624 -0.87179875 0.069646001
557000000 -0.87095225 0.072761834 -0.00095436891 -0.0005298949 -0.00020951171 -0.0016019901 -0.87156039 0.070405528
558000000 -0.87183684 0.073879294 -0.00038764827 -0.0022498011 0.00055489008 -0.0013229965 -0.87091994 0.069883741
559000000 -0.87206596 0.074167147 6.3726671e-005 -0.0010344116 0.00054291263 -0.001435283 -0.87022173 0.070198849
560000000 -0.87212062 0.07389497 -0.00076377124 -0.0013548713 0.00031293865 -0.00063781586 -0.87146044 0.06989827
561000000 -0.87177187 0.076286525 0.00051867287 -0.0014992869 -0.00049106212 -0.0015645549 -0.87137687 0.069198817
562000000 -0.86938995 0.075296134 0.00053933496 -0.0015536756 -0.00054967823 -0.0015642953 -0.87336051 0.069198303
563000000 -0.87275082 0.075198136 6.8574576e-005 -0.0013584513 -0.00022944517 -0.0010276415 -0.87196571 0.070086509
564000000 -0.87055546 0.074452855 0.00021303573 -0.0015102436 -1.7650447e-005 -0.00091996411 -0.87173092 0.068115763
565000000 -0.87160414 0.074901618 0.00020847769 -0.0017762351 3.429842e-005 -0.00068978599 -0.87066907 0.068325229
566000000 -0.87178558 0.074767306 0.00086181221 -0.0010412661 -0.0013700278 -0.00093219656 -0.87031823 0.06958653
567000000 -0.87101704 0.07485003 -0.00071835972 -0.0015955679 3.9990638e-005 -0.00066684454 -0.87272143 0.068666264
568000000 -0.8690033 0.074713811 -0.001423204 -0.0014893772 3.1381274e-005 -0.00045484607 -0.87247866 0.069008097
569000000 -0.87040162 0.074649222 0.00094331859 -0.00077680236 0.00046671022 -0.0015565273 -0.87326729 0.070854098
570000000 -0.86863178 0.075537987 -0.00039747142 -0.0012068548 0.00018348414 -0.00081122044 -0.87147492 0.070540816
571000000 -0.8710959 0.073678806 0.0013826492 -0.001630375 0.00037054857 -0.00089012302 -0.87296838 0.070926949
572000000 -0.86993617 0.074263923 -0.00094631506 -0.001108571 4.4521184e-005 -0.00062292296 -0.87026507 0.069474749
573000000 -0.87000036 0.076268673 -0.00054156297 -0.00049311237 -0.0010370447 -0.00042573531 -0.87109369 0.070261873
574000000 -0.86986703 0.074850276 4.4777575e-005 -0.0012614578 0.0004475587 -0.0019321634 -0.87166739 0.072388075
575000000 -0.8698405 0.075542234 -0.002334245 -0.0016786993 -0.00064731512 -0.00010219192 -0.87365556 0.070088282
576000000 -0.86982226 0.075468376 -5.4011063e-005 -0.00015997486 0.00039280963 -0.0011875032 -0.87102824 0.070776395
577000000 -0.87042856 0.075730644 0.0010398634 -0.00065970269 0.00024485565 -0.0015817869 -0.87235934 0.070346162
578000000 -0.87144661 0.075785682 9.0292182e-005 -0.0010965549 -0.00037062186 -0.00062287581 -0.87005454 0.070536166
579000000 -0.87084174 0.075374044 0.00065328309 -0.0010088728 -0.00053524517 -0.0014670792 -0.87293971 0.070682198
580000000 -0.86997843 0.075453632 -0.00081294525 -0.0014185829 0.00081337977 -0.00055246928 -0.87148988 0.072196938
581000000 -0.87131184 0.074400701 -0.00091090484 -0.0010965648 0.00053685054 -0.00016720161 -0.87286043 0.070771717
582000000 -0.86953163 0.078824438 0.00046785129 -0.0010281673 -0.00062240881 -0.0014851778 -0.87323231 0.072052069
583000000 -0.86977458 0.077371344 0.00026122577 -0.0014851474 -0.0010404594 -0.0010696691 -0.8717497 0.071483001
584000000 -0.8696413 0.07518173 -0.00045497893 -0.0011290633 0.00067257398 -0.00068914605 -0.87272853 0.072169639
585000000 -0.87062246 0.077047862 0.00022882319 -0.00097642542 -6.3350701e-005 -0.0018990333 -0.87096584 0.06997861
586000000 -0.87164444 0.076978445 -0.00037893027 -0.0027129389 0.00016655383 -0.0011579779 -0.87211025 0.072574839
587000000 -0.87034369 0.076028332 -0.00028713711 -0.0015742597 -0.00051178335 -0.0014815566 -0.87240911 0.072686404
588000000 -0.87027085 0.077321596 0.0002767875 -0.00097072695 -0.00083071651 -8.7457438e-006 -0.86956543 0.071140319
589000000 -0.87105733 0.077645443 0.00031084067 -0.00040930838 0.00030015819 -0.00014230251 -0.87131339 0.071810633
590000000 -0.87059796 0.076789871 -0.00026166017 -0.0012040687 -3.7887407e-005 -0.0015597439 -0.87148994 0.07176882
591000000 -0.87000805 0.076492682 2.0547835e-005 -0.0012243916 -0.00010647445 -0.0026620477 -0.87281859 0.072244346
592000000 -0.87117004 0.076451808 1.5057629e-005 -0.00098559214 -0.0010004339 -0.00084659684 -0.87220895 0.072068326
593000000 -0.87184417 0.076995425 -0.00010281419 -0.00063400558 -3.3216907e-005 -0.00085156155 -0.87199426 0.072718166
594000000 -0.86991143 0.076290183 -0.00092375505 -0.0009797297 7.5958647e-005 -0.0016877089 -0.87292409 0.073376395
595000000 -0.86973858 0.076063894 -0.0010751442 -0.0016013187 -6.9247573e-005 -0.0014558687 -0.87060094 0.073576376
596000000 -0.86912978 0.078848749 0.00018892549 -0.00097751117 0.0001710809 -0.0015779972 -0.87029916 0.072800547
597000000 -0.86911434 0.079263523 -0.00012472607 -0.0019445083 -0.00025166437 -0.0011804687 -0.87203997 0.073456347
598000000 -0.87058073 0.077975124 -0.00040725403 -0.00085042184 -0.00015880939 -0.0025421442 -0.87155473 0.075013891
599000000 -0.87038344 0.078238718 0.00023333321 -0.0018856423 0.00012671176 -0.0018645945 -0.87065572 0.072690152
600000000 -0.86944669 0.078791521 -0.0012943669 -0.00099402235 0.0002169154 -0.0015087385 -0.87173623 0.07372997
601000000 -0.87062955 0.080591984 -0.0010620765 -0.0013909998 -0.00069003791 -0.00080306275 -0.87143767 0.073315307
602000000 -0.86913055 0.077687837 -0.00096419005 -0.0013843618 -0.00071335497 -0.0011767918 -0.87230492 0.07498955
603000000 -0.86984676 0.079045445 0.00051200407 -0.00093051081 -0.0012121764 -0.00045584628 -0.87232226 0.07356362
604000000 -0.86998975 0.080129683 0.00062162487 -0.0020902073 0.00031949152 -0.0010212302 -0.87021029 0.074173778
605000000 -0.87193447 0.080057494 -0.00038664311 -0.00085930317 -0.00056499202 -0.00079562777 -0.8713392 0.073317669
606000000 -0.87093091 0.079752848 -0.00024776123 -0.0013253447 -0.00056458969 -0.0020979149 -0.86964595 0.075414948
607000000 -0.87066817 0.080344394 -0.00050811045 -0.0010676379 -0.00059219904 -0.0008644911 -0.87026989 0.073847152
608000000 -0.86948466 0.079519391 -0.0011364137 -0.00087933184 0.00017682556 -0.0018909296 -0.87059909 0.074656852
609000000 -0.86963046 0.080836907 -0.00033117979 -0.0014778399 -0.00083003141 -0.0014603367 -0.87052882 0.075813562
610000000 -0.87022096 0.079721741 0.00033869897 -0.0017240496 -0.0011950809 -0.0011941412 -0.86978632 0.075585276
611000000 -0.86880553 0.081086785 -0.00042512492 -0.00089982367 0.00015603885 -0.0011171405 -0.87069488 0.075642422
612000000 -0.86868107 0.083027206 -0.00078024779 -0.0013948567 -0.00054321846 -0.00077855762 -0.87295705 0.076552235
613000000 -0.86861986 0.080647223 4.4998902e-005 -0.00011633237 -0.0005772764 -0.0013921564 -0.86955333 0.075253054
614000000 -0.87063539 0.080633156 0.00068686547 -0.0012673764 -0.0010825908 -0.0006616356 -0.87197238 0.074543595
615000000 -0.86958957 0.082529537 0.00026031773 -0.00079870707 0.00031111063 -0.0023298773 -0.86928481 0.074021325
616000000 -0.86943722 0.082170613 -0.001860201 -0.00063138932 -0.00090103952 -0.0010626523 -0.86914653 0.075608455
617000000 -0.86833924 0.08164718 -0.00037213779 -0.0010754198 0.00043973519 -0.0017582204 -0.87158042 0.076230399
618000000 -0.86893719 0.083038487 -0.00010119632 -0.0012454448 -0.00050175824 -0.0015311312 -0.87062669 0.075087994
619000000 -0.87059909 0.082026877 0.00032840238 -0.0011875499 -0.0001873674 -0.0014757595 -0.86962968 0.076784194
620000000 -0.86766726 0.085399196 -0.0005301545 -0.0011108082 -0.00052793114 -0.0014514312 -0.86948955 0.07566417
621000000 -0.86925268 0.084103033 -0.00073521538 -0.00025118823 -0.00094777602 -0.0015759936 -0.87166131 0.07662233
622000000 -0.86902487 0.083602324 -0.00065531576 -0.0014053967 -7.0850663e-005 -0.001616981 -0.86986053 0.07584396
623000000 -0.86857873 0.085010596 0.00022882185 -0.00041113442 9.5651965e-005 -0.0014752618 -0.8708685 0.077550992
624000000 -0.87083006 0.083858587 0.0002214284 -0.00016209339 -0.00020398783 -0.0011174327 -0.87144828 0.077204213
625000000 -0.86882079 0.083845109 -0.00077988027 -0.001602313 -0.00042253573 -0.0015167822 -0.86856848 0.077293366
626000000 -0.87087214 0.083106786 0.00022252751 -0.00054082548 0.00084100541 -0.0010687782 -0.86974508 0.078894421
627000000 -0.86832845 0.085396186 0.00042645109 -0.0017909392 0.00011482163 -0.0016345775 -0.8715806 0.077409998
628000000 -0.86906201 0.083702594 -0.00083426363 -0.0019589288 -0.00067687791 0.00011826599 -0.87150872 0.077649929
629000000 -0.86780334 0.085617013 -0.00015398346 -0.0012852787 0.00086388679 -0.0012732723 -0.87089348 0.076855861
630000000 -0.8701396 0.08415141 0.00039673285 -0.0013434445 -0.00020009774 -0.00019496873 -0.87123543 0.078858308
631000000 -0.87030685 0.085209779 0.00047404118 -0.00099274062 -0.00020247813 -0.00091230241 -0.87135863 0.078951836
632000000 -0.87019408 0.083807647 -0.00019718533 -0.00064287992 0.00045314318 -0.0008544813 -0.87042964 0.077021658
633000000 -0.86873114 0.085440807 -0.00035423684 0.0001542543 -0.001116588 -0.0012848187 -0.87185895 0.078959137
634000000 -0.86790329 0.087003306 -4.5935787e-005 -0.0014662911 7.2299124e-005 -0.00051754626 -0.87026685 0.078265429
635000000 -0.86826843 0.084829599 0.0012259134 -0.00062984391 -0.00033456908 -0.0011030944 -0.86970967 0.078255348
636000000 -0.86878216 0.085891701 -0.00050279248 -0.00058019388 -0.00023299208 -0.0018018263 -0.87159818 0.078559235
637000000 -0.870327 0.086873598 -0.00027704236 -0.0018140976 -0.00010728452 -0.0019825632 -0.87044597 0.078604013
638000000 -0.86846852 0.08747109 0.00047904332 -0.0014324925 -0.00069266226 -0.0011597318 -0.87032527 0.078272358
639000000 -0.87002987 0.087509386 -0.0009866883 -0.00083470048 -5.9203896e-005 -0.0010047887 -0.86904174 0.079436399
640000000 -0.86882901 0.087090731 -0.00077437551 -0.0020213069 0.00095962849 -0.00086719572 -0.8697437 0.078947656
641000000 -0.86858422 0.08690346 -0.00074456661 -4.6502002e-005 1.6041546e-005 -0.0013567122 -0.87019473 0.079992965
642000000 -0.8684724 0.088028364 0.00056084641 -0.0019591267 1.4894737e-005 -0.0023535441 -0.8694647 0.079077594
643000000 -0.86888689 0.087387957 -0.00091059721 -0.0013524356 -0.00043503227 -0.0015277662 -0.86913443 0.079513706
644000000 -0.86806887 0.08772587 -0.00033015333 -0.00033893509 -8.7398745e-005 -0.0016927421 -0.87189871 0.08016938
645000000 -0.86976188 0.086576611 -0.00015077426 -0.0022966838 0.0002668568 -0.001309938 -0.87105995 0.079159819
646000000 -0.86938334 0.08937189 0.00033147616 -0.001578067 6.9577749e-005 -0.00098834198 -0.86940837 0.080587365
647000000 -0.8688392 0.0871251 -0.0001453061 -0.0016867396 0.00043170564 -0.00077319739 -0.87011129 0.079543948
648000000 -0.86863405 0.088490412 -0.00021932475 -0.0016758925 0.00097958103 -0.00076499325 -0.87022388 0.08064194
649000000 -0.86989939 0.08761932 0.00034743946 -0.0016036198 -0.00037112823 -0.0014040236 -0.87141985 0.081757739
650000000 -0.86800468 0.088343501 -0.00086303096 -0.00091009587 0.0010501323 -0.00070505321 -0.87092072 0.080296427
651000000 -0.86904293 0.088266037 0.00010057168 -0.0019210156 0.00027985568 -0.0013549954 -0.8707962 0.078238614
652000000 -0.86840063 0.088455819 -0.00013728013 -0.0010900666 0.00055610231 -0.00099448254 -0.87003499 0.079269618
653000000 -0.86783141 0.0878065 0.00013885333 -0.0010751412 -0.00088465062 -0.0014345449 -0.86915296 0.078508168
654000000 -0.86826211 0.089399889 0.00036256397 -0.0018517761 -0.00078290032 -0.00084061077 -0.8712883 0.080121927
655000000 -0.8682009 0.088298716 0.00086647779 -0.0014866586 0.00050755398 -0.002605428 -0.87107468 0.081539422
656000000 -0.86994189 0.090695843 -0.0001072834 -0.0011389375 -0.00057107187 -0.0016801036 -0.86986369 0.080763847
657000000 -0.86978912 0.089437947 -0.00097457255 -0.0026137468 -0.00077293982 -0.00099037169 -0.87054771 0.080131233
658000000 -0.86981791 0.090226188 -0.00023652008 -0.00099292642 -0.0007086054 -0.0010797902 -0.87008089 0.079963773
659000000 -0.8694731 0.089361168 -0.00039612269 -0.00021074401 -0.00053336675 -0.001651592 -0.86915946 0.080329001
660000000 -0.869183 0.089790344 -0.0010208052 -0.0018400936 -0.00044346254 -0.001607493 -0.86870098 0.081986621
661000000 -0.86930835 0.08928889 -0.00043397248 -0.0020230422 0.00091648678 -0.0011761138 -0.87000942 0.080747008
662000000 -0.86808634 0.089990512 -0.00028678967 -0.00051709817 0.00021858685 -0.00269655 -0.87119275 0.081071213
663000000 -0.86904711 0.088526711 -0.00062320178 -0.00094581285 -0.0013488629 -0.0019369471 -0.87014097 0.080263585
664000000 -0.86819768 0.087875269 -0.0010431475 -0.002062547 -0.00098786852 -0.0016874699 -0.86974698 0.080862314
665000000 -0.86957002 0.090012528 -0.00095009478 -0.001765908 -0.00070619234 -0.0017190395 -0.87028384 0.080744661
666000000 -0.86835951 0.088147528 -0.00059800094 -0.0003390701 -0.00074463611 -0.0014496577 -0.87021488 0.078916147
667000000 -0.86842549 0.088903695 -0.00078437396 -0.0025637781 -6.1139232e-005 -0.00080088206 -0.87025756 0.081279188
668000000 -0.87042624 0.089606561 0.0010494944 -0.0017927466 -0.00020591321 -0.0020211956 -0.87115258 0.080404192
669000000 -0.87053144 0.089582697 0.0007591949 -0.001373955 2.7940452e-005 -0.0016995606 -0.86952138 0.082303233
670000000 -0.86955845 0.089533858 -0.00096342503 -0.0016104659 0.0007860068 -0.001130365 -0.87039256 0.082128249
