!Keysight Technologies,M9374A,MY55442783,A.12.55.05
!Date: Thursday, May 20, 2021 17:48:18
!Correction: S11(Full 2 Port(1,2)) 
!S21(Full 2 Port(1,2)) 
!S12(Full 2 Port(1,2)) 
!S22(Full 2 Port(1,2)) 
!S2P File: Measurements: S11, S21, S12, S22:
# Hz S  RI   R 50
500000000 -0.87449098 0.069017954 -0.00040096059 -0.001136492 -0.00064735126 -0.0010429876 -0.8713277 0.063149989
501000000 -0.87390262 0.069825515 -0.00049280265 -0.0012373807 0.00045640455 -0.0019114214 -0.87136811 0.062982783
502000000 -0.87534541 0.069093421 0.00024730444 -0.0013408783 0.0002133227 -0.0010028516 -0.87210286 0.064490393
503000000 -0.87517345 0.070314303 -0.00085802918 -0.0015954687 -0.00025156434 -0.00068621995 -0.87264448 0.061517119
504000000 -0.87460434 0.069177181 -0.00030693287 -0.00090230891 -6.3596475e-005 -0.00098809879 -0.87170041 0.0646066
505000000 -0.8744756 0.068862341 -0.00076282787 -0.00044018103 -0.00029109823 -0.0018206785 -0.87190813 0.063301541
506000000 -0.8744691 0.069957621 0.00035749073 -0.0011830654 -0.00027074502 -0.001929304 -0.87185365 0.063238055
507000000 -0.87381601 0.070202656 -5.0755043e-005 -0.0010278008 -0.00036937464 -0.00061632035 -0.8713029 0.065725073
508000000 -0.87455833 0.06986504 8.129207e-005 -0.0016793328 -0.00081042916 -0.0014479554 -0.87133414 0.063893028
509000000 -0.87392539 0.070692658 -0.0012203576 -0.00087617291 5.5284912e-005 -0.0015967004 -0.87322682 0.065098226
510000000 -0.87501568 0.070154652 0.00089914579 -0.0013049642 -0.00042975441 -0.0017270073 -0.87054801 0.064648114
511000000 -0.87583882 0.070719443 -0.00033771223 -0.00125272 0.00015346326 -0.0011527737 -0.87085122 0.065962009
512000000 -0.87380129 0.071373887 -0.0013844538 -0.001759286 0.00019896898 -0.0015785234 -0.87047184 0.06400466
513000000 -0.8748951 0.069847658 0.00037324015 -0.00065445073 -0.00037095961 -0.00099993381 -0.87207872 0.065908201
514000000 -0.87422442 0.072879113 0.00017982241 -0.00067173713 -0.00015476379 -0.0014093309 -0.87308407 0.063942403
515000000 -0.87430429 0.07012333 -0.00028645736 -0.0018768213 -0.00050009164 -0.0012562514 -0.87206 0.065448061
516000000 -0.87378913 0.072128363 -0.00098765176 -0.00083200861 -0.00034909107 -0.00061165012 -0.87185055 0.065739773
517000000 -0.87449187 0.072845437 -0.0006414848 -0.0015087486 3.8991089e-005 -0.00088705553 -0.87013936 0.065638505
518000000 -0.8741495 0.073281631 -0.00031393155 -0.0013549388 0.00031782096 -0.0017648962 -0.87053734 0.065695792
519000000 -0.87428159 0.070869625 -0.00048185253 -0.0019964592 -0.00033158212 -0.0016507718 -0.87183374 0.066301316
520000000 -0.87248802 0.073093787 0.00097826647 -0.0015589308 -0.0004012537 -0.0002693526 -0.87186223 0.066256404
521000000 -0.87472636 0.07320983 -0.00027888562 -0.00074891612 0.00071533216 -0.00045576863 -0.87111503 0.06686677
522000000 -0.87511194 0.07383544 -0.00016450531 0.00014411722 0.00070061255 -7.1302748e-005 -0.8709079 0.068045542
523000000 -0.87454909 0.072213329 0.00035959014 -0.00011850041 -8.4482184e-005 -0.00091164402 -0.87110507 0.066816747
524000000 -0.87327129 0.072563715 -0.00069562247 -0.0015315186 -0.00059418159 -0.0014240922 -0.87247872 0.065892339
525000000 -0.87379587 0.07323537 -0.00049830286 -0.0016574294 -0.00091759115 -0.00039021057 -0.87195611 0.065899074
526000000 -0.87361401 0.073841631 0.00066939107 -0.0022773962 -0.00051088544 -0.00068421435 -0.87174749 0.067332245
527000000 -0.8743704 0.075081445 -0.00079985755 -0.0017127546 0.00099611911 -0.00094088388 -0.87249374 0.065645345
528000000 -0.87319815 0.074830465 -0.00085496291 -0.00030406719 -0.00010122625 -0.00039152749 -0.87019342 0.068465851
529000000 -0.87418664 0.073976383 0.0002747555 -0.0012736742 -0.00052919029 -0.0014067154 -0.87075299 0.068770856
530000000 -0.8735128 0.075441763 -0.00067102455 -0.0012060457 -0.0006885624 -0.0011847375 -0.87197191 0.066878445
531000000 -0.87372559 0.074566342 -0.0013324276 -0.0011219031 0.00053045689 -0.00065724715 -0.87202907 0.069030963
532000000 -0.87347656 0.073626049 -0.00088883925 -0.00073322823 0.0002673344 -0.0010806789 -0.87324315 0.068436109
533000000 -0.87399715 0.073270455 -0.00021961326 -0.0019248478 -0.00096288457 -0.00093082484 -0.87127197 0.069396019
534000000 -0.87324792 0.073536769 -2.2564571e-005 -0.00078931364 -0.00057341874 -0.00067988987 -0.87189555 0.068607621
535000000 -0.87349582 0.0745309 -0.00039249283 -0.00253005 0.00015783848 0.00043226985 -0.87132466 0.067803971
536000000 -0.87346375 0.074435703 0.00031137798 -0.0015273819 0.00044453074 -0.00065976242 -0.87010223 0.067885488
537000000 -0.87383199 0.074288413 -0.00031881014 -0.0015302741 -0.00080152857 -0.0016440288 -0.87111622 0.068693317
538000000 -0.87465519 0.073654428 1.3893994e-005 -0.001311435 -0.0001447316 -0.00086651952 -0.871234 0.068878002
539000000 -0.87367064 0.073731124 0.00025537057 -0.00047755483 -0.00021636888 -0.00022631156 -0.87032109 0.069299914
540000000 -0.87317842 0.074760668 -0.00056610204 -0.0012737318 -0.00082968967 -0.00082793459 -0.87153965 0.070728958
541000000 -0.87272364 0.07515043 0.00040984413 -0.0013594812 -0.00053759495 -0.00096266082 -0.87258846 0.069812812
542000000 -0.87423462 0.073924601 -0.0003385116 -0.0014928494 0.00028339023 -0.0013746935 -0.87004274 0.070106998
543000000 -0.87328529 0.075201876 0.000185023 -5.9205402e-005 -0.00033892773 -0.00035741093 -0.87239057 0.070065975
544000000 -0.87243861 0.074518062 0.0004300474 -0.00069508742 -0.00055244489 -0.00085563265 -0.87377179 0.069132768
545000000 -0.87407637 0.074697509 -0.00026563997 -0.00094672886 -0.00024460163 -0.001428217 -0.86991781 0.070053786
546000000 -0.87255239 0.075711124 0.00044412026 -0.0016768492 9.6179785e-005 -0.001955824 -0.8713966 0.0710169
547000000 -0.87357503 0.076735638 0.0005819911 -0.0016858017 -0.00014717829 -0.0010483668 -0.87255478 0.069552004
548000000 -0.87285101 0.075770617 0.00045716224 -0.0005134393 -0.0010226375 -0.00071168004 -0.870848 0.070279345
549000000 -0.87315911 0.076361701 -0.00025106291 -0.0019240266 -0.0003621394 -0.0018766974 -0.87051696 0.070971921
550000000 -0.87451857 0.076473422 -3.7224585e-005 -0.00057251006 -0.00052685902 -0.0013425419 -0.87064397 0.070744112
551000000 -0.87354392 0.074679069 0.0012900004 -0.00089449115 -0.00061459711 -0.00090916344 -0.87003911 0.071215697
552000000 -0.87425357 0.076162644 0.00018142693 -0.00074605568 0.0004734511 -0.0012536211 -0.87025934 0.070666157
553000000 -0.87368959 0.076263823 -0.0007983963 -0.0014128699 -6.787548e-005 -0.00069255749 -0.87038571 0.07075984
554000000 -0.87460124 0.075263724 -0.00014597416 -0.00018400191 0.00025085435 -0.00052120729 -0.87228423 0.070394486
555000000 -0.87361574 0.076474018 -0.00057902647 -0.0011819296 -0.00028485109 -0.0019681591 -0.8714717 0.070434034
556000000 -0.87286198 0.07625328 0.0011779595 -0.0017766953 0.00038544263 -0.00034933025 -0.87180376 0.071518637
557000000 -0.87444919 0.075826026 -0.00077872642 -0.000884315 -0.0009352967 -0.00073041266 -0.87032169 0.070058055
558000000 -0.87314355 0.074731737 -0.00077865255 -0.00070610212 0.00011916096 -0.0017210236 -0.8734867 0.070924483
559000000 -0.87448937 0.075986862 -0.0010186054 -0.0013373871 0.00043606153 -0.00089365517 -0.87173939 0.072550781
560000000 -0.87385929 0.077472053 -0.00085425249 -0.00089248718 -0.00072652206 -0.001321975 -0.8719604 0.072106548
561000000 -0.87262136 0.075806141 0.00028172147 -0.0010016349 -0.00039203049 -0.001817281 -0.87135959 0.070669957
562000000 -0.8727755 0.077732965 -0.00026750518 -0.0020152491 -0.000392063 -0.0012587754 -0.87017149 0.070552267
563000000 -0.87347144 0.076596014 -0.00095882977 -0.0011099074 -0.00043874359 -0.0005390764 -0.87209463 0.071322791
564000000 -0.87334144 0.075495087 0.00085844583 -0.0014287815 -0.00032586002 -0.00042989542 -0.87104052 0.0709574
565000000 -0.87334722 0.076567784 -0.00034505647 -0.00098069455 -1.5105176e-006 -0.0013006449 -0.87229574 0.070806958
566000000 -0.87386495 0.076014705 0.00081290031 -0.00078377471 -1.9402967e-005 -0.00072021154 -0.87085062 0.071806371
567000000 -0.87377363 0.076397598 -0.0010220542 -0.0013350839 -0.00060705689 -0.00082275755 -0.87182736 0.071428008
568000000 -0.87333798 0.076468542 -0.00018201732 -0.0011697775 -0.0006660943 -0.0014735428 -0.87046921 0.071391739
569000000 -0.8729676 0.076365292 -0.00035346596 -0.0011113611 9.7914068e-005 -0.0010370589 -0.86998171 0.072010174
570000000 -0.87262291 0.077013902 -0.00024307871 -0.0021427672 -0.00066103524 -0.00068453699 -0.87067086 0.072268911
571000000 -0.87255341 0.078117058 0.00062788464 -0.0010125156 -0.00011941217 -0.0011285343 -0.87155163 0.072051689
572000000 -0.87342995 0.077960521 -0.00055847625 -0.0012682084 -3.9451847e-005 -0.00072784862 -0.86967969 0.071448117
573000000 -0.87411642 0.07652162 0.00067725399 -0.0012869465 -0.00037102887 -0.0019835129 -0.8709051 0.072904304
574000000 -0.87249184 0.077056482 -0.00016035969 -0.0013310187 -0.00082091207 -0.0015063937 -0.87040985 0.071374536
575000000 -0.87345368 0.079192139 0.00056212588 -0.00043911961 0.0001756346 -0.00074600917 -0.87238288 0.072516099
576000000 -0.87209284 0.075563155 0.00098222087 -0.00034402151 0.00051631429 -0.00062623632 -0.87277639 0.072244756
577000000 -0.87283158 0.077013284 -0.00046273496 -0.0030753664 -0.0002729703 -0.0012137634 -0.87262118 0.072459832
578000000 -0.87342006 0.078554198 -0.00074731768 -0.001642696 -0.00013605513 -0.00076681335 -0.87058461 0.070939168
579000000 -0.87083876 0.076475166 -0.00051272981 -0.0013665325 -0.00015741349 -0.0015688584 -0.87207681 0.072678722
580000000 -0.87466276 0.077298045 -6.9086236e-005 -0.0010772313 0.00035614811 -5.9266404e-005 -0.87036163 0.073220335
581000000 -0.87352008 0.079323001 -6.6869739e-005 -0.0011178951 -0.00079718418 -0.00064721442 -0.87222338 0.072015658
582000000 -0.87355876 0.079120927 -0.00068663619 -0.0012456075 -0.00077858183 -0.00077852933 -0.87205094 0.073670745
583000000 -0.872612 0.079069011 2.550568e-005 -0.0025107027 -0.0002901619 -0.0014639369 -0.87108403 0.072805904
584000000 -0.87375689 0.07779184 -0.0016078023 -0.0009897569 0.00029374586 -0.00095743471 -0.87114412 0.073295936
585000000 -0.87263203 0.07842274 -0.00037414586 -0.00064060284 -0.00023904047 -0.0011138893 -0.86829597 0.073501036
586000000 -0.87503439 0.079118259 -0.00035350583 -0.00027353119 -0.00088837516 -0.00069011183 -0.8695991 0.074203372
587000000 -0.8729682 0.079720646 0.00015003647 -0.00093578908 -0.00093693216 -0.0015509663 -0.86859447 0.074994422
588000000 -0.87117612 0.07900808 -0.00042297615 -0.00078648818 -0.00044328472 -0.0012336711 -0.86969888 0.073485382
589000000 -0.87182975 0.078436591 -6.0956834e-005 -0.0015233273 0.0010404282 -0.0016784093 -0.86918014 0.073807672
590000000 -0.87193704 0.080374673 -0.00075928617 -0.00035566342 -4.7932335e-005 -0.0019457294 -0.87082583 0.075627178
591000000 -0.87292796 0.080097467 -0.00030277215 -0.00077625207 0.00056555669 -0.00081444555 -0.87112111 0.074102446
592000000 -0.87388432 0.080587298 -0.0005421142 -0.0018835026 -0.00010754248 -0.0010035114 -0.87138975 0.072980858
593000000 -0.87060195 0.078777328 -5.0703551e-005 -0.0025645089 -0.00057788647 -0.001339344 -0.8701247 0.074219637
594000000 -0.87162101 0.078937441 -0.00041498471 -0.0021909778 -0.00058747799 -0.0017580086 -0.8708055 0.074558601
595000000 -0.87164253 0.077822968 0.00019019689 -0.0020258492 0.00016119343 -0.0010673221 -0.87170213 0.076636031
596000000 -0.87174547 0.081003956 -4.5254133e-006 -0.00086803391 -0.0011026451 -0.0010320818 -0.87045801 0.074738696
597000000 -0.87308919 0.080165774 -0.000971128 -0.001042124 2.5992444e-005 -0.00086061069 -0.86915696 0.075200282
598000000 -0.87172937 0.081086293 -0.00078765868 -0.0017350626 0.00023932803 -0.00069455779 -0.87168199 0.075091913
599000000 -0.87069374 0.082518883 -0.00032032511 -2.4574092e-005 -5.2835756e-005 -0.0020197725 -0.87042105 0.07425911
600000000 -0.87334096 0.080110468 -0.00039883159 -0.0010365217 -0.00055367948 -0.0014250835 -0.86940145 0.075962819
601000000 -0.87156975 0.079916216 -0.0014335749 -0.00060417538 -0.0002114888 -0.001768686 -0.87074268 0.074927554
602000000 -0.87181306 0.081889018 -0.0002495459 -0.00020362291 -0.00035322207 0.00035915899 -0.87048066 0.074928708
603000000 -0.87387723 0.082138114 -0.000418802 -0.001457206 0.001351652 -0.001272123 -0.87104422 0.07687261
604000000 -0.87307435 0.082599327 -1.3493168e-005 -0.0012169965 -0.00077250978 -0.0012254687 -0.87034291 0.076854534
605000000 -0.87172025 0.083746001 -0.00091223366 -0.0012921578 -2.3094075e-005 -0.0018365359 -0.87059176 0.074331492
606000000 -0.87336588 0.082519308 -0.00015638907 -0.0016535921 -0.00045351061 -0.00096225535 -0.86955416 0.076983191
607000000 -0.87222886 0.08140143 -0.00049998821 -0.0015135017 0.00020381885 -0.0008775937 -0.86958581 0.07735689
608000000 -0.87269276 0.082636192 0.0013625807 -0.0017194193 0.00034388868 -0.0013045691 -0.87096453 0.076631688
609000000 -0.87107211 0.082304709 -0.0001511975 -0.0020905694 0.00041802181 -0.00019354689 -0.87062877 0.075002775
610000000 -0.87221622 0.081860974 0.00087925995 -0.00108516 -0.00011078902 -0.0012893673 -0.87089348 0.076967187
611000000 -0.87210679 0.083895721 -0.00021293441 -0.0010646419 0.00097664166 -0.0014142036 -0.87185991 0.076384403
612000000 -0.87120408 0.083250493 -0.00044842286 -0.0010105028 -0.00058334769 -0.0016460315 -0.86985129 0.076656833
613000000 -0.87242448 0.082171477 -0.00085243059 -0.0011449999 6.850261e-005 -0.00072188996 -0.86976945 0.075688653
614000000 -0.87143338 0.084524915 0.00050399738 -0.0013981776 -0.0004065778 -0.0026130101 -0.86956441 0.077031441
615000000 -0.87195873 0.082661822 -0.00015626394 -0.0012676034 -0.00026125359 -0.0020105487 -0.86845446 0.076694548
616000000 -0.87243432 0.084158979 -0.0003027202 -0.0015825855 -8.9142659e-006 -0.000476288 -0.87214184 0.080108538
617000000 -0.87312323 0.084383138 -0.001094762 -0.0012005918 0.00037778786 -0.00037609984 -0.87142354 0.078239843
618000000 -0.87240541 0.085073873 -0.0014664321 -0.0017179681 7.3372197e-005 -0.00052508852 -0.8694973 0.078329757
619000000 -0.87223297 0.085287847 -0.00038427298 -0.0017466261 -0.00061835011 -0.0019241831 -0.86868423 0.078767449
620000000 -0.87135851 0.085763007 0.00016952865 -0.0011334451 -0.00057201716 -0.0013837441 -0.87009603 0.078280076
621000000 -0.87198877 0.085175984 -0.00089268276 -0.0014164561 0.00085003808 -0.00091967417 -0.87102485 0.076653346
622000000 -0.87222451 0.084991746 0.00020739518 -0.0014192419 -0.0006582106 -0.0012462238 -0.87116683 0.078028828
623000000 -0.87170964 0.085882083 1.6434848e-005 -0.0010830463 0.00010610309 -0.0016921902 -0.87086171 0.076363437
624000000 -0.87280911 0.085835218 -6.5705928e-005 -0.0017272312 -0.00071682304 -0.0011176449 -0.86977363 0.07873445
625000000 -0.87128758 0.085558914 -0.00069541496 -0.0013393224 -0.00062827335 -0.0022900198 -0.87077469 0.077984288
626000000 -0.87148374 0.08765626 -0.00050339568 -0.00094893697 -7.905715e-005 -0.0019145617 -0.86833733 0.078800961
627000000 -0.87187719 0.087210491 0.00029397232 -0.0021437909 -0.0007377466 -0.0024363585 -0.86933428 0.0790793
628000000 -0.87324744 0.087167986 -0.00028163497 -0.00082299212 -0.00058506854 -0.0011043866 -0.8692283 0.080086306
629000000 -0.87105596 0.087498806 -0.0011924314 -0.00078342424 -0.00098726468 -0.0021339771 -0.87076825 0.07877101
630000000 -0.87127239 0.088506714 -0.00021093423 -0.0016613557 -0.00018445846 -0.00066702749 -0.86883676 0.080609173
631000000 -0.87146467 0.088290967 -0.00035734518 -0.0014673404 -0.00062766467 -0.0015820947 -0.87034726 0.081058078
632000000 -0.87191474 0.087491073 -0.0012583878 -0.001477615 -0.00049011549 -0.00031406962 -0.87003416 0.078732245
633000000 -0.87318546 0.089127123 0.00029364784 -0.0015007218 0.00037184445 -0.0016819317 -0.86887217 0.080600038
634000000 -0.87156481 0.089321792 -0.00018122174 -0.0013431456 -0.00057376316 -0.0025360645 -0.87029314 0.080407962
635000000 -0.87172693 0.087319545 -0.00059652305 -0.0020571472 -0.00049064826 -0.0028258124 -0.86998504 0.080326706
636000000 -0.86998081 0.089005016 0.00026677377 -0.00087364856 -0.00011861195 -0.0011995754 -0.86954725 0.080496825
637000000 -0.87201136 0.087662719 -0.00034832722 -0.0025784313 -0.00057812041 -0.00055936089 -0.87041712 0.080349289
638000000 -0.87012422 0.088528067 -7.9336678e-005 -0.0011344972 -4.9494822e-005 -0.0012814518 -0.87008196 0.082465127
639000000 -0.87242776 0.089089856 0.00055910565 -0.00085144874 0.00035444796 -0.0010749467 -0.86932856 0.083594471
640000000 -0.87176812 0.08952032 0.00075675372 -0.0019426318 1.254232e-005 5.2695748e-005 -0.86874014 0.080382988
641000000 -0.87182957 0.089449972 -0.0010098412 -0.0012004656 -0.0015710418 -0.0012428891 -0.86903894 0.079910316
642000000 -0.86989772 0.0896485 -0.001754524 -0.0016731599 -0.00017390988 -0.0018756081 -0.87065721 0.079823613
643000000 -0.87140912 0.089646757 -0.00022397393 -0.0019141076 -0.00014599397 -0.0013862523 -0.86913925 0.08230155
644000000 -0.87050498 0.089802824 -0.00022222813 -0.0015052275 -0.00018319236 -0.0018949932 -0.86991638 0.082006186
645000000 -0.8715595 0.089017265 -0.00016025537 -0.0021480576 -0.00044936745 -0.0015468567 -0.86956567 0.081757993
646000000 -0.87224758 0.090156198 0.00062769529 -0.00067472341 -0.00035911475 -0.00078887783 -0.86990833 0.080340177
647000000 -0.87259763 0.09057752 0.00019435663 -0.0012306423 0.00025131143 -0.0023403622 -0.87021929 0.083649479
648000000 -0.8722744 0.091432415 0.00011040209 -0.0012216642 -0.00027716893 -0.00065932731 -0.86919492 0.083546773
649000000 -0.870588 0.09066695 0.00045384691 -0.0013150725 -0.00014904929 -0.0012012366 -0.87080109 0.082591444
650000000 -0.87118047 0.091316342 -0.00055647868 -0.0016350873 -0.00075197249 -0.00067717239 -0.8714934 0.082768515
651000000 -0.87095433 0.091302089 -0.00029694999 -3.212201e-005 -0.0010253619 -0.00089940149 -0.86921585 0.08183594
652000000 -0.87088776 0.089986958 -0.00019592722 -0.0010610787 -0.00048660499 -0.0019697212 -0.86963344 0.082750745
653000000 -0.87106407 0.091252051 -0.0003072524 -0.00079836865 -0.00072830549 -0.00089814322 -0.86871618 0.082605995
654000000 -0.87237418 0.09121161 0.00058058387 -0.0012218778 0.00018532424 -0.0014963166 -0.86925989 0.082937278
655000000 -0.87010753 0.092572071 -6.0442257e-005 -0.0018179739 -0.00039674895 -0.0013758533 -0.86967188 0.083322577
656000000 -0.87082452 0.091901042 1.3568585e-005 -0.0021112075 -0.00038776736 -0.0012237849 -0.87038285 0.082998306
657000000 -0.87021953 0.091181137 4.074856e-005 -0.0010902574 -0.00025358677 -0.0017284956 -0.87045646 0.081355453
658000000 -0.87241471 0.090301812 -0.00015582102 -0.0015013095 -0.00031890679 -0.00075865479 -0.86823928 0.083700001
659000000 -0.87168175 0.09137129 -0.00058116642 -0.0010696937 -0.00076341699 -0.0017482472 -0.8692348 0.083836839
660000000 -0.87158501 0.092193805 4.1157773e-007 -0.0014559793 -0.00090423517 -0.0014588402 -0.86869532 0.084306203
661000000 -0.87123996 0.091092616 -0.00016466869 -0.0020105524 0.00030987558 -0.0019216216 -0.86939204 0.084258936
662000000 -0.87138879 0.092414998 0.00013231859 -0.001428668 -0.00069870817 -0.00070911559 -0.86980367 0.083685599
663000000 -0.87088937 0.092445679 -0.00026173494 -0.0015140503 -0.00065191579 -0.00080602377 -0.86910832 0.08338771
664000000 -0.87159425 0.092930771 -0.0011550819 -0.00071891217 -0.00058417692 -0.0013428309 -0.86908507 0.084306523
665000000 -0.86958605 0.091517828 -0.00050056237 -0.0013542222 -9.3216717e-005 -0.0012311749 -0.86939412 0.082838982
666000000 -0.87219709 0.092136748 -0.00099019543 -0.0012191562 0.00060140534 -0.0009630245 -0.86963487 0.083707221
667000000 -0.87201995 0.091728598 -0.0006684456 -0.0021436962 0.00021382203 -0.0014593086 -0.86979431 0.084500723
668000000 -0.87180871 0.093427218 -0.0011646164 -0.0021795195 0.00047345128 -0.0015156169 -0.8697629 0.083639659
669000000 -0.87208289 0.092752211 -0.0002631922 -0.00079516851 -0.000406896 -0.00079588493 -0.86892682 0.085389815
670000000 -0.87140286 0.092437126 -0.0011495039 -0.00079189509 0.0001328112 -0.0011987832 -0.8702004 0.08454451
