Frequency	 |S11|	 Phase(S11)	 ExtPh(S11)	 |S21|	 Phase(S21)	 ExtPh(S21)	 |S12|	 Phase(S12)	 ExtPh(S12)	 |S22|	 Phase(S22)	 ExtPh(S22) 
5.000000e-001	-3.170018e+000	-8.319370e+000	-8.319370e+000	-5.311380e+001	6.643251e+001	6.643251e+001	-5.763160e+001	7.828026e+001	7.828026e+001	-3.015801e+000	-7.807050e+000	-7.807050e+000	
5.010000e-001	-3.158057e+000	-8.302639e+000	-8.302639e+000	-5.819891e+001	-8.324611e+001	9.675389e+001	-5.816788e+001	7.603917e+001	7.603917e+001	-2.992085e+000	-7.793730e+000	-7.793730e+000	
5.020000e-001	-3.159619e+000	-8.366220e+000	-8.366220e+000	-5.797848e+001	5.569898e+001	2.356990e+002	-5.559253e+001	8.148469e+001	8.148469e+001	-3.009770e+000	-7.889307e+000	-7.889307e+000	
5.030000e-001	-3.168958e+000	-8.327583e+000	-8.327583e+000	-6.046818e+001	4.335747e+001	2.233575e+002	-5.901265e+001	7.460334e+001	7.460334e+001	-3.005939e+000	-7.818726e+000	-7.818726e+000	
5.040000e-001	-3.156682e+000	-8.400575e+000	-8.400575e+000	-5.900018e+001	8.350495e+001	2.635049e+002	-6.014463e+001	-7.297440e+001	1.070256e+002	-2.986908e+000	-7.864024e+000	-7.864024e+000	
5.050000e-001	-3.171226e+000	-8.359521e+000	-8.359521e+000	-5.919447e+001	8.550600e+001	2.655060e+002	-5.664360e+001	-8.451076e+001	9.548924e+001	-2.999670e+000	-7.849517e+000	-7.849517e+000	
5.060000e-001	-3.159412e+000	-8.466594e+000	-8.466594e+000	-5.652188e+001	5.538006e+001	2.353801e+002	-5.599337e+001	8.059360e+001	8.059360e+001	-3.012233e+000	-7.843213e+000	-7.843213e+000	
5.070000e-001	-3.162745e+000	-8.458041e+000	-8.458041e+000	-5.872256e+001	6.655961e+001	2.465596e+002	-5.261730e+001	8.082121e+001	8.082121e+001	-3.010219e+000	-7.912713e+000	-7.912713e+000	
5.080000e-001	-3.155625e+000	-8.469990e+000	-8.469990e+000	-5.719090e+001	-7.733271e+001	2.826673e+002	-5.556713e+001	6.429044e+001	6.429044e+001	-3.004232e+000	-7.928101e+000	-7.928101e+000	
5.090000e-001	-3.152377e+000	-8.491491e+000	-8.491491e+000	-5.630894e+001	6.695454e+001	2.469545e+002	-5.505884e+001	7.617021e+001	7.617021e+001	-2.999871e+000	-7.997984e+000	-7.997984e+000	
5.100000e-001	-3.151518e+000	-8.522197e+000	-8.522197e+000	-5.640561e+001	4.345253e+001	2.234525e+002	-6.206402e+001	4.812413e+001	4.812413e+001	-3.000553e+000	-7.973111e+000	-7.973111e+000	
5.110000e-001	-3.145034e+000	-8.441057e+000	-8.441057e+000	-5.297755e+001	8.552257e+001	2.655226e+002	-5.647309e+001	8.589129e+001	8.589129e+001	-2.995656e+000	-8.079306e+000	-8.079306e+000	
5.120000e-001	-3.160643e+000	-8.574491e+000	-8.574491e+000	-5.596109e+001	-8.028087e+001	2.797191e+002	-5.517020e+001	8.499514e+001	8.499514e+001	-3.010993e+000	-7.981643e+000	-7.981643e+000	
5.130000e-001	-3.152637e+000	-8.617846e+000	-8.617846e+000	-5.664465e+001	6.855821e+001	2.485582e+002	-6.878043e+001	-6.901393e+001	1.109861e+002	-2.995142e+000	-8.100235e+000	-8.100235e+000	
5.140000e-001	-3.147246e+000	-8.526477e+000	-8.526477e+000	-5.834503e+001	7.656566e+001	2.565657e+002	-5.891781e+001	7.569461e+001	7.569461e+001	-3.002443e+000	-8.039748e+000	-8.039748e+000	
5.150000e-001	-3.158158e+000	-8.598813e+000	-8.598813e+000	-5.472076e+001	7.339005e+001	2.533900e+002	-6.187910e+001	5.230794e+001	5.230794e+001	-3.008563e+000	-8.205075e+000	-8.205075e+000	
5.160000e-001	-3.167698e+000	-8.595530e+000	-8.595530e+000	-6.390296e+001	6.735198e+001	2.473520e+002	-5.734844e+001	8.342461e+001	8.342461e+001	-3.011987e+000	-8.152827e+000	-8.152827e+000	
5.170000e-001	-3.150403e+000	-8.659421e+000	-8.659421e+000	-5.745242e+001	4.458627e+001	2.245863e+002	-5.440009e+001	4.245373e+001	4.245373e+001	-3.005719e+000	-8.085586e+000	-8.085586e+000	
5.180000e-001	-3.151532e+000	-8.680102e+000	-8.680102e+000	-5.623359e+001	-5.645185e+001	1.235481e+002	-5.891190e+001	8.736471e+001	8.736471e+001	-3.006431e+000	-8.128298e+000	-8.128298e+000	
5.190000e-001	-3.158010e+000	-8.712865e+000	-8.712865e+000	-5.832152e+001	7.180647e+001	2.518065e+002	-5.493144e+001	5.851888e+001	5.851888e+001	-2.999786e+000	-8.173734e+000	-8.173734e+000	
5.200000e-001	-3.154518e+000	-8.702010e+000	-8.702010e+000	-5.867390e+001	6.998198e+001	2.499820e+002	-5.484838e+001	8.804433e+001	8.804433e+001	-3.001297e+000	-8.144097e+000	-8.144097e+000	
5.210000e-001	-3.148663e+000	-8.694292e+000	-8.694292e+000	-5.492366e+001	7.266390e+001	2.526639e+002	-5.330394e+001	7.270373e+001	7.270373e+001	-2.995839e+000	-8.269742e+000	-8.269742e+000	
5.220000e-001	-3.144332e+000	-8.684729e+000	-8.684729e+000	-5.403240e+001	-8.402109e+001	2.759789e+002	-6.058560e+001	5.647562e+001	5.647562e+001	-3.001265e+000	-8.263369e+000	-8.263369e+000	
5.230000e-001	-3.164075e+000	-8.674444e+000	-8.674444e+000	-5.709780e+001	7.195316e+001	2.519532e+002	-5.653138e+001	6.958757e+001	6.958757e+001	-3.006596e+000	-8.252886e+000	-8.252886e+000	
5.240000e-001	-3.155065e+000	-8.774162e+000	-8.774162e+000	-5.403902e+001	6.278083e+001	2.427808e+002	-5.539872e+001	-7.823148e+001	1.017685e+002	-3.000243e+000	-8.281864e+000	-8.281864e+000	
5.250000e-001	-3.155993e+000	-8.768891e+000	-8.768891e+000	-5.543915e+001	7.579382e+001	2.557938e+002	-5.363418e+001	7.862210e+001	7.862210e+001	-3.017363e+000	-8.282710e+000	-8.282710e+000	
5.260000e-001	-3.166367e+000	-8.759430e+000	-8.759430e+000	-5.550961e+001	6.441013e+001	2.444101e+002	-5.752728e+001	6.104863e+001	6.104863e+001	-3.019441e+000	-8.276069e+000	-8.276069e+000	
5.270000e-001	-3.141919e+000	-8.757462e+000	-8.757462e+000	-5.520563e+001	7.886142e+001	2.588614e+002	-5.601674e+001	6.279210e+001	6.279210e+001	-2.989644e+000	-8.314075e+000	-8.314075e+000	
5.280000e-001	-3.153764e+000	-8.829858e+000	-8.829858e+000	-5.677048e+001	8.978406e+001	2.697841e+002	-5.525246e+001	-8.646068e+001	9.353932e+001	-3.007362e+000	-8.368580e+000	-8.368580e+000	
5.290000e-001	-3.158261e+000	-8.818580e+000	-8.818580e+000	-5.474540e+001	6.854646e+001	2.485465e+002	-5.618484e+001	6.487958e+001	6.487958e+001	-3.001134e+000	-8.350099e+000	-8.350099e+000	
5.300000e-001	-3.157730e+000	-8.891615e+000	-8.891615e+000	-5.604012e+001	7.293208e+001	2.529321e+002	-5.675897e+001	7.755377e+001	7.755377e+001	-3.006270e+000	-8.320746e+000	-8.320746e+000	
5.310000e-001	-3.159166e+000	-8.841501e+000	-8.841501e+000	-5.347057e+001	8.944472e+001	2.694447e+002	-5.796090e+001	-8.943838e+001	9.056162e+001	-3.004209e+000	-8.366959e+000	-8.366959e+000	
5.320000e-001	-3.155866e+000	-8.836974e+000	-8.836974e+000	-5.412038e+001	-8.514630e+001	2.748537e+002	-5.809650e+001	-7.359794e+001	1.064021e+002	-3.008022e+000	-8.386924e+000	-8.386924e+000	
5.330000e-001	-3.153283e+000	-8.874428e+000	-8.874428e+000	-5.602785e+001	8.452766e+001	2.645277e+002	-5.411679e+001	-8.788565e+001	9.211435e+001	-3.009185e+000	-8.378073e+000	-8.378073e+000	
5.340000e-001	-3.153999e+000	-8.842230e+000	-8.842230e+000	-5.515452e+001	8.410162e+001	2.641016e+002	-5.511700e+001	7.059617e+001	7.059617e+001	-3.000130e+000	-8.389762e+000	-8.389762e+000	
5.350000e-001	-3.153190e+000	-8.907518e+000	-8.907518e+000	-6.039027e+001	8.524776e+001	2.652478e+002	-5.642259e+001	-8.142551e+001	9.857449e+001	-3.010406e+000	-8.453571e+000	-8.453571e+000	
5.360000e-001	-3.151564e+000	-8.899907e+000	-8.899907e+000	-5.488057e+001	-7.356779e+001	2.864322e+002	-5.702788e+001	6.744116e+001	6.744116e+001	-3.019920e+000	-8.528958e+000	-8.528958e+000	
5.370000e-001	-3.156591e+000	-8.935232e+000	-8.935232e+000	-5.963891e+001	4.974390e+001	4.097439e+002	-5.789589e+001	6.133419e+001	6.133419e+001	-3.005962e+000	-8.475018e+000	-8.475018e+000	
5.380000e-001	-3.160864e+000	-8.923163e+000	-8.923163e+000	-5.755466e+001	-5.657910e+001	3.034209e+002	-5.732681e+001	6.802894e+001	6.802894e+001	-2.997286e+000	-8.429357e+000	-8.429357e+000	
5.390000e-001	-3.149170e+000	-8.975511e+000	-8.975511e+000	-5.590637e+001	7.388800e+001	4.338880e+002	-5.621029e+001	6.577928e+001	6.577928e+001	-2.994103e+000	-8.519279e+000	-8.519279e+000	
5.400000e-001	-3.147423e+000	-8.972427e+000	-8.972427e+000	-5.753735e+001	-8.598233e+001	4.540177e+002	-5.634135e+001	5.166852e+001	5.166852e+001	-3.011507e+000	-8.486949e+000	-8.486949e+000	
5.410000e-001	-3.142310e+000	-8.977602e+000	-8.977602e+000	-5.652837e+001	-8.473963e+001	4.552604e+002	-5.780619e+001	-8.988383e+001	9.011617e+001	-3.008506e+000	-8.530130e+000	-8.530130e+000	
5.420000e-001	-3.148849e+000	-9.018739e+000	-9.018739e+000	-5.632896e+001	6.557452e+001	4.255745e+002	-6.012406e+001	6.850334e+001	6.850334e+001	-2.996659e+000	-8.505034e+000	-8.505034e+000	
5.430000e-001	-3.143216e+000	-9.097349e+000	-9.097349e+000	-5.616556e+001	7.341793e+001	4.334179e+002	-5.544018e+001	8.069670e+001	8.069670e+001	-2.998979e+000	-8.617326e+000	-8.617326e+000	
5.440000e-001	-3.157284e+000	-8.995517e+000	-8.995517e+000	-5.519361e+001	7.546923e+001	4.354692e+002	-5.280705e+001	7.445413e+001	7.445413e+001	-2.995834e+000	-8.526757e+000	-8.526757e+000	
5.450000e-001	-3.149297e+000	-9.043010e+000	-9.043010e+000	-5.464078e+001	5.990487e+001	4.199049e+002	-5.763790e+001	7.875462e+001	7.875462e+001	-3.008910e+000	-8.610239e+000	-8.610239e+000	
5.460000e-001	-3.152756e+000	-9.049625e+000	-9.049625e+000	-5.689284e+001	6.532185e+001	4.253218e+002	-5.360616e+001	8.224000e+001	8.224000e+001	-2.994944e+000	-8.571608e+000	-8.571608e+000	
5.470000e-001	-3.154555e+000	-9.050262e+000	-9.050262e+000	-7.514009e+001	-8.096302e+001	4.590370e+002	-5.394675e+001	-8.965467e+001	9.034533e+001	-3.005252e+000	-8.603671e+000	-8.603671e+000	
5.480000e-001	-3.154751e+000	-9.092574e+000	-9.092574e+000	-6.281483e+001	5.464522e+001	5.946452e+002	-5.888497e+001	6.498496e+001	6.498496e+001	-3.009200e+000	-8.666948e+000	-8.666948e+000	
5.490000e-001	-3.161175e+000	-9.105274e+000	-9.105274e+000	-5.586025e+001	-8.587819e+001	6.341218e+002	-5.700367e+001	5.636055e+001	5.636055e+001	-2.997768e+000	-8.669402e+000	-8.669402e+000	
5.500000e-001	-3.155570e+000	-9.161599e+000	-9.161599e+000	-5.249288e+001	7.891728e+001	6.189173e+002	-5.562009e+001	8.098016e+001	8.098016e+001	-3.004196e+000	-8.692443e+000	-8.692443e+000	
5.510000e-001	-3.155933e+000	-9.113466e+000	-9.113466e+000	-5.570238e+001	5.875433e+001	5.987543e+002	-5.723621e+001	4.745736e+001	4.745736e+001	-3.002044e+000	-8.656851e+000	-8.656851e+000	
5.520000e-001	-3.154353e+000	-9.007888e+000	-9.007888e+000	-6.059642e+001	7.518853e+001	6.151885e+002	-5.552953e+001	5.678837e+001	5.678837e+001	-3.001424e+000	-8.660243e+000	-8.660243e+000	
5.530000e-001	-3.146562e+000	-9.116417e+000	-9.116417e+000	-6.037168e+001	6.502755e+001	6.050275e+002	-5.765959e+001	7.613259e+001	7.613259e+001	-3.002323e+000	-8.634515e+000	-8.634515e+000	
5.540000e-001	-3.157279e+000	-9.139015e+000	-9.139015e+000	-5.671958e+001	6.984542e+001	6.098454e+002	-5.674611e+001	8.674474e+001	8.674474e+001	-2.998791e+000	-8.691637e+000	-8.691637e+000	
5.550000e-001	-3.160073e+000	-9.141637e+000	-9.141637e+000	-5.467360e+001	-7.560849e+001	6.443915e+002	-5.441082e+001	6.882659e+001	6.882659e+001	-3.007543e+000	-8.741411e+000	-8.741411e+000	
5.560000e-001	-3.144712e+000	-9.106515e+000	-9.106515e+000	-5.638530e+001	8.252575e+001	6.225258e+002	-5.698895e+001	8.658328e+001	8.658328e+001	-3.004617e+000	-8.752943e+000	-8.752943e+000	
5.570000e-001	-3.157038e+000	-9.178347e+000	-9.178347e+000	-5.511464e+001	7.953209e+001	6.195321e+002	-5.360265e+001	-7.836085e+001	1.016391e+002	-2.994437e+000	-8.705211e+000	-8.705211e+000	
5.580000e-001	-3.160855e+000	-9.158076e+000	-9.158076e+000	-5.848877e+001	7.353632e+001	6.135363e+002	-5.531750e+001	7.869953e+001	7.869953e+001	-3.004548e+000	-8.697943e+000	-8.697943e+000	
5.590000e-001	-3.153730e+000	-9.190728e+000	-9.190728e+000	-5.667284e+001	7.249296e+001	6.124930e+002	-5.548247e+001	-8.835897e+001	9.164103e+001	-3.003269e+000	-8.802564e+000	-8.802564e+000	
5.600000e-001	-3.164639e+000	-9.268885e+000	-9.268885e+000	-5.456950e+001	7.905489e+001	6.190549e+002	-5.433414e+001	8.421236e+001	8.421236e+001	-2.999863e+000	-8.776968e+000	-8.776968e+000	
5.610000e-001	-3.157208e+000	-9.217766e+000	-9.217766e+000	-5.743818e+001	-8.913793e+001	6.308621e+002	-5.707018e+001	7.341331e+001	7.341331e+001	-3.002565e+000	-8.748711e+000	-8.748711e+000	
5.620000e-001	-3.171873e+000	-9.263884e+000	-9.263884e+000	-5.737665e+001	7.009289e+001	6.100929e+002	-5.430497e+001	7.564690e+001	7.564690e+001	-3.000931e+000	-8.736408e+000	-8.736408e+000	
5.630000e-001	-3.143196e+000	-9.316930e+000	-9.316930e+000	-5.702191e+001	7.564379e+001	6.156438e+002	-5.723762e+001	7.369437e+001	7.369437e+001	-3.003781e+000	-8.807249e+000	-8.807249e+000	
5.640000e-001	-3.150482e+000	-9.276935e+000	-9.276935e+000	-5.700159e+001	6.725764e+001	6.072576e+002	-5.531392e+001	7.204479e+001	7.204479e+001	-3.001492e+000	-8.796660e+000	-8.796660e+000	
5.650000e-001	-3.154001e+000	-9.314571e+000	-9.314571e+000	-5.640244e+001	7.279171e+001	6.127917e+002	-5.842900e+001	5.961123e+001	5.961123e+001	-2.999500e+000	-8.832825e+000	-8.832825e+000	
5.660000e-001	-3.149932e+000	-9.298142e+000	-9.298142e+000	-5.734615e+001	8.295470e+001	6.229547e+002	-5.435383e+001	8.201754e+001	8.201754e+001	-2.999627e+000	-8.875102e+000	-8.875102e+000	
5.670000e-001	-3.161021e+000	-9.260179e+000	-9.260179e+000	-5.389467e+001	7.787148e+001	6.178715e+002	-5.447996e+001	6.589283e+001	6.589283e+001	-3.014422e+000	-8.866378e+000	-8.866378e+000	
5.680000e-001	-3.159769e+000	-9.314058e+000	-9.314058e+000	-5.794102e+001	6.791815e+001	6.079181e+002	-5.631429e+001	7.519634e+001	7.519634e+001	-3.003561e+000	-8.812222e+000	-8.812222e+000	
5.690000e-001	-3.157896e+000	-9.382492e+000	-9.382492e+000	-5.649071e+001	8.010248e+001	6.201025e+002	-5.458049e+001	8.277022e+001	8.277022e+001	-2.996781e+000	-8.881604e+000	-8.881604e+000	
5.700000e-001	-3.152131e+000	-9.351280e+000	-9.351280e+000	-5.811215e+001	5.973591e+001	5.997359e+002	-5.881180e+001	7.442253e+001	7.442253e+001	-2.995912e+000	-8.840575e+000	-8.840575e+000	
5.710000e-001	-3.157114e+000	-9.358314e+000	-9.358314e+000	-5.998320e+001	8.532671e+001	6.253267e+002	-5.777962e+001	-6.957530e+001	1.104247e+002	-3.001274e+000	-8.860338e+000	-8.860338e+000	
5.720000e-001	-3.172248e+000	-9.357734e+000	-9.357734e+000	-5.551724e+001	7.926064e+001	6.192606e+002	-5.504163e+001	7.717409e+001	7.717409e+001	-3.002546e+000	-8.922915e+000	-8.922915e+000	
5.730000e-001	-3.156731e+000	-9.342591e+000	-9.342591e+000	-5.465142e+001	7.283803e+001	6.128380e+002	-5.618657e+001	7.470499e+001	7.470499e+001	-3.007925e+000	-8.938423e+000	-8.938423e+000	
5.740000e-001	-3.162623e+000	-9.410882e+000	-9.410882e+000	-5.647114e+001	6.552341e+001	6.055234e+002	-5.414672e+001	7.348930e+001	7.348930e+001	-2.996967e+000	-8.811147e+000	-8.811147e+000	
5.750000e-001	-3.155994e+000	-9.420474e+000	-9.420474e+000	-5.702983e+001	7.087993e+001	6.108799e+002	-5.444723e+001	8.245524e+001	8.245524e+001	-2.987330e+000	-8.955963e+000	-8.955963e+000	
5.760000e-001	-3.157999e+000	-9.416138e+000	-9.416138e+000	-5.824619e+001	-8.259167e+001	6.374083e+002	-5.396805e+001	7.878964e+001	7.878964e+001	-2.992580e+000	-9.003947e+000	-9.003947e+000	
5.770000e-001	-3.158843e+000	-9.457055e+000	-9.457055e+000	-5.647331e+001	8.231165e+001	6.223117e+002	-5.344332e+001	6.621478e+001	6.621478e+001	-2.998613e+000	-9.027496e+000	-9.027496e+000	
5.780000e-001	-3.149198e+000	-9.448315e+000	-9.448315e+000	-5.622261e+001	6.125176e+001	6.012518e+002	-5.442733e+001	7.087707e+001	7.087707e+001	-2.999270e+000	-8.897977e+000	-8.897977e+000	
5.790000e-001	-3.157911e+000	-9.489519e+000	-9.489519e+000	-5.875575e+001	6.553222e+001	6.055322e+002	-5.694799e+001	7.940081e+001	7.940081e+001	-3.003723e+000	-8.960865e+000	-8.960865e+000	
5.800000e-001	-3.162862e+000	-9.495308e+000	-9.495308e+000	-5.662615e+001	7.725342e+001	6.172534e+002	-5.983335e+001	6.353972e+001	6.353972e+001	-3.001631e+000	-8.957156e+000	-8.957156e+000	
5.810000e-001	-3.153884e+000	-9.486260e+000	-9.486260e+000	-5.644561e+001	6.984799e+001	6.098480e+002	-5.422501e+001	7.961097e+001	7.961097e+001	-2.996008e+000	-8.999974e+000	-8.999974e+000	
5.820000e-001	-3.155066e+000	-9.506314e+000	-9.506314e+000	-6.110547e+001	5.020319e+001	5.902032e+002	-5.378002e+001	8.634774e+001	8.634774e+001	-2.992204e+000	-8.999646e+000	-8.999646e+000	
5.830000e-001	-3.159948e+000	-9.586813e+000	-9.586813e+000	-5.672581e+001	7.555062e+001	6.155506e+002	-5.295013e+001	7.027723e+001	7.027723e+001	-2.998333e+000	-9.041332e+000	-9.041332e+000	
5.840000e-001	-3.164948e+000	-9.617071e+000	-9.617071e+000	-5.455823e+001	6.340628e+001	6.034063e+002	-5.607226e+001	6.838726e+001	6.838726e+001	-2.995993e+000	-9.095572e+000	-9.095572e+000	
5.850000e-001	-3.168268e+000	-9.592815e+000	-9.592815e+000	-5.786088e+001	6.910904e+001	6.091090e+002	-5.508194e+001	6.631652e+001	6.631652e+001	-3.004300e+000	-9.127497e+000	-9.127497e+000	
5.860000e-001	-3.158229e+000	-9.552387e+000	-9.552387e+000	-5.613032e+001	5.981466e+001	5.998147e+002	-5.829790e+001	-8.152959e+001	9.847041e+001	-2.998928e+000	-9.135602e+000	-9.135602e+000	
5.870000e-001	-3.155100e+000	-9.628217e+000	-9.628217e+000	-5.560375e+001	-6.906957e+001	4.709304e+002	-5.649739e+001	6.983373e+001	6.983373e+001	-3.005397e+000	-9.127757e+000	-9.127757e+000	
5.880000e-001	-3.165663e+000	-9.562813e+000	-9.562813e+000	-5.942056e+001	8.830890e+001	4.483089e+002	-5.389386e+001	7.861988e+001	7.861988e+001	-2.998853e+000	-9.131140e+000	-9.131140e+000	
5.890000e-001	-3.172683e+000	-9.692633e+000	-9.692633e+000	-5.624032e+001	4.819404e+001	4.081940e+002	-6.082866e+001	7.070586e+001	7.070586e+001	-3.001537e+000	-9.117159e+000	-9.117159e+000	
5.900000e-001	-3.170645e+000	-9.677333e+000	-9.677333e+000	-6.052953e+001	5.708211e+001	4.170821e+002	-5.439711e+001	6.874086e+001	6.874086e+001	-3.008194e+000	-9.126946e+000	-9.126946e+000	
5.910000e-001	-3.163154e+000	-9.590527e+000	-9.590527e+000	-5.425031e+001	7.519348e+001	4.351935e+002	-5.502403e+001	8.854640e+001	8.854640e+001	-3.002435e+000	-9.247571e+000	-9.247571e+000	
5.920000e-001	-3.158883e+000	-9.681766e+000	-9.681766e+000	-5.608289e+001	7.931038e+001	4.393104e+002	-5.700202e+001	8.645002e+001	8.645002e+001	-2.999474e+000	-9.195528e+000	-9.195528e+000	
5.930000e-001	-3.166095e+000	-9.665280e+000	-9.665280e+000	-5.520340e+001	-8.026499e+001	4.597350e+002	-5.539591e+001	7.154112e+001	7.154112e+001	-3.007535e+000	-9.221481e+000	-9.221481e+000	
5.940000e-001	-3.152485e+000	-9.712255e+000	-9.712255e+000	-5.179300e+001	7.270627e+001	4.327063e+002	-5.816098e+001	8.606302e+001	8.606302e+001	-3.001160e+000	-9.224802e+000	-9.224802e+000	
5.950000e-001	-3.162029e+000	-9.770246e+000	-9.770246e+000	-5.878463e+001	-8.097614e+001	4.590239e+002	-5.399208e+001	6.747472e+001	6.747472e+001	-3.004487e+000	-9.243770e+000	-9.243770e+000	
5.960000e-001	-3.164383e+000	-9.771554e+000	-9.771554e+000	-5.563145e+001	-8.328794e+001	4.567121e+002	-5.761194e+001	7.157510e+001	7.157510e+001	-3.019877e+000	-9.221787e+000	-9.221787e+000	
5.970000e-001	-3.155530e+000	-9.776862e+000	-9.776862e+000	-5.814785e+001	-7.428529e+001	4.657147e+002	-5.616215e+001	6.506953e+001	6.506953e+001	-3.005963e+000	-9.238068e+000	-9.238068e+000	
5.980000e-001	-3.159858e+000	-9.819815e+000	-9.819815e+000	-5.715210e+001	-8.640608e+001	4.535939e+002	-7.082334e+001	2.469240e+001	2.469240e+001	-2.998337e+000	-9.257574e+000	-9.257574e+000	
5.990000e-001	-3.168967e+000	-9.906038e+000	-9.906038e+000	-5.459277e+001	7.770214e+001	4.377021e+002	-5.313929e+001	8.521640e+001	8.521640e+001	-2.998142e+000	-9.282761e+000	-9.282761e+000	
6.000000e-001	-3.156769e+000	-9.846250e+000	-9.846250e+000	-5.206643e+001	7.743106e+001	4.374311e+002	-5.295747e+001	7.795870e+001	7.795870e+001	-3.005028e+000	-9.278345e+000	-9.278345e+000	
6.010000e-001	-3.165063e+000	-9.816461e+000	-9.816461e+000	-5.623843e+001	8.842097e+001	4.484210e+002	-5.102963e+001	8.911609e+001	8.911609e+001	-2.990535e+000	-9.352637e+000	-9.352637e+000	
6.020000e-001	-3.171146e+000	-9.872876e+000	-9.872876e+000	-6.619574e+001	4.625573e+001	4.062557e+002	-5.812643e+001	-6.539228e+001	1.146077e+002	-3.000482e+000	-9.397911e+000	-9.397911e+000	
