Frequency	 |S11|	 Phase(S11)	 ExtPh(S11)	 |S21|	 Phase(S21)	 ExtPh(S21)	 |S12|	 Phase(S12)	 ExtPh(S12)	 |S22|	 Phase(S22)	 ExtPh(S22) 
5.000000e-001	-3.227090e+000	-8.162953e+000	-8.162953e+000	-5.504011e+001	7.875765e+001	7.875765e+001	-5.503637e+001	8.424284e+001	8.424284e+001	-2.990139e+000	-7.637264e+000	-7.637264e+000	
5.010000e-001	-3.203541e+000	-8.163434e+000	-8.163434e+000	-6.099141e+001	8.303914e+001	8.303914e+001	-5.636929e+001	8.837773e+001	8.837773e+001	-2.993918e+000	-7.661544e+000	-7.661544e+000	
5.020000e-001	-3.204274e+000	-8.234382e+000	-8.234382e+000	-5.608417e+001	7.520255e+001	7.520255e+001	-5.618897e+001	7.678736e+001	7.678736e+001	-2.995643e+000	-7.682349e+000	-7.682349e+000	
5.030000e-001	-3.208127e+000	-8.129718e+000	-8.129718e+000	-5.601252e+001	-6.177124e+001	-6.177124e+001	-5.951243e+001	-8.623498e+001	9.376502e+001	-3.009935e+000	-7.658930e+000	-7.658930e+000	
5.040000e-001	-3.206228e+000	-8.221695e+000	-8.221695e+000	-5.724037e+001	7.870865e+001	-1.012914e+002	-5.666505e+001	6.693948e+001	6.693948e+001	-3.012476e+000	-7.673523e+000	-7.673523e+000	
5.050000e-001	-3.219687e+000	-8.128897e+000	-8.128897e+000	-5.483012e+001	7.300882e+001	-1.069912e+002	-6.672727e+001	8.515861e+001	8.515861e+001	-3.020908e+000	-7.717481e+000	-7.717481e+000	
5.060000e-001	-3.207141e+000	-8.220689e+000	-8.220689e+000	-5.486856e+001	4.827982e+001	-1.317202e+002	-5.770510e+001	3.738905e+001	3.738905e+001	-2.999508e+000	-7.757180e+000	-7.757180e+000	
5.070000e-001	-3.222273e+000	-8.217269e+000	-8.217269e+000	-6.434588e+001	-6.920079e+001	-2.492008e+002	-5.618307e+001	4.674122e+001	4.674122e+001	-2.993234e+000	-7.714442e+000	-7.714442e+000	
5.080000e-001	-3.204957e+000	-8.248791e+000	-8.248791e+000	-5.822319e+001	7.504315e+001	-2.849569e+002	-5.601551e+001	7.811433e+001	7.811433e+001	-3.000529e+000	-7.747053e+000	-7.747053e+000	
5.090000e-001	-3.208006e+000	-8.319628e+000	-8.319628e+000	-5.874366e+001	-8.890326e+001	-2.689033e+002	-5.756498e+001	4.084169e+001	4.084169e+001	-3.012148e+000	-7.819280e+000	-7.819280e+000	
5.100000e-001	-3.214006e+000	-8.402630e+000	-8.402630e+000	-5.535819e+001	-8.592022e+001	-2.659202e+002	-5.698503e+001	6.602736e+001	6.602736e+001	-3.000515e+000	-7.823982e+000	-7.823982e+000	
5.110000e-001	-3.216440e+000	-8.429191e+000	-8.429191e+000	-6.728689e+001	4.218376e+001	-1.378162e+002	-5.562683e+001	3.362184e+001	3.362184e+001	-2.993567e+000	-7.927642e+000	-7.927642e+000	
5.120000e-001	-3.218413e+000	-8.327309e+000	-8.327309e+000	-5.689065e+001	7.743272e+001	-1.025673e+002	-5.828025e+001	8.017464e+001	8.017464e+001	-2.995916e+000	-7.877272e+000	-7.877272e+000	
5.130000e-001	-3.216957e+000	-8.335537e+000	-8.335537e+000	-5.736749e+001	8.137528e+001	-9.862472e+001	-5.892223e+001	7.941384e+001	7.941384e+001	-2.998985e+000	-7.853886e+000	-7.853886e+000	
5.140000e-001	-3.212783e+000	-8.360923e+000	-8.360923e+000	-5.851645e+001	-8.728460e+001	-8.728460e+001	-5.726857e+001	6.951565e+001	6.951565e+001	-3.001209e+000	-7.865036e+000	-7.865036e+000	
5.150000e-001	-3.212552e+000	-8.413297e+000	-8.413297e+000	-6.053889e+001	-7.440695e+001	-7.440695e+001	-5.619304e+001	7.112936e+001	7.112936e+001	-2.993629e+000	-7.943686e+000	-7.943686e+000	
5.160000e-001	-3.210327e+000	-8.454430e+000	-8.454430e+000	-5.655090e+001	8.403207e+001	-9.596793e+001	-5.754704e+001	7.694978e+001	7.694978e+001	-3.003700e+000	-7.949937e+000	-7.949937e+000	
5.170000e-001	-3.206633e+000	-8.495551e+000	-8.495551e+000	-5.875738e+001	7.781448e+001	-1.021855e+002	-6.079944e+001	3.756678e+001	3.756678e+001	-2.993185e+000	-7.960309e+000	-7.960309e+000	
5.180000e-001	-3.205296e+000	-8.412843e+000	-8.412843e+000	-5.621669e+001	8.528718e+001	-9.471282e+001	-5.487322e+001	6.701334e+001	6.701334e+001	-2.993801e+000	-7.939632e+000	-7.939632e+000	
5.190000e-001	-3.204411e+000	-8.458664e+000	-8.458664e+000	-5.575454e+001	5.893297e+001	-1.210670e+002	-5.875636e+001	8.370154e+001	8.370154e+001	-2.997672e+000	-8.051986e+000	-8.051986e+000	
5.200000e-001	-3.207631e+000	-8.429681e+000	-8.429681e+000	-5.753186e+001	7.213905e+001	-1.078610e+002	-5.655710e+001	6.163795e+001	6.163795e+001	-3.001469e+000	-8.015263e+000	-8.015263e+000	
5.210000e-001	-3.211307e+000	-8.553355e+000	-8.553355e+000	-5.714604e+001	6.692935e+001	-1.130707e+002	-5.731129e+001	8.226554e+001	8.226554e+001	-3.008839e+000	-7.980486e+000	-7.980486e+000	
5.220000e-001	-3.202275e+000	-8.522272e+000	-8.522272e+000	-5.582057e+001	5.993829e+001	-1.200617e+002	-5.692649e+001	7.712248e+001	7.712248e+001	-3.002243e+000	-7.990526e+000	-7.990526e+000	
5.230000e-001	-3.213137e+000	-8.465024e+000	-8.465024e+000	-5.829234e+001	7.839887e+001	-1.016011e+002	-5.963540e+001	7.676406e+001	7.676406e+001	-3.002471e+000	-8.067533e+000	-8.067533e+000	
5.240000e-001	-3.217938e+000	-8.483703e+000	-8.483703e+000	-5.853331e+001	4.672552e+001	-1.332745e+002	-5.519469e+001	8.033863e+001	8.033863e+001	-3.000470e+000	-8.077845e+000	-8.077845e+000	
5.250000e-001	-3.212301e+000	-8.614216e+000	-8.614216e+000	-5.317918e+001	8.416320e+001	-9.583680e+001	-5.760000e+001	6.097785e+001	6.097785e+001	-3.012856e+000	-8.093461e+000	-8.093461e+000	
5.260000e-001	-3.215070e+000	-8.470648e+000	-8.470648e+000	-5.607098e+001	6.801423e+001	-1.119858e+002	-5.541106e+001	8.393669e+001	8.393669e+001	-3.007909e+000	-8.169643e+000	-8.169643e+000	
5.270000e-001	-3.220735e+000	-8.574665e+000	-8.574665e+000	-5.521738e+001	5.826185e+001	-1.217382e+002	-6.090422e+001	5.232456e+001	5.232456e+001	-3.003117e+000	-8.149764e+000	-8.149764e+000	
5.280000e-001	-3.216105e+000	-8.732116e+000	-8.732116e+000	-5.582516e+001	8.460728e+001	-9.539272e+001	-5.980142e+001	5.794685e+001	5.794685e+001	-3.004265e+000	-8.173169e+000	-8.173169e+000	
5.290000e-001	-3.222084e+000	-8.609257e+000	-8.609257e+000	-5.984032e+001	8.349381e+001	-9.650619e+001	-5.616882e+001	6.451795e+001	6.451795e+001	-3.010771e+000	-8.067271e+000	-8.067271e+000	
5.300000e-001	-3.212086e+000	-8.726249e+000	-8.726249e+000	-6.027213e+001	7.114372e+001	-1.088563e+002	-5.817847e+001	7.341866e+001	7.341866e+001	-3.003432e+000	-8.153085e+000	-8.153085e+000	
5.310000e-001	-3.214992e+000	-8.695111e+000	-8.695111e+000	-5.397398e+001	-8.867850e+001	-8.867850e+001	-6.104858e+001	7.174307e+001	7.174307e+001	-2.993778e+000	-8.185067e+000	-8.185067e+000	
5.320000e-001	-3.222777e+000	-8.723458e+000	-8.723458e+000	-5.683728e+001	-8.608995e+001	-8.608995e+001	-5.514182e+001	7.330457e+001	7.330457e+001	-3.011112e+000	-8.263577e+000	-8.263577e+000	
5.330000e-001	-3.213280e+000	-8.632510e+000	-8.632510e+000	-5.631479e+001	6.018305e+001	-1.198169e+002	-5.439004e+001	6.719619e+001	6.719619e+001	-3.001054e+000	-8.215319e+000	-8.215319e+000	
5.340000e-001	-3.211459e+000	-8.683964e+000	-8.683964e+000	-5.727015e+001	7.316117e+001	-1.068388e+002	-5.543694e+001	6.636403e+001	6.636403e+001	-3.002877e+000	-8.166408e+000	-8.166408e+000	
5.350000e-001	-3.206274e+000	-8.700753e+000	-8.700753e+000	-6.068946e+001	8.426940e+001	-9.573060e+001	-5.770601e+001	6.984578e+001	6.984578e+001	-3.009584e+000	-8.271302e+000	-8.271302e+000	
5.360000e-001	-3.208772e+000	-8.727050e+000	-8.727050e+000	-5.788651e+001	-8.032056e+001	-8.032056e+001	-5.569216e+001	6.106181e+001	6.106181e+001	-3.007281e+000	-8.328662e+000	-8.328662e+000	
5.370000e-001	-3.219390e+000	-8.742376e+000	-8.742376e+000	-5.561642e+001	8.499783e+001	-9.500217e+001	-5.468173e+001	6.051968e+001	6.051968e+001	-3.000245e+000	-8.319743e+000	-8.319743e+000	
5.380000e-001	-3.221071e+000	-8.848780e+000	-8.848780e+000	-5.905681e+001	8.252358e+001	-9.747642e+001	-5.747402e+001	8.811524e+001	8.811524e+001	-3.000776e+000	-8.237533e+000	-8.237533e+000	
5.390000e-001	-3.220648e+000	-8.829540e+000	-8.829540e+000	-5.684860e+001	4.497754e+001	-1.350225e+002	-5.863538e+001	-6.860780e+001	1.113922e+002	-3.008607e+000	-8.270530e+000	-8.270530e+000	
5.400000e-001	-3.213585e+000	-8.780001e+000	-8.780001e+000	-5.810289e+001	-8.133040e+001	-2.613304e+002	-5.308250e+001	6.926546e+001	2.492655e+002	-3.001546e+000	-8.342610e+000	-8.342610e+000	
5.410000e-001	-3.218887e+000	-8.777557e+000	-8.777557e+000	-5.778396e+001	5.824943e+001	-1.217506e+002	-5.364984e+001	4.714024e+001	2.271402e+002	-2.996839e+000	-8.421896e+000	-8.421896e+000	
5.420000e-001	-3.212727e+000	-8.842433e+000	-8.842433e+000	-5.729015e+001	8.797657e+001	-9.202343e+001	-5.807752e+001	-7.138534e+001	1.086147e+002	-3.002371e+000	-8.321962e+000	-8.321962e+000	
5.430000e-001	-3.197494e+000	-8.786601e+000	-8.786601e+000	-5.391646e+001	-7.991019e+001	-7.991019e+001	-5.883515e+001	7.358091e+001	7.358091e+001	-3.003871e+000	-8.399223e+000	-8.399223e+000	
5.440000e-001	-3.208369e+000	-8.827398e+000	-8.827398e+000	-5.544383e+001	6.218792e+001	-1.178121e+002	-5.558335e+001	-8.909136e+001	9.090864e+001	-3.002869e+000	-8.342357e+000	-8.342357e+000	
5.450000e-001	-3.206590e+000	-8.821574e+000	-8.821574e+000	-5.400670e+001	8.679676e+001	-9.320324e+001	-5.308312e+001	6.895703e+001	6.895703e+001	-3.007722e+000	-8.401999e+000	-8.401999e+000	
5.460000e-001	-3.188689e+000	-8.814646e+000	-8.814646e+000	-5.691380e+001	4.294314e+001	-1.370569e+002	-5.289064e+001	6.445349e+001	6.445349e+001	-3.000885e+000	-8.414436e+000	-8.414436e+000	
5.470000e-001	-3.207070e+000	-8.862053e+000	-8.862053e+000	-5.335063e+001	6.237954e+001	-1.176205e+002	-5.710383e+001	-8.384316e+001	9.615684e+001	-3.004254e+000	-8.466582e+000	-8.466582e+000	
5.480000e-001	-3.211434e+000	-8.882663e+000	-8.882663e+000	-5.686612e+001	6.298021e+001	-1.170198e+002	-6.008592e+001	8.181715e+001	8.181715e+001	-3.007585e+000	-8.414861e+000	-8.414861e+000	
5.490000e-001	-3.208240e+000	-8.888779e+000	-8.888779e+000	-5.568885e+001	8.591785e+001	-9.408215e+001	-5.506505e+001	8.873172e+001	8.873172e+001	-3.008178e+000	-8.523929e+000	-8.523929e+000	
5.500000e-001	-3.221719e+000	-8.902511e+000	-8.902511e+000	-5.320711e+001	6.535246e+001	-1.146475e+002	-5.613977e+001	7.903708e+001	7.903708e+001	-2.997874e+000	-8.418844e+000	-8.418844e+000	
5.510000e-001	-3.212230e+000	-8.853802e+000	-8.853802e+000	-5.907375e+001	-7.893700e+001	-7.893700e+001	-5.699688e+001	8.931860e+001	8.931860e+001	-2.996881e+000	-8.458927e+000	-8.458927e+000	
5.520000e-001	-3.202556e+000	-8.873775e+000	-8.873775e+000	-5.748920e+001	4.946263e+001	4.946263e+001	-5.643974e+001	6.260041e+001	6.260041e+001	-2.996648e+000	-8.417504e+000	-8.417504e+000	
5.530000e-001	-3.222014e+000	-8.966775e+000	-8.966775e+000	-5.498861e+001	5.577790e+001	5.577790e+001	-5.937290e+001	8.716739e+001	8.716739e+001	-2.999455e+000	-8.510885e+000	-8.510885e+000	
5.540000e-001	-3.208776e+000	-8.965244e+000	-8.965244e+000	-5.671032e+001	7.064610e+001	7.064610e+001	-5.450718e+001	8.459637e+001	8.459637e+001	-2.994244e+000	-8.506109e+000	-8.506109e+000	
5.550000e-001	-3.207756e+000	-8.956229e+000	-8.956229e+000	-6.332047e+001	8.131336e+001	8.131336e+001	-5.811603e+001	8.661504e+001	8.661504e+001	-2.997821e+000	-8.533571e+000	-8.533571e+000	
5.560000e-001	-3.216107e+000	-8.883332e+000	-8.883332e+000	-5.848799e+001	4.058875e+001	4.058875e+001	-5.948545e+001	7.822578e+001	7.822578e+001	-2.994191e+000	-8.580734e+000	-8.580734e+000	
5.570000e-001	-3.202056e+000	-9.043166e+000	-9.043166e+000	-5.971887e+001	4.683532e+001	4.683532e+001	-5.637430e+001	7.307668e+001	7.307668e+001	-2.991799e+000	-8.493008e+000	-8.493008e+000	
5.580000e-001	-3.203434e+000	-8.942317e+000	-8.942317e+000	-5.644704e+001	7.374845e+001	7.374845e+001	-5.770099e+001	6.372740e+001	6.372740e+001	-2.995236e+000	-8.534110e+000	-8.534110e+000	
5.590000e-001	-3.218364e+000	-8.942113e+000	-8.942113e+000	-5.557444e+001	-6.874157e+001	1.112584e+002	-5.604757e+001	8.170350e+001	8.170350e+001	-2.995096e+000	-8.586856e+000	-8.586856e+000	
5.600000e-001	-3.220369e+000	-9.026445e+000	-9.026445e+000	-5.516040e+001	-7.754280e+001	1.024572e+002	-5.960260e+001	-7.905807e+001	1.009419e+002	-2.997057e+000	-8.602607e+000	-8.602607e+000	
5.610000e-001	-3.196348e+000	-9.001605e+000	-9.001605e+000	-5.702436e+001	-7.325144e+001	1.067486e+002	-5.669729e+001	8.258185e+001	8.258185e+001	-3.000096e+000	-8.514747e+000	-8.514747e+000	
5.620000e-001	-3.209384e+000	-9.117824e+000	-9.117824e+000	-5.788381e+001	6.310018e+001	2.431002e+002	-6.042690e+001	1.813292e+001	1.813292e+001	-2.995489e+000	-8.622396e+000	-8.622396e+000	
5.630000e-001	-3.195024e+000	-9.109225e+000	-9.109225e+000	-5.568033e+001	5.921174e+001	2.392117e+002	-5.934645e+001	6.790651e+001	6.790651e+001	-2.998310e+000	-8.609242e+000	-8.609242e+000	
5.640000e-001	-3.207641e+000	-9.099109e+000	-9.099109e+000	-5.392769e+001	5.290502e+001	2.329050e+002	-5.540743e+001	7.695558e+001	7.695558e+001	-3.001965e+000	-8.603731e+000	-8.603731e+000	
5.650000e-001	-3.217451e+000	-9.119342e+000	-9.119342e+000	-5.621205e+001	7.226710e+001	2.522671e+002	-5.557951e+001	6.606382e+001	6.606382e+001	-3.008217e+000	-8.705919e+000	-8.705919e+000	
5.660000e-001	-3.205571e+000	-9.110578e+000	-9.110578e+000	-5.349703e+001	8.751286e+001	2.675129e+002	-5.433266e+001	8.772392e+001	8.772392e+001	-2.993645e+000	-8.647288e+000	-8.647288e+000	
5.670000e-001	-3.211684e+000	-9.175215e+000	-9.175215e+000	-5.535952e+001	6.706942e+001	2.470694e+002	-6.050705e+001	6.972649e+001	6.972649e+001	-3.008958e+000	-8.649716e+000	-8.649716e+000	
5.680000e-001	-3.213680e+000	-9.105706e+000	-9.105706e+000	-5.544813e+001	-8.792547e+001	2.720745e+002	-5.433163e+001	-8.403483e+001	9.596517e+001	-2.998140e+000	-8.527239e+000	-8.527239e+000	
5.690000e-001	-3.208639e+000	-9.199739e+000	-9.199739e+000	-5.640118e+001	-7.908098e+001	2.809190e+002	-5.489283e+001	7.620892e+001	7.620892e+001	-2.990513e+000	-8.631789e+000	-8.631789e+000	
5.700000e-001	-3.210360e+000	-9.164378e+000	-9.164378e+000	-5.969828e+001	-8.111417e+001	2.788858e+002	-5.634667e+001	-8.236446e+001	9.763554e+001	-3.003960e+000	-8.656958e+000	-8.656958e+000	
5.710000e-001	-3.206527e+000	-9.166374e+000	-9.166374e+000	-5.757378e+001	-8.755425e+001	2.724458e+002	-5.998976e+001	7.557356e+001	7.557356e+001	-2.978814e+000	-8.679378e+000	-8.679378e+000	
5.720000e-001	-3.219062e+000	-9.255015e+000	-9.255015e+000	-5.248195e+001	8.650969e+001	2.665097e+002	-5.354641e+001	7.823938e+001	7.823938e+001	-3.011263e+000	-8.717380e+000	-8.717380e+000	
5.730000e-001	-3.214920e+000	-9.189461e+000	-9.189461e+000	-5.562899e+001	8.602327e+001	2.660233e+002	-5.665161e+001	-8.061986e+001	9.938014e+001	-2.989548e+000	-8.690559e+000	-8.690559e+000	
5.740000e-001	-3.213912e+000	-9.202455e+000	-9.202455e+000	-5.406164e+001	8.943358e+001	2.694336e+002	-5.359586e+001	7.831231e+001	7.831231e+001	-2.989927e+000	-8.769284e+000	-8.769284e+000	
5.750000e-001	-3.217928e+000	-9.226047e+000	-9.226047e+000	-5.760824e+001	4.606478e+001	2.260648e+002	-5.353386e+001	7.513473e+001	7.513473e+001	-3.001883e+000	-8.774455e+000	-8.774455e+000	
5.760000e-001	-3.220265e+000	-9.229200e+000	-9.229200e+000	-5.614628e+001	7.846967e+001	2.584697e+002	-5.539890e+001	6.494044e+001	6.494044e+001	-2.993695e+000	-8.786295e+000	-8.786295e+000	
5.770000e-001	-3.221537e+000	-9.211511e+000	-9.211511e+000	-5.743318e+001	7.841611e+001	2.584161e+002	-5.535926e+001	7.953148e+001	7.953148e+001	-3.012023e+000	-8.735862e+000	-8.735862e+000	
5.780000e-001	-3.210122e+000	-9.251296e+000	-9.251296e+000	-5.434086e+001	8.058627e+001	2.605863e+002	-5.872629e+001	8.470263e+001	8.470263e+001	-2.985272e+000	-8.797089e+000	-8.797089e+000	
5.790000e-001	-3.217843e+000	-9.338888e+000	-9.338888e+000	-5.441927e+001	8.204322e+001	2.620432e+002	-5.626197e+001	-8.049218e+001	9.950782e+001	-2.988097e+000	-8.799879e+000	-8.799879e+000	
5.800000e-001	-3.214509e+000	-9.217795e+000	-9.217795e+000	-5.564062e+001	5.637974e+001	2.363797e+002	-5.936136e+001	-6.938249e+001	1.106175e+002	-3.001677e+000	-8.874493e+000	-8.874493e+000	
5.810000e-001	-3.215104e+000	-9.329754e+000	-9.329754e+000	-5.832634e+001	5.473148e+001	2.347315e+002	-5.974532e+001	-8.431436e+001	9.568564e+001	-2.995259e+000	-8.848940e+000	-8.848940e+000	
5.820000e-001	-3.199640e+000	-9.357570e+000	-9.357570e+000	-5.526818e+001	6.998673e+001	2.499867e+002	-5.483774e+001	7.032046e+001	7.032046e+001	-3.006941e+000	-8.864556e+000	-8.864556e+000	
5.830000e-001	-3.219139e+000	-9.367175e+000	-9.367175e+000	-5.968410e+001	-8.485590e+001	2.751441e+002	-5.724631e+001	8.312322e+001	8.312322e+001	-2.998845e+000	-8.883229e+000	-8.883229e+000	
5.840000e-001	-3.214697e+000	-9.301677e+000	-9.301677e+000	-5.681426e+001	8.294674e+001	2.629467e+002	-5.694558e+001	6.108129e+001	6.108129e+001	-2.997963e+000	-8.905724e+000	-8.905724e+000	
5.850000e-001	-3.237408e+000	-9.374784e+000	-9.374784e+000	-5.665824e+001	7.540419e+001	2.554042e+002	-5.402768e+001	7.028865e+001	7.028865e+001	-2.991745e+000	-8.880331e+000	-8.880331e+000	
5.860000e-001	-3.203022e+000	-9.403596e+000	-9.403596e+000	-5.596433e+001	8.718162e+001	2.671816e+002	-5.546812e+001	6.058461e+001	6.058461e+001	-2.989753e+000	-8.994870e+000	-8.994870e+000	
5.870000e-001	-3.226131e+000	-9.370383e+000	-9.370383e+000	-5.299518e+001	8.284170e+001	2.628417e+002	-5.512903e+001	6.213100e+001	6.213100e+001	-2.999018e+000	-8.973831e+000	-8.973831e+000	
5.880000e-001	-3.215844e+000	-9.348109e+000	-9.348109e+000	-5.389155e+001	8.427463e+001	2.642746e+002	-5.708285e+001	6.026848e+001	6.026848e+001	-3.003832e+000	-8.949485e+000	-8.949485e+000	
5.890000e-001	-3.212723e+000	-9.387222e+000	-9.387222e+000	-5.462239e+001	8.162861e+001	2.616286e+002	-5.553683e+001	-7.305470e+001	-7.305470e+001	-2.995628e+000	-8.946135e+000	-8.946135e+000	
5.900000e-001	-3.218447e+000	-9.443103e+000	-9.443103e+000	-5.305967e+001	7.746071e+001	2.574607e+002	-5.969296e+001	-7.252203e+001	-7.252203e+001	-2.987644e+000	-8.910316e+000	-8.910316e+000	
5.910000e-001	-3.227092e+000	-9.547676e+000	-9.547676e+000	-5.555640e+001	5.466292e+001	2.346629e+002	-5.735640e+001	-8.572174e+001	-8.572174e+001	-2.997598e+000	-8.994912e+000	-8.994912e+000	
5.920000e-001	-3.223906e+000	-9.496145e+000	-9.496145e+000	-5.617501e+001	-6.697495e+001	1.130250e+002	-5.627516e+001	8.706342e+001	-9.293658e+001	-2.985181e+000	-8.979144e+000	-8.979144e+000	
5.930000e-001	-3.207697e+000	-9.467540e+000	-9.467540e+000	-5.407083e+001	6.634836e+001	2.463484e+002	-5.458200e+001	7.138517e+001	-1.086148e+002	-2.994472e+000	-9.017147e+000	-9.017147e+000	
5.940000e-001	-3.224551e+000	-9.497211e+000	-9.497211e+000	-5.369043e+001	7.503903e+001	2.550390e+002	-5.719732e+001	8.236568e+001	-9.763432e+001	-3.000589e+000	-9.019173e+000	-9.019173e+000	
5.950000e-001	-3.225456e+000	-9.538992e+000	-9.538992e+000	-5.887914e+001	5.699320e+001	2.369932e+002	-5.293848e+001	8.956793e+001	-9.043207e+001	-2.992917e+000	-9.042782e+000	-9.042782e+000	
5.960000e-001	-3.227995e+000	-9.570258e+000	-9.570258e+000	-5.320366e+001	5.873881e+001	2.387388e+002	-5.456306e+001	5.642787e+001	-1.235721e+002	-3.010967e+000	-9.006150e+000	-9.006150e+000	
5.970000e-001	-3.229794e+000	-9.569848e+000	-9.569848e+000	-5.677064e+001	5.466707e+001	2.346671e+002	-5.459653e+001	4.550770e+001	-1.344923e+002	-3.002928e+000	-8.987565e+000	-8.987565e+000	
5.980000e-001	-3.219127e+000	-9.665019e+000	-9.665019e+000	-5.180502e+001	7.492169e+001	2.549217e+002	-5.513450e+001	7.400415e+001	-1.059958e+002	-3.005897e+000	-9.168479e+000	-9.168479e+000	
5.990000e-001	-3.217095e+000	-9.625302e+000	-9.625302e+000	-5.542300e+001	8.455689e+001	2.645569e+002	-5.578352e+001	7.716155e+001	-1.028385e+002	-2.998124e+000	-9.163406e+000	-9.163406e+000	
6.000000e-001	-3.200741e+000	-9.626221e+000	-9.626221e+000	-5.301142e+001	8.950527e+001	2.695053e+002	-5.838917e+001	6.537112e+001	-1.146289e+002	-2.998739e+000	-9.087537e+000	-9.087537e+000	
6.010000e-001	-3.224337e+000	-9.697328e+000	-9.697328e+000	-5.631756e+001	6.520664e+001	2.452066e+002	-5.954109e+001	-8.121255e+001	-8.121255e+001	-2.994756e+000	-9.080036e+000	-9.080036e+000	
6.020000e-001	-3.218651e+000	-9.670754e+000	-9.670754e+000	-5.334200e+001	5.835334e+001	2.383533e+002	-5.601395e+001	7.375435e+001	-1.062456e+002	-3.005886e+000	-9.132189e+000	-9.132189e+000	
