Frequency	 |S11|	 Phase(S11)	 ExtPh(S11)	 |S21|	 Phase(S21)	 ExtPh(S21)	 |S12|	 Phase(S12)	 ExtPh(S12)	 |S22|	 Phase(S22)	 ExtPh(S22) 
5.000000e-001	-3.150758e+000	-8.267173e+000	-8.267173e+000	-6.092948e+001	8.371319e+001	8.371319e+001	-5.909000e+001	7.577603e+001	7.577603e+001	-3.003209e+000	-7.842621e+000	-7.842621e+000	
5.010000e-001	-3.159873e+000	-8.369629e+000	-8.369629e+000	-5.694051e+001	7.708079e+001	7.708079e+001	-5.649293e+001	8.725047e+001	8.725047e+001	-3.011916e+000	-7.888720e+000	-7.888720e+000	
5.020000e-001	-3.146587e+000	-8.414061e+000	-8.414061e+000	-5.426451e+001	7.876070e+001	7.876070e+001	-5.511031e+001	6.765967e+001	6.765967e+001	-3.005332e+000	-7.823836e+000	-7.823836e+000	
5.030000e-001	-3.154976e+000	-8.419908e+000	-8.419908e+000	-6.370528e+001	8.895209e+001	8.895209e+001	-5.668628e+001	8.364031e+001	8.364031e+001	-2.998362e+000	-7.932753e+000	-7.932753e+000	
5.040000e-001	-3.162002e+000	-8.382118e+000	-8.382118e+000	-5.705934e+001	-7.815657e+001	1.018434e+002	-5.436047e+001	8.637561e+001	8.637561e+001	-3.014163e+000	-7.927089e+000	-7.927089e+000	
5.050000e-001	-3.164695e+000	-8.392966e+000	-8.392966e+000	-5.450552e+001	-8.100562e+001	9.899438e+001	-5.321083e+001	7.468793e+001	7.468793e+001	-3.019637e+000	-7.936045e+000	-7.936045e+000	
5.060000e-001	-3.160635e+000	-8.467749e+000	-8.467749e+000	-5.713028e+001	6.194812e+001	6.194812e+001	-5.671029e+001	8.556503e+001	8.556503e+001	-3.009629e+000	-8.017147e+000	-8.017147e+000	
5.070000e-001	-3.152568e+000	-8.482536e+000	-8.482536e+000	-5.550553e+001	8.180631e+001	8.180631e+001	-5.751248e+001	-7.091787e+001	1.090821e+002	-3.003280e+000	-8.063591e+000	-8.063591e+000	
5.080000e-001	-3.158584e+000	-8.514333e+000	-8.514333e+000	-5.869386e+001	6.237356e+001	6.237356e+001	-6.009086e+001	-6.133876e+001	1.186612e+002	-3.010864e+000	-7.993907e+000	-7.993907e+000	
5.090000e-001	-3.154040e+000	-8.503457e+000	-8.503457e+000	-6.026228e+001	-7.598849e+001	-7.598849e+001	-5.957372e+001	7.794429e+001	2.579443e+002	-3.001098e+000	-8.013003e+000	-8.013003e+000	
5.100000e-001	-3.160286e+000	-8.545220e+000	-8.545220e+000	-5.721004e+001	7.457902e+001	-1.054210e+002	-5.514593e+001	7.355999e+001	2.535600e+002	-3.004840e+000	-8.106763e+000	-8.106763e+000	
5.110000e-001	-3.163282e+000	-8.620595e+000	-8.620595e+000	-5.984734e+001	7.713558e+001	-1.028644e+002	-5.738339e+001	-7.533488e+001	2.846651e+002	-3.009133e+000	-8.105524e+000	-8.105524e+000	
5.120000e-001	-3.158335e+000	-8.545287e+000	-8.545287e+000	-5.580362e+001	6.975079e+001	-1.102492e+002	-5.684562e+001	-7.379196e+001	2.862080e+002	-3.004620e+000	-8.029415e+000	-8.029415e+000	
5.130000e-001	-3.159140e+000	-8.597039e+000	-8.597039e+000	-5.325511e+001	7.371652e+001	-1.062835e+002	-5.683318e+001	6.896784e+001	2.489678e+002	-3.007441e+000	-8.014446e+000	-8.014446e+000	
5.140000e-001	-3.154672e+000	-8.619085e+000	-8.619085e+000	-5.500402e+001	5.552070e+001	-1.244793e+002	-5.516909e+001	7.837268e+001	2.583727e+002	-3.008704e+000	-8.129707e+000	-8.129707e+000	
5.150000e-001	-3.155824e+000	-8.617099e+000	-8.617099e+000	-5.428233e+001	8.089499e+001	-9.910501e+001	-5.596709e+001	7.550583e+001	2.555058e+002	-3.004735e+000	-8.129474e+000	-8.129474e+000	
5.160000e-001	-3.161405e+000	-8.729084e+000	-8.729084e+000	-5.833618e+001	8.816897e+001	-9.183103e+001	-5.636536e+001	7.291564e+001	2.529156e+002	-3.006637e+000	-8.166262e+000	-8.166262e+000	
5.170000e-001	-3.154399e+000	-8.761203e+000	-8.761203e+000	-5.820309e+001	-8.830682e+001	-8.830682e+001	-6.146993e+001	3.759562e+001	2.175956e+002	-3.018719e+000	-8.210071e+000	-8.210071e+000	
5.180000e-001	-3.155864e+000	-8.720266e+000	-8.720266e+000	-5.291952e+001	7.400012e+001	-1.059999e+002	-5.483605e+001	8.464321e+001	2.646432e+002	-3.011583e+000	-8.161599e+000	-8.161599e+000	
5.190000e-001	-3.153144e+000	-8.704744e+000	-8.704744e+000	-5.662398e+001	6.150544e+001	-1.184946e+002	-5.784532e+001	5.579818e+001	2.357982e+002	-3.022211e+000	-8.228886e+000	-8.228886e+000	
5.200000e-001	-3.159512e+000	-8.695721e+000	-8.695721e+000	-5.789551e+001	7.985156e+001	-1.001484e+002	-6.085169e+001	8.204492e+001	2.620449e+002	-3.001916e+000	-8.198883e+000	-8.198883e+000	
5.210000e-001	-3.158398e+000	-8.754195e+000	-8.754195e+000	-6.103776e+001	7.709419e+001	-1.029058e+002	-5.567286e+001	8.563875e+001	2.656387e+002	-3.007933e+000	-8.339833e+000	-8.339833e+000	
5.220000e-001	-3.147261e+000	-8.809937e+000	-8.809937e+000	-5.873339e+001	7.612224e+001	-1.038778e+002	-5.506269e+001	7.437749e+001	2.543775e+002	-2.999483e+000	-8.309104e+000	-8.309104e+000	
5.230000e-001	-3.156947e+000	-8.709493e+000	-8.709493e+000	-5.623737e+001	-8.712178e+001	-8.712178e+001	-5.612854e+001	8.904969e+001	2.690497e+002	-3.019275e+000	-8.274094e+000	-8.274094e+000	
5.240000e-001	-3.163561e+000	-8.832117e+000	-8.832117e+000	-5.987808e+001	-7.672932e+001	-7.672932e+001	-6.029842e+001	7.441920e+001	2.544192e+002	-3.002028e+000	-8.376451e+000	-8.376451e+000	
5.250000e-001	-3.165110e+000	-8.805914e+000	-8.805914e+000	-5.524385e+001	7.195737e+001	-1.080426e+002	-5.376423e+001	7.183622e+001	2.518362e+002	-3.011351e+000	-8.331370e+000	-8.331370e+000	
5.260000e-001	-3.142858e+000	-8.902782e+000	-8.902782e+000	-6.447713e+001	4.375298e+001	-1.362470e+002	-5.416915e+001	5.556520e+001	2.355652e+002	-3.001258e+000	-8.304376e+000	-8.304376e+000	
5.270000e-001	-3.152484e+000	-8.911980e+000	-8.911980e+000	-6.131797e+001	7.809255e+001	-1.019074e+002	-5.944885e+001	-8.479292e+001	2.752071e+002	-3.011178e+000	-8.382750e+000	-8.382750e+000	
5.280000e-001	-3.147107e+000	-8.874970e+000	-8.874970e+000	-5.889761e+001	5.849784e+001	-1.215022e+002	-5.953261e+001	5.911816e+001	2.391182e+002	-3.012413e+000	-8.401811e+000	-8.401811e+000	
5.290000e-001	-3.156419e+000	-8.892671e+000	-8.892671e+000	-5.665821e+001	7.756739e+001	-1.024326e+002	-5.971153e+001	6.113110e+001	2.411311e+002	-3.009748e+000	-8.388846e+000	-8.388846e+000	
5.300000e-001	-3.156985e+000	-8.895128e+000	-8.895128e+000	-5.605679e+001	6.573400e+001	-1.142660e+002	-5.710710e+001	4.215558e+001	2.221556e+002	-3.005425e+000	-8.340407e+000	-8.340407e+000	
5.310000e-001	-3.165062e+000	-8.914632e+000	-8.914632e+000	-5.927581e+001	3.965220e+001	-1.403478e+002	-5.726928e+001	7.608539e+001	2.560854e+002	-3.007629e+000	-8.448522e+000	-8.448522e+000	
5.320000e-001	-3.155695e+000	-9.001981e+000	-9.001981e+000	-5.414099e+001	8.305001e+001	-9.694999e+001	-6.225959e+001	7.940205e+001	2.594021e+002	-3.014269e+000	-8.463168e+000	-8.463168e+000	
5.330000e-001	-3.165379e+000	-8.927827e+000	-8.927827e+000	-5.907017e+001	-8.875330e+001	-8.875330e+001	-5.699337e+001	4.847731e+001	2.284773e+002	-3.005383e+000	-8.463462e+000	-8.463462e+000	
5.340000e-001	-3.148466e+000	-8.930496e+000	-8.930496e+000	-5.603093e+001	-8.344723e+001	-8.344723e+001	-6.071319e+001	5.540890e+001	2.354089e+002	-2.999162e+000	-8.405290e+000	-8.405290e+000	
5.350000e-001	-3.157042e+000	-9.009712e+000	-9.009712e+000	-5.511531e+001	-8.851168e+001	-8.851168e+001	-5.698604e+001	-8.945799e+001	2.705420e+002	-3.013583e+000	-8.568968e+000	-8.568968e+000	
5.360000e-001	-3.156618e+000	-9.064695e+000	-9.064695e+000	-5.573296e+001	6.711063e+001	-1.128894e+002	-5.445655e+001	7.313768e+001	2.531377e+002	-3.004855e+000	-8.472024e+000	-8.472024e+000	
5.370000e-001	-3.156617e+000	-9.003628e+000	-9.003628e+000	-5.578247e+001	5.137415e+001	-1.286258e+002	-5.549751e+001	-7.335285e+001	2.866472e+002	-3.010604e+000	-8.459125e+000	-8.459125e+000	
5.380000e-001	-3.152151e+000	-8.986355e+000	-8.986355e+000	-5.923259e+001	6.764480e+001	-1.123552e+002	-5.586409e+001	5.580062e+001	4.158006e+002	-3.010833e+000	-8.565712e+000	-8.565712e+000	
5.390000e-001	-3.145274e+000	-9.054777e+000	-9.054777e+000	-5.846520e+001	4.562295e+001	-1.343770e+002	-5.716703e+001	-8.770219e+001	4.522978e+002	-3.001229e+000	-8.603338e+000	-8.603338e+000	
5.400000e-001	-3.151557e+000	-9.059025e+000	-9.059025e+000	-5.507739e+001	8.994980e+001	-9.005020e+001	-5.722066e+001	4.193129e+001	5.819313e+002	-3.009425e+000	-8.565380e+000	-8.565380e+000	
5.410000e-001	-3.159508e+000	-9.144830e+000	-9.144830e+000	-6.073233e+001	7.322538e+001	-1.067746e+002	-5.629482e+001	7.141034e+001	6.114103e+002	-3.004057e+000	-8.536647e+000	-8.536647e+000	
5.420000e-001	-3.156112e+000	-9.106441e+000	-9.106441e+000	-5.654670e+001	3.999353e+001	-1.400065e+002	-5.604045e+001	5.866687e+001	5.986669e+002	-3.014916e+000	-8.641851e+000	-8.641851e+000	
5.430000e-001	-3.153509e+000	-9.054724e+000	-9.054724e+000	-6.278563e+001	8.475690e+001	-9.524310e+001	-5.666376e+001	6.469438e+001	6.046944e+002	-3.010283e+000	-8.675735e+000	-8.675735e+000	
5.440000e-001	-3.168086e+000	-9.125338e+000	-9.125338e+000	-5.829964e+001	5.519129e+001	-1.248087e+002	-6.174797e+001	6.910983e+001	6.091098e+002	-3.002701e+000	-8.593640e+000	-8.593640e+000	
5.450000e-001	-3.166646e+000	-9.135430e+000	-9.135430e+000	-5.912813e+001	-6.303252e+001	-2.430325e+002	-5.525195e+001	7.192955e+001	6.119295e+002	-3.009329e+000	-8.675921e+000	-8.675921e+000	
5.460000e-001	-3.149818e+000	-9.101769e+000	-9.101769e+000	-5.433180e+001	7.473434e+001	-1.052657e+002	-5.717039e+001	8.008921e+001	6.200892e+002	-2.995432e+000	-8.652553e+000	-8.652553e+000	
5.470000e-001	-3.144439e+000	-9.133264e+000	-9.133264e+000	-5.567372e+001	4.712122e+001	-1.328788e+002	-5.879991e+001	-8.490370e+001	6.350963e+002	-2.997133e+000	-8.619499e+000	-8.619499e+000	
5.480000e-001	-3.162126e+000	-9.149796e+000	-9.149796e+000	-5.663140e+001	7.915097e+001	-1.008490e+002	-6.006465e+001	5.585154e+001	5.958515e+002	-3.003331e+000	-8.643018e+000	-8.643018e+000	
5.490000e-001	-3.150882e+000	-9.243689e+000	-9.243689e+000	-5.690534e+001	8.145778e+001	-9.854222e+001	-5.752111e+001	6.345700e+001	6.034570e+002	-2.997535e+000	-8.803644e+000	-8.803644e+000	
5.500000e-001	-3.166285e+000	-9.260966e+000	-9.260966e+000	-5.621438e+001	7.478930e+001	-1.052107e+002	-5.618227e+001	8.845639e+001	6.284564e+002	-3.003661e+000	-8.680384e+000	-8.680384e+000	
5.510000e-001	-3.154189e+000	-9.197099e+000	-9.197099e+000	-5.582483e+001	8.472592e+001	-9.527408e+001	-5.789039e+001	5.752494e+001	5.975249e+002	-3.000064e+000	-8.805371e+000	-8.805371e+000	
5.520000e-001	-3.156837e+000	-9.166699e+000	-9.166699e+000	-5.318864e+001	7.806549e+001	-1.019345e+002	-5.512599e+001	6.514951e+001	6.051495e+002	-3.001662e+000	-8.768068e+000	-8.768068e+000	
5.530000e-001	-3.150751e+000	-9.270461e+000	-9.270461e+000	-5.585829e+001	5.249680e+001	-1.275032e+002	-6.059217e+001	3.602675e+001	5.760267e+002	-3.002747e+000	-8.735410e+000	-8.735410e+000	
5.540000e-001	-3.155544e+000	-9.190555e+000	-9.190555e+000	-5.647505e+001	5.886238e+001	-1.211376e+002	-5.839998e+001	6.513586e+001	6.051359e+002	-3.003543e+000	-8.735229e+000	-8.735229e+000	
5.550000e-001	-3.165905e+000	-9.265600e+000	-9.265600e+000	-5.413263e+001	6.339133e+001	-1.166087e+002	-5.654431e+001	8.399823e+001	6.239982e+002	-3.001433e+000	-8.794917e+000	-8.794917e+000	
5.560000e-001	-3.151291e+000	-9.214542e+000	-9.214542e+000	-5.605391e+001	7.775224e+001	-1.022478e+002	-6.150867e+001	-6.509753e+001	6.549025e+002	-3.008374e+000	-8.854268e+000	-8.854268e+000	
5.570000e-001	-3.150560e+000	-9.251427e+000	-9.251427e+000	-5.878799e+001	8.283014e+001	-9.716986e+001	-5.645090e+001	6.335597e+001	7.833560e+002	-3.006855e+000	-8.788303e+000	-8.788303e+000	
5.580000e-001	-3.163654e+000	-9.255114e+000	-9.255114e+000	-5.414066e+001	8.384125e+001	-9.615875e+001	-5.450210e+001	8.359984e+001	8.035998e+002	-2.995387e+000	-8.790282e+000	-8.790282e+000	
5.590000e-001	-3.167164e+000	-9.368019e+000	-9.368019e+000	-5.462249e+001	6.238404e+001	-1.176160e+002	-5.724720e+001	8.403512e+001	8.040351e+002	-3.000011e+000	-8.817589e+000	-8.817589e+000	
5.600000e-001	-3.159855e+000	-9.360335e+000	-9.360335e+000	-5.621199e+001	6.268525e+001	-1.173147e+002	-5.542958e+001	7.008680e+001	7.900868e+002	-2.999553e+000	-8.915729e+000	-8.915729e+000	
5.610000e-001	-3.157481e+000	-9.313872e+000	-9.313872e+000	-5.615137e+001	-6.373322e+001	-2.437332e+002	-5.369158e+001	7.085872e+001	7.908587e+002	-3.007072e+000	-8.796930e+000	-8.796930e+000	
5.620000e-001	-3.145519e+000	-9.432497e+000	-9.432497e+000	-6.020997e+001	8.061553e+001	-2.793845e+002	-5.670728e+001	8.758228e+001	8.075823e+002	-3.006482e+000	-8.890144e+000	-8.890144e+000	
5.630000e-001	-3.156328e+000	-9.333188e+000	-9.333188e+000	-5.614768e+001	6.776815e+001	-2.922318e+002	-5.972188e+001	8.428687e+001	8.042869e+002	-2.999315e+000	-8.878624e+000	-8.878624e+000	
5.640000e-001	-3.165585e+000	-9.333845e+000	-9.333845e+000	-6.229385e+001	5.652116e+001	-3.034788e+002	-6.256567e+001	7.107904e+001	7.910790e+002	-2.999805e+000	-8.780601e+000	-8.780601e+000	
5.650000e-001	-3.160516e+000	-9.404297e+000	-9.404297e+000	-5.337019e+001	7.318381e+001	-2.868162e+002	-5.614288e+001	-8.475503e+001	8.152450e+002	-2.983013e+000	-8.909889e+000	-8.909889e+000	
5.660000e-001	-3.165434e+000	-9.357475e+000	-9.357475e+000	-5.457024e+001	7.387496e+001	-2.861250e+002	-6.251336e+001	-8.905920e+001	8.109408e+002	-2.987637e+000	-8.879288e+000	-8.879288e+000	
5.670000e-001	-3.159166e+000	-9.444834e+000	-9.444834e+000	-5.793682e+001	4.983524e+001	-3.101648e+002	-5.495376e+001	8.711761e+001	8.071176e+002	-3.005539e+000	-8.904403e+000	-8.904403e+000	
5.680000e-001	-3.157472e+000	-9.407373e+000	-9.407373e+000	-5.852034e+001	8.662540e+001	-2.733746e+002	-5.974526e+001	8.627800e+001	8.062780e+002	-3.000182e+000	-8.879623e+000	-8.879623e+000	
5.690000e-001	-3.154362e+000	-9.426068e+000	-9.426068e+000	-5.807282e+001	7.323184e+001	-2.867682e+002	-5.490209e+001	7.860637e+001	7.986064e+002	-2.990189e+000	-8.916013e+000	-8.916013e+000	
5.700000e-001	-3.156839e+000	-9.455528e+000	-9.455528e+000	-6.009248e+001	6.471070e+001	-2.952893e+002	-5.556183e+001	6.508134e+001	7.850813e+002	-3.005389e+000	-9.001651e+000	-9.001651e+000	
5.710000e-001	-3.157780e+000	-9.473850e+000	-9.473850e+000	-5.700102e+001	8.777714e+001	-2.722229e+002	-5.357166e+001	5.573775e+001	7.757377e+002	-3.003293e+000	-8.917820e+000	-8.917820e+000	
5.720000e-001	-3.168408e+000	-9.476204e+000	-9.476204e+000	-5.615372e+001	6.530775e+001	-2.946922e+002	-6.063873e+001	8.714310e+001	8.071431e+002	-2.997902e+000	-8.966231e+000	-8.966231e+000	
5.730000e-001	-3.161110e+000	-9.420864e+000	-9.420864e+000	-6.442958e+001	3.373087e+001	-3.262691e+002	-5.995856e+001	7.327873e+001	7.932787e+002	-3.010306e+000	-9.007912e+000	-9.007912e+000	
5.740000e-001	-3.157254e+000	-9.460917e+000	-9.460917e+000	-5.944661e+001	6.255254e+001	-2.974475e+002	-5.790926e+001	7.365738e+001	7.936574e+002	-3.003469e+000	-9.020907e+000	-9.020907e+000	
5.750000e-001	-3.158586e+000	-9.494734e+000	-9.494734e+000	-5.419706e+001	7.486393e+001	-2.851361e+002	-6.153468e+001	6.451096e+001	7.845110e+002	-3.002890e+000	-9.058274e+000	-9.058274e+000	
5.760000e-001	-3.164609e+000	-9.510030e+000	-9.510030e+000	-5.566616e+001	6.760501e+001	-2.923950e+002	-6.238696e+001	5.955340e+001	7.795534e+002	-2.997564e+000	-9.035134e+000	-9.035134e+000	
5.770000e-001	-3.172675e+000	-9.542159e+000	-9.542159e+000	-5.728756e+001	6.680229e+001	-2.931977e+002	-5.829818e+001	7.256071e+001	7.925607e+002	-3.000583e+000	-9.062796e+000	-9.062796e+000	
5.780000e-001	-3.165698e+000	-9.559363e+000	-9.559363e+000	-5.310767e+001	8.708076e+001	-2.729192e+002	-5.562639e+001	6.520160e+001	7.852016e+002	-3.012168e+000	-9.023010e+000	-9.023010e+000	
5.790000e-001	-3.174969e+000	-9.497884e+000	-9.497884e+000	-5.296736e+001	8.827280e+001	-2.717272e+002	-5.592710e+001	6.467072e+001	7.846707e+002	-3.001904e+000	-9.028170e+000	-9.028170e+000	
5.800000e-001	-3.149940e+000	-9.553240e+000	-9.553240e+000	-5.520564e+001	8.505452e+001	-2.749455e+002	-6.013538e+001	-8.370567e+001	8.162943e+002	-3.007763e+000	-9.060854e+000	-9.060854e+000	
5.810000e-001	-3.161192e+000	-9.625860e+000	-9.625860e+000	-5.574685e+001	7.063047e+001	-2.893695e+002	-6.139358e+001	8.175988e+001	8.017599e+002	-2.996730e+000	-9.157323e+000	-9.157323e+000	
5.820000e-001	-3.169078e+000	-9.636054e+000	-9.636054e+000	-5.497145e+001	7.143491e+001	-2.885651e+002	-5.925033e+001	2.802599e+001	7.480260e+002	-3.000733e+000	-9.131198e+000	-9.131198e+000	
5.830000e-001	-3.163700e+000	-9.656406e+000	-9.656406e+000	-5.218340e+001	6.889422e+001	-2.911058e+002	-5.396995e+001	-8.828073e+001	6.317193e+002	-2.984964e+000	-9.102138e+000	-9.102138e+000	
5.840000e-001	-3.162557e+000	-9.717219e+000	-9.717219e+000	-5.342250e+001	-8.780076e+001	-2.678008e+002	-5.918880e+001	7.087028e+001	6.108703e+002	-2.996360e+000	-9.188686e+000	-9.188686e+000	
5.850000e-001	-3.173205e+000	-9.643568e+000	-9.643568e+000	-5.944011e+001	7.942335e+001	-2.805767e+002	-5.428160e+001	-8.665225e+001	6.333477e+002	-2.998805e+000	-9.194714e+000	-9.194714e+000	
5.860000e-001	-3.169650e+000	-9.671033e+000	-9.671033e+000	-5.567278e+001	7.518035e+001	-2.848196e+002	-5.640277e+001	6.632089e+001	6.063209e+002	-3.001297e+000	-9.112837e+000	-9.112837e+000	
5.870000e-001	-3.170833e+000	-9.734827e+000	-9.734827e+000	-5.891000e+001	7.342081e+001	-2.865792e+002	-5.496570e+001	7.623416e+001	6.162342e+002	-2.997419e+000	-9.135953e+000	-9.135953e+000	
5.880000e-001	-3.168732e+000	-9.741603e+000	-9.741603e+000	-5.574352e+001	6.913931e+001	-2.908607e+002	-5.786830e+001	8.898918e+001	6.289892e+002	-3.012224e+000	-9.283343e+000	-9.283343e+000	
5.890000e-001	-3.166864e+000	-9.714037e+000	-9.714037e+000	-5.711756e+001	7.682526e+001	-2.831747e+002	-5.405426e+001	7.230645e+001	6.123064e+002	-3.005279e+000	-9.247939e+000	-9.247939e+000	
5.900000e-001	-3.162011e+000	-9.731015e+000	-9.731015e+000	-5.456673e+001	8.907195e+001	-2.709281e+002	-5.726308e+001	8.357363e+001	6.235736e+002	-3.011343e+000	-9.193663e+000	-9.193663e+000	
5.910000e-001	-3.158364e+000	-9.849507e+000	-9.849507e+000	-5.576908e+001	4.364509e+001	-3.163549e+002	-5.449390e+001	-8.201660e+001	6.379834e+002	-3.006120e+000	-9.255544e+000	-9.255544e+000	
5.920000e-001	-3.156412e+000	-9.814432e+000	-9.814432e+000	-5.709753e+001	5.099741e+001	-3.090026e+002	-6.022675e+001	6.651366e+001	6.065137e+002	-2.996167e+000	-9.297707e+000	-9.297707e+000	
5.930000e-001	-3.172517e+000	-9.702463e+000	-9.702463e+000	-5.589069e+001	5.233234e+001	-3.076677e+002	-5.263937e+001	7.793043e+001	6.179304e+002	-2.990006e+000	-9.263764e+000	-9.263764e+000	
5.940000e-001	-3.169981e+000	-9.858366e+000	-9.858366e+000	-5.584624e+001	5.788870e+001	-3.021113e+002	-5.682772e+001	6.503751e+001	6.050375e+002	-2.987116e+000	-9.315481e+000	-9.315481e+000	
5.950000e-001	-3.170112e+000	-9.789943e+000	-9.789943e+000	-5.177737e+001	7.959734e+001	-2.804027e+002	-5.325708e+001	7.453714e+001	6.145371e+002	-3.002397e+000	-9.296868e+000	-9.296868e+000	
5.960000e-001	-3.162445e+000	-9.871195e+000	-9.871195e+000	-5.833547e+001	7.003611e+001	-2.899639e+002	-5.453853e+001	6.674704e+001	6.067470e+002	-3.008634e+000	-9.323813e+000	-9.323813e+000	
5.970000e-001	-3.170492e+000	-9.817313e+000	-9.817313e+000	-5.640909e+001	7.489805e+001	-2.851020e+002	-5.601257e+001	8.643279e+001	6.264328e+002	-2.996029e+000	-9.279644e+000	-9.279644e+000	
5.980000e-001	-3.169929e+000	-9.985660e+000	-9.985660e+000	-5.498135e+001	6.492341e+001	-2.950766e+002	-5.672158e+001	7.734684e+001	6.173468e+002	-2.997829e+000	-9.348621e+000	-9.348621e+000	
5.990000e-001	-3.170827e+000	-9.842101e+000	-9.842101e+000	-5.565596e+001	5.658229e+001	-3.034177e+002	-5.362135e+001	6.835786e+001	6.083579e+002	-3.003933e+000	-9.339077e+000	-9.339077e+000	
6.000000e-001	-3.177906e+000	-9.956788e+000	-9.956788e+000	-5.725913e+001	7.846543e+001	-2.815346e+002	-5.207570e+001	8.655104e+001	6.265510e+002	-3.001835e+000	-9.464078e+000	-9.464078e+000	
6.010000e-001	-3.157950e+000	-9.960024e+000	-9.960024e+000	-5.354839e+001	6.511666e+001	-2.948833e+002	-5.644786e+001	7.904462e+001	6.190446e+002	-2.988836e+000	-9.444517e+000	-9.444517e+000	
6.020000e-001	-3.163010e+000	-9.921142e+000	-9.921142e+000	-5.325739e+001	6.327448e+001	-2.967255e+002	-5.494814e+001	5.282709e+001	5.928271e+002	-2.992216e+000	-9.521174e+000	-9.521174e+000	
