Frequency	 |S11|	 Phase(S11)	 ExtPh(S11)	 |S21|	 Phase(S21)	 ExtPh(S21)	 |S12|	 Phase(S12)	 ExtPh(S12)	 |S22|	 Phase(S22)	 ExtPh(S22) 
5.000000e-001	-1.089588e+000	-3.652389e+000	-3.652389e+000	-5.945623e+001	8.331652e+001	8.331652e+001	-5.475297e+001	-8.772390e+001	-8.772390e+001	-1.125916e+000	-3.259408e+000	-3.259408e+000	
5.010000e-001	-1.072289e+000	-3.755903e+000	-3.755903e+000	-6.376140e+001	3.663900e+001	3.663900e+001	-5.671662e+001	-7.912529e+001	-7.912529e+001	-1.112250e+000	-3.306924e+000	-3.306924e+000	
5.020000e-001	-1.079464e+000	-3.767716e+000	-3.767716e+000	-5.945212e+001	7.798924e+001	7.798924e+001	-5.774703e+001	-8.785261e+001	-8.785261e+001	-1.128546e+000	-3.241653e+000	-3.241653e+000	
5.030000e-001	-1.081702e+000	-3.702013e+000	-3.702013e+000	-6.201529e+001	3.162728e+001	3.162728e+001	-5.848486e+001	7.233722e+001	-1.076628e+002	-1.110753e+000	-3.264170e+000	-3.264170e+000	
5.040000e-001	-1.084388e+000	-3.765880e+000	-3.765880e+000	-5.799551e+001	3.241151e+001	3.241151e+001	-5.392340e+001	-8.876161e+001	-8.876161e+001	-1.110467e+000	-3.210725e+000	-3.210725e+000	
5.050000e-001	-1.076698e+000	-3.703635e+000	-3.703635e+000	-5.439863e+001	4.765393e+001	4.765393e+001	-5.786930e+001	7.876976e+001	-1.012302e+002	-1.106746e+000	-3.333483e+000	-3.333483e+000	
5.060000e-001	-1.073194e+000	-3.632199e+000	-3.632199e+000	-5.610167e+001	8.645692e+001	8.645692e+001	-5.514693e+001	8.532742e+001	-9.467258e+001	-1.114607e+000	-3.218353e+000	-3.218353e+000	
5.070000e-001	-1.075030e+000	-3.776338e+000	-3.776338e+000	-5.652733e+001	-7.786134e+001	1.021387e+002	-6.446969e+001	7.866727e+000	-1.721333e+002	-1.100937e+000	-3.291247e+000	-3.291247e+000	
5.080000e-001	-1.077890e+000	-3.796571e+000	-3.796571e+000	-5.826075e+001	-4.655598e+001	1.334440e+002	-5.613306e+001	-7.590683e+001	-2.559068e+002	-1.115046e+000	-3.365506e+000	-3.365506e+000	
5.090000e-001	-1.084061e+000	-3.783957e+000	-3.783957e+000	-6.423760e+001	6.610244e+001	2.461024e+002	-5.845712e+001	8.157139e+001	-2.784286e+002	-1.121047e+000	-3.301820e+000	-3.301820e+000	
5.100000e-001	-1.069336e+000	-3.802967e+000	-3.802967e+000	-6.591936e+001	-3.003022e+001	1.499698e+002	-5.655858e+001	7.350732e+001	-2.864927e+002	-1.113547e+000	-3.282118e+000	-3.282118e+000	
5.110000e-001	-1.090888e+000	-3.892936e+000	-3.892936e+000	-5.769791e+001	2.590766e+001	2.059077e+002	-6.733321e+001	-5.452101e+001	-4.145210e+002	-1.103730e+000	-3.370021e+000	-3.370021e+000	
5.120000e-001	-1.080623e+000	-3.810009e+000	-3.810009e+000	-6.249694e+001	-3.965960e+001	1.403404e+002	-5.712835e+001	6.680340e+001	-2.931966e+002	-1.113470e+000	-3.245506e+000	-3.245506e+000	
5.130000e-001	-1.071197e+000	-3.883173e+000	-3.883173e+000	-6.167845e+001	-4.385060e+001	1.361494e+002	-6.057145e+001	5.045299e+001	-3.095470e+002	-1.101406e+000	-3.366950e+000	-3.366950e+000	
5.140000e-001	-1.069434e+000	-3.737492e+000	-3.737492e+000	-6.143287e+001	2.679732e+001	2.067973e+002	-5.884969e+001	-5.762505e+001	-4.176251e+002	-1.107901e+000	-3.459263e+000	-3.459263e+000	
5.150000e-001	-1.093442e+000	-3.852835e+000	-3.852835e+000	-6.205476e+001	6.709572e+001	2.470957e+002	-6.201456e+001	8.805839e+001	-4.519416e+002	-1.103877e+000	-3.393446e+000	-3.393446e+000	
5.160000e-001	-1.076724e+000	-3.861441e+000	-3.861441e+000	-5.264047e+001	-8.339897e+001	2.766010e+002	-6.146691e+001	-4.437341e+001	-5.843734e+002	-1.108129e+000	-3.339561e+000	-3.339561e+000	
5.170000e-001	-1.091002e+000	-3.890821e+000	-3.890821e+000	-6.159924e+001	-2.738861e+001	3.326114e+002	-5.787214e+001	-5.284109e+001	-5.928411e+002	-1.128275e+000	-3.388345e+000	-3.388345e+000	
5.180000e-001	-1.089665e+000	-3.899803e+000	-3.899803e+000	-5.979125e+001	-7.119740e+001	2.888026e+002	-5.639947e+001	7.233645e+001	-4.676636e+002	-1.107578e+000	-3.365386e+000	-3.365386e+000	
5.190000e-001	-1.085477e+000	-3.798686e+000	-3.798686e+000	-7.025877e+001	-7.043231e+001	2.895677e+002	-5.617565e+001	7.360833e+001	-4.663917e+002	-1.108173e+000	-3.322491e+000	-3.322491e+000	
5.200000e-001	-1.091430e+000	-3.906292e+000	-3.906292e+000	-5.971146e+001	-6.675212e+001	2.932479e+002	-6.026686e+001	8.339744e+001	-4.566026e+002	-1.121781e+000	-3.402250e+000	-3.402250e+000	
5.210000e-001	-1.073372e+000	-3.896399e+000	-3.896399e+000	-5.585884e+001	7.161205e+001	4.316120e+002	-5.673688e+001	-3.039025e+001	-5.703903e+002	-1.122979e+000	-3.430947e+000	-3.430947e+000	
5.220000e-001	-1.064504e+000	-3.790081e+000	-3.790081e+000	-5.992637e+001	7.267436e+001	4.326744e+002	-5.476598e+001	-7.693270e+001	-6.169327e+002	-1.129144e+000	-3.503099e+000	-3.503099e+000	
5.230000e-001	-1.084037e+000	-3.829523e+000	-3.829523e+000	-5.880484e+001	8.524351e+001	4.452435e+002	-6.257575e+001	-6.697159e+000	-5.466972e+002	-1.117908e+000	-3.450751e+000	-3.450751e+000	
5.240000e-001	-1.079786e+000	-3.897388e+000	-3.897388e+000	-5.440592e+001	-3.231640e+001	3.276836e+002	-5.513839e+001	8.710252e+001	-4.528975e+002	-1.112712e+000	-3.318995e+000	-3.318995e+000	
5.250000e-001	-1.078491e+000	-3.993304e+000	-3.993304e+000	-5.628820e+001	-5.945760e+001	3.005424e+002	-5.991389e+001	-8.974747e+001	-4.497475e+002	-1.111562e+000	-3.557114e+000	-3.557114e+000	
5.260000e-001	-1.081266e+000	-4.018079e+000	-4.018079e+000	-6.424870e+001	5.657168e+001	4.165717e+002	-5.668107e+001	8.830798e+001	-4.516920e+002	-1.119062e+000	-3.483812e+000	-3.483812e+000	
5.270000e-001	-1.082446e+000	-3.930185e+000	-3.930185e+000	-5.406858e+001	8.529856e+001	4.452986e+002	-6.183175e+001	8.431549e+001	-4.556845e+002	-1.111525e+000	-3.468493e+000	-3.468493e+000	
5.280000e-001	-1.067955e+000	-3.929515e+000	-3.929515e+000	-5.894081e+001	-4.436554e+001	3.156345e+002	-5.659514e+001	5.512419e+001	-4.848758e+002	-1.112835e+000	-3.538035e+000	-3.538035e+000	
5.290000e-001	-1.083524e+000	-4.021485e+000	-4.021485e+000	-6.094032e+001	-7.857221e+001	2.814278e+002	-5.626668e+001	-8.327393e+001	-6.232739e+002	-1.110197e+000	-3.468677e+000	-3.468677e+000	
5.300000e-001	-1.065531e+000	-3.969152e+000	-3.969152e+000	-5.788300e+001	-7.558541e+001	2.844146e+002	-6.476180e+001	5.713443e+001	-6.628656e+002	-1.121429e+000	-3.534688e+000	-3.534688e+000	
5.310000e-001	-1.078731e+000	-4.004104e+000	-4.004104e+000	-5.713714e+001	-6.728836e+001	2.927116e+002	-5.564023e+001	6.263360e+001	-6.573664e+002	-1.113143e+000	-3.689280e+000	-3.689280e+000	
5.320000e-001	-1.080094e+000	-3.885261e+000	-3.885261e+000	-5.612186e+001	-8.556645e+001	2.744336e+002	-5.311880e+001	5.144695e+001	-6.685530e+002	-1.099002e+000	-3.515334e+000	-3.515334e+000	
5.330000e-001	-1.081330e+000	-3.992556e+000	-3.992556e+000	-6.296869e+001	-6.602443e+001	2.939756e+002	-5.267001e+001	8.186736e+001	-6.381326e+002	-1.110307e+000	-3.596805e+000	-3.596805e+000	
5.340000e-001	-1.067621e+000	-3.982585e+000	-3.982585e+000	-6.763903e+001	5.929808e+001	4.192981e+002	-5.410006e+001	8.612437e+001	-6.338756e+002	-1.103106e+000	-3.495191e+000	-3.495191e+000	
5.350000e-001	-1.082151e+000	-3.997657e+000	-3.997657e+000	-6.158799e+001	-7.779352e+001	2.822065e+002	-6.868280e+001	4.219317e+001	-6.778068e+002	-1.109646e+000	-3.517204e+000	-3.517204e+000	
5.360000e-001	-1.086365e+000	-4.052541e+000	-4.052541e+000	-6.309391e+001	6.558438e+001	2.455844e+002	-6.121014e+001	-7.638853e+001	-7.963885e+002	-1.117252e+000	-3.528926e+000	-3.528926e+000	
5.370000e-001	-1.080269e+000	-4.110356e+000	-4.110356e+000	-5.613139e+001	7.685051e+001	2.568505e+002	-5.721818e+001	5.156798e+001	-6.684320e+002	-1.119167e+000	-3.608977e+000	-3.608977e+000	
5.380000e-001	-1.075700e+000	-4.042794e+000	-4.042794e+000	-5.497353e+001	6.026018e+001	2.402602e+002	-6.588052e+001	5.409024e+001	-6.659098e+002	-1.114055e+000	-3.488298e+000	-3.488298e+000	
5.390000e-001	-1.072788e+000	-3.989518e+000	-3.989518e+000	-6.013315e+001	6.984178e+001	2.498418e+002	-6.742571e+001	-3.982063e+001	-7.598206e+002	-1.112732e+000	-3.642817e+000	-3.642817e+000	
5.400000e-001	-1.082030e+000	-4.031146e+000	-4.031146e+000	-5.812329e+001	-8.946195e+001	2.705380e+002	-5.658273e+001	6.884402e+001	-6.511560e+002	-1.104246e+000	-3.596937e+000	-3.596937e+000	
5.410000e-001	-1.075084e+000	-4.049760e+000	-4.049760e+000	-5.623104e+001	1.002350e+001	3.700235e+002	-5.830669e+001	-8.440859e+001	-6.244086e+002	-1.125687e+000	-3.569688e+000	-3.569688e+000	
5.420000e-001	-1.082311e+000	-3.975633e+000	-3.975633e+000	-5.928587e+001	7.537389e+001	4.353739e+002	-6.037841e+001	-6.867399e+001	-6.086740e+002	-1.099502e+000	-3.559524e+000	-3.559524e+000	
5.430000e-001	-1.083435e+000	-4.031499e+000	-4.031499e+000	-6.036660e+001	6.795494e+001	4.279549e+002	-5.939728e+001	-5.233176e+001	-5.923318e+002	-1.123862e+000	-3.578186e+000	-3.578186e+000	
5.440000e-001	-1.086722e+000	-4.138932e+000	-4.138932e+000	-5.385584e+001	-7.823731e+001	4.617627e+002	-5.489148e+001	8.402008e+001	-4.559799e+002	-1.130873e+000	-3.568732e+000	-3.568732e+000	
5.450000e-001	-1.089046e+000	-4.032310e+000	-4.032310e+000	-5.845406e+001	-8.415369e+001	4.558463e+002	-5.295193e+001	6.526585e+001	-4.747342e+002	-1.118597e+000	-3.642469e+000	-3.642469e+000	
5.460000e-001	-1.081877e+000	-4.126320e+000	-4.126320e+000	-5.608558e+001	-5.585758e+001	4.841424e+002	-5.868206e+001	6.866450e+001	-4.713355e+002	-1.120052e+000	-3.661097e+000	-3.661097e+000	
5.470000e-001	-1.090156e+000	-4.121443e+000	-4.121443e+000	-6.014726e+001	6.140374e+001	6.014037e+002	-5.758726e+001	7.423455e+001	-4.657655e+002	-1.111201e+000	-3.565797e+000	-3.565797e+000	
5.480000e-001	-1.081684e+000	-4.047761e+000	-4.047761e+000	-5.559538e+001	8.615661e+001	6.261566e+002	-5.629748e+001	7.899341e+001	-4.610066e+002	-1.110848e+000	-3.636553e+000	-3.636553e+000	
5.490000e-001	-1.085145e+000	-3.997157e+000	-3.997157e+000	-5.422674e+001	7.410788e+001	6.141079e+002	-5.143034e+001	6.896799e+001	-4.710320e+002	-1.115511e+000	-3.673987e+000	-3.673987e+000	
5.500000e-001	-1.093417e+000	-4.101752e+000	-4.101752e+000	-5.798160e+001	4.121508e+001	5.812151e+002	-5.687300e+001	7.101483e+001	-4.689852e+002	-1.114404e+000	-3.607516e+000	-3.607516e+000	
5.510000e-001	-1.070646e+000	-4.073797e+000	-4.073797e+000	-5.592752e+001	-7.658061e+001	4.634194e+002	-5.510693e+001	-6.445567e+001	-6.044557e+002	-1.112860e+000	-3.566140e+000	-3.566140e+000	
5.520000e-001	-1.078203e+000	-4.050142e+000	-4.050142e+000	-5.916077e+001	3.821998e+001	5.782200e+002	-5.557230e+001	5.758121e+001	-4.824188e+002	-1.124042e+000	-3.696673e+000	-3.696673e+000	
5.530000e-001	-1.075777e+000	-4.014817e+000	-4.014817e+000	-5.793986e+001	-8.757193e+001	4.524281e+002	-5.920143e+001	7.510786e+001	-4.648921e+002	-1.105047e+000	-3.559326e+000	-3.559326e+000	
5.540000e-001	-1.081564e+000	-3.958135e+000	-3.958135e+000	-6.118215e+001	7.061753e+001	4.306175e+002	-5.629154e+001	5.956581e+001	-4.804342e+002	-1.106427e+000	-3.664472e+000	-3.664472e+000	
5.550000e-001	-1.092080e+000	-4.083434e+000	-4.083434e+000	-5.979039e+001	-4.713810e+001	3.128619e+002	-5.874270e+001	3.091465e+001	-5.090853e+002	-1.118740e+000	-3.644398e+000	-3.644398e+000	
5.560000e-001	-1.083802e+000	-4.102557e+000	-4.102557e+000	-5.804431e+001	-8.998524e+001	2.700148e+002	-5.894238e+001	5.778067e+001	-4.822193e+002	-1.109048e+000	-3.649551e+000	-3.649551e+000	
5.570000e-001	-1.083574e+000	-4.099041e+000	-4.099041e+000	-6.195668e+001	7.788530e+001	2.578853e+002	-5.679929e+001	5.723417e+001	-4.827658e+002	-1.117646e+000	-3.740257e+000	-3.740257e+000	
5.580000e-001	-1.095401e+000	-4.095598e+000	-4.095598e+000	-6.069671e+001	8.896525e+001	2.689653e+002	-5.421613e+001	7.811806e+001	-4.618819e+002	-1.128391e+000	-3.683587e+000	-3.683587e+000	
5.590000e-001	-1.078458e+000	-4.031333e+000	-4.031333e+000	-5.898111e+001	8.013555e+001	2.601356e+002	-6.275385e+001	-5.934336e+001	-5.993434e+002	-1.114952e+000	-3.730546e+000	-3.730546e+000	
5.600000e-001	-1.072510e+000	-4.108436e+000	-4.108436e+000	-6.262796e+001	-7.129371e+001	2.887063e+002	-6.017909e+001	6.050430e+001	-4.794957e+002	-1.125169e+000	-3.743614e+000	-3.743614e+000	
5.610000e-001	-1.091808e+000	-4.072762e+000	-4.072762e+000	-5.892285e+001	-6.438372e+001	2.956163e+002	-5.549547e+001	7.234312e+001	-4.676569e+002	-1.103596e+000	-3.647099e+000	-3.647099e+000	
5.620000e-001	-1.079929e+000	-4.036840e+000	-4.036840e+000	-5.404885e+001	4.690342e+001	4.069034e+002	-5.655115e+001	-6.691563e+001	-6.069156e+002	-1.106988e+000	-3.594147e+000	-3.594147e+000	
5.630000e-001	-1.081583e+000	-4.123858e+000	-4.123858e+000	-5.608541e+001	-7.454773e+001	2.854523e+002	-5.787371e+001	-5.853231e+001	-5.985323e+002	-1.114437e+000	-3.779166e+000	-3.779166e+000	
5.640000e-001	-1.074567e+000	-4.090841e+000	-4.090841e+000	-6.380332e+001	4.647097e+001	4.064710e+002	-5.862605e+001	-8.867070e+001	-6.286707e+002	-1.120797e+000	-3.684516e+000	-3.684516e+000	
5.650000e-001	-1.077595e+000	-4.118237e+000	-4.118237e+000	-5.637283e+001	-6.687470e+001	2.931253e+002	-6.389207e+001	-8.797594e+001	-6.279759e+002	-1.104663e+000	-3.727232e+000	-3.727232e+000	
5.660000e-001	-1.093379e+000	-4.114461e+000	-4.114461e+000	-5.667588e+001	-7.915819e+001	2.808418e+002	-5.569843e+001	6.331360e+001	-6.566864e+002	-1.107640e+000	-3.679491e+000	-3.679491e+000	
5.670000e-001	-1.084328e+000	-4.282619e+000	-4.282619e+000	-5.554771e+001	8.946906e+001	2.694691e+002	-5.365828e+001	5.186637e+001	-6.681336e+002	-1.131551e+000	-3.644878e+000	-3.644878e+000	
5.680000e-001	-1.089943e+000	-4.124800e+000	-4.124800e+000	-5.648813e+001	7.859251e+001	2.585925e+002	-5.390554e+001	-8.889903e+001	-6.288990e+002	-1.112814e+000	-3.721446e+000	-3.721446e+000	
5.690000e-001	-1.083457e+000	-4.122752e+000	-4.122752e+000	-5.335580e+001	7.481120e+001	2.548112e+002	-5.568494e+001	-8.714605e+001	-6.271460e+002	-1.114008e+000	-3.721050e+000	-3.721050e+000	
5.700000e-001	-1.096028e+000	-4.171688e+000	-4.171688e+000	-5.849522e+001	7.441658e+001	2.544166e+002	-5.841007e+001	-8.397741e+001	-6.239774e+002	-1.130925e+000	-3.687075e+000	-3.687075e+000	
5.710000e-001	-1.076265e+000	-4.148176e+000	-4.148176e+000	-6.783488e+001	-6.887492e+001	2.911251e+002	-5.644681e+001	-5.204786e+001	-5.920479e+002	-1.088345e+000	-3.669585e+000	-3.669585e+000	
5.720000e-001	-1.102427e+000	-4.113242e+000	-4.113242e+000	-5.296335e+001	-7.151729e+001	2.884827e+002	-6.085798e+001	-1.069439e+001	-5.506944e+002	-1.115956e+000	-3.802844e+000	-3.802844e+000	
5.730000e-001	-1.078891e+000	-4.024239e+000	-4.024239e+000	-5.486413e+001	6.238592e+001	4.223859e+002	-6.571040e+001	2.881775e+001	-5.111823e+002	-1.108190e+000	-3.839518e+000	-3.839518e+000	
5.740000e-001	-1.088073e+000	-4.186615e+000	-4.186615e+000	-7.377644e+001	2.202115e+001	3.820211e+002	-5.572850e+001	3.020913e+001	-5.097909e+002	-1.098272e+000	-3.643805e+000	-3.643805e+000	
5.750000e-001	-1.088547e+000	-4.118089e+000	-4.118089e+000	-5.306909e+001	8.833520e+001	4.483352e+002	-5.328401e+001	4.375217e+001	-4.962478e+002	-1.109914e+000	-3.710487e+000	-3.710487e+000	
5.760000e-001	-1.077244e+000	-4.250054e+000	-4.250054e+000	-5.849282e+001	-8.924415e+001	4.507558e+002	-5.811521e+001	7.354166e+001	-4.664583e+002	-1.125822e+000	-3.732251e+000	-3.732251e+000	
5.770000e-001	-1.082544e+000	-4.163139e+000	-4.163139e+000	-5.540541e+001	8.943512e+001	4.494351e+002	-5.383471e+001	6.869782e+001	-4.713022e+002	-1.116102e+000	-3.787174e+000	-3.787174e+000	
5.780000e-001	-1.086204e+000	-4.244906e+000	-4.244906e+000	-5.670270e+001	-7.046869e+001	4.695313e+002	-6.458320e+001	5.377384e+001	-4.862262e+002	-1.114724e+000	-3.752785e+000	-3.752785e+000	
5.790000e-001	-1.086437e+000	-4.220466e+000	-4.220466e+000	-6.057251e+001	-4.449807e+001	4.955019e+002	-5.870206e+001	7.772423e+001	-4.622758e+002	-1.111908e+000	-3.639099e+000	-3.639099e+000	
5.800000e-001	-1.085915e+000	-4.163423e+000	-4.163423e+000	-6.019160e+001	5.224039e+001	5.922404e+002	-5.087774e+001	-8.954455e+001	-4.495445e+002	-1.127579e+000	-3.799957e+000	-3.799957e+000	
5.810000e-001	-1.090417e+000	-4.134153e+000	-4.134153e+000	-5.669115e+001	-8.494095e+001	4.550590e+002	-5.807980e+001	-7.545840e+001	-4.354584e+002	-1.106815e+000	-3.766152e+000	-3.766152e+000	
5.820000e-001	-1.092053e+000	-4.179092e+000	-4.179092e+000	-5.357634e+001	2.250682e+001	5.625068e+002	-5.846052e+001	-8.420170e+001	-4.442017e+002	-1.106128e+000	-3.762173e+000	-3.762173e+000	
5.830000e-001	-1.084744e+000	-4.207760e+000	-4.207760e+000	-5.534550e+001	6.054935e+001	6.005494e+002	-5.689088e+001	-7.490395e+001	-4.349040e+002	-1.110389e+000	-3.708039e+000	-3.708039e+000	
5.840000e-001	-1.077497e+000	-4.196592e+000	-4.196592e+000	-5.830964e+001	7.158921e+001	6.115892e+002	-7.444179e+001	3.725993e+001	-3.227401e+002	-1.124245e+000	-3.779180e+000	-3.779180e+000	
5.850000e-001	-1.093254e+000	-4.255878e+000	-4.255878e+000	-5.735620e+001	-8.243669e+001	6.375633e+002	-6.096083e+001	7.979709e+001	-2.802029e+002	-1.115893e+000	-3.711275e+000	-3.711275e+000	
5.860000e-001	-1.076422e+000	-4.167229e+000	-4.167229e+000	-8.091833e+001	4.962024e+001	7.696202e+002	-5.826328e+001	8.467383e+001	-2.753262e+002	-1.121583e+000	-3.693742e+000	-3.693742e+000	
5.870000e-001	-1.100171e+000	-4.253813e+000	-4.253813e+000	-5.896492e+001	-8.899042e+001	6.310096e+002	-5.867812e+001	7.338827e+001	-2.866117e+002	-1.099851e+000	-3.730949e+000	-3.730949e+000	
5.880000e-001	-1.080986e+000	-4.232983e+000	-4.232983e+000	-5.339497e+001	-8.987834e+001	6.301217e+002	-5.365351e+001	-8.241493e+001	-2.624149e+002	-1.111084e+000	-3.896843e+000	-3.896843e+000	
5.890000e-001	-1.090232e+000	-4.230744e+000	-4.230744e+000	-5.504772e+001	-8.751421e+001	6.324858e+002	-5.595426e+001	8.869544e+001	-2.713046e+002	-1.134449e+000	-3.850757e+000	-3.850757e+000	
5.900000e-001	-1.099528e+000	-4.320526e+000	-4.320526e+000	-6.000605e+001	2.896184e+001	7.489618e+002	-5.543342e+001	4.566714e+001	-3.143329e+002	-1.129335e+000	-3.750257e+000	-3.750257e+000	
5.910000e-001	-1.081325e+000	-4.278093e+000	-4.278093e+000	-5.442094e+001	8.905884e+001	8.090588e+002	-5.655401e+001	7.308635e+001	-2.869137e+002	-1.110527e+000	-3.864967e+000	-3.864967e+000	
5.920000e-001	-1.081570e+000	-4.298270e+000	-4.298270e+000	-5.490462e+001	6.961173e+001	7.896117e+002	-5.922934e+001	-5.821500e+001	-4.182150e+002	-1.107260e+000	-3.753460e+000	-3.753460e+000	
5.930000e-001	-1.102732e+000	-4.300091e+000	-4.300091e+000	-5.120078e+001	8.330970e+001	8.033097e+002	-6.764618e+001	6.469818e+001	-2.953018e+002	-1.102003e+000	-3.738879e+000	-3.738879e+000	
5.940000e-001	-1.093642e+000	-4.347915e+000	-4.347915e+000	-5.157365e+001	-8.516534e+001	8.148347e+002	-5.696362e+001	6.015687e+001	-2.998431e+002	-1.110703e+000	-3.812658e+000	-3.812658e+000	
5.950000e-001	-1.082264e+000	-4.232004e+000	-4.232004e+000	-6.115748e+001	5.240183e+001	9.524018e+002	-5.846121e+001	4.775513e+001	-3.122449e+002	-1.113842e+000	-3.820012e+000	-3.820012e+000	
5.960000e-001	-1.088006e+000	-4.277305e+000	-4.277305e+000	-5.757461e+001	-6.851708e+001	8.314829e+002	-5.698973e+001	6.414933e+001	-2.958507e+002	-1.108194e+000	-3.843228e+000	-3.843228e+000	
5.970000e-001	-1.085050e+000	-4.256764e+000	-4.256764e+000	-5.642580e+001	8.000620e+001	8.000062e+002	-5.389429e+001	6.904449e+001	-2.909555e+002	-1.112825e+000	-3.695631e+000	-3.695631e+000	
5.980000e-001	-1.084076e+000	-4.300725e+000	-4.300725e+000	-5.570250e+001	4.248281e+001	7.624828e+002	-5.662973e+001	6.644773e+001	-2.935523e+002	-1.120427e+000	-3.811400e+000	-3.811400e+000	
5.990000e-001	-1.085397e+000	-4.306291e+000	-4.306291e+000	-5.555269e+001	5.751581e+001	7.775158e+002	-5.758486e+001	-8.238414e+001	-2.623841e+002	-1.110507e+000	-3.764235e+000	-3.764235e+000	
6.000000e-001	-1.092481e+000	-4.331176e+000	-4.331176e+000	-5.804176e+001	4.301516e+001	7.630152e+002	-5.432950e+001	-5.501399e+001	-2.350140e+002	-1.124396e+000	-3.869739e+000	-3.869739e+000	
6.010000e-001	-1.075488e+000	-4.399972e+000	-4.399972e+000	-6.629232e+001	-5.441041e+001	6.655896e+002	-6.318836e+001	-5.602550e+001	-2.360255e+002	-1.108646e+000	-3.960200e+000	-3.960200e+000	
6.020000e-001	-1.097597e+000	-4.309356e+000	-4.309356e+000	-5.988115e+001	4.797101e+001	7.679710e+002	-7.031776e+001	7.650985e+001	-1.034902e+002	-1.120588e+000	-3.761542e+000	-3.761542e+000	
