Frequency	 |S11|	 Phase(S11)	 ExtPh(S11)	 |S21|	 Phase(S21)	 ExtPh(S21)	 |S12|	 Phase(S12)	 ExtPh(S12)	 |S22|	 Phase(S22)	 ExtPh(S22) 
5.000000e-001	-1.076111e+000	-3.557775e+000	-3.557775e+000	-6.450751e+001	5.917033e+001	5.917033e+001	-6.480058e+001	-3.846411e+001	-3.846411e+001	-1.108339e+000	-3.161103e+000	-3.161103e+000	
5.010000e-001	-1.077195e+000	-3.652778e+000	-3.652778e+000	-6.719928e+001	-3.203745e+001	-3.203745e+001	-6.968580e+001	8.172559e+001	8.172559e+001	-1.118086e+000	-3.102925e+000	-3.102925e+000	
5.020000e-001	-1.079648e+000	-3.703945e+000	-3.703945e+000	-5.855250e+001	6.790761e+001	6.790761e+001	-6.330882e+001	4.287659e+001	4.287659e+001	-1.109151e+000	-3.203299e+000	-3.203299e+000	
5.030000e-001	-1.069338e+000	-3.631785e+000	-3.631785e+000	-6.726596e+001	3.162610e+001	3.162610e+001	-5.381869e+001	-8.724957e+001	-8.724957e+001	-1.111379e+000	-3.149321e+000	-3.149321e+000	
5.040000e-001	-1.075391e+000	-3.681972e+000	-3.681972e+000	-5.212484e+001	-7.306779e+001	-7.306779e+001	-7.497057e+001	3.940972e+001	3.940972e+001	-1.115483e+000	-3.117593e+000	-3.117593e+000	
5.050000e-001	-1.064919e+000	-3.592010e+000	-3.592010e+000	-6.267473e+001	5.125875e+001	5.125875e+001	-5.817092e+001	-4.594787e+001	-4.594787e+001	-1.117322e+000	-3.167693e+000	-3.167693e+000	
5.060000e-001	-1.070027e+000	-3.682989e+000	-3.682989e+000	-5.795353e+001	8.441526e+001	8.441526e+001	-5.503059e+001	4.447184e+001	4.447184e+001	-1.097104e+000	-3.246711e+000	-3.246711e+000	
5.070000e-001	-1.082419e+000	-3.670298e+000	-3.670298e+000	-6.993494e+001	-6.992596e+001	1.100740e+002	-6.782872e+001	-8.150323e+001	-8.150323e+001	-1.103755e+000	-3.288041e+000	-3.288041e+000	
5.080000e-001	-1.082543e+000	-3.754102e+000	-3.754102e+000	-6.228830e+001	8.198223e+001	8.198223e+001	-6.470721e+001	-5.751205e+001	-5.751205e+001	-1.119072e+000	-3.177092e+000	-3.177092e+000	
5.090000e-001	-1.066013e+000	-3.767648e+000	-3.767648e+000	-5.559843e+001	6.584361e+001	6.584361e+001	-5.899952e+001	7.443631e+001	7.443631e+001	-1.117925e+000	-3.355168e+000	-3.355168e+000	
5.100000e-001	-1.074324e+000	-3.677702e+000	-3.677702e+000	-6.008894e+001	4.408119e+001	4.408119e+001	-7.552909e+001	-5.050374e+001	-5.050374e+001	-1.109894e+000	-3.192136e+000	-3.192136e+000	
5.110000e-001	-1.078542e+000	-3.683842e+000	-3.683842e+000	-5.871419e+001	-6.781442e+001	-6.781442e+001	-6.312288e+001	4.289903e+001	4.289903e+001	-1.123478e+000	-3.372315e+000	-3.372315e+000	
5.120000e-001	-1.091107e+000	-3.727387e+000	-3.727387e+000	-6.216702e+001	-6.990052e+001	-6.990052e+001	-6.736570e+001	7.866421e+001	7.866421e+001	-1.113225e+000	-3.290942e+000	-3.290942e+000	
5.130000e-001	-1.074735e+000	-3.712219e+000	-3.712219e+000	-6.805396e+001	3.881758e+001	3.881758e+001	-6.090700e+001	-8.196304e+001	9.803696e+001	-1.116961e+000	-3.176983e+000	-3.176983e+000	
5.140000e-001	-1.072249e+000	-3.783720e+000	-3.783720e+000	-6.862754e+001	8.578480e+001	8.578480e+001	-5.422012e+001	8.542600e+001	8.542600e+001	-1.116911e+000	-3.236052e+000	-3.236052e+000	
5.150000e-001	-1.081947e+000	-3.788139e+000	-3.788139e+000	-5.236820e+001	7.488464e+001	7.488464e+001	-6.786773e+001	-1.551922e+001	-1.551922e+001	-1.113291e+000	-3.329458e+000	-3.329458e+000	
5.160000e-001	-1.074272e+000	-3.847484e+000	-3.847484e+000	-5.534396e+001	-7.554929e+001	1.044507e+002	-6.274118e+001	-3.213084e+001	-3.213084e+001	-1.121739e+000	-3.357260e+000	-3.357260e+000	
5.170000e-001	-1.087948e+000	-3.730090e+000	-3.730090e+000	-6.116107e+001	-4.908970e+001	1.309103e+002	-5.542420e+001	7.620594e+001	7.620594e+001	-1.115027e+000	-3.302296e+000	-3.302296e+000	
5.180000e-001	-1.082100e+000	-3.768807e+000	-3.768807e+000	-5.247283e+001	7.613591e+001	2.561359e+002	-5.719252e+001	7.703821e+001	7.703821e+001	-1.108993e+000	-3.322932e+000	-3.322932e+000	
5.190000e-001	-1.081704e+000	-3.801616e+000	-3.801616e+000	-5.859586e+001	5.875070e+001	2.387507e+002	-7.199200e+001	-4.151983e+001	-4.151983e+001	-1.108040e+000	-3.373868e+000	-3.373868e+000	
5.200000e-001	-1.081687e+000	-3.775297e+000	-3.775297e+000	-5.790191e+001	-8.654228e+001	2.734577e+002	-5.726626e+001	4.451449e+001	4.451449e+001	-1.106551e+000	-3.219905e+000	-3.219905e+000	
5.210000e-001	-1.080331e+000	-3.864059e+000	-3.864059e+000	-6.147346e+001	6.796489e+001	2.479649e+002	-6.079223e+001	5.691932e+001	5.691932e+001	-1.115305e+000	-3.331562e+000	-3.331562e+000	
5.220000e-001	-1.071238e+000	-3.730762e+000	-3.730762e+000	-5.466750e+001	-6.876858e+001	1.112314e+002	-6.094239e+001	5.931102e+001	5.931102e+001	-1.109064e+000	-3.445878e+000	-3.445878e+000	
5.230000e-001	-1.074875e+000	-3.798806e+000	-3.798806e+000	-5.821670e+001	-5.835059e+001	1.216494e+002	-5.881613e+001	8.775212e+001	8.775212e+001	-1.123662e+000	-3.356954e+000	-3.356954e+000	
5.240000e-001	-1.074011e+000	-3.859855e+000	-3.859855e+000	-5.679210e+001	8.877545e+001	8.877545e+001	-5.486032e+001	-7.089548e+001	1.091045e+002	-1.105226e+000	-3.407678e+000	-3.407678e+000	
5.250000e-001	-1.089475e+000	-3.926904e+000	-3.926904e+000	-5.568488e+001	7.577572e+001	7.577572e+001	-5.429524e+001	7.580467e+001	7.580467e+001	-1.100180e+000	-3.417648e+000	-3.417648e+000	
5.260000e-001	-1.064855e+000	-3.853778e+000	-3.853778e+000	-6.411651e+001	4.211184e+001	4.211184e+001	-5.448317e+001	-8.931941e+001	9.068059e+001	-1.106255e+000	-3.342400e+000	-3.342400e+000	
5.270000e-001	-1.075868e+000	-3.924535e+000	-3.924535e+000	-5.603396e+001	7.644791e+001	7.644791e+001	-5.745948e+001	7.697614e+001	7.697614e+001	-1.104324e+000	-3.315187e+000	-3.315187e+000	
5.280000e-001	-1.090336e+000	-3.865625e+000	-3.865625e+000	-6.747480e+001	-7.758809e+001	1.024119e+002	-5.852245e+001	-2.506391e+001	-2.506391e+001	-1.108482e+000	-3.472178e+000	-3.472178e+000	
5.290000e-001	-1.083949e+000	-3.892125e+000	-3.892125e+000	-5.942015e+001	-8.760835e+001	9.239165e+001	-5.673621e+001	-6.924377e+001	-6.924377e+001	-1.122682e+000	-3.419885e+000	-3.419885e+000	
5.300000e-001	-1.070935e+000	-3.933816e+000	-3.933816e+000	-5.533929e+001	7.161168e+001	7.161168e+001	-5.797231e+001	4.505237e+001	4.505237e+001	-1.116989e+000	-3.468338e+000	-3.468338e+000	
5.310000e-001	-1.074664e+000	-3.994104e+000	-3.994104e+000	-5.711281e+001	4.951814e+001	4.951814e+001	-5.559202e+001	7.098451e+001	7.098451e+001	-1.114455e+000	-3.532178e+000	-3.532178e+000	
5.320000e-001	-1.087049e+000	-3.817967e+000	-3.817967e+000	-5.730116e+001	6.184112e+001	6.184112e+001	-6.107909e+001	4.456272e+001	4.456272e+001	-1.121739e+000	-3.377317e+000	-3.377317e+000	
5.330000e-001	-1.090917e+000	-3.995196e+000	-3.995196e+000	-5.863466e+001	-7.733238e+001	-7.733238e+001	-6.256088e+001	7.112779e+001	7.112779e+001	-1.127371e+000	-3.426218e+000	-3.426218e+000	
5.340000e-001	-1.073710e+000	-3.821127e+000	-3.821127e+000	-5.764607e+001	8.696715e+001	-9.303285e+001	-5.259806e+001	-7.137453e+001	1.086255e+002	-1.105177e+000	-3.557660e+000	-3.557660e+000	
5.350000e-001	-1.067569e+000	-3.973096e+000	-3.973096e+000	-5.666645e+001	6.199987e+001	-1.180001e+002	-6.998166e+001	-2.855566e+001	1.514443e+002	-1.111873e+000	-3.529927e+000	-3.529927e+000	
5.360000e-001	-1.081393e+000	-3.843965e+000	-3.843965e+000	-5.518560e+001	6.544788e+001	-1.145521e+002	-5.515570e+001	-8.573259e+001	9.426741e+001	-1.121866e+000	-3.612707e+000	-3.612707e+000	
5.370000e-001	-1.082946e+000	-3.861342e+000	-3.861342e+000	-5.712893e+001	8.733992e+001	-9.266008e+001	-5.475041e+001	-8.406510e+001	9.593490e+001	-1.106919e+000	-3.472327e+000	-3.472327e+000	
5.380000e-001	-1.082769e+000	-3.917856e+000	-3.917856e+000	-5.986505e+001	4.500308e+001	-1.349969e+002	-6.140803e+001	5.968597e+001	5.968597e+001	-1.127430e+000	-3.500321e+000	-3.500321e+000	
5.390000e-001	-1.081621e+000	-3.952583e+000	-3.952583e+000	-6.112414e+001	8.430857e+001	-9.569143e+001	-5.592265e+001	7.584759e+001	7.584759e+001	-1.120368e+000	-3.549899e+000	-3.549899e+000	
5.400000e-001	-1.078703e+000	-3.949480e+000	-3.949480e+000	-6.568922e+001	3.997515e+001	-1.400248e+002	-5.692091e+001	-8.344219e+001	9.655781e+001	-1.116605e+000	-3.416297e+000	-3.416297e+000	
5.410000e-001	-1.084800e+000	-4.019561e+000	-4.019561e+000	-6.319272e+001	6.200755e+001	-1.179924e+002	-5.540412e+001	7.450288e+001	7.450288e+001	-1.119426e+000	-3.553227e+000	-3.553227e+000	
5.420000e-001	-1.085656e+000	-3.927423e+000	-3.927423e+000	-5.965696e+001	4.947044e+001	-1.305296e+002	-5.737978e+001	-8.085525e+001	9.914475e+001	-1.108196e+000	-3.506329e+000	-3.506329e+000	
5.430000e-001	-1.085026e+000	-3.942080e+000	-3.942080e+000	-5.593306e+001	8.961065e+001	-9.038935e+001	-5.376994e+001	-8.965189e+001	9.034811e+001	-1.121743e+000	-3.522926e+000	-3.522926e+000	
5.440000e-001	-1.091644e+000	-4.034530e+000	-4.034530e+000	-6.127526e+001	-6.705907e+001	-6.705907e+001	-5.542126e+001	-7.343063e+001	1.065694e+002	-1.104085e+000	-3.564814e+000	-3.564814e+000	
5.450000e-001	-1.081487e+000	-3.956683e+000	-3.956683e+000	-5.780624e+001	6.504231e+001	6.504231e+001	-5.720916e+001	5.386206e+001	2.338621e+002	-1.112693e+000	-3.621607e+000	-3.621607e+000	
5.460000e-001	-1.066461e+000	-3.993639e+000	-3.993639e+000	-5.306155e+001	4.412771e+001	4.412771e+001	-5.975249e+001	7.260387e+001	2.526039e+002	-1.101523e+000	-3.533766e+000	-3.533766e+000	
5.470000e-001	-1.089119e+000	-4.018529e+000	-4.018529e+000	-5.924773e+001	-8.341159e+001	-8.341159e+001	-6.404549e+001	-6.765690e+001	2.923431e+002	-1.120187e+000	-3.576877e+000	-3.576877e+000	
5.480000e-001	-1.087749e+000	-3.992498e+000	-3.992498e+000	-5.457636e+001	7.311752e+001	-1.068825e+002	-5.332849e+001	6.288991e+001	4.228899e+002	-1.117619e+000	-3.598414e+000	-3.598414e+000	
5.490000e-001	-1.093757e+000	-3.996391e+000	-3.996391e+000	-7.574141e+001	-4.184033e+001	-2.218403e+002	-5.832568e+001	6.779423e+001	4.277942e+002	-1.109515e+000	-3.613067e+000	-3.613067e+000	
5.500000e-001	-1.094256e+000	-3.924208e+000	-3.924208e+000	-5.964901e+001	4.865256e+001	-1.313474e+002	-5.602582e+001	8.529837e+001	4.452984e+002	-1.092686e+000	-3.597573e+000	-3.597573e+000	
5.510000e-001	-1.072199e+000	-3.893569e+000	-3.893569e+000	-7.008660e+001	1.331772e+000	-1.786682e+002	-5.761067e+001	7.563284e+001	4.356328e+002	-1.127056e+000	-3.467996e+000	-3.467996e+000	
5.520000e-001	-1.091099e+000	-3.898054e+000	-3.898054e+000	-5.997348e+001	-8.775448e+001	-2.677545e+002	-5.480651e+001	8.682291e+001	4.468229e+002	-1.116821e+000	-3.562810e+000	-3.562810e+000	
5.530000e-001	-1.073577e+000	-4.020395e+000	-4.020395e+000	-6.097092e+001	-8.554409e+001	-2.655441e+002	-5.709032e+001	-8.762205e+001	4.523779e+002	-1.122582e+000	-3.573148e+000	-3.573148e+000	
5.540000e-001	-1.068918e+000	-3.915410e+000	-3.915410e+000	-6.815476e+001	-7.683212e+001	-2.568321e+002	-5.691750e+001	8.889126e+001	4.488913e+002	-1.108054e+000	-3.554222e+000	-3.554222e+000	
5.550000e-001	-1.075648e+000	-4.036893e+000	-4.036893e+000	-5.449424e+001	-6.441263e+001	-2.444126e+002	-5.746742e+001	-3.941874e+001	3.205813e+002	-1.113922e+000	-3.568209e+000	-3.568209e+000	
5.560000e-001	-1.088193e+000	-4.033477e+000	-4.033477e+000	-6.299746e+001	7.494785e+001	-1.050522e+002	-5.313357e+001	8.311397e+001	4.431140e+002	-1.114052e+000	-3.579175e+000	-3.579175e+000	
5.570000e-001	-1.080129e+000	-3.951310e+000	-3.951310e+000	-6.364428e+001	2.778179e+001	-1.522182e+002	-5.711984e+001	-7.718065e+001	4.628193e+002	-1.130417e+000	-3.546383e+000	-3.546383e+000	
5.580000e-001	-1.078417e+000	-3.926818e+000	-3.926818e+000	-5.625548e+001	7.303452e+001	-1.069655e+002	-5.656257e+001	4.474665e+001	5.847467e+002	-1.111174e+000	-3.555143e+000	-3.555143e+000	
5.590000e-001	-1.088723e+000	-3.992458e+000	-3.992458e+000	-5.900108e+001	6.398141e+001	-1.160186e+002	-5.963482e+001	6.153279e+001	6.015328e+002	-1.115797e+000	-3.677101e+000	-3.677101e+000	
5.600000e-001	-1.082187e+000	-4.109078e+000	-4.109078e+000	-5.540670e+001	7.522584e+001	-1.047742e+002	-5.593297e+001	-5.201778e+001	4.879822e+002	-1.104842e+000	-3.675854e+000	-3.675854e+000	
5.610000e-001	-1.084056e+000	-4.034241e+000	-4.034241e+000	-5.603183e+001	-7.822129e+001	-7.822129e+001	-5.653631e+001	8.453063e+001	6.245306e+002	-1.119620e+000	-3.563015e+000	-3.563015e+000	
5.620000e-001	-1.089086e+000	-4.072515e+000	-4.072515e+000	-6.002352e+001	-8.747190e+001	-8.747190e+001	-5.623721e+001	-7.066808e+001	6.493319e+002	-1.107741e+000	-3.644987e+000	-3.644987e+000	
5.630000e-001	-1.086639e+000	-4.122128e+000	-4.122128e+000	-5.416809e+001	-7.458108e+001	-7.458108e+001	-5.462412e+001	-7.837443e+001	6.416256e+002	-1.120379e+000	-3.632817e+000	-3.632817e+000	
5.640000e-001	-1.073796e+000	-4.075262e+000	-4.075262e+000	-7.499446e+001	2.148011e+001	2.148011e+001	-6.166562e+001	4.899538e+001	7.689954e+002	-1.109283e+000	-3.646525e+000	-3.646525e+000	
5.650000e-001	-1.072905e+000	-3.994929e+000	-3.994929e+000	-5.750149e+001	5.191511e+001	5.191511e+001	-6.457000e+001	-1.686568e+001	7.031343e+002	-1.103638e+000	-3.638545e+000	-3.638545e+000	
5.660000e-001	-1.083721e+000	-4.035165e+000	-4.035165e+000	-5.595901e+001	4.136545e+001	4.136545e+001	-6.414438e+001	2.406782e+001	7.440678e+002	-1.122140e+000	-3.619484e+000	-3.619484e+000	
5.670000e-001	-1.088792e+000	-3.981301e+000	-3.981301e+000	-5.670752e+001	6.706470e+001	6.706470e+001	-6.318613e+001	-4.811808e+001	6.718819e+002	-1.109512e+000	-3.604576e+000	-3.604576e+000	
5.680000e-001	-1.097299e+000	-4.099874e+000	-4.099874e+000	-6.151800e+001	7.832254e+001	7.832254e+001	-5.547540e+001	-7.958710e+001	6.404129e+002	-1.118284e+000	-3.710865e+000	-3.710865e+000	
5.690000e-001	-1.084167e+000	-4.076166e+000	-4.076166e+000	-6.185214e+001	6.595855e+001	6.595855e+001	-5.798409e+001	8.898635e+001	6.289864e+002	-1.107817e+000	-3.562298e+000	-3.562298e+000	
5.700000e-001	-1.074674e+000	-3.955583e+000	-3.955583e+000	-7.640945e+001	-5.757871e+001	-5.757871e+001	-5.519278e+001	2.692275e+001	5.669228e+002	-1.118854e+000	-3.716491e+000	-3.716491e+000	
5.710000e-001	-1.089420e+000	-4.066853e+000	-4.066853e+000	-6.503984e+001	4.735160e+001	4.735160e+001	-5.843990e+001	-8.081474e+001	4.591853e+002	-1.108044e+000	-3.559940e+000	-3.559940e+000	
5.720000e-001	-1.081343e+000	-4.107907e+000	-4.107907e+000	-6.550716e+001	-7.266654e+001	-7.266654e+001	-5.634249e+001	6.522498e+001	4.252250e+002	-1.105610e+000	-3.702834e+000	-3.702834e+000	
5.730000e-001	-1.081642e+000	-3.987889e+000	-3.987889e+000	-5.849869e+001	-5.147226e+001	-5.147226e+001	-6.450912e+001	-3.393245e+001	3.260676e+002	-1.104940e+000	-3.564265e+000	-3.564265e+000	
5.740000e-001	-1.093393e+000	-4.081025e+000	-4.081025e+000	-5.866548e+001	8.602960e+001	8.602960e+001	-5.679641e+001	7.814889e+001	4.381489e+002	-1.111849e+000	-3.709562e+000	-3.709562e+000	
5.750000e-001	-1.091986e+000	-4.013500e+000	-4.013500e+000	-5.593545e+001	5.601872e+001	5.601872e+001	-5.688799e+001	8.654815e+001	4.465482e+002	-1.101470e+000	-3.628694e+000	-3.628694e+000	
5.760000e-001	-1.083845e+000	-4.167081e+000	-4.167081e+000	-5.700923e+001	-5.391842e+001	-5.391842e+001	-5.875110e+001	4.575106e+001	4.057511e+002	-1.108091e+000	-3.748464e+000	-3.748464e+000	
5.770000e-001	-1.075145e+000	-4.057299e+000	-4.057299e+000	-5.471290e+001	6.787764e+001	6.787764e+001	-5.345034e+001	7.694606e+001	4.369461e+002	-1.125566e+000	-3.647107e+000	-3.647107e+000	
5.780000e-001	-1.102734e+000	-4.129409e+000	-4.129409e+000	-5.937893e+001	7.738583e+001	7.738583e+001	-5.922500e+001	5.313047e+001	4.131305e+002	-1.115601e+000	-3.698201e+000	-3.698201e+000	
5.790000e-001	-1.084585e+000	-4.134910e+000	-4.134910e+000	-5.733510e+001	6.989854e+001	6.989854e+001	-5.820551e+001	-5.760950e+001	3.023905e+002	-1.109746e+000	-3.583973e+000	-3.583973e+000	
5.800000e-001	-1.093039e+000	-4.027955e+000	-4.027955e+000	-5.484768e+001	4.975461e+001	4.975461e+001	-5.682982e+001	-5.182213e+001	3.081779e+002	-1.110227e+000	-3.764990e+000	-3.764990e+000	
5.810000e-001	-1.078965e+000	-4.162724e+000	-4.162724e+000	-5.619659e+001	-8.890278e+001	-8.890278e+001	-5.363585e+001	3.335562e+001	3.933556e+002	-1.100559e+000	-3.709589e+000	-3.709589e+000	
5.820000e-001	-1.076202e+000	-4.168321e+000	-4.168321e+000	-5.406766e+001	8.506397e+001	-9.493603e+001	-5.904550e+001	5.149901e+001	4.114990e+002	-1.103279e+000	-3.726632e+000	-3.726632e+000	
5.830000e-001	-1.074861e+000	-4.060172e+000	-4.060172e+000	-6.092806e+001	-6.759698e+001	-6.759698e+001	-5.941562e+001	8.312855e+001	4.431286e+002	-1.106070e+000	-3.662139e+000	-3.662139e+000	
5.840000e-001	-1.078779e+000	-4.096604e+000	-4.096604e+000	-7.217374e+001	-5.899531e+001	-5.899531e+001	-5.698097e+001	-7.822692e+001	4.617731e+002	-1.101035e+000	-3.755346e+000	-3.755346e+000	
5.850000e-001	-1.086880e+000	-4.122434e+000	-4.122434e+000	-5.946699e+001	-4.016002e+001	-4.016002e+001	-6.069839e+001	1.384311e+001	5.538431e+002	-1.111310e+000	-3.658370e+000	-3.658370e+000	
5.860000e-001	-1.079339e+000	-4.185951e+000	-4.185951e+000	-5.978457e+001	7.857558e+001	7.857558e+001	-6.400840e+001	8.065752e+001	6.206575e+002	-1.106812e+000	-3.657386e+000	-3.657386e+000	
5.870000e-001	-1.089821e+000	-4.038572e+000	-4.038572e+000	-6.114806e+001	-5.483729e+001	-5.483729e+001	-6.287071e+001	5.074002e+001	5.907400e+002	-1.122807e+000	-3.712371e+000	-3.712371e+000	
5.880000e-001	-1.088043e+000	-4.143033e+000	-4.143033e+000	-6.496324e+001	2.599770e+001	2.599770e+001	-5.574092e+001	-4.827113e+001	4.917289e+002	-1.109617e+000	-3.669466e+000	-3.669466e+000	
5.890000e-001	-1.090103e+000	-4.124336e+000	-4.124336e+000	-6.117962e+001	5.334371e+001	5.334371e+001	-5.847228e+001	4.375658e+001	5.837566e+002	-1.099222e+000	-3.751467e+000	-3.751467e+000	
5.900000e-001	-1.095907e+000	-4.225613e+000	-4.225613e+000	-5.767485e+001	7.992565e+001	7.992565e+001	-5.960017e+001	4.737486e+001	5.873749e+002	-1.139091e+000	-3.676745e+000	-3.676745e+000	
5.910000e-001	-1.089507e+000	-4.232865e+000	-4.232865e+000	-5.204623e+001	7.783371e+001	7.783371e+001	-6.263577e+001	2.821618e+001	5.682162e+002	-1.113952e+000	-3.840951e+000	-3.840951e+000	
5.920000e-001	-1.078265e+000	-4.161469e+000	-4.161469e+000	-5.753899e+001	6.863065e+001	6.863065e+001	-6.065334e+001	7.212600e+001	6.121260e+002	-1.114483e+000	-3.773129e+000	-3.773129e+000	
5.930000e-001	-1.086169e+000	-4.276498e+000	-4.276498e+000	-7.354727e+001	7.480507e+001	7.480507e+001	-6.121585e+001	7.758198e+001	6.175820e+002	-1.115875e+000	-3.757599e+000	-3.757599e+000	
5.940000e-001	-1.080339e+000	-4.218325e+000	-4.218325e+000	-5.525595e+001	-8.776038e+001	9.223962e+001	-5.870802e+001	-2.908749e+001	5.109125e+002	-1.116046e+000	-3.767667e+000	-3.767667e+000	
5.950000e-001	-1.093984e+000	-4.148672e+000	-4.148672e+000	-5.701716e+001	3.168635e+001	2.116863e+002	-5.560969e+001	5.095933e+001	5.909593e+002	-1.103196e+000	-3.894911e+000	-3.894911e+000	
5.960000e-001	-1.079912e+000	-4.194632e+000	-4.194632e+000	-6.000695e+001	-8.886862e+001	9.113138e+001	-6.307941e+001	2.790270e+001	5.679027e+002	-1.115557e+000	-3.695261e+000	-3.695261e+000	
5.970000e-001	-1.073658e+000	-4.162181e+000	-4.162181e+000	-5.759649e+001	-1.858397e+001	1.614160e+002	-6.757822e+001	3.171663e+001	5.717166e+002	-1.106135e+000	-3.869379e+000	-3.869379e+000	
5.980000e-001	-1.076215e+000	-4.253375e+000	-4.253375e+000	-5.535186e+001	5.667150e+001	2.366715e+002	-5.568579e+001	8.478817e+001	6.247882e+002	-1.108841e+000	-3.751542e+000	-3.751542e+000	
5.990000e-001	-1.092997e+000	-4.256038e+000	-4.256038e+000	-6.223715e+001	4.914539e+001	2.291454e+002	-6.787712e+001	7.763931e+001	6.176393e+002	-1.114481e+000	-3.792801e+000	-3.792801e+000	
6.000000e-001	-1.089425e+000	-4.252296e+000	-4.252296e+000	-7.685402e+001	2.247696e+001	2.024770e+002	-5.552458e+001	-8.639080e+001	6.336092e+002	-1.103118e+000	-3.774128e+000	-3.774128e+000	
6.010000e-001	-1.078162e+000	-4.336775e+000	-4.336775e+000	-5.647434e+001	-8.579825e+001	9.420175e+001	-5.821072e+001	-8.995795e+001	6.300420e+002	-1.107366e+000	-3.783918e+000	-3.783918e+000	
6.020000e-001	-1.091461e+000	-4.206489e+000	-4.206489e+000	-5.799443e+001	7.989960e+001	7.989960e+001	-5.850575e+001	7.139535e+001	6.113954e+002	-1.113023e+000	-3.802320e+000	-3.802320e+000	
