Frequency	 |S11|	 Phase(S11)	 ExtPh(S11)	 |S21|	 Phase(S21)	 ExtPh(S21)	 |S12|	 Phase(S12)	 ExtPh(S12)	 |S22|	 Phase(S22)	 ExtPh(S22) 
5.000000e-001	-5.250102e-001	-3.167307e+000	-3.167307e+000	-5.332639e+001	8.414383e+001	8.414383e+001	-5.412432e+001	7.753840e+001	7.753840e+001	-5.570549e-001	-2.657913e+000	-2.657913e+000	
5.010000e-001	-5.288766e-001	-3.173091e+000	-3.173091e+000	-5.481598e+001	-8.712783e+001	9.287217e+001	-5.334638e+001	7.776321e+001	7.776321e+001	-5.509769e-001	-2.652392e+000	-2.652392e+000	
5.020000e-001	-5.314380e-001	-3.162679e+000	-3.162679e+000	-5.445207e+001	7.229464e+001	7.229464e+001	-5.441675e+001	7.559861e+001	7.559861e+001	-5.458622e-001	-2.666968e+000	-2.666968e+000	
5.030000e-001	-5.300561e-001	-3.163559e+000	-3.163559e+000	-5.398198e+001	8.455707e+001	8.455707e+001	-5.341407e+001	8.433696e+001	8.433696e+001	-5.544271e-001	-2.661361e+000	-2.661361e+000	
5.040000e-001	-5.380638e-001	-3.184904e+000	-3.184904e+000	-5.266695e+001	8.471544e+001	8.471544e+001	-5.199877e+001	8.236972e+001	8.236972e+001	-5.463384e-001	-2.670494e+000	-2.670494e+000	
5.050000e-001	-5.328442e-001	-3.190540e+000	-3.190540e+000	-5.211576e+001	8.035690e+001	8.035690e+001	-5.466218e+001	8.108503e+001	8.108503e+001	-5.564894e-001	-2.651972e+000	-2.651972e+000	
5.060000e-001	-5.337529e-001	-3.215361e+000	-3.215361e+000	-5.350948e+001	8.027755e+001	8.027755e+001	-5.373678e+001	8.798959e+001	8.798959e+001	-5.554691e-001	-2.704615e+000	-2.704615e+000	
5.070000e-001	-5.335390e-001	-3.233119e+000	-3.233119e+000	-5.468313e+001	7.751522e+001	7.751522e+001	-5.414407e+001	8.251158e+001	8.251158e+001	-5.528530e-001	-2.751514e+000	-2.751514e+000	
5.080000e-001	-5.308134e-001	-3.231176e+000	-3.231176e+000	-5.233942e+001	8.048154e+001	8.048154e+001	-5.360465e+001	8.609059e+001	8.609059e+001	-5.562816e-001	-2.761528e+000	-2.761528e+000	
5.090000e-001	-5.284842e-001	-3.261441e+000	-3.261441e+000	-5.439494e+001	-8.556538e+001	9.443462e+001	-5.380540e+001	7.803299e+001	7.803299e+001	-5.535827e-001	-2.726462e+000	-2.726462e+000	
5.100000e-001	-5.283176e-001	-3.275973e+000	-3.275973e+000	-5.372025e+001	7.365839e+001	7.365839e+001	-5.341825e+001	8.260603e+001	8.260603e+001	-5.628088e-001	-2.741096e+000	-2.741096e+000	
5.110000e-001	-5.388276e-001	-3.256328e+000	-3.256328e+000	-5.354791e+001	7.378569e+001	7.378569e+001	-5.384567e+001	8.397995e+001	8.397995e+001	-5.590937e-001	-2.769758e+000	-2.769758e+000	
5.120000e-001	-5.367897e-001	-3.206512e+000	-3.206512e+000	-5.337404e+001	8.300781e+001	8.300781e+001	-5.268305e+001	7.198118e+001	7.198118e+001	-5.486693e-001	-2.781650e+000	-2.781650e+000	
5.130000e-001	-5.303009e-001	-3.251771e+000	-3.251771e+000	-5.245423e+001	7.491681e+001	7.491681e+001	-5.462512e+001	7.994669e+001	7.994669e+001	-5.575426e-001	-2.761557e+000	-2.761557e+000	
5.140000e-001	-5.258520e-001	-3.292470e+000	-3.292470e+000	-5.360477e+001	8.314193e+001	8.314193e+001	-5.383685e+001	8.586565e+001	8.586565e+001	-5.549844e-001	-2.774094e+000	-2.774094e+000	
5.150000e-001	-5.262589e-001	-3.261844e+000	-3.261844e+000	-5.357644e+001	8.398738e+001	8.398738e+001	-5.399338e+001	8.478044e+001	8.478044e+001	-5.522449e-001	-2.798187e+000	-2.798187e+000	
5.160000e-001	-5.340360e-001	-3.313112e+000	-3.313112e+000	-5.259387e+001	8.786087e+001	8.786087e+001	-5.491159e+001	7.536948e+001	7.536948e+001	-5.558169e-001	-2.788447e+000	-2.788447e+000	
5.170000e-001	-5.307163e-001	-3.313292e+000	-3.313292e+000	-5.354955e+001	-8.781206e+001	9.218794e+001	-5.324413e+001	8.212646e+001	8.212646e+001	-5.624911e-001	-2.766152e+000	-2.766152e+000	
5.180000e-001	-5.273271e-001	-3.314065e+000	-3.314065e+000	-5.332786e+001	8.080216e+001	8.080216e+001	-5.274629e+001	8.582678e+001	8.582678e+001	-5.555914e-001	-2.764176e+000	-2.764176e+000	
5.190000e-001	-5.308237e-001	-3.332716e+000	-3.332716e+000	-5.392007e+001	8.431344e+001	8.431344e+001	-5.486292e+001	8.467754e+001	8.467754e+001	-5.534516e-001	-2.834321e+000	-2.834321e+000	
5.200000e-001	-5.369523e-001	-3.275611e+000	-3.275611e+000	-5.203919e+001	7.760119e+001	7.760119e+001	-5.472901e+001	8.447170e+001	8.447170e+001	-5.611839e-001	-2.817022e+000	-2.817022e+000	
5.210000e-001	-5.327128e-001	-3.350567e+000	-3.350567e+000	-5.465620e+001	8.685897e+001	8.685897e+001	-5.382526e+001	7.373938e+001	7.373938e+001	-5.555612e-001	-2.854774e+000	-2.854774e+000	
5.220000e-001	-5.242424e-001	-3.313742e+000	-3.313742e+000	-5.403800e+001	7.541327e+001	7.541327e+001	-5.366983e+001	7.719542e+001	7.719542e+001	-5.575374e-001	-2.855885e+000	-2.855885e+000	
5.230000e-001	-5.302654e-001	-3.296476e+000	-3.296476e+000	-5.237577e+001	8.789435e+001	8.789435e+001	-5.337504e+001	8.355733e+001	8.355733e+001	-5.556429e-001	-2.835137e+000	-2.835137e+000	
5.240000e-001	-5.316682e-001	-3.318777e+000	-3.318777e+000	-5.318490e+001	7.661704e+001	7.661704e+001	-5.314567e+001	8.254519e+001	8.254519e+001	-5.538901e-001	-2.828872e+000	-2.828872e+000	
5.250000e-001	-5.382787e-001	-3.355314e+000	-3.355314e+000	-5.273030e+001	8.886689e+001	8.886689e+001	-5.334923e+001	7.707366e+001	7.707366e+001	-5.575012e-001	-2.884866e+000	-2.884866e+000	
5.260000e-001	-5.251742e-001	-3.394392e+000	-3.394392e+000	-5.356850e+001	7.230152e+001	7.230152e+001	-5.400078e+001	8.381731e+001	8.381731e+001	-5.542574e-001	-2.869460e+000	-2.869460e+000	
5.270000e-001	-5.310987e-001	-3.368513e+000	-3.368513e+000	-5.389221e+001	7.661516e+001	7.661516e+001	-5.257283e+001	8.532138e+001	8.532138e+001	-5.540974e-001	-2.875538e+000	-2.875538e+000	
5.280000e-001	-5.383662e-001	-3.379343e+000	-3.379343e+000	-5.246900e+001	7.890241e+001	7.890241e+001	-5.248896e+001	7.280174e+001	7.280174e+001	-5.623572e-001	-2.884216e+000	-2.884216e+000	
5.290000e-001	-5.323936e-001	-3.356349e+000	-3.356349e+000	-5.301545e+001	7.791442e+001	7.791442e+001	-5.352016e+001	8.512435e+001	8.512435e+001	-5.591224e-001	-2.905076e+000	-2.905076e+000	
5.300000e-001	-5.292802e-001	-3.408293e+000	-3.408293e+000	-5.286538e+001	8.747305e+001	8.747305e+001	-5.434581e+001	7.642640e+001	7.642640e+001	-5.515721e-001	-2.898245e+000	-2.898245e+000	
5.310000e-001	-5.294315e-001	-3.356459e+000	-3.356459e+000	-5.338265e+001	8.608724e+001	8.608724e+001	-5.447951e+001	7.840216e+001	7.840216e+001	-5.544516e-001	-2.912672e+000	-2.912672e+000	
5.320000e-001	-5.325041e-001	-3.374372e+000	-3.374372e+000	-5.318255e+001	8.639325e+001	8.639325e+001	-5.485706e+001	7.893655e+001	7.893655e+001	-5.532848e-001	-2.924586e+000	-2.924586e+000	
5.330000e-001	-5.369289e-001	-3.430232e+000	-3.430232e+000	-5.318741e+001	8.476889e+001	8.476889e+001	-5.309007e+001	8.094319e+001	8.094319e+001	-5.577593e-001	-2.946937e+000	-2.946937e+000	
5.340000e-001	-5.309683e-001	-3.364952e+000	-3.364952e+000	-5.302858e+001	7.594116e+001	7.594116e+001	-5.274248e+001	7.817785e+001	7.817785e+001	-5.510045e-001	-2.927209e+000	-2.927209e+000	
5.350000e-001	-5.345130e-001	-3.379139e+000	-3.379139e+000	-5.328506e+001	8.518559e+001	8.518559e+001	-5.285494e+001	8.282765e+001	8.282765e+001	-5.568375e-001	-2.941803e+000	-2.941803e+000	
5.360000e-001	-5.335186e-001	-3.403023e+000	-3.403023e+000	-5.329049e+001	8.003810e+001	8.003810e+001	-5.357916e+001	8.753120e+001	8.753120e+001	-5.600469e-001	-2.909150e+000	-2.909150e+000	
5.370000e-001	-5.331813e-001	-3.420760e+000	-3.420760e+000	-5.272709e+001	7.934813e+001	7.934813e+001	-5.279656e+001	8.233603e+001	8.233603e+001	-5.581182e-001	-2.941182e+000	-2.941182e+000	
5.380000e-001	-5.327674e-001	-3.416041e+000	-3.416041e+000	-5.328514e+001	8.073294e+001	8.073294e+001	-5.183432e+001	8.154288e+001	8.154288e+001	-5.561507e-001	-2.909826e+000	-2.909826e+000	
5.390000e-001	-5.357335e-001	-3.441737e+000	-3.441737e+000	-5.256425e+001	8.752871e+001	8.752871e+001	-5.220187e+001	7.570809e+001	7.570809e+001	-5.537436e-001	-2.932251e+000	-2.932251e+000	
5.400000e-001	-5.312722e-001	-3.429700e+000	-3.429700e+000	-5.255531e+001	8.647049e+001	8.647049e+001	-5.447522e+001	8.145031e+001	8.145031e+001	-5.560146e-001	-2.959553e+000	-2.959553e+000	
5.410000e-001	-5.340198e-001	-3.450551e+000	-3.450551e+000	-5.352878e+001	8.413860e+001	8.413860e+001	-5.397781e+001	7.791284e+001	7.791284e+001	-5.553961e-001	-2.923881e+000	-2.923881e+000	
5.420000e-001	-5.336305e-001	-3.472198e+000	-3.472198e+000	-5.331605e+001	8.817535e+001	8.817535e+001	-5.289539e+001	8.619859e+001	8.619859e+001	-5.618624e-001	-2.943896e+000	-2.943896e+000	
5.430000e-001	-5.308426e-001	-3.464373e+000	-3.464373e+000	-5.443768e+001	8.156605e+001	8.156605e+001	-5.284942e+001	8.362932e+001	8.362932e+001	-5.580558e-001	-3.017537e+000	-3.017537e+000	
5.440000e-001	-5.320635e-001	-3.466033e+000	-3.466033e+000	-5.311892e+001	8.296423e+001	8.296423e+001	-5.191568e+001	7.966675e+001	7.966675e+001	-5.539216e-001	-2.963455e+000	-2.963455e+000	
5.450000e-001	-5.323967e-001	-3.430525e+000	-3.430525e+000	-5.392446e+001	7.829919e+001	7.829919e+001	-5.297213e+001	8.573041e+001	8.573041e+001	-5.646976e-001	-2.962799e+000	-2.962799e+000	
5.460000e-001	-5.359193e-001	-3.471162e+000	-3.471162e+000	-5.265645e+001	8.157816e+001	8.157816e+001	-5.309756e+001	8.965615e+001	8.965615e+001	-5.567483e-001	-2.977443e+000	-2.977443e+000	
5.470000e-001	-5.357761e-001	-3.473286e+000	-3.473286e+000	-5.199606e+001	8.347484e+001	8.347484e+001	-5.363115e+001	8.665353e+001	8.665353e+001	-5.581344e-001	-2.985252e+000	-2.985252e+000	
5.480000e-001	-5.374427e-001	-3.490178e+000	-3.490178e+000	-5.234599e+001	7.611628e+001	7.611628e+001	-5.385035e+001	7.749528e+001	7.749528e+001	-5.586596e-001	-3.005330e+000	-3.005330e+000	
5.490000e-001	-5.332087e-001	-3.457095e+000	-3.457095e+000	-5.245471e+001	-8.705380e+001	9.294620e+001	-5.375495e+001	7.786295e+001	7.786295e+001	-5.541138e-001	-3.031266e+000	-3.031266e+000	
5.500000e-001	-5.370485e-001	-3.483096e+000	-3.483096e+000	-5.272554e+001	7.815363e+001	7.815363e+001	-5.204467e+001	7.912780e+001	7.912780e+001	-5.534585e-001	-3.001315e+000	-3.001315e+000	
5.510000e-001	-5.294211e-001	-3.479075e+000	-3.479075e+000	-5.266199e+001	7.747651e+001	7.747651e+001	-5.396463e+001	8.404900e+001	8.404900e+001	-5.601516e-001	-3.002933e+000	-3.002933e+000	
5.520000e-001	-5.401516e-001	-3.441268e+000	-3.441268e+000	-5.256542e+001	7.997232e+001	7.997232e+001	-5.283600e+001	8.767353e+001	8.767353e+001	-5.546458e-001	-3.007933e+000	-3.007933e+000	
5.530000e-001	-5.361292e-001	-3.463323e+000	-3.463323e+000	-5.260827e+001	8.008761e+001	8.008761e+001	-5.271763e+001	8.377872e+001	8.377872e+001	-5.571593e-001	-2.963361e+000	-2.963361e+000	
5.540000e-001	-5.338609e-001	-3.449403e+000	-3.449403e+000	-5.255597e+001	8.971326e+001	8.971326e+001	-5.223916e+001	8.431782e+001	8.431782e+001	-5.565861e-001	-2.965398e+000	-2.965398e+000	
5.550000e-001	-5.392397e-001	-3.475748e+000	-3.475748e+000	-5.299290e+001	8.130022e+001	8.130022e+001	-5.272832e+001	7.521137e+001	7.521137e+001	-5.546993e-001	-3.000032e+000	-3.000032e+000	
5.560000e-001	-5.393013e-001	-3.444453e+000	-3.444453e+000	-5.328918e+001	8.212416e+001	8.212416e+001	-5.330881e+001	7.627943e+001	7.627943e+001	-5.518643e-001	-3.021301e+000	-3.021301e+000	
5.570000e-001	-5.344344e-001	-3.481268e+000	-3.481268e+000	-5.303527e+001	8.510439e+001	8.510439e+001	-5.284946e+001	8.894765e+001	8.894765e+001	-5.535901e-001	-3.011082e+000	-3.011082e+000	
5.580000e-001	-5.323630e-001	-3.479813e+000	-3.479813e+000	-5.333554e+001	8.670344e+001	8.670344e+001	-5.327840e+001	8.727888e+001	8.727888e+001	-5.492417e-001	-2.986224e+000	-2.986224e+000	
5.590000e-001	-5.366792e-001	-3.487410e+000	-3.487410e+000	-5.162552e+001	8.129020e+001	8.129020e+001	-5.227512e+001	8.526932e+001	8.526932e+001	-5.534685e-001	-2.997817e+000	-2.997817e+000	
5.600000e-001	-5.364801e-001	-3.495755e+000	-3.495755e+000	-5.250337e+001	8.086494e+001	8.086494e+001	-5.294835e+001	8.218493e+001	8.218493e+001	-5.557575e-001	-3.004429e+000	-3.004429e+000	
5.610000e-001	-5.329520e-001	-3.490496e+000	-3.490496e+000	-5.229201e+001	8.004625e+001	8.004625e+001	-5.393919e+001	8.128305e+001	8.128305e+001	-5.573286e-001	-2.995758e+000	-2.995758e+000	
5.620000e-001	-5.386173e-001	-3.528491e+000	-3.528491e+000	-5.310697e+001	8.044713e+001	8.044713e+001	-5.194532e+001	8.541629e+001	8.541629e+001	-5.525912e-001	-3.007954e+000	-3.007954e+000	
5.630000e-001	-5.345328e-001	-3.529885e+000	-3.529885e+000	-5.381598e+001	8.235333e+001	8.235333e+001	-5.181471e+001	7.764295e+001	7.764295e+001	-5.531073e-001	-3.039618e+000	-3.039618e+000	
5.640000e-001	-5.312596e-001	-3.491281e+000	-3.491281e+000	-5.321369e+001	8.376877e+001	8.376877e+001	-5.250235e+001	-8.833361e+001	9.166639e+001	-5.491984e-001	-2.991695e+000	-2.991695e+000	
5.650000e-001	-5.307672e-001	-3.462663e+000	-3.462663e+000	-5.294378e+001	7.625522e+001	7.625522e+001	-5.397363e+001	7.971727e+001	7.971727e+001	-5.520450e-001	-3.009734e+000	-3.009734e+000	
5.660000e-001	-5.360692e-001	-3.474590e+000	-3.474590e+000	-5.241828e+001	8.401265e+001	8.401265e+001	-5.333949e+001	7.669240e+001	7.669240e+001	-5.556841e-001	-2.996419e+000	-2.996419e+000	
5.670000e-001	-5.318794e-001	-3.511966e+000	-3.511966e+000	-5.217476e+001	7.989644e+001	7.989644e+001	-5.309015e+001	8.504250e+001	8.504250e+001	-5.538880e-001	-2.996624e+000	-2.996624e+000	
5.680000e-001	-5.345366e-001	-3.497961e+000	-3.497961e+000	-5.289588e+001	8.221107e+001	8.221107e+001	-5.271793e+001	8.086059e+001	8.086059e+001	-5.534658e-001	-3.011500e+000	-3.011500e+000	
5.690000e-001	-5.325360e-001	-3.492855e+000	-3.492855e+000	-5.315984e+001	8.420679e+001	8.420679e+001	-5.294795e+001	7.805528e+001	7.805528e+001	-5.559145e-001	-2.975520e+000	-2.975520e+000	
5.700000e-001	-5.409366e-001	-3.516365e+000	-3.516365e+000	-5.372225e+001	8.117604e+001	8.117604e+001	-5.346888e+001	7.390845e+001	7.390845e+001	-5.588571e-001	-3.016049e+000	-3.016049e+000	
5.710000e-001	-5.291921e-001	-3.514028e+000	-3.514028e+000	-5.300388e+001	7.837384e+001	7.837384e+001	-5.322113e+001	7.921630e+001	7.921630e+001	-5.507783e-001	-3.030176e+000	-3.030176e+000	
5.720000e-001	-5.415126e-001	-3.504706e+000	-3.504706e+000	-5.330504e+001	7.323613e+001	7.323613e+001	-5.205044e+001	7.858842e+001	7.858842e+001	-5.534742e-001	-3.044964e+000	-3.044964e+000	
5.730000e-001	-5.363072e-001	-3.511473e+000	-3.511473e+000	-5.291165e+001	8.446212e+001	8.446212e+001	-5.262486e+001	7.588290e+001	7.588290e+001	-5.501220e-001	-3.043856e+000	-3.043856e+000	
5.740000e-001	-5.430524e-001	-3.508035e+000	-3.508035e+000	-5.183075e+001	8.478589e+001	8.478589e+001	-5.359047e+001	8.195739e+001	8.195739e+001	-5.533475e-001	-3.026155e+000	-3.026155e+000	
5.750000e-001	-5.417340e-001	-3.526695e+000	-3.526695e+000	-5.229459e+001	8.120105e+001	8.120105e+001	-5.240458e+001	8.356695e+001	8.356695e+001	-5.486127e-001	-3.025085e+000	-3.025085e+000	
5.760000e-001	-5.417327e-001	-3.541282e+000	-3.541282e+000	-5.156819e+001	8.930151e+001	8.930151e+001	-5.286181e+001	8.137220e+001	8.137220e+001	-5.477370e-001	-3.074905e+000	-3.074905e+000	
5.770000e-001	-5.391049e-001	-3.524320e+000	-3.524320e+000	-5.298814e+001	7.425081e+001	7.425081e+001	-5.296968e+001	8.434252e+001	8.434252e+001	-5.531076e-001	-3.019123e+000	-3.019123e+000	
5.780000e-001	-5.358777e-001	-3.524647e+000	-3.524647e+000	-5.336959e+001	8.550311e+001	8.550311e+001	-5.124830e+001	8.207330e+001	8.207330e+001	-5.538346e-001	-3.038858e+000	-3.038858e+000	
5.790000e-001	-5.375999e-001	-3.558973e+000	-3.558973e+000	-5.306323e+001	8.331019e+001	8.331019e+001	-5.218569e+001	7.910489e+001	7.910489e+001	-5.533231e-001	-3.018715e+000	-3.018715e+000	
5.800000e-001	-5.390043e-001	-3.531137e+000	-3.531137e+000	-5.260106e+001	7.739738e+001	7.739738e+001	-5.165369e+001	7.720797e+001	7.720797e+001	-5.575005e-001	-3.097372e+000	-3.097372e+000	
5.810000e-001	-5.377447e-001	-3.549161e+000	-3.549161e+000	-5.296718e+001	8.188236e+001	8.188236e+001	-5.207778e+001	8.225744e+001	8.225744e+001	-5.537016e-001	-3.044521e+000	-3.044521e+000	
5.820000e-001	-5.381538e-001	-3.567638e+000	-3.567638e+000	-5.325187e+001	8.178910e+001	8.178910e+001	-5.196084e+001	-8.980217e+001	9.019783e+001	-5.534329e-001	-3.075496e+000	-3.075496e+000	
5.830000e-001	-5.378480e-001	-3.565370e+000	-3.565370e+000	-5.304018e+001	8.457284e+001	8.457284e+001	-5.296700e+001	7.512885e+001	7.512885e+001	-5.535058e-001	-3.049813e+000	-3.049813e+000	
5.840000e-001	-5.374576e-001	-3.567911e+000	-3.567911e+000	-5.318571e+001	7.979188e+001	7.979188e+001	-5.283497e+001	8.447116e+001	8.447116e+001	-5.550695e-001	-3.107595e+000	-3.107595e+000	
5.850000e-001	-5.368807e-001	-3.550266e+000	-3.550266e+000	-5.308951e+001	8.614377e+001	8.614377e+001	-5.299023e+001	8.088504e+001	8.088504e+001	-5.576262e-001	-3.111611e+000	-3.111611e+000	
5.860000e-001	-5.309964e-001	-3.607003e+000	-3.607003e+000	-5.367925e+001	8.723000e+001	8.723000e+001	-5.230561e+001	8.659021e+001	8.659021e+001	-5.532883e-001	-3.037180e+000	-3.037180e+000	
5.870000e-001	-5.375590e-001	-3.610397e+000	-3.610397e+000	-5.212802e+001	8.686974e+001	8.686974e+001	-5.262775e+001	8.033526e+001	8.033526e+001	-5.574233e-001	-3.096680e+000	-3.096680e+000	
5.880000e-001	-5.425896e-001	-3.610351e+000	-3.610351e+000	-5.177838e+001	8.267582e+001	8.267582e+001	-5.187018e+001	8.825206e+001	8.825206e+001	-5.531918e-001	-3.120303e+000	-3.120303e+000	
5.890000e-001	-5.417322e-001	-3.580486e+000	-3.580486e+000	-5.244106e+001	-8.907962e+001	9.092038e+001	-5.337589e+001	8.187754e+001	8.187754e+001	-5.569211e-001	-3.119274e+000	-3.119274e+000	
5.900000e-001	-5.393170e-001	-3.604268e+000	-3.604268e+000	-5.261307e+001	8.119017e+001	8.119017e+001	-5.261141e+001	7.971157e+001	7.971157e+001	-5.629280e-001	-3.146463e+000	-3.146463e+000	
5.910000e-001	-5.374723e-001	-3.609892e+000	-3.609892e+000	-5.243551e+001	8.115198e+001	8.115198e+001	-5.265182e+001	7.729282e+001	7.729282e+001	-5.473278e-001	-3.111503e+000	-3.111503e+000	
5.920000e-001	-5.386957e-001	-3.573363e+000	-3.573363e+000	-5.190920e+001	7.993507e+001	7.993507e+001	-5.222300e+001	8.296319e+001	8.296319e+001	-5.592612e-001	-3.069987e+000	-3.069987e+000	
5.930000e-001	-5.417925e-001	-3.623008e+000	-3.623008e+000	-5.272255e+001	8.057492e+001	8.057492e+001	-5.203667e+001	8.628348e+001	8.628348e+001	-5.552471e-001	-3.047897e+000	-3.047897e+000	
5.940000e-001	-5.367646e-001	-3.654299e+000	-3.654299e+000	-5.274260e+001	8.381847e+001	8.381847e+001	-5.465444e+001	8.350742e+001	8.350742e+001	-5.507269e-001	-3.139990e+000	-3.139990e+000	
5.950000e-001	-5.352108e-001	-3.607954e+000	-3.607954e+000	-5.228668e+001	7.838792e+001	7.838792e+001	-5.176695e+001	7.766672e+001	7.766672e+001	-5.531257e-001	-3.080170e+000	-3.080170e+000	
5.960000e-001	-5.416309e-001	-3.637389e+000	-3.637389e+000	-5.257392e+001	7.800862e+001	7.800862e+001	-5.260457e+001	8.141875e+001	8.141875e+001	-5.554468e-001	-3.137623e+000	-3.137623e+000	
5.970000e-001	-5.343077e-001	-3.660208e+000	-3.660208e+000	-5.290185e+001	8.907362e+001	8.907362e+001	-5.262066e+001	7.605968e+001	7.605968e+001	-5.568894e-001	-3.144420e+000	-3.144420e+000	
5.980000e-001	-5.360302e-001	-3.668339e+000	-3.668339e+000	-5.306316e+001	7.268863e+001	7.268863e+001	-5.200069e+001	8.274689e+001	8.274689e+001	-5.504536e-001	-3.163392e+000	-3.163392e+000	
5.990000e-001	-5.362875e-001	-3.672304e+000	-3.672304e+000	-5.189623e+001	8.529189e+001	8.529189e+001	-5.206217e+001	8.078426e+001	8.078426e+001	-5.547107e-001	-3.155063e+000	-3.155063e+000	
6.000000e-001	-5.390966e-001	-3.673739e+000	-3.673739e+000	-5.230427e+001	8.701163e+001	8.701163e+001	-5.218160e+001	8.603677e+001	8.603677e+001	-5.606674e-001	-3.140733e+000	-3.140733e+000	
6.010000e-001	-5.388505e-001	-3.751663e+000	-3.751663e+000	-5.180248e+001	8.102017e+001	8.102017e+001	-5.130321e+001	8.298758e+001	8.298758e+001	-5.540042e-001	-3.165178e+000	-3.165178e+000	
6.020000e-001	-5.413333e-001	-3.695825e+000	-3.695825e+000	-5.274282e+001	8.125620e+001	8.125620e+001	-5.179711e+001	7.706072e+001	7.706072e+001	-5.556618e-001	-3.149776e+000	-3.149776e+000	
