Frequency	 |S11|	 Phase(S11)	 ExtPh(S11)	 |S21|	 Phase(S21)	 ExtPh(S21)	 |S12|	 Phase(S12)	 ExtPh(S12)	 |S22|	 Phase(S22)	 ExtPh(S22) 
5.000000e-001	-5.987127e+000	-1.514004e+001	-1.514004e+001	-5.672792e+001	3.835075e+001	3.835075e+001	-5.770322e+001	8.896520e+001	8.896520e+001	-5.771836e+000	-1.454601e+001	-1.454601e+001	
5.010000e-001	-5.976818e+000	-1.519724e+001	-1.519724e+001	-6.339493e+001	7.753269e+001	7.753269e+001	-5.692163e+001	3.619148e+001	3.619148e+001	-5.763859e+000	-1.465769e+001	-1.465769e+001	
5.020000e-001	-5.976887e+000	-1.518532e+001	-1.518532e+001	-5.990885e+001	7.145087e+001	7.145087e+001	-5.571269e+001	6.285130e+001	6.285130e+001	-5.765460e+000	-1.451977e+001	-1.451977e+001	
5.030000e-001	-5.966817e+000	-1.542834e+001	-1.542834e+001	-5.688077e+001	5.490435e+001	5.490435e+001	-6.457671e+001	9.055944e+000	9.055944e+000	-5.775012e+000	-1.464372e+001	-1.464372e+001	
5.040000e-001	-5.982816e+000	-1.523988e+001	-1.523988e+001	-5.858991e+001	5.904801e+001	5.904801e+001	-5.948144e+001	-8.804952e+001	-8.804952e+001	-5.774661e+000	-1.465746e+001	-1.465746e+001	
5.050000e-001	-5.984668e+000	-1.532697e+001	-1.532697e+001	-5.749684e+001	6.933499e+001	6.933499e+001	-5.375903e+001	4.976258e+001	4.976258e+001	-5.775110e+000	-1.473634e+001	-1.473634e+001	
5.060000e-001	-5.974600e+000	-1.538625e+001	-1.538625e+001	-5.856051e+001	6.941939e+001	6.941939e+001	-6.259353e+001	6.453657e+001	6.453657e+001	-5.774728e+000	-1.475789e+001	-1.475789e+001	
5.070000e-001	-5.977095e+000	-1.537424e+001	-1.537424e+001	-5.868630e+001	4.556948e+001	4.556948e+001	-5.961813e+001	1.824415e+001	1.824415e+001	-5.770663e+000	-1.476772e+001	-1.476772e+001	
5.080000e-001	-5.980426e+000	-1.542753e+001	-1.542753e+001	-5.882235e+001	6.367964e+001	6.367964e+001	-6.308174e+001	2.627088e+001	2.627088e+001	-5.761515e+000	-1.476033e+001	-1.476033e+001	
5.090000e-001	-5.984621e+000	-1.542320e+001	-1.542320e+001	-5.552331e+001	-8.596191e+001	9.403809e+001	-6.127515e+001	5.996026e+001	5.996026e+001	-5.775811e+000	-1.486823e+001	-1.486823e+001	
5.100000e-001	-5.977333e+000	-1.552707e+001	-1.552707e+001	-6.059165e+001	8.827216e+001	8.827216e+001	-6.040015e+001	5.297876e+001	5.297876e+001	-5.771616e+000	-1.489164e+001	-1.489164e+001	
5.110000e-001	-5.979442e+000	-1.553793e+001	-1.553793e+001	-6.304944e+001	5.002996e+001	5.002996e+001	-6.514207e+001	7.646186e+001	7.646186e+001	-5.778130e+000	-1.491919e+001	-1.491919e+001	
5.120000e-001	-5.963209e+000	-1.554909e+001	-1.554909e+001	-5.619502e+001	5.797383e+001	5.797383e+001	-6.356758e+001	7.739528e+001	7.739528e+001	-5.774439e+000	-1.493015e+001	-1.493015e+001	
5.130000e-001	-5.974397e+000	-1.557957e+001	-1.557957e+001	-6.014113e+001	8.760388e+001	8.760388e+001	-5.911138e+001	4.495970e+001	4.495970e+001	-5.756159e+000	-1.489390e+001	-1.489390e+001	
5.140000e-001	-5.990519e+000	-1.563117e+001	-1.563117e+001	-5.630483e+001	8.822877e+001	8.822877e+001	-6.389351e+001	3.861748e+001	3.861748e+001	-5.766006e+000	-1.486713e+001	-1.486713e+001	
5.150000e-001	-5.988580e+000	-1.572600e+001	-1.572600e+001	-6.238035e+001	8.977360e+001	8.977360e+001	-6.599651e+001	1.980409e+001	1.980409e+001	-5.766686e+000	-1.498813e+001	-1.498813e+001	
5.160000e-001	-5.979332e+000	-1.570927e+001	-1.570927e+001	-6.101133e+001	8.138422e+001	8.138422e+001	-5.978279e+001	6.177747e+001	6.177747e+001	-5.764938e+000	-1.503711e+001	-1.503711e+001	
5.170000e-001	-5.975151e+000	-1.578290e+001	-1.578290e+001	-6.404131e+001	8.331021e+001	8.331021e+001	-5.774124e+001	5.825291e+001	5.825291e+001	-5.761260e+000	-1.513214e+001	-1.513214e+001	
5.180000e-001	-5.977260e+000	-1.575711e+001	-1.575711e+001	-5.915918e+001	-8.440371e+001	9.559629e+001	-6.237201e+001	1.667941e+001	1.667941e+001	-5.764387e+000	-1.511532e+001	-1.511532e+001	
5.190000e-001	-5.979486e+000	-1.581925e+001	-1.581925e+001	-5.988015e+001	7.496648e+001	7.496648e+001	-5.764701e+001	5.553357e+001	5.553357e+001	-5.777324e+000	-1.525075e+001	-1.525075e+001	
5.200000e-001	-5.988356e+000	-1.566986e+001	-1.566986e+001	-5.878814e+001	6.066802e+001	6.066802e+001	-5.757948e+001	4.730677e+001	4.730677e+001	-5.757689e+000	-1.521878e+001	-1.521878e+001	
5.210000e-001	-5.969012e+000	-1.587294e+001	-1.587294e+001	-6.090695e+001	7.567189e+001	7.567189e+001	-5.870806e+001	4.982659e+001	4.982659e+001	-5.753469e+000	-1.516193e+001	-1.516193e+001	
5.220000e-001	-5.965998e+000	-1.581812e+001	-1.581812e+001	-6.568049e+001	4.510366e+001	4.510366e+001	-5.569518e+001	4.288333e+001	4.288333e+001	-5.764754e+000	-1.528415e+001	-1.528415e+001	
5.230000e-001	-5.971173e+000	-1.591497e+001	-1.591497e+001	-6.378205e+001	5.090933e+001	5.090933e+001	-6.471741e+001	3.200484e+001	3.200484e+001	-5.748184e+000	-1.532515e+001	-1.532515e+001	
5.240000e-001	-5.976122e+000	-1.592568e+001	-1.592568e+001	-6.082639e+001	7.444277e+001	7.444277e+001	-5.865015e+001	3.091978e+001	3.091978e+001	-5.769167e+000	-1.534706e+001	-1.534706e+001	
5.250000e-001	-5.976623e+000	-1.596855e+001	-1.596855e+001	-5.828102e+001	5.670898e+001	5.670898e+001	-6.683217e+001	2.729774e+001	2.729774e+001	-5.772562e+000	-1.539690e+001	-1.539690e+001	
5.260000e-001	-5.970306e+000	-1.597563e+001	-1.597563e+001	-6.864851e+001	3.373477e+001	3.373477e+001	-5.974119e+001	-7.970032e+001	-7.970032e+001	-5.773044e+000	-1.537396e+001	-1.537396e+001	
5.270000e-001	-5.978817e+000	-1.608907e+001	-1.608907e+001	-5.526500e+001	3.771536e+001	3.771536e+001	-5.907137e+001	4.115530e+001	4.115530e+001	-5.767583e+000	-1.528782e+001	-1.528782e+001	
5.280000e-001	-5.975684e+000	-1.618267e+001	-1.618267e+001	-5.862248e+001	5.342053e+001	5.342053e+001	-5.699324e+001	8.632246e+001	8.632246e+001	-5.769362e+000	-1.544859e+001	-1.544859e+001	
5.290000e-001	-5.968273e+000	-1.614131e+001	-1.614131e+001	-6.132596e+001	8.682092e+001	8.682092e+001	-5.837495e+001	5.889642e+001	5.889642e+001	-5.773632e+000	-1.541559e+001	-1.541559e+001	
5.300000e-001	-5.978229e+000	-1.624285e+001	-1.624285e+001	-6.015209e+001	7.613095e+001	7.613095e+001	-5.751991e+001	6.154888e+001	6.154888e+001	-5.765025e+000	-1.548045e+001	-1.548045e+001	
5.310000e-001	-5.966482e+000	-1.607070e+001	-1.607070e+001	-6.076169e+001	2.126600e+001	2.126600e+001	-5.832864e+001	6.445942e+001	6.445942e+001	-5.745396e+000	-1.551545e+001	-1.551545e+001	
5.320000e-001	-5.970558e+000	-1.616529e+001	-1.616529e+001	-6.560370e+001	2.497105e+001	2.497105e+001	-5.505936e+001	5.373381e+001	5.373381e+001	-5.766784e+000	-1.557163e+001	-1.557163e+001	
5.330000e-001	-5.968142e+000	-1.618859e+001	-1.618859e+001	-5.837478e+001	5.612754e+001	5.612754e+001	-6.144650e+001	1.750473e+001	1.750473e+001	-5.767267e+000	-1.562809e+001	-1.562809e+001	
5.340000e-001	-5.965411e+000	-1.627810e+001	-1.627810e+001	-5.803311e+001	6.216155e+001	6.216155e+001	-6.095164e+001	1.380561e+001	1.380561e+001	-5.758450e+000	-1.560624e+001	-1.560624e+001	
5.350000e-001	-5.967996e+000	-1.626974e+001	-1.626974e+001	-5.932601e+001	4.082965e+001	4.082965e+001	-6.151000e+001	8.278625e+000	8.278625e+000	-5.756541e+000	-1.568989e+001	-1.568989e+001	
5.360000e-001	-5.961033e+000	-1.628645e+001	-1.628645e+001	-6.438043e+001	5.859661e+001	5.859661e+001	-6.393371e+001	2.917732e+001	2.917732e+001	-5.751189e+000	-1.572484e+001	-1.572484e+001	
5.370000e-001	-5.975938e+000	-1.635854e+001	-1.635854e+001	-6.851188e+001	2.467794e+001	2.467794e+001	-6.145110e+001	3.503104e+001	3.503104e+001	-5.771524e+000	-1.577181e+001	-1.577181e+001	
5.380000e-001	-5.973929e+000	-1.625789e+001	-1.625789e+001	-6.096112e+001	-8.854294e+001	-8.854294e+001	-5.855441e+001	7.917287e+001	7.917287e+001	-5.768790e+000	-1.567617e+001	-1.567617e+001	
5.390000e-001	-5.971914e+000	-1.636915e+001	-1.636915e+001	-6.062743e+001	5.460909e+001	-1.253909e+002	-6.325597e+001	5.997328e+001	5.997328e+001	-5.758796e+000	-1.579275e+001	-1.579275e+001	
5.400000e-001	-5.972002e+000	-1.647346e+001	-1.647346e+001	-5.664905e+001	6.062561e+001	-1.193744e+002	-6.105193e+001	3.807456e+001	3.807456e+001	-5.751645e+000	-1.576080e+001	-1.576080e+001	
5.410000e-001	-5.978906e+000	-1.643167e+001	-1.643167e+001	-6.121038e+001	1.933952e+001	-1.606605e+002	-6.274737e+001	7.559786e+001	7.559786e+001	-5.753180e+000	-1.583973e+001	-1.583973e+001	
5.420000e-001	-5.979885e+000	-1.653107e+001	-1.653107e+001	-5.723982e+001	4.822224e+001	-1.317778e+002	-6.252628e+001	5.213511e+001	5.213511e+001	-5.751225e+000	-1.581060e+001	-1.581060e+001	
5.430000e-001	-5.960062e+000	-1.641419e+001	-1.641419e+001	-6.152384e+001	4.714240e+001	-1.328576e+002	-5.893372e+001	8.666069e+001	8.666069e+001	-5.748040e+000	-1.587727e+001	-1.587727e+001	
5.440000e-001	-5.963459e+000	-1.652290e+001	-1.652290e+001	-6.245524e+001	6.181953e+001	-1.181805e+002	-5.910665e+001	5.159915e+001	5.159915e+001	-5.750852e+000	-1.594764e+001	-1.594764e+001	
5.450000e-001	-5.963398e+000	-1.661681e+001	-1.661681e+001	-5.986761e+001	4.643087e+001	-1.335691e+002	-5.787345e+001	7.046529e+001	7.046529e+001	-5.764288e+000	-1.586656e+001	-1.586656e+001	
5.460000e-001	-5.966754e+000	-1.655452e+001	-1.655452e+001	-5.593864e+001	5.973832e+001	-1.202617e+002	-5.846376e+001	5.089750e+001	5.089750e+001	-5.758184e+000	-1.597667e+001	-1.597667e+001	
5.470000e-001	-5.963226e+000	-1.657757e+001	-1.657757e+001	-6.078803e+001	7.652485e+001	-1.034751e+002	-5.696431e+001	4.505286e+001	4.505286e+001	-5.737109e+000	-1.597155e+001	-1.597155e+001	
5.480000e-001	-5.970417e+000	-1.660443e+001	-1.660443e+001	-6.005680e+001	1.899369e+001	-1.610063e+002	-5.963882e+001	4.651043e+001	4.651043e+001	-5.745300e+000	-1.596374e+001	-1.596374e+001	
5.490000e-001	-5.973611e+000	-1.654249e+001	-1.654249e+001	-5.908582e+001	3.766256e+001	-1.423374e+002	-6.056996e+001	3.156195e+001	3.156195e+001	-5.749929e+000	-1.604408e+001	-1.604408e+001	
5.500000e-001	-5.973552e+000	-1.663947e+001	-1.663947e+001	-5.514364e+001	4.315226e+001	-1.368477e+002	-6.173432e+001	3.452565e+001	3.452565e+001	-5.752372e+000	-1.602595e+001	-1.602595e+001	
5.510000e-001	-5.970748e+000	-1.673071e+001	-1.673071e+001	-6.480163e+001	6.742650e+001	-1.125735e+002	-5.915598e+001	5.956006e+001	5.956006e+001	-5.754725e+000	-1.610586e+001	-1.610586e+001	
5.520000e-001	-5.975704e+000	-1.662070e+001	-1.662070e+001	-6.068905e+001	5.876602e+001	-1.212340e+002	-5.770441e+001	5.967737e+001	5.967737e+001	-5.739697e+000	-1.607631e+001	-1.607631e+001	
5.530000e-001	-5.969913e+000	-1.671501e+001	-1.671501e+001	-5.789107e+001	5.245610e+001	-1.275439e+002	-5.684531e+001	5.123068e+001	5.123068e+001	-5.748450e+000	-1.614073e+001	-1.614073e+001	
5.540000e-001	-5.963986e+000	-1.675249e+001	-1.675249e+001	-6.141015e+001	5.166280e+001	-1.283372e+002	-5.946110e+001	5.991167e+001	5.991167e+001	-5.744796e+000	-1.612728e+001	-1.612728e+001	
5.550000e-001	-5.957850e+000	-1.674047e+001	-1.674047e+001	-5.824528e+001	3.748927e+001	-1.425107e+002	-6.071804e+001	3.681501e+001	3.681501e+001	-5.752096e+000	-1.617454e+001	-1.617454e+001	
5.560000e-001	-5.954124e+000	-1.676739e+001	-1.676739e+001	-6.065126e+001	6.569381e+001	-1.143062e+002	-6.332499e+001	7.395251e+001	7.395251e+001	-5.749392e+000	-1.628320e+001	-1.628320e+001	
5.570000e-001	-5.955079e+000	-1.682126e+001	-1.682126e+001	-5.869723e+001	5.394398e+001	-1.260560e+002	-5.950173e+001	4.631308e+001	4.631308e+001	-5.748688e+000	-1.612104e+001	-1.612104e+001	
5.580000e-001	-5.959257e+000	-1.679215e+001	-1.679215e+001	-5.904293e+001	-8.376007e+001	-2.637601e+002	-6.130053e+001	3.046793e+001	3.046793e+001	-5.752656e+000	-1.626432e+001	-1.626432e+001	
5.590000e-001	-5.963858e+000	-1.691640e+001	-1.691640e+001	-5.841984e+001	7.286443e+001	-2.871356e+002	-5.937969e+001	6.423011e+001	6.423011e+001	-5.736191e+000	-1.632143e+001	-1.632143e+001	
5.600000e-001	-5.960136e+000	-1.686272e+001	-1.686272e+001	-6.182516e+001	5.234718e+001	-3.076528e+002	-6.078182e+001	6.191884e+001	6.191884e+001	-5.750075e+000	-1.631160e+001	-1.631160e+001	
5.610000e-001	-5.962098e+000	-1.693691e+001	-1.693691e+001	-5.847253e+001	8.100851e+001	-2.789915e+002	-5.915623e+001	8.293129e+001	8.293129e+001	-5.747668e+000	-1.632469e+001	-1.632469e+001	
5.620000e-001	-5.968193e+000	-1.689916e+001	-1.689916e+001	-5.648654e+001	6.210352e+001	-2.978965e+002	-6.242314e+001	-6.105441e+001	1.189456e+002	-5.733824e+000	-1.633951e+001	-1.633951e+001	
5.630000e-001	-5.958209e+000	-1.689523e+001	-1.689523e+001	-6.109660e+001	7.504693e+001	-2.849531e+002	-5.628803e+001	5.845118e+001	2.384512e+002	-5.738527e+000	-1.636818e+001	-1.636818e+001	
5.640000e-001	-5.967782e+000	-1.694338e+001	-1.694338e+001	-6.109909e+001	5.144667e+001	-3.085533e+002	-6.384601e+001	7.262291e+001	2.526229e+002	-5.744390e+000	-1.646856e+001	-1.646856e+001	
5.650000e-001	-5.961652e+000	-1.700737e+001	-1.700737e+001	-7.104330e+001	8.618055e+001	-2.738194e+002	-5.650895e+001	7.401176e+001	2.540118e+002	-5.738190e+000	-1.648363e+001	-1.648363e+001	
5.660000e-001	-5.958174e+000	-1.708433e+001	-1.708433e+001	-6.371705e+001	5.467704e+001	-3.053230e+002	-5.528413e+001	6.715187e+001	2.471519e+002	-5.752817e+000	-1.641156e+001	-1.641156e+001	
5.670000e-001	-5.967354e+000	-1.705839e+001	-1.705839e+001	-5.951461e+001	6.826467e+001	-2.917353e+002	-5.891511e+001	7.364150e+001	2.536415e+002	-5.731999e+000	-1.650873e+001	-1.650873e+001	
5.680000e-001	-5.953772e+000	-1.709994e+001	-1.709994e+001	-5.588459e+001	8.507587e+001	-2.749241e+002	-6.489070e+001	4.691239e+001	2.269124e+002	-5.746935e+000	-1.642010e+001	-1.642010e+001	
5.690000e-001	-5.967068e+000	-1.708603e+001	-1.708603e+001	-5.965104e+001	7.473271e+001	-2.852673e+002	-5.798360e+001	3.350991e+001	2.135099e+002	-5.738096e+000	-1.639584e+001	-1.639584e+001	
5.700000e-001	-5.956028e+000	-1.712766e+001	-1.712766e+001	-6.217317e+001	3.086978e+001	-3.291302e+002	-5.683398e+001	2.241935e+001	2.024194e+002	-5.740017e+000	-1.653468e+001	-1.653468e+001	
5.710000e-001	-5.970917e+000	-1.713145e+001	-1.713145e+001	-5.982582e+001	7.315712e+001	-2.868429e+002	-6.803855e+001	7.834615e+001	2.583461e+002	-5.763811e+000	-1.652218e+001	-1.652218e+001	
5.720000e-001	-5.960462e+000	-1.720670e+001	-1.720670e+001	-6.139790e+001	7.399803e+001	-2.860020e+002	-5.661526e+001	6.001512e+001	2.400151e+002	-5.748044e+000	-1.657353e+001	-1.657353e+001	
5.730000e-001	-5.975876e+000	-1.719819e+001	-1.719819e+001	-6.007309e+001	-8.447482e+001	-2.644748e+002	-5.745668e+001	7.883347e+001	2.588335e+002	-5.755416e+000	-1.666707e+001	-1.666707e+001	
5.740000e-001	-5.965207e+000	-1.718639e+001	-1.718639e+001	-6.232857e+001	2.733444e+001	-1.526656e+002	-6.028678e+001	6.685339e+001	2.468534e+002	-5.733963e+000	-1.671894e+001	-1.671894e+001	
5.750000e-001	-5.974739e+000	-1.722850e+001	-1.722850e+001	-6.015426e+001	3.716347e+001	-1.428365e+002	-6.093948e+001	6.492857e+001	2.449286e+002	-5.749887e+000	-1.665368e+001	-1.665368e+001	
5.760000e-001	-5.974662e+000	-1.728164e+001	-1.728164e+001	-5.528115e+001	5.967496e+001	-1.203250e+002	-6.623558e+001	-8.492995e+001	2.750700e+002	-5.744280e+000	-1.664388e+001	-1.664388e+001	
5.770000e-001	-5.962137e+000	-1.736684e+001	-1.736684e+001	-5.735970e+001	5.439260e+001	-1.256074e+002	-5.784568e+001	4.403232e+001	4.040323e+002	-5.752266e+000	-1.660306e+001	-1.660306e+001	
5.780000e-001	-5.966752e+000	-1.743456e+001	-1.743456e+001	-5.761014e+001	8.969283e+001	-9.030717e+001	-5.555152e+001	2.648076e+001	3.864808e+002	-5.738399e+000	-1.675279e+001	-1.675279e+001	
5.790000e-001	-5.972559e+000	-1.736488e+001	-1.736488e+001	-6.385864e+001	6.851401e+001	-1.114860e+002	-6.556451e+001	4.575987e+001	4.057599e+002	-5.756301e+000	-1.667481e+001	-1.667481e+001	
5.800000e-001	-5.973477e+000	-1.741564e+001	-1.741564e+001	-5.752087e+001	6.418249e+001	-1.158175e+002	-5.387779e+001	2.507519e+001	3.850752e+002	-5.747372e+000	-1.683412e+001	-1.683412e+001	
5.810000e-001	-5.975503e+000	-1.746101e+001	-1.746101e+001	-5.799485e+001	-8.806260e+001	-8.806260e+001	-6.063973e+001	-5.245087e+000	3.547549e+002	-5.735182e+000	-1.685731e+001	-1.685731e+001	
5.820000e-001	-5.969262e+000	-1.736985e+001	-1.736985e+001	-5.905594e+001	4.261897e+001	4.261897e+001	-6.326533e+001	4.576111e+001	4.057611e+002	-5.740141e+000	-1.691328e+001	-1.691328e+001	
5.830000e-001	-5.969069e+000	-1.758771e+001	-1.758771e+001	-6.260874e+001	8.250272e+001	8.250272e+001	-8.161501e+001	-6.023857e+001	2.997614e+002	-5.743569e+000	-1.696718e+001	-1.696718e+001	
5.840000e-001	-5.971929e+000	-1.753445e+001	-1.753445e+001	-5.952452e+001	5.722897e+001	5.722897e+001	-7.698154e+001	5.576572e+001	4.157657e+002	-5.742099e+000	-1.688500e+001	-1.688500e+001	
5.850000e-001	-5.969449e+000	-1.757051e+001	-1.757051e+001	-6.705398e+001	7.935690e+001	7.935690e+001	-6.039004e+001	6.886863e+001	4.288686e+002	-5.737563e+000	-1.703597e+001	-1.703597e+001	
5.860000e-001	-5.958246e+000	-1.759780e+001	-1.759780e+001	-6.120033e+001	2.673005e+001	2.673005e+001	-6.151487e+001	6.744869e+001	4.274487e+002	-5.767552e+000	-1.684977e+001	-1.684977e+001	
5.870000e-001	-5.967951e+000	-1.765853e+001	-1.765853e+001	-6.061010e+001	6.328423e+001	6.328423e+001	-5.632386e+001	3.312073e+001	3.931207e+002	-5.742015e+000	-1.695924e+001	-1.695924e+001	
5.880000e-001	-5.976653e+000	-1.757399e+001	-1.757399e+001	-6.123538e+001	4.971552e+001	4.971552e+001	-6.085359e+001	4.106120e+001	4.010612e+002	-5.738859e+000	-1.705194e+001	-1.705194e+001	
5.890000e-001	-5.973552e+000	-1.776286e+001	-1.776286e+001	-6.390283e+001	1.917921e+001	1.917921e+001	-5.356553e+001	6.585604e+001	4.258560e+002	-5.753399e+000	-1.702234e+001	-1.702234e+001	
5.900000e-001	-5.963371e+000	-1.778018e+001	-1.778018e+001	-5.641166e+001	8.918371e+001	8.918371e+001	-5.783764e+001	1.837267e+001	3.783727e+002	-5.740860e+000	-1.716069e+001	-1.716069e+001	
5.910000e-001	-5.965460e+000	-1.781526e+001	-1.781526e+001	-5.485822e+001	5.233152e+001	5.233152e+001	-5.897703e+001	5.197681e+001	4.119768e+002	-5.741718e+000	-1.710309e+001	-1.710309e+001	
5.920000e-001	-5.976625e+000	-1.780447e+001	-1.780447e+001	-5.951818e+001	4.418350e+001	4.418350e+001	-6.007680e+001	5.556167e+001	4.155617e+002	-5.748336e+000	-1.717371e+001	-1.717371e+001	
5.930000e-001	-5.977176e+000	-1.783269e+001	-1.783269e+001	-5.662670e+001	5.137256e+001	5.137256e+001	-5.542168e+001	8.669737e+001	4.466974e+002	-5.748266e+000	-1.706004e+001	-1.706004e+001	
5.940000e-001	-5.984504e+000	-1.776571e+001	-1.776571e+001	-5.963121e+001	5.993402e+001	5.993402e+001	-6.147829e+001	5.952631e+001	4.195263e+002	-5.742739e+000	-1.721157e+001	-1.721157e+001	
5.950000e-001	-5.977872e+000	-1.791755e+001	-1.791755e+001	-6.098075e+001	7.999488e+001	7.999488e+001	-6.177635e+001	4.183068e+001	4.018307e+002	-5.733644e+000	-1.725299e+001	-1.725299e+001	
5.960000e-001	-5.986731e+000	-1.797647e+001	-1.797647e+001	-5.735361e+001	8.640784e+001	8.640784e+001	-6.184504e+001	6.205074e+000	3.662051e+002	-5.746544e+000	-1.732957e+001	-1.732957e+001	
5.970000e-001	-5.980691e+000	-1.803710e+001	-1.803710e+001	-5.978348e+001	4.942798e+001	4.942798e+001	-6.460232e+001	6.652937e-001	3.606653e+002	-5.734909e+000	-1.727991e+001	-1.727991e+001	
5.980000e-001	-5.978210e+000	-1.803496e+001	-1.803496e+001	-5.845653e+001	6.775555e+001	6.775555e+001	-6.079792e+001	5.129923e+001	4.112992e+002	-5.753117e+000	-1.740425e+001	-1.740425e+001	
5.990000e-001	-5.970266e+000	-1.800157e+001	-1.800157e+001	-5.578624e+001	4.586792e+001	4.586792e+001	-6.179258e+001	1.743572e+001	3.774357e+002	-5.738496e+000	-1.737424e+001	-1.737424e+001	
6.000000e-001	-5.991760e+000	-1.815323e+001	-1.815323e+001	-5.522213e+001	4.686852e+001	4.686852e+001	-5.969237e+001	5.370458e+001	4.137046e+002	-5.734740e+000	-1.733047e+001	-1.733047e+001	
6.010000e-001	-5.982903e+000	-1.813230e+001	-1.813230e+001	-5.976549e+001	8.027602e+001	8.027602e+001	-5.659101e+001	3.854928e+001	3.985493e+002	-5.743230e+000	-1.742517e+001	-1.742517e+001	
6.020000e-001	-5.987342e+000	-1.809833e+001	-1.809833e+001	-6.031050e+001	5.435408e+001	5.435408e+001	-6.030745e+001	8.549569e+001	4.454957e+002	-5.747102e+000	-1.758059e+001	-1.758059e+001	
