!Keysight Technologies,M9374A,MY55442783,A.12.55.05
!Date: Wednesday, May 19, 2021 17:02:24
!Correction: S11(Full 2 Port(1,2)) 
!S21(Full 2 Port(1,2)) 
!S12(Full 2 Port(1,2)) 
!S22(Full 2 Port(1,2)) 
!S2P File: Measurements: S11, S21, S12, S22:
# Hz S  RI   R 50
500000000 -0.8817727 0.054824065 -0.00030500561 -0.00051104982 0.0004505383 -0.00035791381 -0.87886417 0.048537642
501000000 -0.88157058 0.056279037 -0.00037006565 0.00023157911 -4.7186069e-005 -0.00032446306 -0.87792724 0.047591794
502000000 -0.881271 0.057050169 -0.00044430362 -0.001094605 -0.00050067622 -0.00046487604 -0.87874597 0.049180284
503000000 -0.88238895 0.05600667 -0.00036887598 -0.00022716571 9.7763535e-005 -0.0020350025 -0.87856656 0.04834
504000000 -0.88172483 0.056739993 0.00072112243 -0.0023687053 -0.00013786077 -0.00011327927 -0.87817812 0.047830869
505000000 -0.88287663 0.05542228 -0.0004599409 -0.00057325384 0.00085829041 -0.00088716886 -0.87795013 0.048588451
506000000 -0.88226849 0.056790706 -0.00012317309 -0.0012596704 -0.0012645094 -0.0012414089 -0.87992805 0.049915269
507000000 -0.88102323 0.056514595 0.0001093562 -0.00029924992 5.9993286e-005 -0.00040157908 -0.87921828 0.050511286
508000000 -0.88092703 0.057802342 -0.00010717601 -0.00076088496 0.00031240116 -0.00049059925 -0.87776524 0.048722655
509000000 -0.88259143 0.058121119 -0.00067927339 -0.0015145337 -0.00030106481 -0.0010809375 -0.87772542 0.051457323
510000000 -0.88183737 0.056681257 -0.0007110369 -0.00068859028 -0.00010641963 0.00012911452 -0.87868035 0.049004875
511000000 -0.88140321 0.056748189 0.00043785622 -0.0010737063 -0.00051132368 -0.00047513514 -0.87714911 0.051686935
512000000 -0.88008577 0.057335034 0.0002677732 -0.00073174515 -8.4179723e-005 -0.00041991298 -0.87825769 0.050500717
513000000 -0.88176137 0.057209786 -0.00030826259 -0.00024800521 0.00012594879 -0.00089199643 -0.87797868 0.048732836
514000000 -0.88194168 0.058326799 -2.7222421e-005 -0.00036935706 -0.00015513388 -0.0019391387 -0.87793308 0.049638242
515000000 -0.88095301 0.058329668 -0.0006278216 -0.0023243327 -0.00038947866 0.00010815272 -0.87821686 0.051090706
516000000 -0.88167089 0.059294462 0.00042653488 -0.0016551603 0.00061764685 -0.0003879125 -0.87733829 0.051466763
517000000 -0.88040322 0.057397436 0.00057293556 -0.00066117477 -0.00040379027 -0.001644676 -0.87806553 0.05066425
518000000 -0.88095713 0.058031399 -0.00057000783 -0.0023095002 -0.00030988842 -0.0013463703 -0.87865734 0.051015906
519000000 -0.88096392 0.058538523 -0.00060978369 -0.0010049203 0.00018824487 -0.00016666115 -0.87870812 0.051802713
520000000 -0.88099247 0.058133945 7.6790529e-005 -0.0012709049 -0.00097683456 -0.00096041837 -0.87899482 0.049449775
521000000 -0.88103884 0.059507996 -0.00031663603 -0.00078232115 -0.00049823883 -0.00076486054 -0.87801135 0.051111106
522000000 -0.8820979 0.057518307 0.00066910841 -0.0017222626 -0.00045790159 -0.00077153224 -0.87853873 0.052900806
523000000 -0.88165969 0.058541317 0.00064430677 -0.0010452848 -4.4950255e-005 -0.001145142 -0.87714434 0.051450685
524000000 -0.88168448 0.059486609 -3.0918232e-005 -0.0014464246 0.00059145247 -0.0017075768 -0.87896204 0.052338168
525000000 -0.88004613 0.06041069 -0.00040382528 -0.0015930629 -0.00047294304 -0.0018696933 -0.87946373 0.052521616
526000000 -0.88262069 0.059455745 -0.00046183125 -0.00041746997 2.2417877e-005 -0.001887169 -0.87891704 0.051330641
527000000 -0.8814283 0.060468961 -0.00036993754 -0.0015347531 -0.00030192357 -0.0013052941 -0.87913674 0.050924513
528000000 -0.88002294 0.059463531 9.0902016e-005 -0.00041303685 0.0010738088 -0.00050218415 -0.87857318 0.053307638
529000000 -0.88064271 0.059914593 4.4610937e-005 -0.001068105 0.00051602948 -0.0013615894 -0.87718624 0.052419987
530000000 -0.88191926 0.06064618 -0.00053947803 -0.0016228355 -0.00089222059 -0.00089385296 -0.87771672 0.05319662
531000000 -0.88147646 0.061547693 -0.00090519618 -0.0010605282 -0.00054122956 -0.0015704657 -0.877913 0.054190364
532000000 -0.88040525 0.058753759 -0.00064388564 -0.0012029137 -0.00062924542 -0.00061971316 -0.87732017 0.051773883
533000000 -0.87982744 0.061449401 0.00025662303 -0.001141734 -0.00024086541 -0.00070462527 -0.87670702 0.052488599
534000000 -0.88175511 0.058892693 -6.9378046e-005 -0.0013094473 0.00074886839 -0.0022219501 -0.87882698 0.054639135
535000000 -0.88221925 0.06127451 -0.00068911019 -0.0012960208 0.00027834688 -0.0001514803 -0.87817615 0.054171976
536000000 -0.88095194 0.059191771 -0.00072329101 -0.0015832988 0.00012997357 -0.0017418432 -0.87708724 0.055376951
537000000 -0.88077646 0.059448309 -6.4590495e-005 -0.0013902251 0.00018923161 -0.0018203103 -0.87873119 0.05331951
538000000 -0.88073534 0.060318265 -0.00071814022 -0.00071821734 -0.00042920545 -0.00073408429 -0.87663245 0.053622063
539000000 -0.88081503 0.060860116 -8.7131913e-005 -0.00087427296 -0.00039097585 -0.0015505363 -0.87729871 0.054424834
540000000 -0.8811143 0.060832854 -0.0003980624 -0.00033371997 0.00016279529 -0.001416131 -0.8778035 0.052401695
541000000 -0.88042104 0.061867088 -0.00032498685 -0.00061140582 -0.00045353858 -0.001635727 -0.87739068 0.054481696
542000000 -0.88043261 0.060445234 -0.00067601836 -0.00079068932 0.00021488927 -0.0013349218 -0.8785702 0.05383306
543000000 -0.880481 0.060674869 -1.0853205e-005 -0.0015971181 1.2447949e-005 -0.0020487786 -0.8771854 0.054003265
544000000 -0.87971133 0.062048189 0.00033655687 -0.00079515658 0.00048311453 -0.0016237452 -0.87893069 0.054755758
545000000 -0.88082427 0.06092409 -0.00054318539 -0.001167114 -0.00081319729 -0.0011136223 -0.87800545 0.055571847
546000000 -0.88230979 0.061598677 -0.0015955839 -0.0015477253 -0.00030761829 -0.0009818438 -0.87921947 0.054295477
547000000 -0.87998444 0.061820485 0.00012511632 -0.0010832681 0.00023860679 -0.00058053911 -0.87729126 0.054839041
548000000 -0.88015121 0.061430361 -0.00054224202 -0.0017866925 -0.00098232727 -0.0019188026 -0.87753004 0.055185121
549000000 -0.87953854 0.06144765 0.00012164369 -0.00010891617 -0.00045828114 -0.0011226606 -0.87833494 0.055461254
550000000 -0.87956464 0.060336057 -0.00068786583 -0.00078167487 -0.00012952305 -0.0015748724 -0.8800534 0.055330839
551000000 -0.88183326 0.060017925 -0.0003130059 -7.2767575e-006 -0.00032670345 -0.0012754607 -0.87670028 0.05312977
552000000 -0.87991184 0.059956349 3.9301482e-005 -0.0010022881 -0.00010077633 -0.0018155429 -0.87764472 0.054644819
553000000 -0.88155842 0.061959911 6.9475202e-005 -0.00089153694 5.8001508e-005 -0.0013967224 -0.87705296 0.054766849
554000000 -0.8821435 0.060376875 8.9089313e-005 -0.00038079417 -2.7593329e-005 -0.0014257507 -0.8785392 0.054568328
555000000 -0.88133043 0.062198926 0.00081406324 -0.0017000425 0.0010340515 -0.00084994617 -0.87793255 0.054745793
556000000 -0.8800621 0.062056683 -0.000183906 -0.00068385608 -0.00026431496 -0.0021886562 -0.87790895 0.054913007
557000000 -0.88096774 0.060851008 -0.00058156234 -0.00030638685 0.00030911644 -0.0013584574 -0.87628764 0.054308128
558000000 -0.88116735 0.060486335 -0.00044906023 -0.0014719815 -0.0010550383 -0.0010457491 -0.87822282 0.054562848
559000000 -0.88005257 0.061422866 -0.00049212633 -0.0010081782 0.00049712276 0.00091683707 -0.87763745 0.056402054
560000000 -0.88058817 0.063261583 -0.00043273464 -0.0016408307 0.00098292623 -0.0012588933 -0.87874633 0.056454107
561000000 -0.88048059 0.062097985 0.00032234422 -0.0015458447 -0.00014201671 -0.0014832109 -0.87736183 0.054630361
562000000 -0.87992913 0.062649839 4.3990138e-005 -0.00099632517 0.00051052839 -0.0014552408 -0.8784833 0.055962007
563000000 -0.88012248 0.063429624 0.00052032212 -0.0018865841 0.00037419781 -0.0018188286 -0.87721789 0.055694319
564000000 -0.88147646 0.062802494 0.00016558242 6.5158245e-005 -0.00054162921 -0.00062297168 -0.87832594 0.055975653
565000000 -0.88165408 0.06157285 -0.00082241301 -0.0010494322 0.00056546571 -0.00017143166 -0.8789047 0.055889629
566000000 -0.88051349 0.062114578 -0.0011951044 -0.0010523463 -0.00056660693 -0.00025307375 -0.87705308 0.055478942
567000000 -0.88005751 0.061251003 -0.00056930503 -0.0013454207 0.00046260259 -0.00051590649 -0.87834346 0.055331111
568000000 -0.87906754 0.063010402 -0.00016994757 -0.00082227489 0.00030428875 -0.0016558386 -0.87735283 0.05690293
569000000 -0.88042361 0.062741436 -0.00032916322 -0.00073787576 -2.2311891e-005 -0.0012610366 -0.87855554 0.054693662
570000000 -0.88151664 0.060954966 8.1059894e-005 -0.0001276251 -0.0015507423 -0.00078751089 -0.87728965 0.056985341
571000000 -0.87990147 0.062560476 -0.00037924119 -0.0004117231 0.00019103459 -0.001181409 -0.87853485 0.05465607
572000000 -0.88067502 0.06324973 0.00015803741 -0.00050635805 -0.00063848071 -0.0013833826 -0.8786419 0.056862861
573000000 -0.88077527 0.061402716 0.00074042164 -0.00092991325 0.00049370009 -0.0003321587 -0.87884468 0.054741941
574000000 -0.87948364 0.062749416 -8.0740152e-005 -0.0011632746 -0.00029697144 -0.0014152137 -0.87800437 0.056925144
575000000 -0.87969947 0.061722875 -0.00089243893 -0.0013240282 -8.6152329e-005 -0.0014282758 -0.8791337 0.055752438
576000000 -0.8803556 0.064140759 0.00083101145 -0.001140371 -0.00080567843 -0.00082708255 -0.87834543 0.05754615
577000000 -0.88135922 0.062516429 -0.00069218001 -0.0017027271 -0.00048010692 -0.0020706765 -0.87668037 0.055879723
578000000 -0.87848502 0.063423842 -0.00023457155 -0.0010481954 -0.00065599062 -0.00087466597 -0.87763643 0.056726523
579000000 -0.88031644 0.063641019 -0.00046709375 -0.0012762926 0.00065862056 -0.0010382002 -0.87833965 0.055013791
580000000 -0.87957722 0.061937299 -0.0011692047 -0.0013813459 0.00089037156 -0.0011323603 -0.87811285 0.05778528
581000000 -0.8808552 0.064109832 2.9669687e-005 -0.0015491403 -0.0017379463 -0.001144034 -0.87914634 0.056999587
582000000 -0.88112921 0.064216293 -0.00017034714 -0.0019724374 -0.00069483847 -0.00087350083 -0.8788541 0.057243168
583000000 -0.88138485 0.062562652 0.00034249783 -0.00083083758 -0.00012796851 -0.0010619112 -0.87863553 0.056235805
584000000 -0.88094747 0.063094623 -0.00012682693 0.0002110363 0.00028884094 -0.0013858557 -0.87905234 0.057698511
585000000 -0.88009769 0.063432574 0.00081261277 -0.00068573974 -0.00089594122 -0.00022077911 -0.87810934 0.056144122
586000000 -0.88079125 0.06446413 -0.0002030492 -0.0010048016 -0.00010232771 -0.00062198605 -0.87856519 0.056158129
587000000 -0.87989163 0.062123295 0.00050459692 -0.00071630097 -0.00045473513 -0.00055637013 -0.87689465 0.056896359
588000000 -0.87995702 0.06374044 -0.00050758256 -0.00024753928 0.0010868543 -0.0012186217 -0.87826967 0.056325171
589000000 -0.87976915 0.063438252 -0.00052119821 -0.00070035557 -0.0008611806 -0.00082459056 -0.8792398 0.057651024
590000000 -0.87906802 0.064949825 -0.0002286188 -0.0012867945 -0.00070910051 -0.00077046233 -0.87528729 0.056245554
591000000 -0.87970775 0.065109037 -0.00052656914 -0.0024424344 -0.00065053557 -0.00034905074 -0.87765902 0.058924127
592000000 -0.88092756 0.064095698 -0.00048373046 -0.0012362808 -0.00028468514 -0.00088277145 -0.87767446 0.057881657
593000000 -0.879996 0.065804243 5.5094701e-005 0.00020285317 -0.00018695272 -0.0008490365 -0.87754947 0.057634518
594000000 -0.88065326 0.064954326 6.7475099e-005 -0.0017253234 0.001014028 -0.0005641107 -0.87752205 0.057787579
595000000 -0.87934911 0.0637834 -0.0011996069 -0.00074049755 -0.0010441616 -0.0012875623 -0.87869054 0.059824698
596000000 -0.88072336 0.064593315 1.9729154e-005 -0.00099900563 -0.00061994902 -0.00032828358 -0.87764376 0.056681789
597000000 -0.88139415 0.064140648 0.0012500254 -0.00042029083 -0.00035550361 -0.00021970611 -0.87841988 0.059413031
598000000 -0.88103157 0.065524146 -0.00093826628 -0.0014268269 -0.00014927237 -0.0016364829 -0.87826657 0.057588365
599000000 -0.87932789 0.065438524 -0.00050560827 -0.00058462546 -8.6435095e-005 -0.0003944193 -0.87765479 0.058183003
600000000 -0.87969393 0.065407999 -0.00013273537 -5.4918262e-005 0.00010538321 -0.0016707395 -0.87882257 0.057972755
601000000 -0.88073778 0.06679152 0.00010995139 -0.0014966285 9.0169664e-007 -0.0012287507 -0.87838298 0.058094501
602000000 -0.87953973 0.06468951 -0.00022092389 -0.0012402094 -0.00037892445 -0.0011256493 -0.87779242 0.058338601
603000000 -0.87944263 0.064596526 -0.00019633527 -0.00032494261 -0.00037911651 -0.0012611233 -0.87757581 0.058997754
604000000 -0.88153332 0.06736704 -0.00036447195 -0.001543139 -0.00076645083 -0.00073703262 -0.87699282 0.058002133
605000000 -0.88083047 0.06652616 -0.0014597542 -0.0014365421 -0.0010095019 -0.001432771 -0.87810904 0.05781072
606000000 -0.88109553 0.067247011 0.00031597499 -0.0014982251 -0.00088101882 -0.00054605887 -0.87673861 0.05832687
607000000 -0.88081735 0.066667438 -0.00041652171 1.5152857e-005 9.3901865e-005 -0.0020983794 -0.87883162 0.057450946
608000000 -0.88090509 0.06722033 -0.0012431506 -0.0020472936 -0.00063209189 -0.0013111223 -0.87765354 0.059809133
609000000 -0.87840515 0.067207731 0.00058079243 -0.00056387839 -0.0012692811 -0.0012792937 -0.87718803 0.059005775
610000000 -0.88030344 0.066624768 9.914289e-005 -0.00098816887 -0.00055655435 -0.0012245025 -0.87703598 0.058437359
611000000 -0.8792848 0.066012532 -0.00015969604 -0.00072068657 0.00025265507 -0.00043645588 -0.87755179 0.056905035
612000000 -0.8792547 0.06774576 -0.00024260147 -0.0020591007 -0.0011744057 -0.00064660195 -0.87644601 0.058980361
613000000 -0.88089091 0.067970671 0.00013995322 -0.001794031 -0.0011523146 -0.001995618 -0.87856716 0.059999924
614000000 -0.8790738 0.067562163 -0.00078409206 -0.0018123721 -0.0004286601 -0.0015008908 -0.8773129 0.059881438
615000000 -0.87764966 0.068654247 -0.00029704516 -0.00056673528 -0.00062331627 -0.0015211122 -0.87863982 0.059897099
616000000 -0.87974173 0.06881173 -0.00053255085 -0.0009023184 0.0004464825 -0.0010994109 -0.87685758 0.05934656
617000000 -0.88044256 0.068557665 -0.00013909541 -0.0013037048 -0.0011172949 -0.0024334982 -0.87752134 0.05877661
618000000 -0.87956202 0.069590174 -0.00039945432 -0.0018871854 0.0010130012 -0.0016658242 -0.8767733 0.060359869
619000000 -0.87956011 0.070934653 0.00047671946 0.0003046827 1.0619685e-005 -0.001403206 -0.8791036 0.060778309
620000000 -0.88058215 0.067804769 -0.0011556579 -0.00099707593 -3.5847021e-005 -0.0017441359 -0.87776119 0.060878295
621000000 -0.88083696 0.070617832 -0.00030350502 -0.0015668824 -0.00084021233 -0.0013402323 -0.87760013 0.061096381
622000000 -0.87896454 0.069372252 0.00011474302 -0.0012840284 -0.00027115576 -0.0013575602 -0.87663746 0.06096353
623000000 -0.87877762 0.068943471 1.4295048e-005 0.0001417116 -0.00015465582 -0.00025482289 -0.87645316 0.061842185
624000000 -0.87918633 0.068436429 0.00064075948 -0.0010804068 0.00018194213 -0.0017361542 -0.87561011 0.06108043
625000000 -0.87732863 0.06874302 -0.0003502258 -0.00092725875 0.00010504762 -0.0017917069 -0.87866163 0.0602885
626000000 -0.88065237 0.069726631 1.9822965e-005 -0.0020418696 0.0010296215 -0.0018789759 -0.87717187 0.060677823
627000000 -0.88023365 0.07071206 -9.1070113e-005 -0.0014780391 -0.00057218404 -0.00036595154 -0.87722617 0.061467741
628000000 -0.88020819 0.070718609 0.00055718294 -0.00046614118 -3.8210022e-005 -0.0010201904 -0.87715375 0.062413123
629000000 -0.87957752 0.072607838 0.00097019353 -0.0019758323 -0.0002399388 -0.0013164325 -0.87733078 0.06151896
630000000 -0.8792004 0.070466034 -9.7211261e-005 -0.0014282959 -0.0011481346 -0.0010208919 -0.87658995 0.061079502
631000000 -0.87968034 0.071555786 0.00021317553 -0.0018327669 6.0687165e-005 -0.0017677469 -0.87663984 0.062504485
632000000 -0.87934154 0.070510097 -0.00059020979 -0.0017314188 0.00082897738 -0.0017107939 -0.87608981 0.060950402
633000000 -0.87833381 0.070561461 -7.4489562e-006 -0.0016895724 0.00141621 -0.001291409 -0.87647671 0.061381288
634000000 -0.88045579 0.069923051 -0.0015438827 -0.001419439 0.00031637101 -0.00094595214 -0.87844527 0.062418323
635000000 -0.87940782 0.07068345 -0.00088170031 -0.00053778646 -0.00062661985 -0.0020379075 -0.87728077 0.061798822
636000000 -0.87863863 0.071927264 0.00034687362 -0.001094146 -0.00035704192 -0.0017234073 -0.87692899 0.062122665
637000000 -0.87963289 0.071836762 0.00026139335 -0.0011839257 0.00024937934 -0.0017885566 -0.87666881 0.061982121
638000000 -0.87761575 0.072170846 -0.00065119378 -0.0010457536 -0.00063074171 -0.00070281199 -0.87742484 0.062368762
639000000 -0.87808263 0.07260906 -0.00065354654 -0.00095043011 -0.00086113595 -0.0016622196 -0.87729925 0.062343288
640000000 -0.87949055 0.073392473 -0.00059591763 -0.00095086294 0.00012970208 -0.0015155742 -0.8765375 0.063673131
641000000 -0.88126481 0.072769977 0.00057926262 -0.0021338854 -0.00040543184 -0.0018183392 -0.87757385 0.062023368
642000000 -0.87874633 0.071353503 0.00025926618 -0.00097260094 0.00034649446 -0.0010790305 -0.87661117 0.061617512
643000000 -0.87949276 0.072581813 -0.00064348412 -0.0021384456 0.00010406652 -0.0005280241 -0.87691289 0.06105544
644000000 -0.88023663 0.073559925 -0.00017295487 -0.0018491715 0.00015736665 -0.0014443768 -0.87724918 0.063627146
645000000 -0.88099688 0.073574305 -0.00012152212 -0.0012074021 -0.00046068645 -0.0016796108 -0.87864196 0.063075587
646000000 -0.87900072 0.074037105 -0.00070943969 -0.001734773 -0.00038419553 -0.0011553592 -0.87794238 0.064318396
647000000 -0.87960434 0.072695576 -0.00010132047 -0.00078469177 0.00058868947 -0.0013814329 -0.87628168 0.06455484
648000000 -0.87961662 0.075368747 -3.7347469e-005 -0.0018466362 -0.00021464391 -0.0010658028 -0.87756515 0.063765444
649000000 -0.8799572 0.072870351 -9.6387324e-005 -0.00025045071 -0.00063491799 -0.0020468486 -0.87698162 0.06356512
650000000 -0.87886208 0.073660806 -0.0009137275 -0.0012098959 -6.5061722e-005 -0.0014716658 -0.8782779 0.064684086
651000000 -0.87905288 0.072542861 0.00010019148 -0.0014206148 0.0001756844 -0.0016205206 -0.87822676 0.06404002
652000000 -0.87886757 0.073213786 -0.0003789521 -0.0013192024 1.3285107e-005 -0.0020572813 -0.87652904 0.063938595
653000000 -0.87938404 0.073131628 -0.00046634176 -0.0017197157 -0.00021006829 -0.0025604877 -0.87620878 0.064027049
654000000 -0.87786371 0.074948303 -0.00058652845 -0.0017087415 -0.00049369939 -0.0018109714 -0.8763752 0.06509725
655000000 -0.87903619 0.0732596 -0.0012991396 -0.0010756839 -0.00096078339 -0.0013385435 -0.87714815 0.0643626
656000000 -0.87922537 0.07489989 -6.6470391e-005 -0.0015978126 -0.00032468874 -0.0026544579 -0.8752625 0.064514346
657000000 -0.88068575 0.074779041 -0.00057130097 -0.0025209184 0.00038935506 -0.0012062471 -0.87741369 0.063853703
658000000 -0.87889373 0.074270993 -0.0008971286 -0.0010798001 0.00024449779 -0.0013533479 -0.87583572 0.063739367
659000000 -0.87941152 0.07387495 7.3728421e-005 -0.0016867404 -0.0007703795 -0.0015722084 -0.87815034 0.063644022
660000000 -0.87821096 0.074870676 0.00030927986 7.5108372e-005 0.00022964776 -0.00094794668 -0.87640351 0.063286819
661000000 -0.87848419 0.07493557 -0.00033768092 -0.001637678 -0.00051698228 -0.0013728152 -0.87880576 0.063472271
662000000 -0.8792572 0.073236026 -0.00075767894 -0.0016737968 -6.6247158e-005 -0.0011242654 -0.87765741 0.065190218
663000000 -0.87973595 0.074273735 -0.00072264986 -0.0014122109 0.0002268993 -0.00067764561 -0.87609559 0.06338609
664000000 -0.87850922 0.075098455 -0.00024982402 -0.00023885591 -0.00081740849 -0.00071253622 -0.87788999 0.063963644
665000000 -0.87922245 0.073937744 0.0011426833 -0.001567732 0.0006684892 -0.0011120604 -0.87720412 0.065072551
666000000 -0.87934339 0.073880441 -0.00037142169 -0.0013457678 -0.0017871786 -0.00040230327 -0.87738895 0.064374581
667000000 -0.87881666 0.075746834 -0.00025504141 -0.0012020515 -0.00058156031 -0.002084825 -0.87582314 0.064816587
668000000 -0.87896085 0.073792271 -0.00018818529 -0.0013700755 -0.00023374431 -0.0014556643 -0.87764287 0.06328243
669000000 -0.87910438 0.073807985 -0.001116109 -0.0013817112 -7.0883769e-005 -0.0007664421 -0.87664562 0.064210229
670000000 -0.87901795 0.075809978 -0.00014770705 -0.0011578359 -0.00089654163 -0.0010322657 -0.87633491 0.064674288
