!Keysight Technologies,M9374A,MY55442783,A.12.55.05
!Date: Wednesday, May 19, 2021 16:54:17
!Correction: S11(Full 2 Port(1,2)) 
!S21(Full 2 Port(1,2)) 
!S12(Full 2 Port(1,2)) 
!S22(Full 2 Port(1,2)) 
!S2P File: Measurements: S11, S21, S12, S22:
# Hz S  RI   R 50
500000000 -0.88031399 0.056192823 -0.00012390345 -0.0010573708 7.2661904e-005 -0.0018281373 -0.87700301 0.049944308
501000000 -0.88196588 0.057898358 0.00052038796 0.00038702405 0.00027533001 -0.0014331748 -0.87834215 0.050751384
502000000 -0.88122565 0.058032241 -0.00022164431 -0.001041792 4.8566213e-005 -0.00129522 -0.87675297 0.049657509
503000000 -0.88106459 0.05700697 -0.00067516306 -0.00041580628 -0.00036123747 -0.0011344502 -0.87853122 0.050104596
504000000 -0.88072807 0.05797112 -0.0010633594 -0.00067512796 4.3504042e-005 -0.0020124665 -0.87860644 0.049286712
505000000 -0.8815707 0.057064783 -0.0012837335 -0.0014085278 -0.00024889541 -0.001253541 -0.87887526 0.051190954
506000000 -0.88199687 0.055988189 -9.6805066e-005 -0.0015634564 -0.00014243163 -0.0017426396 -0.87818128 0.049380139
507000000 -0.88166684 0.05819454 0.00031363755 -0.0014581875 -0.00059211941 -8.1812905e-005 -0.87950081 0.050576892
508000000 -0.881356 0.058486626 0.00084009219 -0.0008870064 0.00038005345 -0.00151382 -0.87800711 0.051632792
509000000 -0.88074291 0.05825118 -0.00024870544 -0.00056130026 -0.00017506929 -0.0011814839 -0.87745756 0.050621856
510000000 -0.88221782 0.058642726 -0.00043795593 0.00025316206 -0.00042191538 -0.0014250309 -0.8782329 0.050363582
511000000 -0.8799386 0.059879202 -0.0011724804 -0.0005695197 -0.00024949978 0.00035005723 -0.87914771 0.051769394
512000000 -0.88106501 0.058674864 0.00057750958 -0.00047877021 -0.00054821942 -0.0012793015 -0.87827271 0.049802829
513000000 -0.88194591 0.059864819 0.00059443212 -0.00057104853 -0.00059616996 -0.00072200422 -0.87938571 0.051736102
514000000 -0.88227433 0.057633877 -0.00075686228 -0.00038227424 0.0006112805 -0.00096415548 -0.87864393 0.053113144
515000000 -0.87972164 0.059245914 -0.00030720391 -0.00072710193 -2.6867487e-005 -0.00079254218 -0.87911159 0.052127931
516000000 -0.88140756 0.059492443 0.00026822809 -0.0023178631 0.0006037227 -0.00059066043 -0.87872994 0.051276032
517000000 -0.87992924 0.059845943 0.00073859381 -0.00038266438 0.00077170221 -0.0010181955 -0.87665027 0.051903673
518000000 -0.88005531 0.059993118 0.00033014841 -0.00096966047 -0.00045928347 -0.0014422924 -0.87876248 0.051675364
519000000 -0.88058436 0.058468062 0.00010280235 -0.00028921859 -0.00043830619 -0.0014900366 -0.87874073 0.051013965
520000000 -0.8798697 0.060080569 0.00040804202 -0.00094984041 -0.00011150263 -0.00096331246 -0.87729335 0.052155398
521000000 -0.8817113 0.060053371 -0.00050814531 -0.0015286143 0.0012559295 -0.0007365623 -0.87714612 0.052587546
522000000 -0.88272196 0.058476839 -0.00030033744 -0.00096275483 0.00041304031 -0.0017795357 -0.87645686 0.053653974
523000000 -0.88069868 0.058951754 -9.5153104e-005 -0.001143562 -0.00073831057 8.6694439e-005 -0.87764013 0.052921601
524000000 -0.88105935 0.060024247 0.0016092237 -0.0010179539 -8.8469562e-005 -0.0017479339 -0.87828469 0.05093373
525000000 -0.88108897 0.061508276 0.00077911909 -0.0013204463 4.4514618e-006 -0.0010099531 -0.87818176 0.054590616
526000000 -0.88078094 0.061869483 -0.00033777888 -0.00051171798 -4.3267886e-005 -0.0014647278 -0.87749285 0.05342092
527000000 -0.88075513 0.060510043 -0.00016225262 -0.0019729105 -8.0217782e-005 -0.00080588256 -0.87826884 0.053232469
528000000 -0.88222641 0.060600754 0.00080760871 -0.00078991789 -0.00084622693 -0.0012141301 -0.87807119 0.054290228
529000000 -0.8805483 0.061905753 0.00017780352 -0.00087960484 0.00018001428 -0.0015263942 -0.87840301 0.053243432
530000000 -0.88243049 0.061228149 0.00031764249 -0.0012358291 -0.00031365029 -0.00048546892 -0.87720597 0.054185294
531000000 -0.88105303 0.061672643 0.00053682836 -0.0012825977 -0.00075935229 -0.001467044 -0.87789369 0.056605905
532000000 -0.88104081 0.059835639 0.00012080996 -0.0015581365 -0.0013763043 -0.0017269672 -0.87949216 0.054028302
533000000 -0.88080186 0.061476666 0.00028871052 -0.00064919941 -0.00032896458 -0.0023020224 -0.87827057 0.055206928
534000000 -0.88220382 0.061420247 -0.00021188734 -0.00035683173 -0.00013331707 -0.0019678983 -0.87909561 0.053693723
535000000 -0.88071316 0.061549265 0.00017610758 -0.00081408431 -0.00027265327 -0.00024716763 -0.87841332 0.053990811
536000000 -0.88022667 0.062362622 -0.00028948451 -0.00063770299 0.00020473044 -0.00084551371 -0.87763333 0.0541231
537000000 -0.88078123 0.0632952 -0.00035513847 -0.0015201669 -0.00085623335 -0.0010790584 -0.87736344 0.055337045
538000000 -0.88131869 0.06228932 -0.0008848295 -0.0015487693 -0.00029802279 -0.00041155479 -0.8779946 0.05352046
539000000 -0.88167179 0.06149042 -0.00033937109 -0.00092446333 0.00032666716 -0.00027236814 -0.87798083 0.055896617
540000000 -0.88068932 0.062064894 1.1655367e-005 -0.0012411277 -0.00053488469 -0.0013821641 -0.87888354 0.055247493
541000000 -0.88137358 0.062400885 -0.0015197356 -0.00026861308 0.00011840621 -0.0012094681 -0.87674278 0.054694325
542000000 -0.8807205 0.061209593 -0.00027414842 -0.001050509 0.00034817049 -0.00089181488 -0.8793996 0.054703459
543000000 -0.88054651 0.062060282 -0.00035982364 -0.0008885822 0.00065499794 -0.00084843981 -0.87691891 0.054835889
544000000 -0.88009548 0.063687146 0.00041355824 -0.0019860521 -0.00018759018 -0.0017908388 -0.87622041 0.054647066
545000000 -0.87997699 0.062032659 0.00012170339 -0.0011885904 -0.00094189792 -0.0020446219 -0.87738854 0.055853549
546000000 -0.88060051 0.063528851 0.00088080304 -0.001298868 -0.00042344158 -0.0010840861 -0.87722337 0.056129411
547000000 -0.87976694 0.063393429 -0.00047058801 -0.00086325349 -0.00035869612 -0.0012705288 -0.87820995 0.054725975
548000000 -0.88070637 0.062322762 -0.00011130061 -0.0016567358 -0.00029240292 -0.0015033593 -0.8781774 0.055812731
549000000 -0.88041019 0.061520372 -0.00053227873 -0.0018695547 -0.00096259511 -0.002503464 -0.87766945 0.05635621
550000000 -0.87945843 0.063067392 -0.00094902475 -0.00083124969 -0.00046630003 -0.0013553731 -0.87784606 0.05534501
551000000 -0.88179779 0.062802717 0.00037089968 -0.0015545397 0.00075742835 -0.001584825 -0.87804186 0.054720782
552000000 -0.88105679 0.062384363 -0.00086533767 -0.00068144233 -0.0008925529 -0.0014054193 -0.87678546 0.056648053
553000000 -0.88134122 0.061858419 5.3705084e-005 -0.0012665335 -0.00028174851 -0.001059474 -0.8788386 0.054665506
554000000 -0.88081497 0.06094588 -0.0002896435 -0.00082329108 -0.00077632564 -0.0013214076 -0.8785972 0.056269277
555000000 -0.87961394 0.062795885 0.00069684902 -0.00075089961 -0.00099155959 -0.00059378066 -0.87737221 0.055882178
556000000 -0.88043159 0.063149609 3.2257634e-007 -0.0012525193 -0.000602199 -0.00095556083 -0.87834674 0.05602356
557000000 -0.88045859 0.063097246 -0.00016753864 -0.00078052102 -0.00078234554 -0.0012155542 -0.87738794 0.057357214
558000000 -0.87926435 0.062958553 -1.6666836e-005 -0.00092277094 -0.00040071976 -0.0019045264 -0.87635946 0.056419533
559000000 -0.88105136 0.06209331 -0.00019264016 -0.0011078365 -0.00037135195 0.00062650739 -0.87766987 0.057226241
560000000 -0.88157046 0.063322224 0.00023698683 -0.00069989433 -0.00048231025 -0.00085262983 -0.87662506 0.057358921
561000000 -0.87965316 0.062634014 0.00048942375 -0.0010207616 -0.00050947402 -0.0016005507 -0.87890065 0.05602112
562000000 -0.88089615 0.062167455 -0.0013555778 -0.0014487751 0.00058320881 -0.0013683479 -0.87860882 0.05518727
563000000 -0.88063306 0.063493155 0.00041814003 -0.0015126559 0.00066680618 -0.0010895076 -0.87767303 0.057974432
564000000 -0.88138109 0.063036561 -0.00044450659 -0.00046793715 2.7174372e-005 -0.0011710643 -0.87712508 0.056483105
565000000 -0.88104367 0.063435882 0.00059630291 -0.0013963041 2.2563541e-005 -0.00063844753 -0.87871349 0.05724325
566000000 -0.87944829 0.063262753 0.00027579747 -0.0014400713 -0.00073693367 -0.0014660965 -0.87845975 0.056491695
567000000 -0.88017547 0.065912224 -1.5471398e-005 -0.0016695365 -0.0012815078 -0.0016323932 -0.87607867 0.055807151
568000000 -0.87978476 0.063446537 -0.0002963382 -0.0014686832 3.8756989e-005 -0.002016708 -0.877895 0.0571009
569000000 -0.88044429 0.063462466 -0.00056300481 -0.0020738044 8.182718e-005 -0.0016413989 -0.87777472 0.057086989
570000000 -0.87911654 0.064121552 -0.00031945657 -0.0011454441 0.00012599613 -0.001194244 -0.87610042 0.056456413
571000000 -0.88114536 0.063906036 0.00014623351 -0.00037847963 0.00092584157 -0.0011870655 -0.88042307 0.0564651
572000000 -0.87853402 0.063178189 0.00071271678 -0.0021322242 0.00089020754 -0.00016811611 -0.87749553 0.058326941
573000000 -0.88101506 0.061981115 -0.00083725218 -0.0016005577 -0.00045400645 -0.0002497753 -0.87824291 0.058941264
574000000 -0.87990528 0.064409539 -0.00018979261 -7.6762699e-005 -0.0014131453 -0.00082277157 -0.87944269 0.056004904
575000000 -0.87993366 0.063353673 -6.4524233e-005 -0.0022200474 -0.0015650921 -0.0014983634 -0.8781991 0.056952003
576000000 -0.88093096 0.065465309 1.5691285e-005 -0.0011893811 -0.00035197672 -0.0011914339 -0.87657052 0.057180762
577000000 -0.88049185 0.06408979 -1.6732261e-005 -0.0016971028 -0.00073877804 -0.0018946548 -0.87749672 0.058085967
578000000 -0.88002861 0.065318748 0.00048868568 -0.0013776132 -0.00034866514 -0.00047593442 -0.87767065 0.05756842
579000000 -0.88003278 0.064941615 0.00066777592 -0.00065617746 -0.00024688523 -0.0011346232 -0.87806773 0.05584494
580000000 -0.8801499 0.064069286 -0.00059899036 -0.00077333889 2.2721164e-005 -0.0028582434 -0.87632501 0.058204789
581000000 -0.87972647 0.06358669 0.00012906961 -0.0014579654 0.00031320378 -0.0012074522 -0.87845671 0.057825804
582000000 -0.87951064 0.064264558 -0.001935428 -0.00080195046 0.00012061751 -0.0011878083 -0.87853014 0.057769358
583000000 -0.88021868 0.064759076 -0.00084023696 -0.0014881032 0.00037252909 -0.0013810329 -0.8781535 0.056911364
584000000 -0.88096601 0.064641424 -0.00038367923 -0.0011526578 -0.00015092715 -0.00011480897 -0.87668252 0.05790922
585000000 -0.87930208 0.065434143 0.00017845017 -0.0013439871 -0.00015858503 -0.00088112138 -0.87759393 0.05692488
586000000 -0.88110811 0.064197876 5.8285201e-005 6.8533918e-005 -0.00011337124 -0.0012160658 -0.87703663 0.056619219
587000000 -0.87860447 0.065350391 1.9849547e-005 -0.0011263849 -0.00033287762 -0.0011157813 -0.8791967 0.057332005
588000000 -0.88057101 0.065174758 4.542399e-006 -0.0021391958 0.00027408946 -0.0020582948 -0.87789094 0.059799999
589000000 -0.87963676 0.065071054 7.6704317e-005 -0.0017668719 -3.6273497e-005 -0.0015928488 -0.87558025 0.058935106
590000000 -0.87859285 0.066378266 -0.00087433297 -0.00048388963 -0.0011822191 -0.0012100757 -0.87619799 0.057433005
591000000 -0.88048512 0.065865457 -3.1223135e-005 -0.0019006159 -0.00043260172 -0.0014226413 -0.87798035 0.059315383
592000000 -0.88043696 0.06617365 -0.0006263578 -0.0016852814 0.00057560363 -0.00092889648 -0.87842447 0.057628263
593000000 -0.87829244 0.066040546 -0.00032084587 -0.0027352264 -0.0001772196 -0.00037488015 -0.87897092 0.057439465
594000000 -0.87915659 0.066843539 0.00022235409 -0.002628874 -0.00070586713 -0.0012303648 -0.87801635 0.058512613
595000000 -0.88044262 0.065150127 -0.00053399976 -0.00069345854 -0.00080260664 -0.00088376011 -0.87769163 0.058604136
596000000 -0.87980896 0.065802716 0.00048419018 -0.0012302638 -0.0006166331 -0.0012726935 -0.87823868 0.058998115
597000000 -0.88013202 0.06550958 -0.00026188689 -0.0014861749 -0.00072232907 -0.0018861073 -0.87791955 0.056705289
598000000 -0.88018018 0.066192284 -0.0012095532 -0.001107684 -0.00058901112 -0.0013512603 -0.87703526 0.058427896
599000000 -0.88003993 0.066267706 -0.00089617766 -0.001407574 0.0001750144 -0.0013089083 -0.87808526 0.057771847
600000000 -0.87929362 0.066595592 -0.00091607776 -0.00085470959 0.0011014498 -0.0015738511 -0.87657464 0.059293766
601000000 -0.88093477 0.067783803 -0.00028202558 0.00039408042 0.00038713001 -0.00057449529 -0.87807065 0.060787786
602000000 -0.87880111 0.066221699 -0.0006787302 -0.00075303967 -7.1119066e-005 -0.00029645671 -0.87706953 0.05766362
603000000 -0.8790471 0.066532485 -0.0015712865 -0.0011166586 -0.0010787793 -0.00029730529 -0.87662822 0.06025555
604000000 -0.87947839 0.067425877 0.00049283518 -0.00098689157 -4.3465498e-005 -0.0023194815 -0.87753731 0.05977207
605000000 -0.87905717 0.068080612 -0.00081138907 -0.0012104051 -0.00014651618 -0.00056581607 -0.87804228 0.059175532
606000000 -0.88011712 0.067548409 -0.00039768976 -0.0010009311 -0.00069559552 -0.0015380693 -0.87748057 0.060742706
607000000 -0.87965918 0.067604013 -0.00043656403 -0.002199664 -0.00035782836 -0.0011924272 -0.87907356 0.059174366
608000000 -0.88090855 0.068606965 -6.3589221e-005 -0.0011026148 0.00053705729 -0.0014741963 -0.87767512 0.059219174
609000000 -0.87951356 0.0687581 -0.00083092466 -0.0015775634 0.00080650888 -0.001556171 -0.87742406 0.059047259
610000000 -0.87888348 0.06982886 4.530888e-006 -0.0015198707 -0.00046746965 -0.00052060006 -0.87750721 0.059815127
611000000 -0.8787148 0.067769773 0.00080542284 -0.0011856147 0.00036810353 -0.0010219504 -0.87750804 0.061594728
612000000 -0.87926853 0.070185117 0.00016977226 -0.0015511945 -1.8205836e-005 -0.0008505382 -0.87771696 0.05838668
613000000 -0.88074893 0.067448474 -0.0019542275 -0.0014528668 0.00038770484 -0.00032305904 -0.8777377 0.060136024
614000000 -0.88084239 0.070886709 0.00021977797 -0.00194161 0.00051096879 -0.00058387744 -0.87895513 0.061170377
615000000 -0.87929392 0.06868279 -0.000675319 -0.0006897925 -0.0016660274 -0.0017012031 -0.87789553 0.060282148
616000000 -0.87944335 0.069414668 -0.00077402336 -0.0014687886 -0.0007379122 -0.0018010495 -0.87403929 0.062184151
617000000 -0.87963814 0.069810696 0.00021352494 -0.0019589011 0.00013810581 -0.0015202954 -0.87706709 0.062418178
618000000 -0.88174379 0.068957888 0.00029646655 -0.00041709133 0.0010844637 -0.0007614335 -0.87789392 0.059994895
619000000 -0.87865984 0.071185082 -0.00032668043 -0.0018046057 0.00025559578 -0.00091708399 -0.87775326 0.060655039
620000000 -0.87898451 0.071071245 -0.00045302339 -0.0015994254 -0.00027951461 -0.0015003532 -0.87733382 0.061497945
621000000 -0.87812901 0.069209687 0.00024174369 -0.0018128551 -0.00075853342 -0.00096736447 -0.87754989 0.061336473
622000000 -0.87858075 0.069533564 -0.0013274556 -0.0020853574 5.6568624e-005 -0.0018650099 -0.87703508 0.061115984
623000000 -0.88065755 0.071444392 -0.0001539028 -0.00087808794 0.00051659386 -0.001537306 -0.87896311 0.061213218
624000000 -0.87804085 0.070491463 3.0030253e-005 -0.00035785549 -0.00046435438 -0.0010163877 -0.87720126 0.0622999
625000000 -0.87894762 0.072009072 -0.0011003384 -2.8439131e-006 0.00083621923 -0.0022368876 -0.87839872 0.060828175
626000000 -0.87941003 0.072091453 0.00027756597 -0.0019703053 0.00022694565 -0.002039359 -0.87629312 0.063229427
627000000 -0.87957948 0.071782179 -0.00056619407 -0.0021089173 -0.00030258007 -0.0013672004 -0.8760094 0.06290444
628000000 -0.88074064 0.070480362 -0.00036326013 -0.0016792369 -0.00030771884 -0.0010536527 -0.87811297 0.063082017
629000000 -0.88057244 0.071581662 0.00022423208 -0.00054343004 -0.00060411252 -0.0018539098 -0.87868202 0.061166894
630000000 -0.8793965 0.072728522 -0.00053635228 -0.00066089584 0.00012459082 -0.0010178867 -0.87705636 0.063547753
631000000 -0.87890989 0.071834706 -0.00018418938 -0.00028628641 -0.00029863912 -0.0012218932 -0.87684196 0.062762059
632000000 -0.87755013 0.072031118 -5.4565622e-005 -0.0026500642 -0.00057877268 -0.00080184627 -0.87526447 0.062914275
633000000 -0.88064003 0.07247711 0.00011078329 -0.0016991909 0.00034712339 -0.00073694257 -0.8773278 0.062566504
634000000 -0.87918627 0.072940521 -0.00080781424 -0.0007464285 -0.00056254078 -0.0011060819 -0.87698275 0.0626081
635000000 -0.88044447 0.071524151 -0.00072080496 -0.00083276606 0.0010864146 -0.0021165691 -0.87748277 0.062387262
636000000 -0.87965238 0.073648117 0.00017656104 -0.0014346039 0.00043634459 -5.8198446e-005 -0.87844974 0.063772872
637000000 -0.87968379 0.074215375 -0.00018604852 -0.0010909018 -0.0011168267 -0.0010329047 -0.87468219 0.062744185
638000000 -0.87867719 0.072980978 0.00046129586 -0.001395439 0.00038890334 -0.002138881 -0.87692505 0.063184962
639000000 -0.87878585 0.073881015 0.0005098118 -0.00012779566 0.00016332661 -0.0014554139 -0.87692994 0.062895432
640000000 -0.87983131 0.074042447 0.00051402691 -0.0013248435 -0.00035427188 -0.0016233483 -0.87751573 0.063360326
641000000 -0.87925768 0.073485248 -0.00028498148 -0.0016059701 -0.00027923918 -0.0018188274 -0.87697059 0.06404683
642000000 -0.87925273 0.07228595 -0.00016383082 -0.0016862832 -0.0020493323 -0.0017098128 -0.87810045 0.063372687
643000000 -0.8804462 0.074059576 0.00054865831 -0.0013530945 -0.0011037039 -0.0012016096 -0.87601238 0.062507994
644000000 -0.88008177 0.073678963 -0.00059204712 -0.0014913067 -0.0013368425 -0.0014238078 -0.87615001 0.064517461
645000000 -0.87834179 0.073981322 0.00041444044 -0.0017759316 0.00024811761 -0.0012188815 -0.87754077 0.065210439
646000000 -0.88035768 0.074673727 1.6745875e-005 -0.00084601971 0.00080450042 -0.0010210946 -0.87602371 0.063660651
647000000 -0.87941408 0.075139478 -0.00055439246 -0.0018376498 -0.0011482061 -0.00055252906 -0.87754661 0.06436988
648000000 -0.87912107 0.07563892 -8.6131375e-005 -0.0017035144 -0.00018159306 -0.00046915651 -0.87687308 0.064641617
649000000 -0.87711865 0.074658498 -0.00017055926 -0.0004272029 0.00012216423 -0.0014442935 -0.87695152 0.063874505
650000000 -0.87795556 0.073886871 -0.0003402594 -0.0012931328 -4.028793e-005 -0.0014559627 -0.87670267 0.065282777
651000000 -0.87898129 0.074422054 0.00024132238 -0.0014294293 6.5472955e-006 -0.0017103779 -0.87577575 0.063660584
652000000 -0.87916899 0.07484293 -0.00016787418 -0.00080145488 -0.00056988269 -0.0016788514 -0.87643236 0.064207919
653000000 -0.87834746 0.075374335 -0.0005559391 -0.00085991749 6.6617016e-005 -0.0011479738 -0.87713289 0.065152951
654000000 -0.87870067 0.074715547 -1.8678147e-005 -0.0015565128 -0.00053930673 -0.00076801528 -0.87628824 0.065696962
655000000 -0.87844437 0.075928643 -0.00091686303 -0.0014610274 -0.001268509 -0.0013881577 -0.87634373 0.066792406
656000000 -0.87783355 0.07572902 -0.00050273148 -0.0011143384 8.3341576e-005 -0.0013747811 -0.87764007 0.064268291
657000000 -0.87886924 0.075803332 0.00029566244 -0.0013293788 -0.00052760215 -0.0014291051 -0.87728798 0.06490615
658000000 -0.87729096 0.0765898 -0.00039912757 -0.00080198504 -0.00057147373 -0.0016808185 -0.87652677 0.064691298
659000000 -0.88027632 0.074956022 0.00032499997 -0.0010520578 -0.00013176262 -0.00091366057 -0.87800223 0.065879211
660000000 -0.87973279 0.077200577 5.3486241e-005 -0.0011411449 -0.00067160086 -0.0016310832 -0.87580526 0.066242479
661000000 -0.87934643 0.077111594 0.00076901697 -0.00047989032 0.00072187802 -0.0014668138 -0.87756789 0.06481462
662000000 -0.87977523 0.076437719 0.0003481872 -0.0017918271 0.001367207 -0.0018781803 -0.87770665 0.065478854
663000000 -0.87913936 0.075190708 0.00038314887 -0.0022342775 8.3381376e-005 -0.0015843444 -0.87423342 0.065220281
664000000 -0.87911242 0.077222727 -0.00037604148 -0.00087911438 -0.00047241859 -0.0022988541 -0.87707824 0.066466562
665000000 -0.87935209 0.077576436 -0.0010241432 -0.00097657845 -0.0002364028 -0.0010670653 -0.87651062 0.066248991
666000000 -0.8801071 0.075952828 0.00028203448 -0.0023702541 0.00042973927 -0.001674985 -0.87690145 0.065145217
667000000 -0.87979978 0.076714583 -0.00043462066 -0.0016193121 -0.0012082146 -0.0014834672 -0.87695307 0.066253051
668000000 -0.87953395 0.07651376 -0.00077668321 -0.0015329845 -0.00059948035 -0.0011878461 -0.87694746 0.065190695
669000000 -0.87833279 0.076539651 -0.00082639302 -0.0014295068 0.00070945569 -0.0013402336 -0.87623376 0.062896959
670000000 -0.87802005 0.076043338 0.00014245999 -0.00076374586 -0.00019150051 -0.0014811757 -0.87570578 0.065306753
