!Keysight Technologies,M9374A,MY55442783,A.12.55.05
!Date: Wednesday, May 19, 2021 16:43:25
!Correction: S11(Full 2 Port(1,2)) 
!S21(Full 2 Port(1,2)) 
!S12(Full 2 Port(1,2)) 
!S22(Full 2 Port(1,2)) 
!S2P File: Measurements: S11, S21, S12, S22:
# Hz S  RI   R 50
500000000 -0.88106775 0.061191633 -8.440714e-005 -0.001254672 -0.00011643175 -0.00041931585 -0.87674034 0.052885599
501000000 -0.88096744 0.060853519 -0.00020297426 -0.0019402107 -0.0012535393 -0.0009685586 -0.87744498 0.052931014
502000000 -0.87990689 0.061215639 2.5154497e-005 -0.0012912661 -0.0013479104 -0.0011909633 -0.87875026 0.053934056
503000000 -0.88056517 0.061442178 0.00021240181 -0.0001835719 0.00053596927 -0.00082596199 -0.87914199 0.052408766
504000000 -0.87952596 0.061699446 -0.0010609692 -0.0015294802 0.00018152331 -0.00053905079 -0.8792122 0.052841552
505000000 -0.88044298 0.05983831 -0.0010456663 7.8956728e-005 -1.4216754e-005 -0.00045420957 -0.87797093 0.053573593
506000000 -0.88064933 0.06273137 2.11022e-005 -0.0011539806 -0.00050775358 -0.0014970495 -0.87529033 0.054598365
507000000 -0.87970018 0.060431406 -0.00038562433 -0.00090735551 -0.00044590852 -0.0016699169 -0.8780579 0.055079427
508000000 -0.88043159 0.061232291 0.00019323621 -0.00097819848 -0.00038001686 -0.00034420457 -0.87902814 0.054284558
509000000 -0.88211507 0.061545148 0.00019711928 -0.00033448989 -0.00048621008 -0.0016530985 -0.87726277 0.053229939
510000000 -0.88064086 0.063967623 0.00078426424 -0.0012496462 -0.00071396749 -0.0020516273 -0.87697178 0.05681387
511000000 -0.8811397 0.062570833 -0.00061925611 -0.00071726029 5.4733369e-005 -0.0018352814 -0.87767196 0.054796007
512000000 -0.88007915 0.061627403 -0.0015883668 -0.0010672063 0.00059396878 -0.00077358994 -0.87654865 0.056528967
513000000 -0.88055032 0.06190249 -1.2440487e-005 -0.0013440646 -0.00029737712 -3.7716283e-005 -0.87706685 0.053441942
514000000 -0.88124543 0.063052908 8.1427388e-005 -0.00061317947 -0.000503199 -0.00068936206 -0.87783611 0.054039348
515000000 -0.87944645 0.063069761 -0.00098208536 -0.00048910343 -0.00033783296 -3.3733126e-005 -0.87807631 0.055449877
516000000 -0.87977016 0.06297823 0.0001107861 -0.0014399868 -8.725483e-006 -0.00091003586 -0.87798834 0.054748651
517000000 -0.88104826 0.063310817 -0.00042158095 -0.0010171229 0.00035457668 -0.0016016326 -0.87727219 0.056285493
518000000 -0.88179696 0.062410917 0.00032849543 -0.00090915005 -0.0007648255 -0.00094930397 -0.87745142 0.056111619
519000000 -0.88084894 0.064592719 -0.00025365595 -0.00027169797 1.3309513e-005 -0.001448052 -0.87821275 0.054552879
520000000 -0.87899578 0.061924513 -7.6441727e-005 -0.00069010479 -0.00074295339 -0.00096072996 -0.87747449 0.056109875
521000000 -0.88104916 0.063730791 0.00012280226 -0.0022172674 -0.00064184499 -0.0013080273 -0.8777439 0.054671224
522000000 -0.88115638 0.063333765 0.00049586443 -0.0018690813 -0.00013360882 -0.00081115274 -0.87814403 0.054595452
523000000 -0.88173985 0.063700825 0.00020260549 -0.0018838679 0.00020637533 -0.00062448828 -0.87829977 0.05467831
524000000 -0.8794772 0.064508289 -0.00021771051 -0.00059998827 -0.00067864667 -0.0014195297 -0.87886274 0.056804582
525000000 -0.87966537 0.063888259 -0.00061355869 -0.00015232158 0.00013847345 -0.0010221022 -0.87821555 0.056241658
526000000 -0.88211781 0.062938899 -0.00038786005 -0.0021635769 0.00037483624 -0.00026311411 -0.87983692 0.057348922
527000000 -0.88137555 0.061724268 0.00014684655 -0.0017034404 6.9315211e-005 -0.0019732737 -0.87592649 0.055872854
528000000 -0.88179916 0.065046988 -0.00079395977 -0.00089567981 -0.00023953707 -0.00081784761 -0.8770293 0.057033613
529000000 -0.88090456 0.063960426 -0.0002966107 0.00023056244 -0.00064694532 -0.00056182471 -0.87765729 0.057971615
530000000 -0.88159162 0.064622112 -0.0010828207 -0.0010243566 -0.001108075 -0.0011326142 -0.87742412 0.057946093
531000000 -0.88081908 0.065013625 -0.0002859321 -0.00032589689 0.00034046316 -0.0013206307 -0.87785172 0.056836851
532000000 -0.88109386 0.063941851 -2.9164608e-005 -0.0016318304 0.00018317072 -0.0010172045 -0.87781638 0.057429682
533000000 -0.88090223 0.064681232 0.00027984174 -0.00075919559 8.2099701e-005 -0.00051617564 -0.87699932 0.059141971
534000000 -0.88089901 0.062955819 0.00014641015 -0.00048991054 -0.00065153779 -0.0016825263 -0.87724018 0.056546289
535000000 -0.87947339 0.06477274 0.00040520757 -0.0020443443 -0.00039758859 0.00035991694 -0.87704206 0.058876138
536000000 -0.88044155 0.064366162 -0.00025907767 -0.002094219 0.00048300347 -0.0017901656 -0.8771584 0.05834388
537000000 -0.8800202 0.063755535 0.00014132167 -0.0014869377 -0.00026148726 -0.00096907956 -0.87810701 0.057164747
538000000 -0.8806746 0.064713135 0.00015442235 -0.0019287328 -0.00065086375 -0.0018376345 -0.87751698 0.057055268
539000000 -0.88079524 0.063678831 -0.00020146671 -0.0011480156 0.00035418832 -0.00044073633 -0.87680912 0.058191776
540000000 -0.88115388 0.06639652 -0.00055435568 -0.00087265659 0.0013177529 -0.0021637983 -0.87642539 0.058608953
541000000 -0.88163304 0.065829553 -0.00011092746 -0.0025398594 -0.00011389241 -0.00084339752 -0.87660092 0.058626413
542000000 -0.87973917 0.064819202 -0.00079854002 -0.0018533388 0.00040213505 -0.0012025895 -0.87690783 0.059423283
543000000 -0.88091481 0.065675355 -0.00046408386 -0.0015939313 -0.00026207726 -0.0020274438 -0.87776798 0.058443826
544000000 -0.88024437 0.065769039 -0.0017261502 -0.00071987504 -5.0073912e-005 -0.0010041478 -0.87729853 0.057716716
545000000 -0.88097495 0.066362441 -0.00047841886 -0.0019126603 -0.00021798158 -0.00095744862 -0.8773526 0.05952042
546000000 -0.88190329 0.066285618 -0.00058772537 -0.00092831615 0.0006561653 -0.0018059668 -0.87818897 0.058484722
547000000 -0.88010126 0.066407256 -0.00085855316 -0.0014254403 -0.0003618488 -0.00058563473 -0.87649012 0.058121808
548000000 -0.88052076 0.066915952 0.00078037096 -0.00083059532 -0.0016196888 -0.001234845 -0.87685132 0.057607215
549000000 -0.87989217 0.066563323 -0.00069510634 -0.00060851412 -0.00013664477 -0.0014192506 -0.87845337 0.060665704
550000000 -0.87867218 0.067495868 -0.00061926624 -0.0016268761 -0.0001972613 -0.0011508802 -0.87824392 0.061095085
551000000 -0.87931216 0.06750977 -0.00051116047 -0.00036575229 0.0001071609 -0.00020773862 -0.87734801 0.059436474
552000000 -0.88145649 0.065355316 0.00067778386 -0.0017275759 -7.5571785e-005 -0.00094090367 -0.87772059 0.059449825
553000000 -0.87978148 0.066762917 -0.00068617804 -0.0010190473 0.0011532882 -0.0012132126 -0.87874418 0.059525359
554000000 -0.87906682 0.066053867 -5.2974945e-005 -0.00054364989 0.00023046395 -0.0010196287 -0.87743026 0.059437104
555000000 -0.88044769 0.066498883 -0.00051443465 -0.00078889204 -0.00012054469 -0.001109083 -0.87709004 0.058678582
556000000 -0.87983173 0.064974695 -9.9310142e-005 -0.0010215091 -0.00015188295 -0.0010252423 -0.87751609 0.060921919
557000000 -0.8816489 0.064931795 -1.7761367e-005 -0.00055536971 -0.0003855463 -0.0010736739 -0.87828386 0.058962099
558000000 -0.88055861 0.065721668 -0.00052171049 -0.0014774149 0.00091401493 -0.00080231536 -0.87586558 0.059645802
559000000 -0.87944502 0.068034448 0.00019425852 -0.00041103578 -0.00062881602 -0.0012575889 -0.87808561 0.060036477
560000000 -0.88064885 0.066892624 0.00083026855 -0.00098460994 -5.6786255e-005 -0.00030112916 -0.87668389 0.059749108
561000000 -0.87905049 0.066195883 9.4403717e-005 -0.00080060743 -0.00035686544 -0.0011135445 -0.87723708 0.060247231
562000000 -0.87842917 0.065828331 0.00021091496 -0.00016451156 -0.00019265368 -0.0018030637 -0.87773687 0.059760701
563000000 -0.88046503 0.069332823 -4.3839769e-005 -0.0014617027 -0.00064600783 -0.00088865194 -0.87873346 0.060309049
564000000 -0.88033444 0.06678921 -0.00035076446 -0.00013648078 -4.6159646e-005 -0.0026807478 -0.8769663 0.058997691
565000000 -0.87993872 0.066548385 -0.0012765153 -0.0011784104 -0.00023945539 -0.0018377983 -0.87849325 0.060013216
566000000 -0.8789351 0.066053152 -0.00029573104 -0.00050355052 0.00032032683 -0.001577798 -0.87662679 0.060012348
567000000 -0.87960416 0.066808209 -0.00031371921 -0.0019542065 -0.00052464649 -0.0015819378 -0.87720591 0.060494211
568000000 -0.87934828 0.067082569 -8.5624211e-005 -0.0014014982 -0.00071479264 -0.00080882141 -0.87652123 0.061103638
569000000 -0.88008994 0.067921184 -0.00068724493 -0.0012547652 -0.00064807112 -0.00082414312 -0.87792742 0.061930154
570000000 -0.87925458 0.068167187 -0.00053392822 -0.0025549037 -8.674166e-005 -0.00093842769 -0.87727565 0.060188241
571000000 -0.88019735 0.067773588 -0.00071268185 -0.0012465152 -4.4324242e-006 -0.00080375606 -0.8775149 0.060393579
572000000 -0.88040078 0.06794709 -0.00093312224 0.00033434495 -0.00031227621 -0.0009255028 -0.87703472 0.058628473
573000000 -0.88008088 0.067395195 -0.00013168016 -0.00086796953 -5.4264724e-006 -0.002442589 -0.87821352 0.060187623
574000000 -0.87885761 0.068315543 0.0017916048 -0.0018561444 6.838784e-006 -0.0010410567 -0.8767851 0.060825035
575000000 -0.8796497 0.067549616 0.00041944729 -0.001061217 -0.00049044605 -0.0007530165 -0.8782627 0.060625874
576000000 -0.8790639 0.068133056 0.00077665073 -0.0016795013 -0.0001365574 -0.00083440688 -0.87869835 0.060871944
577000000 -0.87963152 0.06804397 0.00045317024 -0.0013621276 0.00092094531 -0.0015147995 -0.87686133 0.061661053
578000000 -0.87983638 0.068608232 0.00050570403 -0.0011873567 -0.0012877256 -0.00057694764 -0.87723088 0.061826009
579000000 -0.87970966 0.067007937 4.963221e-005 -0.0018863427 -0.0011387223 -0.00021878741 -0.87652224 0.060565013
580000000 -0.87858731 0.067658357 -0.00072209886 -0.00027485934 -0.00067783491 -0.0013089863 -0.87779218 0.061594103
581000000 -0.87966168 0.069324106 -0.0009944496 -0.0010133876 -0.00028972904 -0.00049309793 -0.87913251 0.059707336
582000000 -0.87956494 0.069532119 -0.00018652854 -0.0012908983 1.8019058e-005 -0.00082673633 -0.87665468 0.061925139
583000000 -0.87935257 0.068409614 0.0001174756 -0.00039727715 -0.0014367973 -0.0012180137 -0.87926853 0.061517093
584000000 -0.87961894 0.069149487 -0.00092497829 -0.001409973 4.1691976e-005 -0.0012976252 -0.87560189 0.061459281
585000000 -0.88029331 0.068962939 -3.2422322e-005 -0.00041277273 0.00073567702 -0.00083029905 -0.87649333 0.061729472
586000000 -0.87957537 0.068121403 -0.00057668926 -0.0015189847 -8.8264569e-005 -0.00059585593 -0.87694025 0.061225206
587000000 -0.87995714 0.07006263 -0.00034543255 -0.0013182152 -0.00037767447 -0.0014234752 -0.87629515 0.062926747
588000000 -0.87838775 0.068949357 0.00029312729 -0.0010933226 0.00044736333 -0.0022505845 -0.876903 0.062665954
589000000 -0.87963831 0.069242723 -0.0013114971 -0.0008421751 -0.00058625999 -0.00070919184 -0.87814283 0.061250664
590000000 -0.88033628 0.070346855 3.3845201e-005 0.00017584603 -0.00011683237 -0.0010726651 -0.87627399 0.06264329
591000000 -0.8787418 0.069744736 0.00050205051 -0.001188415 0.00049844955 -0.001198895 -0.87784392 0.063355967
592000000 -0.87943393 0.069182716 0.0019069504 -0.00077860639 0.0001759767 -0.001356527 -0.87758249 0.06269931
593000000 -0.88042545 0.069399409 0.00034925042 -0.00068398652 4.6383797e-005 -0.0016417105 -0.87770677 0.063107409
594000000 -0.87879235 0.070136927 0.00089969143 -0.00089539529 -1.8852161e-005 -0.0018580541 -0.8764267 0.063969389
595000000 -0.87882543 0.068541288 0.0002204215 -0.00074850587 -0.00074121921 -0.0014625484 -0.87719262 0.063242182
596000000 -0.87955123 0.071469918 -0.0004334237 -0.00061844982 -0.00063497596 -0.0014187099 -0.87794405 0.061891634
597000000 -0.88013417 0.070389181 -0.00076976995 -0.0017276603 -0.00014988336 -0.001283471 -0.87611574 0.063100293
598000000 -0.87939769 0.069730386 7.202151e-005 -8.2295555e-005 -0.00031211413 -9.7424512e-005 -0.87754017 0.063685156
599000000 -0.87830269 0.070172749 -0.0002518059 -0.0014495505 0.00011595638 -0.0008580471 -0.87881809 0.062025532
600000000 -0.87806606 0.071226947 -0.00018105995 -0.0010466665 -0.0011292524 -0.0010937906 -0.87753195 0.063286841
601000000 -0.87778366 0.071180724 -0.00021294771 -0.0018035844 5.4790336e-005 -0.0012807328 -0.87675172 0.062876955
602000000 -0.87825966 0.070123814 0.00027050739 -0.00049856212 -0.00060235523 -0.002484442 -0.87642956 0.063069411
603000000 -0.87977171 0.071064815 -0.00036436849 -0.0011895794 -0.0010554793 -0.00063501671 -0.87733448 0.065151483
604000000 -0.87955219 0.071383856 -0.00029238471 -0.0009164291 0.00017192488 -0.0012861353 -0.87632233 0.064724267
605000000 -0.87926614 0.070893236 0.00046568221 0.00024806883 -0.00022814913 -0.0019474503 -0.87652665 0.06432192
606000000 -0.88020563 0.071916014 0.00039380768 -0.0023896806 -0.00077386689 -0.0014890571 -0.87539434 0.064299621
607000000 -0.88083041 0.070090607 0.00040997379 -0.00045636937 -0.00095202756 -0.0011278858 -0.87685376 0.064319395
608000000 -0.87909216 0.07358662 -8.004417e-005 -0.0020779353 -0.00078584527 -0.00083660387 -0.87718159 0.065417446
609000000 -0.87848204 0.072446421 0.00034654213 -0.00012393239 0.00028943992 -0.0018650639 -0.87661988 0.063390441
610000000 -0.87817824 0.071907908 0.00059982884 -0.0013627496 4.3157786e-005 -0.00060184166 -0.87567228 0.063578375
611000000 -0.87873632 0.071764551 -0.00083650654 -0.0011021947 0.00088825746 -0.00068670016 -0.87662333 0.064952455
612000000 -0.87856042 0.073340461 0.0016317964 -0.0018203272 -0.00026919597 -0.0023682823 -0.87684232 0.064559095
613000000 -0.87829816 0.073165782 -0.00051394524 -0.0018449693 -0.00086854387 -0.0015667143 -0.87773645 0.064889103
614000000 -0.87781638 0.073713012 0.00080925494 -0.00077026646 0.00059250556 -0.0015722224 -0.87559527 0.06504
615000000 -0.88001734 0.073745467 0.00013667386 -0.00051145081 -0.0012666844 -0.0015684605 -0.87662297 0.063461274
616000000 -0.87990302 0.074031718 -0.00036133375 -0.00041293196 -0.00052679435 -0.00049043464 -0.8759371 0.064888485
617000000 -0.87930322 0.073903061 -0.00072560646 -0.0013289291 -0.0018118374 -0.0023171643 -0.87685603 0.064849339
618000000 -0.87841547 0.073573433 0.00045954663 -0.0009195914 -0.0014665591 -0.0015185494 -0.87566882 0.067008063
619000000 -0.87971908 0.073536254 0.00037884148 -0.001145703 -0.0015279582 -0.0021209074 -0.87669772 0.066169359
620000000 -0.87982172 0.072988056 -0.00036240765 -0.0011092814 0.00073028437 -0.00092869706 -0.87624574 0.064926833
621000000 -0.87861598 0.07357084 -0.00097556994 -0.0021595946 -0.0006965386 -0.0022470765 -0.87542993 0.065867603
622000000 -0.87867284 0.073497914 -0.00073287607 -0.002524632 -0.00019472874 -0.00079551863 -0.87653232 0.064224906
623000000 -0.87889898 0.075000405 -6.9950009e-005 -0.0011309158 0.0005985442 -0.00019258763 -0.87652224 0.065195106
624000000 -0.8782773 0.073128857 5.3337517e-005 -0.0013516813 0.00034822588 -0.00068389543 -0.87670481 0.066676632
625000000 -0.8774038 0.075971037 -0.00097910059 -0.0030770313 -0.0015274268 -0.00053767505 -0.8769713 0.065909497
626000000 -0.87830049 0.074655578 0.00021512098 -0.0005040667 -0.0010965656 -0.0011779324 -0.87553602 0.066402614
627000000 -0.87964582 0.076101959 0.00034212926 -0.00069781789 0.00027374769 -0.0020635868 -0.87752193 0.067570053
628000000 -0.87905562 0.076218449 -0.00040526802 -0.0018186081 -0.001084783 -0.0016294146 -0.87631625 0.066646606
629000000 -0.87902987 0.07482028 -0.00046261572 -0.0018710749 -0.00042158051 -0.0019479349 -0.87717444 0.06673307
630000000 -0.87809265 0.076663308 0.0003033437 -0.0020437946 0.00083166262 -0.001210085 -0.87667364 0.068310738
631000000 -0.87914121 0.076177053 -0.0011212841 -0.0014869818 -6.6986329e-005 -0.0015478267 -0.87669027 0.066767745
632000000 -0.87967056 0.074476101 0.00027093414 -0.0023077501 0.00076838373 -0.00050230441 -0.87501711 0.068060696
633000000 -0.87822062 0.075412758 -1.1940567e-006 -0.0014805553 0.00024261267 -0.0012419672 -0.87576723 0.067192592
634000000 -0.87827694 0.077899747 0.0013362969 -0.0014957024 -0.00054653175 -0.0015095883 -0.87648916 0.067150533
635000000 -0.87848169 0.076752044 -0.00024286279 -0.00084870757 -0.00020938211 -0.0017047182 -0.87665945 0.067647457
636000000 -0.8761422 0.07582473 7.0419919e-005 -0.0019446226 0.00074879697 -0.0021719418 -0.87610519 0.066939145
637000000 -0.87815768 0.076578565 0.00012484503 -0.00081714673 -0.0011956774 -0.00097539194 -0.87651449 0.067473941
638000000 -0.87708783 0.075975165 -0.00021097965 -0.00048928295 0.00024862267 -0.00047805981 -0.87662083 0.067837618
639000000 -0.87932831 0.076639287 0.00075296819 -0.0027818491 0.00039798833 -0.00089010061 -0.87508166 0.068481766
640000000 -0.87810481 0.077860013 -0.00023174148 -0.0017063428 -0.00018325049 -0.00065551879 -0.87546796 0.067433104
641000000 -0.87786412 0.076434128 -0.001305155 -0.0017230127 -0.0005727383 -0.00091850938 -0.87462628 0.068548076
642000000 -0.87711 0.077915207 0.00033158873 -0.0010520886 -0.00059067301 -0.00075508934 -0.87632596 0.068709768
643000000 -0.87810552 0.077676058 -0.00086347631 -0.00022389145 -0.00034171596 -0.0014534619 -0.87705415 0.069730617
644000000 -0.87890416 0.077546723 -0.00079304521 -0.0021102182 -0.00053899316 -0.0016657395 -0.87760693 0.068206549
645000000 -0.88030368 0.077157773 0.00082920032 -0.0017663813 -0.00039927819 -0.0011706409 -0.87784982 0.069167428
646000000 -0.87821025 0.079677239 0.00022664868 -0.0025443078 -9.0320667e-005 -0.0020297021 -0.87547737 0.068921581
647000000 -0.87866223 0.079498105 0.00029652633 -0.0023206784 -6.1639771e-006 -0.0014814952 -0.87710375 0.068745926
648000000 -0.8770327 0.077471741 0.00045116217 -0.002004076 0.00021857505 -0.0016844425 -0.87621444 0.069242969
649000000 -0.87775242 0.078858636 -0.00055894774 -0.0018931092 3.675709e-005 -0.0022121805 -0.87776715 0.069529913
650000000 -0.87859708 0.077632807 -0.0010376404 -0.00030454187 8.8236789e-005 -0.00036940374 -0.87545657 0.068763562
651000000 -0.87758327 0.078794919 -0.00090753747 -0.0013430539 0.00011946433 -0.0024796992 -0.87563109 0.06805867
652000000 -0.87779981 0.078580499 -0.00049045269 0.00015216325 -0.00017284713 -0.00013657425 -0.87560803 0.068014607
653000000 -0.87792033 0.078509465 -0.001242115 -0.0011679468 -0.0005576433 -0.0015246543 -0.87514842 0.068797097
654000000 -0.87832558 0.079473041 0.00013101024 -0.0015293936 0.00023995795 -0.00080102705 -0.87591165 0.069473989
655000000 -0.87722224 0.078779377 -0.00039541998 -0.0018568336 0.00010143174 -0.0017570254 -0.87731677 0.070280202
656000000 -0.87763566 0.07897865 -1.0245254e-005 -0.0015097141 -0.00030650114 -0.0018357079 -0.87752205 0.068923585
657000000 -0.87856126 0.079523601 -0.00052870665 -0.0010456293 0.00017999252 -0.0013632736 -0.87690103 0.069298036
658000000 -0.87846124 0.079470314 0.00052863493 -0.0016181772 9.5355776e-005 -0.0018488978 -0.87476814 0.068200551
659000000 -0.87743503 0.08035551 -0.0005985297 -0.0019337327 -0.0007965815 -0.00086250959 -0.87547767 0.068460397
660000000 -0.87704355 0.080510408 -0.00012553498 -0.0014900729 0.00032304644 -0.0011730221 -0.87545198 0.069762364
661000000 -0.87922084 0.081073985 1.8093497e-005 -0.00075964152 -0.00079933903 -0.0010763732 -0.87465864 0.069125533
662000000 -0.87715495 0.080403052 -0.00010048413 -0.0020000769 -0.0011205861 -0.0012045772 -0.87702316 0.06987422
663000000 -0.87965095 0.078636602 -0.00043079129 -0.0013609609 -0.00033558556 -0.0015239964 -0.87580311 0.070384085
664000000 -0.8785243 0.079572491 -0.00040006428 -0.0011219337 -0.0010977935 -0.00090530695 -0.87643975 0.069433436
665000000 -0.87684953 0.079513066 -0.00030798893 -0.0013031123 -0.00028089393 -0.0027156463 -0.87575424 0.070651174
666000000 -0.87872434 0.079603016 -0.00022274922 -0.0022477584 0.00060617999 -0.0013370813 -0.87602764 0.069232583
667000000 -0.87850422 0.080826387 0.00040934826 -0.0011543609 0.00023841062 -0.00060125918 -0.87623084 0.069828324
668000000 -0.87865943 0.08035659 0.00033136216 -0.0012056788 -0.00034836601 -0.00080872292 -0.87687367 0.069502912
669000000 -0.87835264 0.080859125 0.0008208488 -0.00056333159 -0.00035161147 -0.00073051488 -0.87685889 0.06825503
670000000 -0.87698442 0.082542732 -0.00057057157 -0.0016999802 0.0011147349 -0.0023364543 -0.87602311 0.070457838
