!Keysight Technologies,M9374A,MY55442783,A.12.55.05
!Date: Wednesday, May 19, 2021 16:51:34
!Correction: S11(Full 2 Port(1,2)) 
!S21(Full 2 Port(1,2)) 
!S12(Full 2 Port(1,2)) 
!S22(Full 2 Port(1,2)) 
!S2P File: Measurements: S11, S21, S12, S22:
# Hz S  RI   R 50
500000000 -0.88309038 0.057563044 8.1138955e-005 -0.00097967358 -0.00051903009 -0.0013721496 -0.87789851 0.050404735
501000000 -0.88224387 0.058464877 -0.00077098946 -0.00039622569 5.8100381e-005 -0.00070383452 -0.87991422 0.048565291
502000000 -0.8812902 0.058901396 0.00013512524 -0.0011556287 -0.00039398609 -0.00074933533 -0.87998575 0.049915805
503000000 -0.88001722 0.05710857 0.00026190889 -0.00074401131 -0.0001033712 -0.0011081763 -0.87866569 0.051348548
504000000 -0.8810643 0.058233958 0.0001499693 -0.0013485374 -0.00010216191 -0.0021338081 -0.87888014 0.050677143
505000000 -0.88165307 0.058003556 0.00096539338 -0.0015153738 0.00043134723 0.00039463158 -0.87876809 0.05016138
506000000 -0.88080263 0.058611821 0.00062033365 -0.0011941266 0.00060331944 -0.00070929562 -0.8787303 0.052058168
507000000 -0.88120067 0.058748335 -0.00016858302 -0.00051964878 -0.00036532665 -0.00099786173 -0.87833709 0.050620552
508000000 -0.88238883 0.058265742 0.00038370467 -0.0015651803 -0.00058306934 -0.0011287101 -0.87895298 0.051054712
509000000 -0.8810519 0.059045222 0.00011966046 -0.0012790832 -0.00053109985 -0.00044612991 -0.87729043 0.050254989
510000000 -0.88316369 0.059929162 -5.5930286e-005 -0.00020967574 5.6436267e-005 -0.00060451834 -0.87825787 0.051322069
511000000 -0.88041681 0.058231577 -0.0006814659 -0.0015003448 -0.00017263077 -0.0012841886 -0.8783524 0.052827727
512000000 -0.88067091 0.059858143 0.00044010932 -0.00071027206 -0.0011655994 -0.0014178769 -0.87673813 0.050150678
513000000 -0.88182604 0.059798703 -0.00011752987 -0.0015544696 0.00044873875 -0.0010255064 -0.87859219 0.050860185
514000000 -0.88104063 0.059996594 0.00058851676 -0.0021790008 0.00021488914 -0.00076483766 -0.87748551 0.052665047
515000000 -0.88100606 0.059580244 7.118049e-005 -0.0011907904 0.00062709354 -0.00088422361 -0.87826747 0.052696198
516000000 -0.88069111 0.05965814 -0.0012768816 -0.0018346437 0.00065185118 -0.00038599799 -0.87843335 0.054300915
517000000 -0.88031489 0.059509318 0.00044715274 -0.00027190903 -0.00041365644 -0.00099424331 -0.87744081 0.051823795
518000000 -0.88244802 0.060179804 -4.4545384e-005 -0.00071702461 0.00041522775 -0.0014429499 -0.87819076 0.052750017
519000000 -0.88086903 0.060445234 -3.174118e-005 -0.0013354956 0.00059903023 -0.001114949 -0.87789035 0.053323012
520000000 -0.88154447 0.060214471 -0.0011030475 -0.00060954655 0.000260356 -0.0012232496 -0.87717998 0.05381139
521000000 -0.88170409 0.060800157 0.00098876585 -0.0016026178 -0.0013121598 -0.0016551773 -0.87685609 0.052722398
522000000 -0.88247406 0.059193652 -0.00042046933 -0.0011640706 -0.00072551047 -0.00078481919 -0.877415 0.054142322
523000000 -0.8809697 0.060534526 -0.00072034885 -0.0017265071 -0.00057748932 -0.0011543967 -0.87882644 0.052912418
524000000 -0.88141888 0.061641846 -0.00079301104 -0.0020169942 0.0001380083 -0.00091495219 -0.87991667 0.05478647
525000000 -0.88109845 0.061561558 0.00033933116 -0.001400191 -0.0004142831 -0.0011295781 -0.87831932 0.0546344
526000000 -0.88041049 0.061906137 -7.0726877e-005 -0.0011682711 -0.00065169664 -0.001198873 -0.87764531 0.053138334
527000000 -0.88175267 0.06136125 -7.2638621e-005 -0.00094182394 0.00032511092 -0.0012745357 -0.87732631 0.053762693
528000000 -0.88172692 0.061944168 -0.00057501247 -0.0010740511 -0.00031630314 0.00024457299 -0.87593675 0.054784078
529000000 -0.88080245 0.061035946 -0.00025581304 -0.001627485 -0.001475014 -0.0012927136 -0.87758279 0.054648902
530000000 -0.88006431 0.061472837 0.00011317061 -0.00068512087 -5.5345304e-006 -0.00020111425 -0.87863523 0.053751379
531000000 -0.88072205 0.062071461 -2.3952551e-005 -0.0016158617 -0.00064837968 -0.0012362255 -0.87750435 0.053318013
532000000 -0.88064784 0.06281063 -0.00055611384 -0.0012459153 -0.00041222567 -0.001288314 -0.87898302 0.053212184
533000000 -0.88008714 0.062070854 8.1803555e-005 -0.0015137881 2.9476034e-005 -0.00079419895 -0.87664765 0.053612359
534000000 -0.88157272 0.061800107 -0.00081589457 -0.001854048 1.9246934e-005 -0.00079987134 -0.87922436 0.05373016
535000000 -0.87939775 0.063214682 0.00053770433 -0.0012579854 -0.00083364511 -0.00017749309 -0.87812251 0.054151684
536000000 -0.88126636 0.062936194 -2.6680109e-005 -0.0010653855 -0.00054549461 -0.00071251468 -0.87684834 0.054195099
537000000 -0.87942475 0.062716797 -0.00048510716 -0.00089037098 -0.00083919254 -0.00063951832 -0.87839192 0.057127513
538000000 -0.87927192 0.061803021 0.00037121415 -0.0013660424 -0.0011274 -0.0003703268 -0.87804693 0.054745719
539000000 -0.88051069 0.062482338 -0.0013839278 -0.0011271375 -0.000483151 -0.0015051903 -0.87758839 0.055284545
540000000 -0.87996626 0.063601606 0.0012796321 -0.00025120893 -0.00040882992 -0.0014373646 -0.87771183 0.055562235
541000000 -0.87978011 0.062805615 0.00058365625 -0.0010655746 0.0004225244 -0.0020911624 -0.87799942 0.055089418
542000000 -0.88109416 0.062959403 0.0001726706 -0.0003327103 -0.00035961691 -0.000612812 -0.87595582 0.054974392
543000000 -0.88075691 0.062707894 0.00059279683 -0.0019989845 0.00090409449 -0.0010986355 -0.87845534 0.054226507
544000000 -0.8799274 0.064765327 -0.00015866704 -0.00058333832 -0.0009971651 -0.0019491679 -0.87866652 0.056190941
545000000 -0.88049293 0.063262537 0.0005091693 -0.00089566864 -0.00043857426 -0.001685997 -0.87680274 0.055773415
546000000 -0.88057643 0.064107783 -0.00072680635 -0.0010584381 0.00027328118 -0.00096914871 -0.87680393 0.056260459
547000000 -0.87957233 0.065050624 3.7949554e-005 -0.0012041942 -0.00047548406 -0.001667427 -0.87774616 0.056184083
548000000 -0.88129687 0.064882509 0.00049942173 -0.00081384723 -0.00027234163 -0.001345991 -0.87701726 0.05579669
549000000 -0.88084066 0.06276653 -0.00076883583 -0.0018002796 -0.00061307981 -0.0019809424 -0.87873447 0.056167148
550000000 -0.8788811 0.065026186 -0.00090441108 -0.00096047606 -0.00016482086 -0.00065782026 -0.8782472 0.057128575
551000000 -0.88084257 0.062916331 -0.00023462749 3.4409917e-005 -0.00020794039 -0.00031645093 -0.87647825 0.057760805
552000000 -0.88145113 0.06204237 0.00020298069 -0.0010704495 -0.00024656055 -0.0016660531 -0.87676978 0.055100478
553000000 -0.88068384 0.063613996 -0.00011520785 -0.0020869866 -0.00030010391 -0.0011197645 -0.87708706 0.055331282
554000000 -0.8813374 0.062587403 -0.00016713113 -0.00086246815 -0.00032726853 -0.0010771087 -0.87972933 0.055918831
555000000 -0.8818422 0.064732336 0.00014674319 -0.00093287468 -0.00023237386 -0.0020488657 -0.87712109 0.056714591
556000000 -0.88034838 0.063610479 0.00059946498 -0.0019921644 -0.00047728265 -0.00057127507 -0.87788624 0.055674385
557000000 -0.88167739 0.063638344 -0.00088979432 -0.0010844119 -0.00070080312 -0.00089198578 -0.87812066 0.056601975
558000000 -0.88030857 0.061320499 0.000333581 -0.0013513155 -0.00015605094 -0.0011727904 -0.87729108 0.057955451
559000000 -0.87878448 0.063440688 0.00012377875 -0.0013846456 -0.00024687624 -0.00057766074 -0.8772952 0.058346957
560000000 -0.87984192 0.063781768 3.632209e-005 -0.0014481 0.00030479222 -0.0016720501 -0.87863165 0.058521189
561000000 -0.88093632 0.064240359 0.00059199857 -0.0018683275 -0.00028999912 -0.00058489165 -0.8794229 0.056903303
562000000 -0.8815217 0.064493738 -0.0007308246 -0.0012935968 -3.9410745e-005 -0.0024117727 -0.87707496 0.056232654
563000000 -0.88071316 0.064387634 0.00015749654 -0.00060455193 -0.00047114436 -0.0016707629 -0.87700033 0.058791716
564000000 -0.88075775 0.064962313 0.00048181176 -0.0010962656 0.00023935879 -0.0018312758 -0.87904012 0.056366913
565000000 -0.87990063 0.064491637 -0.00085584732 -0.00053014501 0.00047804139 -0.0013708208 -0.87761253 0.057096608
566000000 -0.88180089 0.062370222 0.00053448015 -0.0011680957 -0.00037082491 -0.001447859 -0.87844539 0.057861853
567000000 -0.87927622 0.063806735 0.00019127975 -0.00094874867 0.00056906685 -0.0019969933 -0.87885618 0.055648845
568000000 -0.87970877 0.065167673 0.00013837554 -0.0015187536 0.00016931791 -0.0014639593 -0.87817818 0.057649568
569000000 -0.8803553 0.063750632 -0.00030888483 -0.0011801303 -0.00026338518 -0.0012433074 -0.87895948 0.058002513
570000000 -0.88039136 0.064543389 -0.0007684672 -0.00047435952 -0.0012394278 -0.0013471667 -0.87775278 0.058207348
571000000 -0.88043511 0.063990399 -0.00021800517 -0.00071510911 0.00048642172 -0.0014084319 -0.87793559 0.058447465
572000000 -0.87834847 0.063791558 -0.00023699105 -0.002048302 0.00027460669 -0.00061467057 -0.87871164 0.057534683
573000000 -0.88116157 0.065421633 -0.00024595231 -0.00041295047 0.00066807412 -0.0013276197 -0.87710017 0.058559131
574000000 -0.87892038 0.063722439 0.00074545923 -0.00095314876 -0.00052088633 -0.00019215226 -0.87946981 0.056733571
575000000 -0.87945545 0.063761711 -0.00072124397 -0.0011375335 0.00020333314 -0.0019808465 -0.8776111 0.05871607
576000000 -0.88061386 0.06579417 -9.1510665e-005 -0.0011582556 0.00014469809 -0.001252244 -0.87922424 0.058569897
577000000 -0.88075465 0.065042935 -0.0001814352 -0.00077911653 0.0013706707 4.3603453e-005 -0.87657994 0.058318783
578000000 -0.87932992 0.065624207 -0.00036383132 -0.0015249208 0.0011069683 -0.0010748731 -0.87692499 0.058148067
579000000 -0.87827969 0.065095127 -0.00022309241 5.9491358e-005 -0.00028066448 -0.0015532216 -0.87765843 0.058619987
580000000 -0.87936807 0.064182743 0.00059370429 -0.00073957129 -0.00014692896 -0.0010477786 -0.87738836 0.05888474
581000000 -0.87965286 0.066940941 5.9687387e-005 -0.0007730301 0.00061588263 -0.00070121087 -0.87794894 0.058163591
582000000 -0.87937492 0.066159554 -0.0006027054 -0.0023170728 0.0005552221 -0.0012673169 -0.87815374 0.058863521
583000000 -0.88037467 0.066852167 -0.00040778352 -0.0012340073 0.00012175769 -0.00080970523 -0.87890297 0.058450416
584000000 -0.87983483 0.065741383 -0.0002000731 -0.0011857317 -0.0012746208 -0.0018531377 -0.87651485 0.059803002
585000000 -0.87885362 0.064923331 -0.00046395339 -0.00016743621 0.00010379053 -0.00084631681 -0.87767118 0.060554512
586000000 -0.88079077 0.065675423 -0.00072802848 -0.0010491499 -0.00078578712 -0.00058926956 -0.87743765 0.059937991
587000000 -0.8794806 0.06497816 -0.00025437234 -0.00083463255 0.00073971209 -0.000164253 -0.87711889 0.05929276
588000000 -0.88060689 0.065769508 -0.00017771321 -0.0020922858 -0.00032866956 -0.0011494037 -0.87794489 0.058576386
589000000 -0.88009298 0.065298177 0.00071773463 -0.0012214363 -8.6603759e-005 -0.00055476278 -0.87606537 0.059725937
590000000 -0.87921047 0.06631846 -0.0010264564 -0.0019145919 4.1499348e-005 -0.000719028 -0.87736058 0.059322651
591000000 -0.88062698 0.066643544 -0.00011012185 -0.001554139 3.7260816e-005 -0.0012683502 -0.8776474 0.059962772
592000000 -0.87962508 0.066480927 -0.00034522638 -0.0012497708 -0.00019081536 -0.0010176942 -0.87762511 0.058550328
593000000 -0.87906879 0.065833494 -0.00054961996 -0.00042885239 -0.00029485475 -0.00049331394 -0.87804484 0.059645731
594000000 -0.87951976 0.066909127 -0.0006491277 -0.00167685 -0.00050676288 -0.0018793528 -0.87890118 0.058725543
595000000 -0.8796584 0.066289328 -0.00013279372 -0.00052682083 -0.00016661032 -0.0011259597 -0.87791729 0.059216436
596000000 -0.87891185 0.065872118 -0.00060777279 -0.0017736607 -0.00058284344 -0.0009688079 -0.87753427 0.059213191
597000000 -0.8788265 0.066915132 0.00064988219 -0.00093449606 -0.00032697627 -0.0014733877 -0.87829518 0.0590255
598000000 -0.88204896 0.067727447 -0.0002200345 -0.00019559833 -0.00019268879 -0.00074634526 -0.87753654 0.058646239
599000000 -0.88006365 0.068448566 -0.0018707385 -0.0025358805 -0.000863911 -0.0013130598 -0.8785454 0.0594736
600000000 -0.88018966 0.068039566 -0.0012077088 -0.00235183 -0.00047256678 -0.001282192 -0.87784523 0.059134472
601000000 -0.879489 0.06806501 0.00028330437 -0.0011655187 -0.0003540481 -0.0017803804 -0.87795746 0.060891338
602000000 -0.87983429 0.067326128 -0.00068232609 -0.0010598239 2.5509131e-005 -0.00099653041 -0.87619889 0.060461909
603000000 -0.88037497 0.067166135 0.00026036592 -0.000552257 -0.00058311992 -0.0009850536 -0.87944841 0.061237477
604000000 -0.87939221 0.067902662 0.0005746035 -0.0016842376 -0.00053111318 -0.0020294385 -0.8775956 0.060296625
605000000 -0.87929398 0.068246089 0.00020856783 -0.00031150642 0.0005918176 -0.0010241723 -0.87583017 0.059598915
606000000 -0.88130355 0.06883049 -0.00042180845 -0.00014581067 5.15539e-005 -0.0024267607 -0.87608403 0.060511515
607000000 -0.88026661 0.068748966 -0.00075637404 -0.0008681693 0.0003054695 -0.0016385263 -0.87722141 0.060240533
608000000 -0.8793968 0.068907484 -0.00018661459 -0.00060110801 -0.00062867021 -0.00049041002 -0.87715709 0.060763098
609000000 -0.87951291 0.069341838 0.00010306934 -0.00051651068 0.00060692587 -0.0024556622 -0.87665302 0.062262829
610000000 -0.87994832 0.070338033 -0.00020495933 -0.0020432321 -0.00014447016 -0.00038854254 -0.87879175 0.060848068
611000000 -0.87957186 0.068613514 0.00033001826 -0.00083989342 -0.00037419159 -0.00052766968 -0.87522954 0.061447021
612000000 -0.87898517 0.068839669 -0.00078226725 -0.0017112889 -6.0973307e-005 -0.00057458965 -0.87770754 0.060160913
613000000 -0.87961411 0.069646038 0.00019271309 -0.0017060351 0.00036113951 -5.9917635e-005 -0.87690425 0.061878156
614000000 -0.87857467 0.07201203 0.00026360585 -0.0023578398 -0.00054062787 -0.00071806874 -0.87557596 0.060458627
615000000 -0.87990016 0.070387803 -0.00069910346 -0.0022554414 -0.00026988622 -0.00081428414 -0.87693983 0.061733551
616000000 -0.88079208 0.071489468 -0.0011604098 -0.001574491 -0.00038313531 -0.0011080718 -0.87625384 0.063005656
617000000 -0.88145095 0.070090115 0.00068710744 -0.00092731445 0.00041020318 -0.0026808588 -0.87662548 0.063019462
618000000 -0.88029045 0.069520846 -0.00039120737 -0.0011803944 -0.0010116185 -0.0021370298 -0.87751824 0.062931657
619000000 -0.87884623 0.070684291 -0.00013934472 -0.0012816889 -0.00022012276 -0.0010317257 -0.87685901 0.061580285
620000000 -0.87741834 0.071473219 -0.00032629032 -0.0016089414 0.0013695174 -0.00017404825 -0.87611639 0.061963521
621000000 -0.87930417 0.070356309 -0.00045098618 -0.0014289671 -0.0009331457 -0.00018406774 -0.87693381 0.064475715
622000000 -0.87832409 0.07195773 -0.00013692584 -0.0018491949 -0.00045447116 -0.0016819714 -0.87657082 0.062749453
623000000 -0.87824529 0.071524985 -0.00053196686 -0.00047072771 -0.00057626137 -0.00087772688 -0.87590516 0.062549017
624000000 -0.8782934 0.070504509 -0.00033308414 -0.0015135217 0.0010830122 -0.0012242706 -0.87573057 0.061463643
625000000 -0.87848747 0.071881704 -0.00036803642 -0.00077646406 -0.0001662429 -0.0021087585 -0.87560481 0.062497698
626000000 -0.87916249 0.072351865 -0.00083984801 -0.0026516696 0.0013945835 -0.0019147221 -0.87701648 0.063287467
627000000 -0.87900007 0.072603822 0.00013832105 -0.0015694235 -0.0008345138 -0.0022273753 -0.87614995 0.062538244
628000000 -0.87972403 0.072006859 0.0014878439 -0.0018077028 -0.00088960573 -0.00054253143 -0.87732452 0.064515449
629000000 -0.87868094 0.073203146 -0.00026200162 -0.0010264801 -0.00022883793 -0.0016368936 -0.87688011 0.063947394
630000000 -0.87927449 0.072432123 6.4258995e-005 -0.00013282917 0.00034116759 -0.0006698746 -0.87752181 0.06244408
631000000 -0.87973571 0.071545281 -0.00048013331 -0.0013234084 0.00017634351 -0.00044822498 -0.87809515 0.063449889
632000000 -0.88134801 0.072015733 0.00057579245 -0.0017708022 0.00028551344 -0.00052969286 -0.87741631 0.062647842
633000000 -0.8788656 0.07205189 -0.00088463514 -0.0023264736 -0.00034616847 -0.002138332 -0.87668353 0.062931903
634000000 -0.87880868 0.073672898 -0.0015648706 -0.0013002449 -0.0004359812 -0.0016687567 -0.87651044 0.06460204
635000000 -0.87893891 0.073959574 -0.00034954745 -0.00084786967 -7.737198e-005 -0.0011296473 -0.8769753 0.06399449
636000000 -0.87871516 0.073807381 7.1496092e-005 -0.0013900346 6.5034023e-005 -0.00109364 -0.87796366 0.063974403
637000000 -0.87966716 0.072533548 0.00015504604 -0.0014845872 8.1343067e-005 -0.0012865907 -0.87618214 0.063906446
638000000 -0.87882167 0.07329841 9.6086907e-005 -0.0015069041 -0.00036396491 -0.0014930323 -0.87728608 0.063764758
639000000 -0.88020927 0.074661724 -0.00083164847 -0.0018151629 -0.00045998686 -0.00082710368 -0.87659574 0.06476488
640000000 -0.87896794 0.074656911 -0.000458717 -0.0013293508 5.8969948e-005 -0.0010505511 -0.8764497 0.063691586
641000000 -0.87930787 0.073760606 -0.00060381315 -0.0016238685 -0.001334494 -0.0014831605 -0.87493032 0.064825363
642000000 -0.87862432 0.073090352 -0.00019972269 -0.0016690533 -5.4800366e-005 -0.0011421177 -0.87676644 0.065050863
643000000 -0.87769109 0.073904112 0.0002232385 -0.0016201293 0.00041861815 -0.00096941635 -0.87787992 0.065419786
644000000 -0.87884694 0.075924769 -0.00068859826 -0.0023627046 0.00050492765 -0.0011166153 -0.87670714 0.064920232
645000000 -0.87898481 0.075869389 0.00052352436 -0.00038871446 -0.00020202389 -0.00066710199 -0.87698692 0.063506812
646000000 -0.88015759 0.07635472 -0.00011590555 -0.001675131 0.00095260731 -0.00084490195 -0.87574512 0.063350193
647000000 -0.87929034 0.076200582 0.00054310163 -0.0012298282 -0.00068685168 -0.00090568035 -0.87790924 0.066162974
648000000 -0.87984484 0.075232834 0.00061290676 -0.0020141595 -0.00062755734 -0.00203864 -0.87727034 0.066305541
649000000 -0.87894732 0.074391365 -4.699151e-005 -0.0013413414 0.00092492613 -0.0016926579 -0.87662297 0.065495938
650000000 -0.87821215 0.074141689 -0.00056672597 -0.0017654684 -0.00058943487 -0.00060506561 -0.87660182 0.065536812
651000000 -0.87878788 0.076353252 -7.8791614e-005 -0.00098440878 -0.0011251812 -0.0015623 -0.87593263 0.065951966
652000000 -0.87822217 0.075634636 -0.00044739086 -0.0011158873 0.00011987804 -0.0022602449 -0.87581295 0.065838732
653000000 -0.87925005 0.074652478 7.9849606e-006 -0.001121147 -0.00082844315 -0.0011617867 -0.87599653 0.064498439
654000000 -0.8797518 0.075809583 -0.0015708193 -0.0022063025 -0.00066961878 -0.0021481144 -0.87800628 0.066845223
655000000 -0.87789315 0.075764358 2.7119635e-005 -0.0014479617 -0.00014982207 -0.00062010303 -0.87591058 0.064985797
656000000 -0.87889439 0.076304406 0.00068667601 -0.0011122968 -4.9065649e-005 -0.00088237482 -0.87691182 0.06455864
657000000 -0.87929302 0.075317025 -0.00062160601 -0.0010845384 -0.00047086575 -0.00070823409 -0.87792492 0.064645573
658000000 -0.87885147 0.075692743 7.6977325e-005 -0.00083547691 -0.00017243737 -0.00093009626 -0.87695861 0.065354772
659000000 -0.87841219 0.077294946 -0.00066749327 -0.00076459529 0.00052252936 -0.0015792453 -0.87498474 0.065011136
660000000 -0.87915671 0.076928452 -0.0010375037 -0.0012098309 -0.00035704731 -0.0021493367 -0.87574297 0.065613583
661000000 -0.8800782 0.076438867 -0.00032213336 -0.00072123832 -0.00014379549 -0.0022897257 -0.87662143 0.066355042
662000000 -0.8784036 0.076444142 -0.00026125961 -0.0012237725 -0.00070923899 -0.0019310515 -0.87770575 0.06527371
663000000 -0.87852681 0.075868778 0.00052652345 -0.0009830558 0.00021944406 -0.00069378474 -0.87603676 0.067806929
664000000 -0.87875795 0.075053506 -0.00017015872 -0.0015672091 -0.00046981859 -0.0013816997 -0.87686145 0.066415817
665000000 -0.87833554 0.076525949 -0.00020963345 -0.00070697168 -0.00028456413 -0.0012753865 -0.877141 0.066286683
666000000 -0.87695181 0.07596577 0.00019214564 -0.0015946286 -2.5978545e-005 -0.0013668245 -0.87582457 0.066147506
667000000 -0.87994915 0.077573068 -0.00038517395 -0.00080350635 3.0817027e-005 -0.0017537038 -0.87513775 0.068290085
668000000 -0.8773796 0.077431433 -0.00039577804 -0.0013276964 -0.0005450889 -0.0014509313 -0.87625891 0.065589644
669000000 -0.87930036 0.077273026 -0.00015838175 -0.0013208457 0.00035056507 -0.0013640965 -0.87629491 0.06527628
670000000 -0.87913507 0.076246269 -0.00057460263 -0.0019733149 0.00032726146 -0.0012309706 -0.87638575 0.066528276
