!Keysight Technologies,M9374A,MY55442783,A.12.55.05
!Date: Wednesday, May 19, 2021 17:07:48
!Correction: S11(Full 2 Port(1,2)) 
!S21(Full 2 Port(1,2)) 
!S12(Full 2 Port(1,2)) 
!S22(Full 2 Port(1,2)) 
!S2P File: Measurements: S11, S21, S12, S22:
# Hz S  RI   R 50
500000000 -0.88173914 0.055474933 0.00042466228 -0.00096747687 0.00061625539 -0.0014366179 -0.87717479 0.046449464
501000000 -0.88319278 0.058075782 0.00073408429 -0.0019637665 -0.00011877057 -0.0010602003 -0.87913072 0.049189448
502000000 -0.88279843 0.055062883 -0.0010765425 -0.0012335805 0.00088519836 -0.00090236269 -0.87928218 0.048956342
503000000 -0.88342249 0.056090385 0.00021043197 -0.00098757795 4.5015382e-005 -0.0010364801 -0.87755835 0.048844919
504000000 -0.88261652 0.056120854 0.00031927557 -0.0010284474 -0.00052543567 -0.00075651996 -0.87839633 0.048151169
505000000 -0.88191664 0.056318883 -3.7296231e-005 -0.0010856536 -0.001029626 -0.00080712145 -0.87820131 0.049419742
506000000 -0.88179457 0.056412987 -1.1531885e-005 -0.0017359693 0.00062292302 -0.001615937 -0.87745667 0.048214663
507000000 -0.88281834 0.057432588 -0.00046658167 -0.00070342334 0.00028227572 -0.0015291615 -0.8799696 0.049603991
508000000 -0.88292122 0.056490481 -0.00033184778 -0.0010989347 -0.00055701629 -0.00042575281 -0.87922162 0.050405666
509000000 -0.88336658 0.057621203 -0.0012546111 -0.00041388167 -0.0017947609 -0.0005323714 -0.87923336 0.049897619
510000000 -0.88230866 0.058474194 -0.00038449385 -0.00039423522 -0.00025394556 -0.00086501456 -0.87859088 0.048578832
511000000 -0.8820399 0.057859574 -0.00070819102 -0.0011243289 0.0011500301 -0.0022417901 -0.87869054 0.049753096
512000000 -0.88382393 0.056235787 0.00010796874 -0.0015394882 0.00044909568 -0.0017358573 -0.87853581 0.04978082
513000000 -0.88393736 0.05714177 -0.0012534731 -0.00045812919 -0.00040457697 -0.0014913051 -0.87858802 0.049492817
514000000 -0.88196743 0.057550311 0.00094764656 -0.0019077162 0.00077003153 -0.00099405204 -0.87708026 0.051580992
515000000 -0.88163316 0.057889234 0.00075661647 -0.0003140886 -3.6462341e-005 -0.0017405968 -0.87898123 0.050755948
516000000 -0.88234293 0.056439266 3.6289268e-006 -0.0013709274 -0.00076081604 -0.001203056 -0.87825161 0.04916434
517000000 -0.88322908 0.058794949 -0.00094285619 -0.0016149004 0.0012321927 -0.00030140448 -0.87838173 0.050242156
518000000 -0.88313258 0.058674604 -0.0011254444 -0.0007007544 -0.00052147935 -0.0016961215 -0.87716734 0.051111672
519000000 -0.88299894 0.058199234 -0.00079566683 -0.0004320002 -0.00027862596 -0.0013919091 -0.87911141 0.051277161
520000000 -0.88150674 0.058243562 0.0005930406 -0.001294711 -7.1071147e-005 -0.0011322051 -0.87860668 0.05120578
521000000 -0.88250375 0.059099637 -0.0004684155 -0.0023788095 -0.0014927128 -0.0017651264 -0.87726343 0.050611198
522000000 -0.88086158 0.058155432 0.00036309558 -0.0017964581 -0.0007534207 -0.001006524 -0.87950754 0.050410759
523000000 -0.88167268 0.058747709 0.00060192216 -0.0018427809 -0.00049056625 -0.00031560831 -0.87835062 0.052220777
524000000 -0.8814711 0.05872722 0.00071114901 -0.00044238911 -2.3962903e-005 -0.0016282814 -0.87866044 0.050367866
525000000 -0.88095552 0.06062619 0.0011108087 -0.0011154034 0.00019439681 -0.0019493317 -0.87681681 0.051131215
526000000 -0.8820799 0.058806892 0.00057068648 -0.0010521417 -0.0012643249 -0.0015216187 -0.87887436 0.05077482
527000000 -0.88216662 0.057333868 -0.00028084725 -0.0011763322 -4.3619442e-005 -0.001028784 -0.87901676 0.052521069
528000000 -0.88284427 0.05970715 0.00071562297 -0.0011163766 0.00070254778 -0.0015720687 -0.87648863 0.052518006
529000000 -0.88061076 0.060707625 0.00038913844 -0.0010696972 -0.0009500719 -0.0011308213 -0.87709945 0.052262694
530000000 -0.88143402 0.060433477 -0.0016928981 -0.00048911019 -5.1558538e-005 -0.00059408194 -0.87989223 0.052426405
531000000 -0.88206351 0.059305701 -0.00067489099 -0.0026373374 -6.4499e-005 -0.0012155685 -0.87939322 0.052607097
532000000 -0.88216203 0.059801072 0.00026969131 -0.0016624522 -0.00098132144 -0.0010746877 -0.87862068 0.05250898
533000000 -0.88113338 0.058778107 0.00022199188 -0.0015706598 0.00068185996 4.4277465e-005 -0.87797916 0.053587213
534000000 -0.88174772 0.059464186 -0.00030625841 -0.001336414 0.00034991931 -0.0017647431 -0.87910831 0.052659377
535000000 -0.88217968 0.061582983 -0.00046354588 -0.0014248324 -0.00011675037 -0.00046188114 -0.87821108 0.053078387
536000000 -0.88338631 0.060012333 0.00058558822 -0.0008778334 0.00051502913 -0.00075057108 -0.87812173 0.053505383
537000000 -0.88105142 0.060313325 0.00017960998 -0.001472972 0.00035400919 -0.0020549013 -0.8766942 0.053639442
538000000 -0.88094401 0.060852747 -0.00028605139 -0.0010667351 -0.00035131752 -0.00097115082 -0.87823534 0.05247096
539000000 -0.88134652 0.059613664 -0.00036860697 -0.00093184749 -0.00011455491 -0.0013963946 -0.87946737 0.053868495
540000000 -0.88079041 0.059206881 0.00013616572 -0.00056207163 0.00071612443 -0.00068355829 -0.87742263 0.054083783
541000000 -0.88143116 0.060900707 -0.0011649389 -0.0011446824 -0.00023457396 -0.00072484801 -0.87642872 0.054475747
542000000 -0.88208097 0.059917998 -0.00027654893 -0.0012782059 0.00047666 -0.00050625822 -0.87763351 0.053645577
543000000 -0.88211024 0.060209073 0.00017753476 -0.0011618313 -0.00030996697 -0.0012677177 -0.87881637 0.054939467
544000000 -0.88139689 0.061257977 -0.00024686239 -0.0013959472 -0.00027890908 -0.0015316363 -0.87768143 0.055962201
545000000 -0.88189983 0.060333826 -0.00084850355 -0.0011358773 -9.4063631e-005 -0.0010949274 -0.87776786 0.055276278
546000000 -0.88276339 0.060864195 -0.00046760833 -0.0014198014 -0.00066984625 -0.00070185651 -0.87836379 0.053583037
547000000 -0.88173777 0.060562674 -0.0012538411 -0.0011385264 -0.0010080583 -0.0015834346 -0.87791085 0.054876201
548000000 -0.88099521 0.061907284 0.0001375869 -0.0017337445 -0.00053967297 -0.0014558765 -0.87883753 0.054273397
549000000 -0.88186908 0.06220632 -0.00033404506 -0.00046158792 -0.00034205389 -0.0015770372 -0.87730455 0.054139003
550000000 -0.88240761 0.061964236 -0.00096505671 -0.00058524939 0.00058995822 -0.001606868 -0.87809962 0.055381782
551000000 -0.8820346 0.061138239 -0.00019611286 -0.0015613623 -0.0002373248 -0.00051614945 -0.87901199 0.054741893
552000000 -0.88144082 0.059739172 0.00019852101 -0.0004004511 -0.0016563887 -0.0021409618 -0.87793428 0.054969039
553000000 -0.88254821 0.062319949 -0.0005604442 -0.00035186045 -0.00043090925 -0.00063491263 -0.87871343 0.05434275
554000000 -0.88217109 0.060211957 0.00052821368 -0.001501597 -0.00046486739 -0.00052347302 -0.87957931 0.05426776
555000000 -0.88038826 0.062723652 -0.00040405168 -0.00069984858 -0.00020373387 -0.0015050912 -0.87782836 0.053611483
556000000 -0.88091332 0.059964672 0.00074581476 -0.00066207163 -0.00047920633 -0.0014451287 -0.87816978 0.054849725
557000000 -0.88212132 0.060535803 -8.9026806e-005 -8.1131482e-005 9.7544165e-005 -0.0017664699 -0.87606001 0.056170881
558000000 -0.88213718 0.061370756 0.00032482174 -0.0016183432 -0.0007108869 -0.001647642 -0.87723464 0.055185836
559000000 -0.88234359 0.061770208 -0.00044178919 -0.0003276637 0.00037745299 -0.0018280362 -0.87801552 0.055341959
560000000 -0.88119292 0.060963966 -2.3443963e-005 -0.0012357336 -0.0010234031 -0.00026240977 -0.87833613 0.053538769
561000000 -0.88139457 0.060954321 0.00075952109 -0.00089580903 -0.0001354842 -0.00074690906 -0.87942398 0.055443913
562000000 -0.88263398 0.06208951 0.00035462462 -0.0013374897 -0.00012735637 -0.000827129 -0.87825412 0.055867732
563000000 -0.88066733 0.061136607 7.0019159e-005 -0.0014190382 -0.00028309587 -0.0014517567 -0.87835002 0.054026078
564000000 -0.88195026 0.062115956 -0.00072187709 -0.0011712314 -0.0007396703 -0.0014207402 -0.87898678 0.054784637
565000000 -0.88279206 0.062085848 -0.00089911837 -0.0017516149 -0.00028424792 -0.0014306322 -0.8791517 0.055217158
566000000 -0.8825438 0.061541449 7.1136383e-005 -0.0020628662 0.00070314232 -0.00086594041 -0.87929386 0.054918688
567000000 -0.88187116 0.061515026 6.6320928e-005 -0.0017981994 0.00035200163 -0.00094538415 -0.87882429 0.055651233
568000000 -0.88054311 0.0626693 0.00012443755 -0.00048568993 0.00050534104 -0.0011041396 -0.87756652 0.056199554
569000000 -0.88155514 0.061932456 0.00033460135 -0.00076985743 -0.00026780463 -0.0012889463 -0.87789512 0.055329215
570000000 -0.87969834 0.061960798 0.00069838925 -0.0017934208 -0.00037962088 -0.0017624742 -0.87704861 0.057781503
571000000 -0.88046396 0.060327251 1.8920582e-006 -0.0007951677 0.0004456804 -0.0013317916 -0.8781265 0.055029947
572000000 -0.8797552 0.062766246 0.0001768443 -0.0016087452 0.00013868476 -0.00097882235 -0.87732434 0.05545399
573000000 -0.8799392 0.06198046 -0.00069764967 -0.0011478749 0.00040726303 -0.0011601003 -0.87715727 0.056947161
574000000 -0.87967497 0.062031373 -0.0007240281 -0.0012269763 0.00025599252 -0.00048805328 -0.87882769 0.056338094
575000000 -0.88218117 0.062360466 0.00038951685 -0.00027399944 -0.00021226256 -0.0014523745 -0.87880224 0.055162888
576000000 -0.88108593 0.062456753 8.3488398e-005 -0.0017429981 -9.8611061e-005 -0.00093105447 -0.87860364 0.056129783
577000000 -0.88200092 0.063320063 -3.1851283e-005 -0.0010826613 -0.00027198819 -0.0011782575 -0.8771165 0.055887099
578000000 -0.88042778 0.062312607 -0.00064010423 -0.0024858818 0.00065076444 -0.0014478859 -0.87945271 0.055365562
579000000 -0.88154674 0.064159304 0.0001010141 -0.0010541969 -3.191008e-005 -0.0014493181 -0.87823421 0.056013767
580000000 -0.8818773 0.061887119 -0.00044706688 -0.00087428157 -0.00022209492 -0.0018967704 -0.87624699 0.057802778
581000000 -0.88179594 0.062375177 -0.00016826953 -0.00029265706 -0.00087708153 -0.0014882712 -0.87857378 0.057522021
582000000 -0.88264108 0.061660141 -0.00021238207 -0.0021126701 -0.00089708413 -0.00032133865 -0.87895155 0.055613089
583000000 -0.88145095 0.063649356 0.00061434793 -0.00048613062 -0.00064003421 -0.0012537712 -0.87778854 0.054916359
584000000 -0.88220626 0.063069299 -0.00032202833 -0.00035696407 0.00049717969 -0.001036825 -0.87742049 0.056971602
585000000 -0.88196421 0.062322892 0.00024302752 -0.00082872045 0.0013473779 -0.0011900112 -0.87876558 0.056572799
586000000 -0.88178021 0.063711859 -0.00053077447 -0.00084636558 -0.00080847356 -0.00078634749 -0.877482 0.056285597
587000000 -0.88093889 0.062226746 0.00019288632 -0.00034955211 -0.0001333902 -0.00090143288 -0.87928689 0.055072755
588000000 -0.88190967 0.063898422 -0.00026318105 -0.002473301 -0.001529212 -0.0013315447 -0.87849236 0.057523094
589000000 -0.88162911 0.063133419 -0.00034501162 -0.00067809841 0.0005628941 -0.0009201729 -0.87945592 0.057974555
590000000 -0.88161397 0.064426892 -0.00042047162 -0.0011677174 0.00025245163 -0.0013355673 -0.8773523 0.057237905
591000000 -0.8790338 0.063975237 -0.00041016002 -0.00096145971 -0.00046297212 -0.00060159148 -0.87742519 0.057022963
592000000 -0.8798902 0.063810922 0.00066722388 -0.0010574781 3.2294614e-005 -0.0018782207 -0.87784493 0.056065131
593000000 -0.87999749 0.06453082 -7.5728873e-005 -0.0023085317 -0.0010189338 -0.0020291328 -0.87830222 0.057023998
594000000 -0.88180524 0.064289421 6.4460721e-005 -0.0022589294 -0.00036819716 -0.00044331572 -0.87910271 0.058442459
595000000 -0.88079262 0.064558893 -0.00041681642 -0.00049234624 -8.1593113e-005 -0.0012374205 -0.87748474 0.05699572
596000000 -0.8822127 0.065714218 -1.4376532e-005 -0.0018436437 -0.0010872365 -0.001712646 -0.8792972 0.054446772
597000000 -0.87954199 0.064904034 0.00052255532 -0.0017369058 0.00021035648 -0.0014874036 -0.87636715 0.05795002
598000000 -0.88181955 0.06628859 -0.00014447923 -0.00093036419 -0.00043644212 -0.0014711247 -0.87794912 0.058251463
599000000 -0.88115764 0.06481427 -0.0012782281 -0.0015435609 0.00038830083 -0.0012746651 -0.87737769 0.056909572
600000000 -0.88095301 0.066398121 -0.00028555223 -0.0010702695 0.00024350183 -0.00025968064 -0.87626809 0.057868291
601000000 -0.88127178 0.065224722 0.00061604247 -0.00072375964 -0.00035449612 -0.00097075338 -0.87763631 0.056004915
602000000 -0.88232297 0.066973068 -0.0012194694 -0.0015449572 -0.00048476557 -0.0016684402 -0.87823415 0.058824476
603000000 -0.8800562 0.066605218 -0.00043519071 -0.00082976022 0.00067037344 -0.0022443675 -0.87753767 0.057765689
604000000 -0.87998337 0.067386024 -0.00063282496 -0.0013129113 -0.00061775895 -0.0014101731 -0.87573183 0.058992397
605000000 -0.8816399 0.065994911 -0.00018303772 -0.0015524852 -2.0204558e-005 -0.0012544041 -0.87688291 0.056918506
606000000 -0.88118714 0.065786973 -0.0003768403 -0.0009049814 -0.00045230277 -0.0012603607 -0.87708408 0.057842009
607000000 -0.88291484 0.064431354 -0.0011818468 -0.0011488554 0.00025457097 -0.0021241647 -0.87640202 0.057903361
608000000 -0.88062567 0.06603305 -0.00050829654 -0.0018398165 0.00037848271 -0.0018145166 -0.87947762 0.059603006
609000000 -0.88106263 0.065984242 -0.00021092124 -0.001426812 -0.00086131616 -0.0010845165 -0.87802202 0.058351744
610000000 -0.88069087 0.066696949 -0.00047448697 -0.0011634732 -0.00014566767 -0.00052728166 -0.87619704 0.059108812
611000000 -0.88133121 0.068346113 0.00025744829 -0.0024605044 -0.00040826565 -0.0011284268 -0.87908167 0.059089292
612000000 -0.88056803 0.068051845 -0.00013135193 -0.00096024398 0.00049637561 -0.0016688083 -0.87806416 0.058198281
613000000 -0.8789826 0.066809632 -0.00034256149 -0.0015598482 -0.00068554375 -0.00052623119 -0.87766403 0.058586318
614000000 -0.88131917 0.066806406 0.00037375934 -0.00097940536 -9.4012496e-005 -0.0012934443 -0.87705106 0.059109934
615000000 -0.87926286 0.068406045 0.00022200776 -0.00070774934 -0.00063119328 -0.0019008061 -0.8791948 0.059428964
616000000 -0.87990588 0.067110233 -0.0010279223 -0.0011119285 -0.001853422 -0.0009337932 -0.87652695 0.060362555
617000000 -0.88101363 0.070545875 0.00052533858 0.00012041514 0.00049904245 -0.0014589886 -0.87832266 0.059471533
618000000 -0.88110709 0.067121372 -0.00049378368 -0.0014518093 -0.00015644473 -0.00052912114 -0.8782205 0.060445473
619000000 -0.87955606 0.068459615 -0.0011032787 -0.0015142092 -0.00044473025 -0.0010076481 -0.87844622 0.060058411
620000000 -0.87979138 0.067804307 0.00086950691 -0.0013725134 -0.00022911864 -0.0014291599 -0.87690479 0.060619816
621000000 -0.87978333 0.069636703 -4.2721804e-005 -0.00081833033 -0.0003202412 -0.00083847839 -0.87663341 0.059831604
622000000 -0.88084292 0.068895914 -0.00037637085 -0.0022102739 -0.00016392575 -0.00071653345 -0.87835002 0.060365248
623000000 -0.88035458 0.06784264 0.00021682607 -0.0015070636 0.0002565727 -0.00084329816 -0.8772822 0.060223207
624000000 -0.88023216 0.068543762 0.00019007208 -0.002254586 -0.00083488785 -0.0014003752 -0.87816453 0.061141346
625000000 -0.88143319 0.069465198 -0.00057943835 -0.0017959054 -0.0011839832 -0.0013675146 -0.87706244 0.060040951
626000000 -0.88171428 0.070257768 -0.00098319852 -0.0017963236 0.00029281183 -0.0011414258 -0.87603569 0.059208181
627000000 -0.88009566 0.070298761 0.00015611562 -0.0017020005 -0.00013579195 -0.00044835929 -0.8771522 0.060317252
628000000 -0.88226748 0.070143178 -0.00099569757 -0.0016016571 -7.6641365e-005 -0.00092814543 -0.87696087 0.06069101
629000000 -0.88019985 0.070790328 0.00018729051 -0.0017232419 -0.00077846478 -4.0238701e-006 -0.87808716 0.060851272
630000000 -0.880799 0.070579559 0.0003635078 -0.00058390491 -0.00022575169 -0.0013270166 -0.87765199 0.062409449
631000000 -0.88107508 0.068980671 -0.00053479144 -0.0012462536 0.00061452494 -0.0018776929 -0.87515497 0.063797995
632000000 -0.8790803 0.071042717 0.0009303593 -0.00052045414 0.00020549881 -0.0022080992 -0.87659633 0.062119756
633000000 -0.88117576 0.070256695 0.00025652285 -0.0021471602 -0.00051207159 -0.0015790476 -0.87759274 0.060769621
634000000 -0.88025624 0.070832506 -0.00025494065 -0.0011026569 -0.00045955225 -0.0007088189 -0.87690079 0.061807707
635000000 -0.88043773 0.070333831 -0.00049985934 -0.0016397235 -5.4624121e-005 -0.001479563 -0.87693232 0.060689975
636000000 -0.88140827 0.069731496 -0.00012719094 -0.00089404144 0.00090180768 -0.0019611397 -0.87780136 0.061102618
637000000 -0.88076663 0.071063638 5.5851753e-005 -0.0007982683 -0.001437217 -0.001416016 -0.87720507 0.060907837
638000000 -0.88008183 0.071318448 0.00034846732 -0.0012330252 -0.00019458792 -0.0017890303 -0.87615883 0.061173294
639000000 -0.88100886 0.072986871 -0.00066070294 -0.0016437987 0.0010476501 -0.00089289038 -0.87634593 0.060398471
640000000 -0.87923592 0.073189817 -0.00019012985 -0.0010586464 3.8051232e-005 -0.0014806755 -0.877675 0.062426709
641000000 -0.88004291 0.071852684 -0.0011304182 -0.00076549477 0.0003767793 -0.0014826511 -0.87615585 0.062719472
642000000 -0.88044053 0.073430359 0.00038690865 -0.0017571955 0.00039029302 -0.0015290516 -0.88003725 0.061815284
643000000 -0.87980467 0.072280183 -0.00070240058 -0.0014086297 0.00037637833 -0.0020243584 -0.87771469 0.061363485
644000000 -0.879906 0.071204431 0.00060462992 -0.001653664 4.4555389e-005 -0.0013235795 -0.87677872 0.062407859
645000000 -0.88061327 0.072289817 -0.00042138025 -0.001444604 0.000341812 -0.0016774229 -0.87805307 0.062206909
646000000 -0.88159519 0.073534571 -0.00036950072 -0.00041875165 -0.00048581391 -0.0017246145 -0.87848294 0.063288033
647000000 -0.87959903 0.07211969 -0.00032752834 -0.002113783 0.00056722923 -0.00035992087 -0.87686205 0.063245893
648000000 -0.88060254 0.072982401 -0.00028155191 -0.0015208956 -0.00047991137 -0.0022984822 -0.87708813 0.063524634
649000000 -0.88037193 0.072088659 -0.00024982376 -0.0010583121 -0.00015121851 -0.0017284068 -0.87795502 0.063815109
650000000 -0.87882155 0.072865568 -0.00022250178 -0.0016366305 -0.00027120768 -0.0013852014 -0.87690097 0.064329602
651000000 -0.88118017 0.07286603 -0.00014157113 -0.00065956998 0.00014970617 -0.00085109926 -0.8750574 0.063375972
652000000 -0.87927872 0.071091875 -0.0005214616 -0.0022424511 1.6552902e-005 -0.00061262271 -0.87646323 0.062781967
653000000 -0.87983084 0.07309135 0.00058046507 -0.0014097036 4.5790763e-005 -0.0017354329 -0.87751716 0.062914841
654000000 -0.87915426 0.073900521 -0.00099257485 -0.0017838337 -0.0004968649 -0.00010293841 -0.87669086 0.063380018
655000000 -0.88003886 0.072685659 -0.0001919028 -0.00090258854 0.00054432644 -0.00092746952 -0.87634552 0.062508799
656000000 -0.88000619 0.073859133 0.00060154049 -0.0012542658 0.0001198274 -0.0011224275 -0.87770689 0.064369678
657000000 -0.88118011 0.075441919 2.5575793e-005 -0.0010838222 0.00034042881 -0.00056235958 -0.87725174 0.063477248
658000000 -0.87969923 0.074733436 -0.00027490375 -0.0013509745 0.00014270295 -0.001651548 -0.87569058 0.064357944
659000000 -0.88039571 0.072114579 0.00086702639 -0.001448454 0.00038171565 -0.00046675635 -0.87681872 0.063186534
660000000 -0.87942934 0.0738784 -0.00038346995 -0.00099489256 -0.00071865506 -0.00097929477 -0.87879395 0.063021459
661000000 -0.88037086 0.073493294 -0.00079647976 -0.0010682346 -0.00012218299 -0.00076169043 -0.87741768 0.064305246
662000000 -0.87956285 0.073295079 -5.7982772e-005 -0.0020561649 -0.00012923029 -0.001433193 -0.87759262 0.064042449
663000000 -0.88136351 0.074534558 0.00038244223 -0.00097553147 -0.00049211661 -0.0021066864 -0.87583852 0.063404202
664000000 -0.87941986 0.074431345 0.00012108737 -0.0014491566 -0.00021241639 -0.0013469561 -0.87813658 0.063892014
665000000 -0.88014281 0.074476339 3.8988052e-005 -0.0016156916 -0.00021227109 -0.0017381978 -0.87667722 0.063645184
666000000 -0.88032085 0.073468104 -0.0006418046 6.0891334e-006 -0.00040068154 -0.0015159311 -0.87737793 0.063432552
667000000 -0.87969065 0.074729398 -0.00030875573 5.5090724e-005 -0.00082633353 -0.0015186636 -0.87589073 0.063431211
668000000 -0.87905693 0.074033044 -0.00090904761 -0.0013833339 0.0003517257 -0.0014775976 -0.87663811 0.06329862
669000000 -0.88168359 0.07506191 -0.0012413779 4.239503e-005 9.6667834e-005 -0.0015669338 -0.87579131 0.063423634
670000000 -0.88018084 0.075026691 -0.00054939825 -0.0014512978 -0.00029746731 -0.0017977171 -0.87646967 0.065440692
