!Keysight Technologies,M9374A,MY55442783,A.12.55.05
!Date: Wednesday, May 19, 2021 16:40:44
!Correction: S11(Full 2 Port(1,2)) 
!S21(Full 2 Port(1,2)) 
!S12(Full 2 Port(1,2)) 
!S22(Full 2 Port(1,2)) 
!S2P File: Measurements: S11, S21, S12, S22:
# Hz S  RI   R 50
500000000 -0.88142097 0.062867187 -0.00011855382 -0.0016004086 -0.0009653733 -3.4707784e-005 -0.87700856 0.053591426
501000000 -0.88126034 0.063071527 -0.00053660577 -0.0017397712 0.00031243521 -0.00063540816 -0.87794167 0.054954134
502000000 -0.88139719 0.061825681 0.0002255859 -0.001163425 0.00071377854 -0.00063971919 -0.87746102 0.054103665
503000000 -0.88085485 0.062370218 -0.00013919544 -0.00099678431 -0.00087311631 -0.001887994 -0.87623239 0.055770148
504000000 -0.88019353 0.06286066 -0.00052996207 -0.0023318508 0.00028721872 -0.00038632652 -0.87647974 0.055228624
505000000 -0.88055575 0.062252682 -0.00019375289 -0.00041998239 -0.0011543068 -0.0013089183 -0.87797707 0.054841183
506000000 -0.87993228 0.062342111 -0.00059199531 -0.00070918427 -0.00012101923 -0.0013329803 -0.87719172 0.054848969
507000000 -0.88026142 0.06276051 -0.00022662173 -0.0012500009 0.00082222419 -0.0020086202 -0.87734777 0.055605672
508000000 -0.88076568 0.06237809 0.00033572843 -0.0016851105 -0.00072232715 -0.0015942133 -0.87748134 0.055709708
509000000 -0.88072705 0.063576251 -0.00053482392 -0.0012216737 -3.8007449e-005 -0.0019725396 -0.87707323 0.055286568
510000000 -0.87852007 0.065093651 -0.00080866087 -0.00052805629 -0.00030571138 -0.00091645011 -0.8773911 0.055829484
511000000 -0.88014418 0.063453682 0.00027850943 -0.0016132599 0.00060150318 -0.0013944258 -0.87712938 0.058365468
512000000 -0.8803196 0.06233627 -1.1749933e-005 -0.00062879513 -0.0007006845 -0.0014120262 -0.87814814 0.056713767
513000000 -0.88011467 0.06378179 -0.00065047859 -0.00057743862 8.3555067e-005 -0.00093711284 -0.87708759 0.057344269
514000000 -0.88051873 0.063484937 0.00063920423 -0.0019096151 -0.00010070418 -0.0014499783 -0.87737811 0.056635559
515000000 -0.88138694 0.064605728 -4.6322639e-006 -0.0018341717 0.00016650678 -0.0010640187 -0.87811792 0.055561189
516000000 -0.88066274 0.065818936 0.00041834995 -0.0004577341 -0.00021546872 -0.0015084576 -0.87595546 0.057298791
517000000 -0.88062137 0.065181114 -0.00013927121 -0.00032211861 -0.00033894964 -0.0025182581 -0.87701344 0.056945525
518000000 -0.87983489 0.065235958 -0.00042559576 -0.0026488805 0.00015237952 -8.4479696e-005 -0.87680924 0.05668861
519000000 -0.88044107 0.064704843 -0.00045733002 -0.0013975594 -0.0010916614 -0.0010546998 -0.87708402 0.058255766
520000000 -0.87930679 0.062948801 0.00016750032 -0.00010741877 -0.00064029009 -0.0017332489 -0.87687933 0.056976166
521000000 -0.87982357 0.064562969 0.0011531566 -0.0011157382 0.00019954874 -0.0016085589 -0.87688577 0.058727533
522000000 -0.88088411 0.064431556 -5.4827633e-005 -0.00080616563 -0.00088289153 -0.0010371018 -0.87645507 0.058020361
523000000 -0.88065827 0.064873748 0.00033032661 -0.00097724365 -0.00091648026 -0.0015631103 -0.87655711 0.056801021
524000000 -0.87942606 0.065119736 -0.00051677634 -0.0011895538 0.00015695576 -0.00073318719 -0.87764382 0.057907023
525000000 -0.87799716 0.064491317 0.00010636573 -0.00088722288 -0.00098375964 -0.000335277 -0.8769384 0.057306129
526000000 -0.8799566 0.066627927 -3.4068522e-005 0.0001237925 -5.56458e-005 -0.0005571298 -0.87778002 0.059209503
527000000 -0.87983489 0.066957824 0.00059351855 -0.00056345836 -0.00043202323 -0.00097161264 -0.87886542 0.058894504
528000000 -0.88030845 0.067963049 -0.00070406438 -0.00089166162 -7.3083458e-005 -0.001015174 -0.87697065 0.059348661
529000000 -0.88113135 0.065784611 0.0014148572 1.4302451e-005 -0.0011269429 -0.0011209272 -0.87565786 0.0588005
530000000 -0.88074332 0.067289554 -0.0011059692 -0.00068143319 6.5601984e-005 -0.001193573 -0.87707555 0.058061451
531000000 -0.87980509 0.0663983 -0.00037044444 -0.00039341924 -2.146485e-005 -0.0005819737 -0.87686336 0.059636462
532000000 -0.87987411 0.066076949 -0.00096157636 -0.0016775082 -0.00013756177 -0.00013262143 -0.87650216 0.059747964
533000000 -0.88003427 0.066122673 0.00019586938 -0.00068925478 -0.00041611493 -0.00073744589 -0.87686467 0.060323145
534000000 -0.88090783 0.067405477 -0.00043478116 -0.00057714456 -0.00057634799 -0.0011062877 -0.87590998 0.058544625
535000000 -0.88171244 0.066392809 0.00025770356 -0.00091604504 -0.0002385176 -0.00076660962 -0.87568152 0.059836339
536000000 -0.88137949 0.066432372 -0.00045694731 -0.0020450063 0.0007441144 -0.00062074262 -0.87839812 0.059994329
537000000 -0.88089192 0.067191496 -0.00032661849 -0.00082655263 -0.00065355981 -0.00063071755 -0.87583423 0.06039165
538000000 -0.87934893 0.066958688 0.0015256323 -0.00086073903 -0.00025859624 -0.00035344285 -0.87668252 0.059403159
539000000 -0.88156062 0.067159899 -0.00049628498 -0.00076511333 0.0015379672 -0.0018354051 -0.87662351 0.05935429
540000000 -0.87978715 0.067512803 0.00061299856 -0.0016019 -0.00034467597 -0.0015910657 -0.87511265 0.060134627
541000000 -0.8791675 0.06714005 0.0004061783 -0.0010155557 0.00040716928 -0.00057600334 -0.87747371 0.059721038
542000000 -0.87937391 0.067052908 0.00031879207 -0.002273628 0.00031515548 -0.0013893264 -0.87595344 0.061664227
543000000 -0.88058919 0.068092309 -0.00034369691 -0.00067223306 -0.0008402614 -0.0011642757 -0.87781507 0.059970371
544000000 -0.88090259 0.065303087 -0.00040365008 -0.0014086107 -0.0013848394 -0.0012420148 -0.87687773 0.06086598
545000000 -0.87904912 0.067040078 0.00020662422 -0.0018090029 7.2987204e-005 -0.0011983046 -0.8777318 0.062126927
546000000 -0.87932843 0.067784183 -0.00047790655 -0.0015862159 0.0005464452 -0.0011881382 -0.87854326 0.060899079
547000000 -0.88031763 0.068668582 -7.0575377e-005 -0.0010574361 0.00019490872 -0.00043391017 -0.87728477 0.059996407
548000000 -0.87938511 0.06995523 -0.00028955215 -0.00046684942 -0.00029727144 -0.0015613025 -0.87670666 0.062278468
549000000 -0.88022304 0.06819883 -7.9447906e-005 -0.0014594637 -0.00074582698 -0.0017116356 -0.87775934 0.061502539
550000000 -0.87900573 0.067591101 0.00017499096 -0.0016646269 2.3347808e-005 -0.0010893989 -0.87715918 0.060845256
551000000 -0.87914568 0.067658208 -0.00033497292 -0.0015127175 -0.00029276233 -0.00069877203 -0.87627298 0.062047336
552000000 -0.87995082 0.067759559 -0.00030149607 -0.0012054087 -6.3022177e-005 -0.0018949225 -0.87725437 0.061297521
553000000 -0.88027859 0.068486936 -0.0010911227 -0.0011948672 0.0010692735 -0.00047138223 -0.87648261 0.061143443
554000000 -0.87998867 0.067109428 -0.00039824063 -0.0012828544 -0.00041474515 -0.0010977421 -0.87682319 0.060366709
555000000 -0.87963998 0.06850794 7.1997514e-005 -0.0015127289 0.0002743603 -0.0014713637 -0.87624991 0.061156023
556000000 -0.87938368 0.066502653 -0.00056801067 -0.0012618621 0.00029612874 -0.0018545199 -0.87825668 0.062356316
557000000 -0.87776184 0.06811969 -0.00035298098 -0.0013202775 -0.00078950339 -0.00049627473 -0.87687075 0.060704809
558000000 -0.88019532 0.068617076 -0.00065638754 -4.4135468e-005 0.00075396022 -0.0016812849 -0.87801099 0.061111089
559000000 -0.87794298 0.06993524 0.00055730855 -0.0012339016 -0.00092130713 -0.0010153112 -0.87814265 0.063758127
560000000 -0.87966478 0.068531319 0.00026985264 -0.00081436156 -0.00088199665 -0.0010378015 -0.87666756 0.061567336
561000000 -0.87927115 0.06787046 -0.00115246 -0.0009824062 -0.00012273891 -0.00012800269 -0.87742889 0.061192226
562000000 -0.87837434 0.068008415 -2.4793362e-005 -0.0020712854 0.00067152019 -0.0003790872 -0.8778162 0.061643999
563000000 -0.87890977 0.070966072 0.00013220542 -0.00087749155 -0.00053302123 0.0001853859 -0.87802625 0.062578514
564000000 -0.87949097 0.068287879 -0.00057542825 -0.0011529491 8.6265245e-005 -0.0010012604 -0.87756205 0.060843315
565000000 -0.87784827 0.068544067 0.00085894339 -0.0013376009 -0.00033620675 -0.0013223895 -0.87642694 0.063668318
566000000 -0.87965584 0.068420939 -0.00030665449 -0.0010031341 -0.00068378134 -0.0012943618 -0.87664473 0.061566167
567000000 -0.87805265 0.069171987 0.00086416648 -0.0010021423 0.00064771157 -0.00041007411 -0.87732112 0.062138923
568000000 -0.87857026 0.070029795 -0.00059243728 -0.00073784858 -2.2060542e-005 -0.0014096795 -0.87670702 0.061982714
569000000 -0.88052261 0.06953945 0.00058707525 -0.0015357689 0.00032015276 -0.00095514971 -0.87806636 0.062226284
570000000 -0.88046968 0.069451377 7.4782271e-005 -0.0023630254 -6.3009866e-005 -0.0010867382 -0.87581354 0.063920587
571000000 -0.87995595 0.069359146 -0.00039937816 -0.0017869395 -0.00057196611 -0.0014212223 -0.87827349 0.063273661
572000000 -0.87815714 0.070835933 -0.00072958053 -0.0017883066 0.0010409559 -0.0019226328 -0.87662917 0.061828747
573000000 -0.87895668 0.070600323 -0.00030744454 -0.00054611475 0.00042007139 -0.0010802211 -0.87654889 0.063207924
574000000 -0.87889761 0.069328152 -0.00073245354 -0.00045573339 0.00032943441 -0.00129513 -0.87772328 0.063126907
575000000 -0.87851715 0.069658101 7.486582e-005 -0.00094688835 -0.00045761126 -0.0011857788 -0.87773675 0.063540377
576000000 -0.87829459 0.06999433 -0.00062336779 -0.0014870644 -0.00060177007 -0.00070183433 -0.87761122 0.064738795
577000000 -0.87892455 0.069568008 -0.00014267198 -0.0011158471 -0.0010091983 -0.0014172525 -0.87694806 0.061846547
578000000 -0.8803218 0.070529893 -0.00062551518 -0.00062946056 0.00078820792 -0.00027034231 -0.87784648 0.063088849
579000000 -0.87943292 0.070324928 -0.00037297592 -0.00078981108 -0.00058715302 -0.0007677768 -0.8770259 0.063805714
580000000 -0.87816429 0.069361694 -0.00060665217 -0.00035979989 0.0012202145 -0.0016577343 -0.87552005 0.0639074
581000000 -0.87918991 0.070378251 -0.00018429129 -0.0015370055 -0.00011413722 -0.0013709136 -0.8768304 0.063998625
582000000 -0.87887931 0.070020616 -0.00037883365 -0.0011754856 0.00031765117 -0.0018056324 -0.87729841 0.063030362
583000000 -0.87794131 0.070252061 -0.0008363573 -0.00072393275 -0.00076137012 -0.00091341208 -0.87725645 0.064341731
584000000 -0.87895817 0.07129205 0.00031323408 -0.00072326465 -0.00063477462 -0.0010375311 -0.87626576 0.064572223
585000000 -0.87941104 0.071149558 -0.00034540717 -0.00052741356 0.00079260446 -0.0014329728 -0.87779808 0.062946446
586000000 -0.87899023 0.070750043 0.00021084199 -0.0021343583 -0.00084427884 -0.0014160356 -0.87677652 0.063573472
587000000 -0.88071537 0.071686633 -0.00072664971 -0.00080035371 -0.00044864704 -0.00094137545 -0.87653756 0.065054663
588000000 -0.87888956 0.070336469 -0.0010439946 -0.00087984011 -0.00011823497 -0.00030986415 -0.87697506 0.06467884
589000000 -0.87828112 0.070365198 0.00039332875 -0.0016328441 0.00064076844 -0.0014656576 -0.87740105 0.064536102
590000000 -0.87854201 0.071865 0.00023159574 -0.00083409669 0.00038495389 -0.0020665156 -0.87730926 0.065145478
591000000 -0.87793368 0.072781175 0.00037381685 -0.0014131562 0.00026057207 -0.0011734987 -0.8771854 0.064867891
592000000 -0.87808317 0.070734754 -4.3554148e-005 -0.00086101447 -9.9615841e-005 -0.00052929029 -0.87847942 0.064861648
593000000 -0.87850988 0.07258568 -7.8465513e-005 -0.00027935582 -0.00067199249 -0.00068222475 -0.87707317 0.064173646
594000000 -0.87954533 0.072493017 -0.0001162492 -0.0013847359 -2.8296297e-005 -0.00031945226 -0.87769169 0.064397015
595000000 -0.87893236 0.071962364 -0.00099361013 -0.0012896179 -0.0013264478 -0.0013130861 -0.87752819 0.064625725
596000000 -0.87810099 0.072039984 -0.00076492113 -0.00070688588 0.00012201625 -0.0012095794 -0.87652624 0.064235456
597000000 -0.88153529 0.072176255 0.00011363121 -0.0011182368 -0.00018665491 -0.0010035712 -0.87564564 0.066014208
598000000 -0.87965375 0.07263042 0.00013880417 -0.0016298787 0.00065066409 -0.00211699 -0.87614602 0.065499738
599000000 -0.87931013 0.073289603 -0.00010025574 -0.0010129164 -0.00050108839 -0.001312219 -0.87700695 0.064542398
600000000 -0.87842017 0.073633716 0.0003179035 -0.0011533241 -0.00015058288 -0.0013613128 -0.87542301 0.064550161
601000000 -0.87927663 0.073563851 -0.00011783589 -0.0015933051 0.00069422036 -0.0011353287 -0.87636143 0.066333815
602000000 -0.87844831 0.073857591 -0.00019906276 -0.00067887083 -0.00064152846 -0.0014100375 -0.87740815 0.066409834
603000000 -0.87974024 0.073248655 -0.00064625771 -0.0017966604 0.0012918392 -0.00061251235 -0.87763768 0.063938826
604000000 -0.87917536 0.073903941 -0.00063562515 -0.0022209964 -0.00044672756 -0.0011900598 -0.87743938 0.064526789
605000000 -0.87749428 0.0742651 0.00098723231 -0.0016417491 -0.00014630794 -0.0009075799 -0.87542671 0.065537997
606000000 -0.87822747 0.074856542 -9.4871641e-005 -0.0022596661 0.00041784704 -0.0012233251 -0.87492061 0.06574855
607000000 -0.87851632 0.073909312 -0.00012201264 -0.001354224 -0.00019707989 -0.001857653 -0.87524146 0.065671839
608000000 -0.8804757 0.075749122 -0.00019946026 -0.0020759047 -7.3626448e-005 -0.0005657351 -0.87673044 0.065235555
609000000 -0.87855673 0.075299226 -0.00053554756 -0.0020825707 -0.00074836449 -0.00054123451 -0.87474293 0.066787869
610000000 -0.87912673 0.075422525 -0.00045821813 -0.00084932649 -0.00033518046 -0.0013576775 -0.87423134 0.066481985
611000000 -0.87842041 0.075027674 -0.0010409353 -0.00060637365 -0.00050880999 -0.0010937491 -0.87749636 0.066095375
612000000 -0.87727517 0.075396113 0.000414924 -4.3430195e-005 -0.00072611851 -0.0022966424 -0.87674576 0.06752038
613000000 -0.87675917 0.074730866 -0.00087924441 -0.0010442801 0.00010992228 -0.0015947139 -0.87542027 0.065891348
614000000 -0.8789919 0.074945964 -0.00037596838 -0.0013022397 -0.00081165374 -0.00065843062 -0.87732762 0.06799347
615000000 -0.87939847 0.075946331 0.00063261541 -0.0021835193 -2.0307429e-005 -0.0012687895 -0.87629205 0.066853583
616000000 -0.88001448 0.075870737 -0.00089501217 -0.00067524484 0.0010469712 -0.0013812312 -0.87627888 0.067876898
617000000 -0.87838715 0.076196797 -0.0002337857 -0.0022283727 0.00015789509 -0.00056317146 -0.87690336 0.06725499
618000000 -0.87977117 0.076718479 -0.00052492035 -0.0016786456 -0.00044385585 -0.0015571511 -0.8761372 0.068124875
619000000 -0.87813377 0.075722106 -0.00054705259 -0.0022938545 0.00072294771 -0.0013327036 -0.87662256 0.067173481
620000000 -0.87862539 0.075161971 0.0005876458 -0.001203921 -7.3819341e-005 -0.0006286464 -0.87668413 0.069345392
621000000 -0.87851232 0.077150404 0.00036361199 -0.00013736419 -0.00077449234 -0.0019206508 -0.87598306 0.068562925
622000000 -0.87880498 0.076085828 0.00038867418 -0.00086823991 -0.00021545558 -0.0020185236 -0.87670308 0.068810843
623000000 -0.87852448 0.076591678 -0.00025371223 -0.00072010013 -0.00019438662 -0.00088263978 -0.87659198 0.06760589
624000000 -0.878497 0.076041326 -9.7380507e-005 -0.0011412067 -0.00020108484 -0.0010607801 -0.87471277 0.068725407
625000000 -0.87943345 0.079047054 -2.2642736e-005 -0.0020985492 0.00051967346 -0.0018131523 -0.87693614 0.067084692
626000000 -0.87785017 0.078408025 -0.00028203533 -0.0014177192 0.00016240359 -0.002138959 -0.87552994 0.067190595
627000000 -0.87971932 0.077095278 -0.00072059367 -0.0014317415 0.00060765346 -0.00081464456 -0.87844622 0.06929975
628000000 -0.87903178 0.078530021 -0.00038982043 -0.00086643308 0.00012129741 -0.0015836883 -0.87565345 0.069334574
629000000 -0.87787211 0.076846533 0.00030584514 -0.001350428 -0.00063964096 -0.0015681735 -0.87570328 0.06929417
630000000 -0.87864286 0.078841284 0.00040068242 -0.0017967803 -0.0011148533 -0.0010497106 -0.87558335 0.070392333
631000000 -0.87926948 0.079008736 -0.0008696483 -0.0012572649 -0.00032163886 -0.0013586783 -0.87602115 0.06875784
632000000 -0.87821621 0.078732535 0.00050531211 -0.0013806353 5.7918613e-005 -0.0010315329 -0.87469727 0.069951393
633000000 -0.87731034 0.078013085 -9.7763761e-005 -0.0017913233 -0.00011948079 -0.0015285488 -0.87567908 0.069242977
634000000 -0.87866265 0.079430833 3.7542137e-005 -0.0020568802 7.993247e-005 -0.00096129678 -0.87549555 0.070565127
635000000 -0.87974107 0.07830593 -0.00024756888 -0.00086178421 0.0014559489 -0.001816962 -0.87597501 0.070097625
636000000 -0.87627906 0.076951906 0.00045877474 -0.00079456728 -0.00042734211 -0.0020401757 -0.87604624 0.070570119
637000000 -0.87792999 0.080240361 -0.00030434181 -0.0014368143 -0.00021025691 -0.001954844 -0.87552351 0.06868355
638000000 -0.87829208 0.080113262 -0.00099676114 -0.0012858539 0.00098014541 -0.001717566 -0.87570238 0.069278926
639000000 -0.87887156 0.079028174 -6.4426116e-005 -0.0026178497 0.00048255024 -0.0020671119 -0.87371737 0.070641071
640000000 -0.87868643 0.079544462 -0.00074599031 -0.001539769 -7.5175747e-005 -0.001454636 -0.87644422 0.070659623
641000000 -0.87769586 0.080651529 0.00043752373 -0.0019219775 0.00035124537 -0.0019597393 -0.87457019 0.070851453
642000000 -0.87770522 0.080359459 -2.3554974e-005 -0.0016322068 0.00013273576 -0.0012139883 -0.87807834 0.07103435
643000000 -0.8782658 0.082181185 0.00020630147 -0.001975778 -0.00025782821 -0.0011511478 -0.87630093 0.07004714
644000000 -0.8784219 0.080903798 0.00035924665 -0.00096064829 -0.00014590289 -0.0017495957 -0.87484962 0.071087986
645000000 -0.8770358 0.082296282 -0.00089438842 -0.00063868822 0.00080607802 -0.0015517989 -0.87599993 0.070796289
646000000 -0.8785758 0.08056879 -0.001385614 -0.00067738717 -0.00055480504 -0.00091782713 -0.875422 0.072179638
647000000 -0.87903649 0.080270529 -0.00077677012 -0.0018236925 -0.00026154259 -0.001653946 -0.87579352 0.070532583
648000000 -0.87795132 0.081497714 0.00057937432 -0.00088902668 -0.00046320283 -0.0016855862 -0.8759473 0.071319558
649000000 -0.87764806 0.081478596 -5.9137656e-005 -0.0015724575 -0.00042960656 -0.00090652291 -0.87455618 0.071722485
650000000 -0.87759763 0.08115162 -0.00029841127 -0.0010761744 6.5487475e-005 -0.00080214965 -0.87594408 0.071739957
651000000 -0.87896365 0.080768615 -0.00041656443 -0.00081066496 -0.001246011 -0.0007893797 -0.87518895 0.071052089
652000000 -0.87921482 0.081658386 -0.00056670589 -0.0012798065 -0.00094149046 -0.00050655461 -0.87478077 0.070766203
653000000 -0.87806344 0.082120299 -0.00085110939 -0.0011278449 -8.2644154e-005 -0.00082840852 -0.87572598 0.071160994
654000000 -0.87671787 0.081232607 0.0007466714 -0.00030910328 -0.0010290038 -0.0013005019 -0.87392712 0.073852144
655000000 -0.8770209 0.080316216 0.00029413376 -0.0006069786 -0.0005977134 -0.0011693864 -0.87449998 0.072146706
656000000 -0.8789199 0.082779013 -0.0012401749 -0.0012172292 0.00097216584 -0.0019764479 -0.87460148 0.07053905
657000000 -0.87677592 0.082168475 -5.1608851e-005 -0.0015858035 9.8049139e-005 -0.0019278191 -0.87454844 0.072532497
658000000 -0.87811261 0.083108425 -0.00019306522 -0.00042744193 -0.00078420324 -0.00038565995 -0.87469435 0.071212761
659000000 -0.87744641 0.081348971 -0.00081676629 -0.0011771177 0.00049701647 -0.0016747649 -0.87530655 0.070941314
660000000 -0.87781882 0.083250694 -7.8924393e-005 -0.0011777638 -0.000575629 -0.0018004125 -0.87584209 0.071359955
661000000 -0.875471 0.081993848 3.5894616e-005 -0.0025886425 -0.001126934 -0.0018326191 -0.87556267 0.073492043
662000000 -0.8775115 0.082245529 -0.00074593996 -0.00088517339 -2.2887987e-005 -0.0006723812 -0.8768236 0.073235378
663000000 -0.87810272 0.082594521 -0.00085272954 -0.0010522234 -6.480611e-005 -0.0016612805 -0.87579942 0.070873246
664000000 -0.87796831 0.082031801 -0.0014135473 -0.0013267343 -0.00081496307 -0.0012771788 -0.87513345 0.072313547
665000000 -0.87831849 0.083981246 0.00051979418 -0.0019583413 -6.6245884e-005 -0.0005375878 -0.8760066 0.072137818
666000000 -0.87821174 0.083077587 0.00049741857 -0.0012122764 -0.00011729229 -0.001499299 -0.87506557 0.072955713
667000000 -0.87787485 0.082828507 -0.001296212 -0.0012741877 0.00020071852 -0.00051483372 -0.87500179 0.07200069
668000000 -0.87691092 0.084436901 0.00047554116 -0.0013349934 0.00061681122 -0.0013407428 -0.87406647 0.072035342
669000000 -0.87745911 0.083284363 0.00061496871 -0.0018089671 0.00056779635 -0.0011350801 -0.87550908 0.0735249
670000000 -0.87742287 0.083307795 -0.00089767465 -0.001536628 -0.0007558018 -0.0020552822 -0.87425739 0.074332304
