!Keysight Technologies,M9374A,MY55442783,A.12.55.05
!Date: Wednesday, May 19, 2021 16:18:15
!Correction: S11(Full 2 Port(1,2)) 
!S21(Full 2 Port(1,2)) 
!S12(Full 2 Port(1,2)) 
!S22(Full 2 Port(1,2)) 
!S2P File: Measurements: S11, S21, S12, S22:
# Hz S  RI   R 50
500000000 -0.88036698 0.063916884 -0.00077924965 -0.0011436613 0.00088001916 -0.001528108 -0.87621856 0.058032826
501000000 -0.88187093 0.067206174 -0.00089252787 -0.0017338814 -0.0011487243 -0.0018197788 -0.8761577 0.058278833
502000000 -0.87999183 0.064991564 -0.00051838334 -0.0014498252 -2.6552329e-005 -0.002242913 -0.87663049 0.05820312
503000000 -0.88047457 0.064639024 -0.0006927271 -0.00097956625 0.00061767991 -0.00083683635 -0.87488419 0.058230344
504000000 -0.88162363 0.066862516 2.9000463e-005 -0.0013227616 -0.00056246243 -0.0022033958 -0.87649417 0.057577878
505000000 -0.88061327 0.066718563 -0.00053944648 -0.00063986401 -0.00083520863 -0.00083227357 -0.87801391 0.059231561
506000000 -0.88121635 0.066911772 -0.00042498289 -0.0009999763 2.4220288e-005 -0.0025793794 -0.87614536 0.057932034
507000000 -0.881271 0.066466957 -0.00032576031 -0.00083111308 0.00073454349 -0.0011186346 -0.87601078 0.059464883
508000000 -0.87907451 0.06710358 0.0015552707 -0.0014137418 -0.00010751614 -0.0012057513 -0.87630612 0.058756653
509000000 -0.88248014 0.066703476 0.00075699773 -0.0013889843 -9.1070513e-005 -0.0010445348 -0.87635869 0.059690617
510000000 -0.88053882 0.069687709 0.00066990335 -0.0011330886 -0.0009459235 -0.0014529261 -0.87592554 0.059894402
511000000 -0.87943089 0.066376515 -0.00036178075 -0.0014696079 5.8329959e-005 -0.0012700076 -0.87684882 0.060145166
512000000 -0.88075203 0.066890255 -0.00012958277 -0.00084380514 -0.00044331021 -0.001297011 -0.87764651 0.058827277
513000000 -0.88224357 0.066100188 -4.0127306e-005 -0.00069509761 -0.0012313694 -0.00027821149 -0.87656677 0.058751035
514000000 -0.88057184 0.06718149 1.5319694e-005 -0.0016232635 0.00085426425 -0.00014805865 -0.87801248 0.061212037
515000000 -0.88157111 0.069651075 -0.0011549278 -0.00089235598 0.00031552228 -0.0014715631 -0.876423 0.060867153
516000000 -0.87987363 0.06806457 -0.00025933093 -0.0018570136 -0.00041729416 -0.00049526407 -0.87591159 0.060868621
517000000 -0.88033342 0.069636792 -0.00096167321 -0.001762661 4.9648417e-005 -0.0016234425 -0.87479746 0.060235512
518000000 -0.88198066 0.067503519 -0.0002653588 -0.0011836006 -0.00072097237 -0.0014532799 -0.87516093 0.060411975
519000000 -0.88003826 0.066668265 0.00042706411 -0.00068190956 0.0003112542 -0.00093503186 -0.87752491 0.060651708
520000000 -0.88141596 0.06759578 0.00076943205 -0.0016669722 -7.9372629e-005 -0.0013774568 -0.87643999 0.059801113
521000000 -0.88036603 0.070611224 -0.00017277201 -0.00029408981 -0.00085362972 -0.00086944067 -0.87551105 0.061651006
522000000 -0.88124341 0.068842255 -0.00010817286 0.00023323322 -0.00078766624 -0.0010049837 -0.87617743 0.061489206
523000000 -0.88015383 0.068574116 -6.7729408e-005 -0.00056618679 -0.00040794053 5.2505184e-005 -0.87734526 0.061594881
524000000 -0.88184881 0.069096409 -0.00030497089 -0.0012653224 0.00044682936 -0.00021178155 -0.87714428 0.060094308
525000000 -0.87885648 0.067628354 -0.00043691599 -0.00013151897 -4.556881e-005 -0.0016418976 -0.87647152 0.064225584
526000000 -0.87957752 0.069851577 9.0160866e-005 -0.001620346 -0.00018900678 -0.0015206311 -0.87538606 0.062866636
527000000 -0.88014221 0.068799809 -0.0005336788 -0.0011010875 -0.00031181454 -0.00020564497 -0.87560922 0.061974917
528000000 -0.87936854 0.067896537 5.1094965e-005 -0.0013966867 5.6352841e-005 -0.00062624371 -0.87458932 0.061538182
529000000 -0.88007325 0.07052134 0.00055378856 -0.00067150162 0.0011150754 -0.00090994226 -0.87604767 0.063257046
530000000 -0.88040805 0.070251606 -8.100432e-005 -0.0014010918 -0.00048337618 -0.00080796785 -0.87493145 0.061761223
531000000 -0.87981093 0.069606364 -0.0003691701 -0.001309826 -0.00022768445 -0.0011388541 -0.87569547 0.061268155
532000000 -0.88018739 0.069592208 -0.00061634346 -0.0018925031 -0.00066053268 -0.0011295014 -0.87438416 0.061946824
533000000 -0.88122171 0.07060454 -0.00096274674 -0.0015405085 0.00022689121 -0.0014768126 -0.87585384 0.063791454
534000000 -0.8817867 0.070638075 4.4193675e-005 -0.0004956983 -0.0010393845 -0.0012615721 -0.87648177 0.06114269
535000000 -0.88161767 0.070673972 -4.9777456e-005 -0.00081087445 -0.00094301131 -0.00063069706 -0.87541318 0.063054614
536000000 -0.88096845 0.071428731 -0.00073382026 -0.0018607081 -0.0012327734 -0.00047403097 -0.8747102 0.062888198
537000000 -0.88043112 0.07059925 4.18813e-005 -0.0012844384 0.00034835446 -0.00039160083 -0.87604648 0.06284178
538000000 -0.88103139 0.070749477 8.0685779e-005 -0.001333805 -0.00039827899 -0.0012184257 -0.87506115 0.062634073
539000000 -0.88098508 0.070086472 -0.00099013257 -0.0012852573 -0.00024449313 -0.0019628783 -0.87627161 0.064220592
540000000 -0.87975991 0.070966654 -0.00077211752 -0.0020578848 0.00056595949 -0.00077801122 -0.87541443 0.063222013
541000000 -0.88125825 0.071522988 -0.00025677073 -0.00078422035 0.00019847983 -0.00048094368 -0.87584925 0.063754991
542000000 -0.87777805 0.071454391 -0.00082607887 -0.00019386056 0.00013881395 -0.00059945375 -0.87635785 0.063657954
543000000 -0.88014078 0.071080931 -0.0013121397 -0.0018454316 0.00024573732 -0.0014578984 -0.87617987 0.064976156
544000000 -0.88081241 0.071154408 0.00027496362 -0.0015898009 -0.00013404161 -0.0013151532 -0.87805182 0.064844236
545000000 -0.88066906 0.070779257 0.00030473809 -0.00092474197 -0.00065976259 -0.00077207218 -0.87573224 0.064374253
546000000 -0.88005382 0.073329479 -0.00056697533 -0.00071126671 -7.0154085e-005 -0.00099865242 -0.87638253 0.065146215
547000000 -0.87968522 0.071701236 0.00051665289 -0.001563123 -0.00034249513 -0.0011797068 -0.87541533 0.065218739
548000000 -0.87886828 0.072229214 -0.00021815803 -0.0011377538 -0.00012101312 -0.001158959 -0.87572831 0.064842872
549000000 -0.87934852 0.071830466 -0.00072558789 -0.0014693029 -0.00017098924 -0.00088085653 -0.87565958 0.064497054
550000000 -0.87934405 0.07257656 -0.00038887537 -0.0012526433 -5.4190528e-005 -0.00098539225 -0.87497878 0.065228567
551000000 -0.87902331 0.070825778 8.2956198e-005 -0.00054676575 -0.00044354904 -0.00069236464 -0.87449002 0.065626048
552000000 -0.88137305 0.070418306 0.00026502507 -6.6834989e-005 -0.00024010515 -0.0011092528 -0.8767767 0.064833708
553000000 -0.88166118 0.072864875 -2.8854849e-006 -0.0019488808 -0.00054275495 -0.0015951564 -0.87549275 0.06654682
554000000 -0.88061929 0.072699577 -0.00059317349 -0.0013011876 0.00013239832 -0.00026473368 -0.87638783 0.065524124
555000000 -0.87990278 0.071505591 -0.00015980907 -0.0025927231 -0.00096393231 -0.0018257432 -0.87638682 0.066430867
556000000 -0.88082665 0.072382495 0.00019093718 -0.00085408939 -0.00023557042 -0.0015117615 -0.87578148 0.0651685
557000000 -0.87990373 0.072900623 0.00037567076 -0.00068836758 -2.3875056e-005 -0.0012606917 -0.87577438 0.065257385
558000000 -0.88051647 0.072205253 0.00025359428 -0.0022445782 -0.00077531306 -0.00096392486 -0.87541968 0.064364143
559000000 -0.88033217 0.073766604 0.0010977273 -0.0019430132 0.00046183422 -0.00088984228 -0.87517238 0.066440932
560000000 -0.87974745 0.073665731 -0.00059833209 -0.00045586619 1.8259023e-005 -0.001204043 -0.87562132 0.065347604
561000000 -0.8809424 0.071001053 -0.00047644807 -0.0008738332 -0.00045822939 -0.0015647135 -0.87507182 0.064106449
562000000 -0.87908715 0.073778108 -0.00069653738 -0.00035497342 0.0004711714 0.00071778358 -0.87771732 0.067601807
563000000 -0.87936163 0.073041692 -0.0012683253 -0.00019897596 -0.0015454208 -0.0014427968 -0.87630653 0.066863269
564000000 -0.88038343 0.073354363 -0.00013895225 -0.0010080156 0.0002932557 -0.0021123418 -0.87530059 0.065000169
565000000 -0.88023394 0.072488129 -0.0002722705 -0.0010143316 -0.00014011392 -0.00080207514 -0.87657124 0.066856198
566000000 -0.87986952 0.073063463 -0.00072819978 -0.0021569275 -6.6936664e-005 -0.00039535871 -0.87552482 0.06540554
567000000 -0.88210773 0.073388964 -0.00050968613 -0.001629182 -0.00050099334 -0.0010481428 -0.87659055 0.06590037
568000000 -0.87964875 0.074705929 -0.00088739127 -0.0013529358 -0.00046919848 -0.0011802708 -0.87545532 0.065211087
569000000 -0.87937766 0.074075356 -6.9221547e-005 -0.0010781363 -0.00091549393 -0.0009585424 -0.87476981 0.067058288
570000000 -0.8795622 0.073579915 -0.00013202513 -0.00035407481 -0.00033480054 -0.0012747858 -0.87612051 0.067393824
571000000 -0.87906802 0.07225845 3.8309816e-005 -0.00055878126 0.00044243509 -0.0010658735 -0.87656468 0.067142181
572000000 -0.87812418 0.074854515 -0.00047661801 -0.0015980861 8.8457382e-005 -0.0014974426 -0.87532711 0.066623107
573000000 -0.87834591 0.07414259 0.00046059434 -0.00028898334 0.00021129839 -0.00096340053 -0.87593246 0.066044018
574000000 -0.87870467 0.073567286 -0.00065707281 -0.0012136103 -0.00051387347 -0.0016692982 -0.87584633 0.067028433
575000000 -0.88057566 0.074025102 3.820709e-005 -0.001664641 -0.0014117681 -0.0017511989 -0.87650996 0.068156026
576000000 -0.87968564 0.074785531 -0.00097293401 -0.001208642 -0.00024644731 -0.0018677206 -0.87619704 0.069345638
577000000 -0.88111252 0.073267989 0.00034245697 -0.0014204537 -0.00026700401 -0.0012316703 -0.87610638 0.066450521
578000000 -0.87932611 0.074335411 -0.00051227992 -0.00072256092 -0.00060612569 -0.0011240005 -0.87604409 0.066000134
579000000 -0.87916464 0.073985189 -0.00072771852 -0.0010688577 -0.00088003406 -0.0019254785 -0.87716401 0.067453273
580000000 -0.87991607 0.073926054 -0.00031261978 -0.0012510956 0.0008295725 -0.0017125282 -0.87587655 0.068812087
581000000 -0.87873781 0.074505858 -0.0017874971 -0.0013247262 0.00035623834 -0.0018156612 -0.87619621 0.064899288
582000000 -0.87778723 0.074809395 -4.1026749e-005 -0.0016344682 -0.00076288392 -0.001491971 -0.87654376 0.067585163
583000000 -0.879013 0.075524397 -4.3987344e-005 -0.0011885347 -0.00043295056 -0.0016325465 -0.87552345 0.067559063
584000000 -0.87844092 0.073999383 0.00052878831 -0.0016402911 -0.00059896085 -0.00089876208 -0.87766784 0.069225878
585000000 -0.88048911 0.07416565 0.00024730072 -0.00047208945 -1.7760714e-005 -0.00044388053 -0.87646377 0.067422286
586000000 -0.88060027 0.076030426 0.0002790663 -0.002148842 0.00047538747 -0.00022833467 -0.8763997 0.067644946
587000000 -0.87922162 0.074903361 -0.00023886164 -0.0015361335 0.00078563846 -0.0012551895 -0.87626523 0.066756502
588000000 -0.88121104 0.076088101 -0.0010380062 -0.00079751492 -0.00018985194 -0.0019314432 -0.87490827 0.068964764
589000000 -0.88013667 0.074953541 0.00091235526 -0.0010994314 -0.00016759368 -0.0011453066 -0.87579226 0.069210961
590000000 -0.87790632 0.075397886 0.00039276344 -0.001036061 0.00090812054 -0.0010071449 -0.87522739 0.069008186
591000000 -0.87888253 0.075210802 0.00019589932 -0.0014814382 -0.00069375738 -0.0016002229 -0.87543392 0.069772482
592000000 -0.88066661 0.075394258 -0.00030738625 -0.00086009182 -0.001357243 -0.0010788689 -0.87621874 0.068104908
593000000 -0.87794715 0.075074181 -0.00030356404 -0.00035256374 0.00041992444 -0.001865692 -0.87670839 0.068994984
594000000 -0.8795355 0.076388113 0.00024244581 -0.001062935 -0.00052846636 -0.0021246539 -0.87562114 0.069075763
595000000 -0.87970418 0.076553084 0.00056488567 -0.00028036055 -0.00088039157 -0.0010128279 -0.87585896 0.068724267
596000000 -0.87904149 0.075670652 -0.00035611307 -0.001611504 0.0002636101 -0.0013055162 -0.87419105 0.069352999
597000000 -0.88045919 0.077358358 -0.0011396408 -0.0018168963 -0.00048407761 -0.0015462864 -0.87417293 0.067221373
598000000 -0.87795949 0.076036528 -0.00074790139 -0.00097758183 -3.6175643e-006 -0.0007869128 -0.87627012 0.070614934
599000000 -0.88008749 0.07702139 -0.00034475533 -0.001514461 0.00019022189 -0.001276485 -0.87643832 0.0689357
600000000 -0.87821287 0.077682473 -0.001328062 -0.00072275382 -0.00089421333 -0.00045977122 -0.8755461 0.06830994
601000000 -0.87914735 0.077912234 -0.00027817622 -0.0017884278 -0.00023513616 -0.001693533 -0.87621045 0.069323622
602000000 -0.87958485 0.076989889 0.00030050857 -0.0013436882 -0.00078262982 -0.00091754808 -0.87664711 0.071164258
603000000 -0.88088566 0.076118529 0.00083001354 -0.0011209967 5.9926741e-005 -0.00098842243 -0.87505615 0.070655689
604000000 -0.87762666 0.076631233 -0.00075651682 -0.0013185021 -5.4551962e-005 -0.00067269913 -0.87570155 0.071528666
605000000 -0.8786099 0.077383973 -0.00087754265 -0.00084876898 -0.0011820307 -0.0016300392 -0.87537467 0.072038159
606000000 -0.88034374 0.078267299 -0.001203752 -0.0016347771 -0.00040744795 -0.0015804088 -0.87379587 0.070896447
607000000 -0.88059872 0.079377636 -0.00025881774 -0.0012353327 -0.00032136351 -0.0012641334 -0.87468517 0.069764912
608000000 -0.88095176 0.079158239 -0.0018125321 -0.0021910316 -0.0006540324 -0.0018587202 -0.87517434 0.069162391
609000000 -0.87937695 0.078883164 -0.0010703596 -0.0014661617 -0.00037505728 -0.0022725982 -0.8763324 0.07011766
610000000 -0.87884653 0.078746811 5.9589001e-005 -0.001290434 -0.00045776865 -0.0015951347 -0.87355238 0.070311002
611000000 -0.87786657 0.078359775 -0.00078712701 -0.0010030332 -0.00061396376 -0.0011402721 -0.87499511 0.07066229
612000000 -0.87944549 0.079920545 0.00062485569 -0.00060444151 0.00024250623 -0.0020734784 -0.87560886 0.071461208
613000000 -0.87708688 0.079882003 0.00049820269 -0.0014378375 -0.00088082143 -0.0012838747 -0.87573487 0.072894923
614000000 -0.87909341 0.079601966 -0.0014031742 -0.0015156289 -0.00073247828 -0.00079548784 -0.87627965 0.071718767
615000000 -0.88011038 0.080618761 -0.0010518258 -0.0011884865 -0.00031552737 -0.00041296962 -0.87495208 0.072712697
616000000 -0.87736118 0.07989528 -0.00080912688 -0.0016932926 -0.00078114815 -0.00097529055 -0.8742705 0.071091205
617000000 -0.87897849 0.081242554 0.0002506169 -0.001328067 -0.00043924764 -0.00076633069 -0.87399966 0.071065128
618000000 -0.8784163 0.080446005 0.00010929818 -0.0015513489 -0.00083832192 -0.0016645488 -0.87509668 0.071692973
619000000 -0.87955153 0.080316179 -0.00039279123 -0.0018555429 -0.00032018058 -0.0027264652 -0.87585324 0.070626967
620000000 -0.87938315 0.082420185 -1.9911229e-005 -0.00060131896 -0.00090334029 -0.00086772558 -0.87508172 0.073036186
621000000 -0.87915534 0.080965586 0.00068775041 -0.001626444 4.5158064e-005 -0.0028348363 -0.87503844 0.071517386
622000000 -0.87806994 0.081446655 -0.00097796519 -0.0018947684 -0.00044151433 -0.0014234867 -0.87621415 0.072024226
623000000 -0.87666225 0.082002617 -0.00029772404 -0.0010162394 -0.00084569398 -0.00032589599 -0.87307364 0.072897024
624000000 -0.87799895 0.081040807 1.316696e-005 -0.0016983208 -0.0006487529 -0.001408706 -0.87470198 0.072798051
625000000 -0.87966007 0.081030503 -0.00093617552 -0.0010143619 0.0003611226 -0.0015124712 -0.87684917 0.072140113
626000000 -0.88043725 0.08182174 -0.0002710335 -0.0018509543 -0.0010256853 -0.0012289638 -0.87342799 0.072232209
627000000 -0.88008225 0.081992671 -0.00063840963 -0.00021593719 1.8994026e-006 -3.0306457e-005 -0.87555164 0.07270962
628000000 -0.8790189 0.083161883 0.00014490564 -0.00055519101 0.00046255483 -0.0019052711 -0.87365294 0.071994312
629000000 -0.87870407 0.081351601 9.729364e-005 -0.00068338087 0.00055293704 -0.00029147562 -0.87546128 0.074027061
630000000 -0.87927723 0.08203546 -0.00051884766 -0.0021153723 -6.7409496e-006 -0.00067952491 -0.87503278 0.074913099
631000000 -0.87846893 0.081911542 -0.00037660854 -0.0013518163 -0.00019312349 -0.00097826251 -0.87477291 0.073628806
632000000 -0.87899947 0.083245061 -0.0002150886 -0.0019221202 -0.00075831515 -0.00038408182 -0.87441593 0.072627202
633000000 -0.87881792 0.084711872 0.00054848613 -0.0010158028 0.00012828317 -0.0014588574 -0.87618011 0.074099675
634000000 -0.87816077 0.082811251 0.00029240592 -0.0015055046 -0.00028373601 -0.0015763027 -0.87481791 0.073763184
635000000 -0.87861979 0.082191952 0.0002159398 -0.00065420405 0.00058962003 -0.00080205442 -0.87506014 0.075373843
636000000 -0.87638205 0.082752787 -0.00034902984 -0.0010729603 -0.00035516257 -0.001031538 -0.87305504 0.074141838
637000000 -0.87895632 0.084662922 -0.0018322851 -0.0015048851 -0.00022146253 -0.0023350478 -0.87341052 0.07432761
638000000 -0.87833923 0.082985617 -0.0012259764 -0.0015282892 0.00073553401 -0.0016164519 -0.87578595 0.073965557
639000000 -0.87886393 0.084357105 -0.00045245668 -0.0010963433 -0.00075650401 -0.0010538332 -0.87439936 0.075119995
640000000 -0.87776768 0.083621919 0.0005751276 -0.00071285531 -0.00064909633 -0.0006511989 -0.87380898 0.073708504
641000000 -0.87881857 0.08509434 -5.4614269e-005 -0.0014870532 -0.00015055973 -0.00096084276 -0.8744182 0.074451663
642000000 -0.87777603 0.085947663 -0.00088222476 -0.001705052 -0.00031320858 1.9920979e-005 -0.87532306 0.074596331
643000000 -0.87800205 0.085221924 -0.00052546221 -0.0020333321 0.0002445764 -0.0014387072 -0.87558186 0.075627148
644000000 -0.87776631 0.084942311 -0.00038952439 -0.0022670252 0.00036149059 -0.00175471 -0.87519509 0.074985996
645000000 -0.87786645 0.085676581 -0.00045445195 -0.0019588016 -0.00011667691 -0.0013655399 -0.87378556 0.075494677
646000000 -0.87864244 0.084615409 -0.000357799 -0.0015135538 8.7938242e-005 -0.00051318877 -0.87571442 0.073829897
647000000 -0.87799084 0.086596102 -0.00060551066 -0.0023469466 0.0010150744 -0.0014050169 -0.87441021 0.07508482
648000000 -0.88005048 0.086693242 0.00029711091 -0.0011374013 -0.00014692418 -0.0014948061 -0.87349796 0.076819763
649000000 -0.87706876 0.086446457 -0.00064759556 -0.00060676323 -0.00022080644 -0.0012887603 -0.87324476 0.076652266
650000000 -0.87727672 0.086454205 -0.00080214924 -0.00071511714 1.6956985e-005 -0.0017736785 -0.8734867 0.0762401
651000000 -0.8786242 0.087080479 -0.00014317478 -0.00078226987 0.00036106346 -0.00085963513 -0.87350279 0.074636534
652000000 -0.87903219 0.083841592 0.00022656415 -0.00072551653 -0.00069601898 -0.00044161055 -0.87249351 0.075990163
653000000 -0.87705547 0.086029358 0.00037924523 -0.0011344162 -0.00083678856 -0.0016594486 -0.87416267 0.07678201
654000000 -0.87851357 0.087204523 -0.00029368323 -0.00079406874 -0.00054958765 -0.0014223317 -0.87573951 0.075925909
655000000 -0.87948108 0.085926063 0.00059660402 -0.00080017786 0.00014934866 -0.0012257409 -0.87412208 0.0759819
656000000 -0.87924308 0.086345464 -0.0010575834 -0.00057297567 0.00036760856 -0.00050239341 -0.87591958 0.076945513
657000000 -0.8782649 0.087201335 -5.5929791e-005 -0.0015673193 -0.00093580113 -0.0021811684 -0.87632471 0.075569265
658000000 -0.87698263 0.085709281 0.00045681282 -0.0016872681 -0.00049939263 -0.0015972321 -0.87505186 0.076461397
659000000 -0.87557721 0.086112961 -0.00053399411 -0.0014640068 -0.00092479005 -0.00090720388 -0.87562531 0.076796241
660000000 -0.87722188 0.087406427 -0.00031201082 -0.00064658804 -4.1584053e-006 -0.0014679029 -0.87292087 0.076881118
661000000 -0.87804288 0.088560626 0.00028058692 -0.0014869269 -0.00037796612 -0.0014696516 -0.87270051 0.077755824
662000000 -0.87762427 0.086725257 0.00028725626 -0.0017947674 0.00040015182 -0.00093348447 -0.87638432 0.077787049
663000000 -0.88010025 0.086222723 -0.0007155179 -0.0014734414 -0.00071604759 -0.00090094324 -0.87432152 0.076983199
664000000 -0.87863499 0.08808998 -0.00023080173 -0.0018568102 -0.00046645483 -0.0015840589 -0.87448871 0.077623047
665000000 -0.87813449 0.086979911 5.9180682e-005 -0.00048987294 -0.00017132709 -0.0016584949 -0.87495512 0.078162253
666000000 -0.87808567 0.087369949 0.00043500806 -0.0018926492 0.00018715089 -0.0016177559 -0.8733632 0.076434679
667000000 -0.87757427 0.08914569 0.00065902004 -0.001812579 -0.00076981849 -0.0010837417 -0.87441415 0.076950587
668000000 -0.87826848 0.087802187 -0.00038583437 -0.0011742071 -0.00065177516 -0.0017583857 -0.87211746 0.077084243
669000000 -0.87760127 0.089783758 -0.00069194846 -0.0017654008 -0.0004728006 -0.0017288703 -0.87524813 0.077540129
670000000 -0.87712508 0.089164726 -8.4445906e-005 -0.001495 0.00049349596 -0.0023207534 -0.8747232 0.078336336
