!Keysight Technologies,M9374A,MY55442783,A.12.55.05
!Date: Wednesday, May 19, 2021 16:56:58
!Correction: S11(Full 2 Port(1,2)) 
!S21(Full 2 Port(1,2)) 
!S12(Full 2 Port(1,2)) 
!S22(Full 2 Port(1,2)) 
!S2P File: Measurements: S11, S21, S12, S22:
# Hz S  RI   R 50
500000000 -0.88117141 0.057705976 0.00016111704 -0.0013939624 -0.00031581867 -0.0012427702 -0.87760419 0.047909513
501000000 -0.88233984 0.056036465 0.0010834937 -0.0017812094 -0.0011337567 -0.0017951843 -0.87913978 0.048985071
502000000 -0.88233697 0.05602831 -0.00022866379 -0.00030882336 0.00056818989 -0.0015690649 -0.87905449 0.050385799
503000000 -0.88164252 0.055685002 0.00034698981 -0.00010425735 -0.00068049645 -0.0012496627 -0.87761319 0.048087332
504000000 -0.88039428 0.057063464 -0.00084200507 -0.0018004173 0.00031253014 -0.0010762438 -0.8772282 0.049687192
505000000 -0.88190359 0.05777796 -0.00035511929 -0.001567732 -0.0014125584 -0.0014695134 -0.87865049 0.050253391
506000000 -0.88228142 0.057475373 0.00046088081 -0.00088513287 0.00063749595 -0.00189844 -0.87711805 0.051427208
507000000 -0.88253504 0.058592748 -0.00091382128 -0.0010986619 -0.0011406543 0.00054725743 -0.87928206 0.050428987
508000000 -0.88099509 0.057924431 0.00089083746 -0.00087349204 -1.7219436e-005 -0.001593485 -0.87785894 0.051273264
509000000 -0.88039923 0.057916384 0.00018839487 -0.00056385814 0.00032805526 -0.0019826205 -0.87670356 0.050869342
510000000 -0.88036352 0.057989959 -0.00054932124 -0.00097676099 -0.00081270467 -0.00035679253 -0.87827533 0.0513243
511000000 -0.88009262 0.058867104 -0.00046404655 -0.0018018984 2.8744917e-005 -0.0009337978 -0.87794608 0.050028175
512000000 -0.88130963 0.058728438 0.00051465747 -0.0015340635 -0.00055529637 -0.00054960215 -0.87752914 0.049970757
513000000 -0.88078177 0.058763716 -0.00057928544 -0.00013536037 -0.00024555804 -0.001239769 -0.87797123 0.049379464
514000000 -0.88220274 0.058006532 -0.00063428871 -0.0011889703 -0.00053587602 -0.00071308116 -0.8788988 0.051595997
515000000 -0.88109756 0.058991019 -6.4043634e-005 -0.00078588899 -0.00013213856 0.00052815519 -0.87965024 0.050035782
516000000 -0.88192767 0.059215341 -6.1430816e-005 -0.0012195238 -0.00035480506 -7.9771062e-006 -0.87952656 0.052104641
517000000 -0.8824023 0.058935985 0.00020101423 -0.0016832396 -0.00043724448 -0.0010296516 -0.87816513 0.051509976
518000000 -0.88100362 0.058010843 -0.00011269061 -0.00040249154 -0.00061504642 -0.0021707623 -0.87727231 0.050484993
519000000 -0.88099557 0.059472125 6.0525654e-005 -0.00051421917 -0.00042206177 -0.0030492968 -0.87758237 0.053717792
520000000 -0.88194096 0.058286443 0.00050148735 -0.00057469058 -0.00021174959 -0.0012802923 -0.87875909 0.05160524
521000000 -0.87993526 0.058585741 0.00050396769 -0.0013538497 0.00051854149 -0.0013467674 -0.87912124 0.051578023
522000000 -0.88102478 0.059298374 0.00052442757 -0.00099587615 -0.00055444671 -0.0019071271 -0.878654 0.050457057
523000000 -0.88216484 0.059704643 0.00036880441 -5.7238085e-005 0.00011397336 -0.00015157371 -0.87740272 0.051570017
524000000 -0.88235778 0.058855198 0.0010687861 -0.001238534 -0.00039429686 -6.9183661e-005 -0.87830919 0.052273754
525000000 -0.8804943 0.059014432 0.0010494296 -0.0015198258 0.00033612252 -0.0006372967 -0.87821245 0.052337244
526000000 -0.88251621 0.059007056 0.00079364824 -0.00081136572 4.9414171e-005 -0.0009056633 -0.87958515 0.051531978
527000000 -0.88044876 0.060850468 -0.00055076421 -0.0013506428 -0.00076927984 -0.00081493723 -0.87848294 0.052680511
528000000 -0.88054347 0.061759125 -0.00042209207 -0.00143116 0.00027073378 -0.0011033511 -0.87853462 0.054004434
529000000 -0.88197893 0.059816778 -0.00040768497 -0.00089100999 0.00047182626 -0.0020118947 -0.87815392 0.052244045
530000000 -0.88079751 0.061177649 -0.0007449321 -0.0014669478 -0.00081327581 -0.0011939602 -0.87869233 0.053585108
531000000 -0.88119221 0.060797948 -7.9846708e-005 -0.0013632877 -0.0010233691 -0.00051207398 -0.87861764 0.053103022
532000000 -0.88083619 0.060512021 -2.5574442e-005 -0.00097034971 0.00018809692 -0.00078898092 -0.87843746 0.052499451
533000000 -0.88009512 0.06099239 -0.00085203501 -0.0010617886 -0.00018690301 -0.0007728652 -0.87830508 0.053977553
534000000 -0.88051486 0.061388806 -0.0008965297 -0.0019665081 3.4593897e-005 -0.00065671484 -0.87741363 0.054268375
535000000 -0.88188195 0.060840748 0.00013852135 -0.00083983963 -0.00065053155 -0.0015179593 -0.87658232 0.052916631
536000000 -0.88038158 0.061438538 -0.00039057693 -0.00017288036 0.00018119971 -0.0012250319 -0.87686682 0.053936675
537000000 -0.88095224 0.06179608 -0.00029342703 -0.0013452832 -0.00028071296 -0.0013517294 -0.87911803 0.053271521
538000000 -0.88011694 0.062304869 3.1448417e-005 -0.00039304464 -0.00029464505 -7.8153396e-005 -0.87743872 0.054696381
539000000 -0.88171512 0.061614852 -0.00051517261 -0.00069153984 7.9588681e-005 -0.0019622804 -0.87697077 0.05546644
540000000 -0.88171703 0.059871055 -8.2613471e-005 -0.0013830744 -0.0011746921 -0.00064213452 -0.87800366 0.05474567
541000000 -0.88019246 0.060707081 -0.00022622215 -0.00063683972 -0.00041129277 -0.000774224 -0.87711585 0.055841472
542000000 -0.88099879 0.060925778 -6.8931266e-005 -0.0012149382 -0.00052171043 -0.00092613837 -0.87819254 0.055826399
543000000 -0.87969738 0.062376652 -0.00043064039 -0.0012141829 0.00045594844 -0.00097612286 -0.87896341 0.054530032
544000000 -0.88114512 0.060402039 -0.00062328693 -0.0014386722 -0.00025548751 -0.0023291879 -0.87737089 0.054079827
545000000 -0.88241839 0.062123645 -0.00024135484 -0.00046751351 -0.00076402543 -0.0012069243 -0.87777948 0.054288227
546000000 -0.88118815 0.062929258 4.6193152e-005 -0.0012850462 -0.00090217922 -0.0007028273 -0.87745875 0.055612609
547000000 -0.88088715 0.061982509 -0.00026968052 -0.0019930399 1.5838192e-005 -0.0014326187 -0.87707824 0.055533294
548000000 -0.88041848 0.063129157 -0.0012672704 -0.0016293188 -0.00091633183 -0.001429979 -0.87645924 0.05644995
549000000 -0.88278645 0.061510112 -4.9254435e-005 -0.00077593577 -0.0015245187 -0.0014957153 -0.87898046 0.056313843
550000000 -0.87947017 0.061554607 -0.00021945553 -0.00032565542 -0.0016505121 -0.001696014 -0.87924284 0.055994898
551000000 -0.88082123 0.060956627 -0.00010787767 -0.0011834605 -5.3012216e-005 -0.0022428026 -0.87777561 0.054411411
552000000 -0.88154119 0.062948592 -0.00052446593 -0.00075464154 -0.00066707114 -0.0021890095 -0.87698305 0.055202622
553000000 -0.88086146 0.061918028 -0.00064902374 -0.00011710152 0.00036052481 -0.0011993616 -0.87743121 0.054801643
554000000 -0.88127059 0.061542913 -0.00068851927 -0.0010949473 -7.5633252e-005 -0.00081602967 -0.87784654 0.055934321
555000000 -0.88043964 0.060031831 -0.00061697391 -0.0014786039 -0.00048952206 -0.0020569856 -0.87727761 0.056302119
556000000 -0.88263941 0.061635774 0.00045848612 -0.00077881914 -0.00090022484 -0.0010350187 -0.87908804 0.055345144
557000000 -0.8807205 0.062947445 0.00022476711 -0.00095894432 8.205256e-005 -0.0010242179 -0.87792367 0.054748781
558000000 -0.8809368 0.063215777 -0.00015700381 -0.0020510335 -0.00054125977 -0.00079944881 -0.87661517 0.056000821
559000000 -0.8789683 0.062018376 -0.00014876247 -0.0014572362 -0.00043384617 -0.00027946997 -0.87755299 0.057492156
560000000 -0.88001472 0.06336695 -0.0001402616 -0.001299695 -6.961031e-006 -0.00069661788 -0.87670565 0.055794917
561000000 -0.87937379 0.062740996 4.202564e-005 -0.0011484408 0.00048202064 -0.0014992288 -0.87821931 0.055976663
562000000 -0.88132519 0.063347571 0.00028580645 -0.0012442083 -0.0009758519 -0.00062378775 -0.87750453 0.056553662
563000000 -0.88107353 0.062764063 5.8083886e-005 -0.0006202666 -0.0010850902 -0.0016000395 -0.87766498 0.057101488
564000000 -0.88129264 0.062955774 -0.00091881916 -0.00063219509 0.0014888932 -0.00038242844 -0.87796426 0.053911805
565000000 -0.8801899 0.061713953 -3.3317872e-005 -0.00059270038 -0.00015517033 -0.00092961534 -0.87736571 0.056743193
566000000 -0.87978494 0.06267155 0.00033578547 -0.00040788655 -0.00010272683 -0.00088556844 -0.87834084 0.056179114
567000000 -0.88104117 0.063474029 9.9110337e-005 -0.0021784368 0.00013011931 -0.001118249 -0.87810409 0.055712886
568000000 -0.87995124 0.06317535 -5.4112083e-006 -0.0010059716 -6.7747038e-005 -0.00038927427 -0.87804937 0.055331331
569000000 -0.88061225 0.062796131 3.5393092e-005 -0.001120557 0.00036280064 -0.00052803755 -0.87641066 0.057107043
570000000 -0.88032758 0.063249826 0.00034478723 -0.0011257216 8.9242103e-006 -0.0010564887 -0.87675244 0.056194581
571000000 -0.88021898 0.063874312 0.00062991621 -0.0015389755 -0.00097674562 -0.002116841 -0.87874293 0.056886051
572000000 -0.88052619 0.06395895 -0.00094844913 -0.0016774772 -0.00071953901 -0.0023458216 -0.87817007 0.05714393
573000000 -0.87997502 0.063444182 0.0002339363 -0.00071989727 -0.00055103371 -0.0015431311 -0.8773995 0.056657545
574000000 -0.87995124 0.062772945 -0.00052844116 -0.0021669285 -0.00027109706 -0.0008695919 -0.87711596 0.056727309
575000000 -0.88122803 0.064172357 1.3173281e-005 -0.00053211953 -0.0010154039 -0.00076212478 -0.8785919 0.057922866
576000000 -0.87964761 0.063803628 -0.00055662089 -0.0014291988 0.00033811739 -0.0026971793 -0.87824917 0.05645239
577000000 -0.879637 0.062959932 0.00016038064 -0.0014737825 -0.00076766522 -0.0011901765 -0.87916034 0.056702614
578000000 -0.8796826 0.064167209 -0.00027047866 -0.00097524124 -7.3322073e-005 -0.0012547971 -0.87866312 0.056425232
579000000 -0.87878209 0.063864529 5.9039656e-005 -0.0015820367 6.3404666e-005 -0.00069629709 -0.87842882 0.056612313
580000000 -0.88039184 0.063521668 -0.00035022612 -0.00096187909 0.00032538557 -0.0019837858 -0.87801868 0.057814494
581000000 -0.88019538 0.063798711 -0.00062853156 -0.00083511102 -0.00053768704 -0.0011182269 -0.87869924 0.056233231
582000000 -0.87971866 0.063598663 0.00034598581 -0.0017826292 -0.00029157457 -0.0013724844 -0.87836164 0.056033645
583000000 -0.88009238 0.065909669 -0.00063150004 -0.00071193709 9.1541973e-005 -0.00052238262 -0.87844312 0.056170039
584000000 -0.88058293 0.065035187 0.001222442 -0.0024834801 5.110971e-005 -0.00071716344 -0.87784535 0.057788376
585000000 -0.88084608 0.064312629 -0.00035738997 -0.0010058917 -0.00072616991 0.000147755 -0.87896162 0.056347303
586000000 -0.87929684 0.064664908 0.00077743467 -0.0004882809 -0.00099953578 -0.0014652184 -0.87772381 0.057679117
587000000 -0.8795222 0.064160354 -0.0013683371 -0.0016028101 -0.00010223305 -0.0017499595 -0.87867182 0.056958977
588000000 -0.88117939 0.063381985 -1.0309566e-005 -0.0011664002 -6.0826616e-005 -0.00076093478 -0.87837595 0.059299737
589000000 -0.87941319 0.066188984 0.00075311534 -0.0017319378 -0.0013292605 -0.0012581034 -0.87838894 0.058207292
590000000 -0.87835187 0.064231403 -0.00092493958 -0.00072855002 -7.6286509e-005 -0.0015721746 -0.87883961 0.057799269
591000000 -0.88067085 0.067075238 -0.00055737328 -0.00047886808 -0.000214321 -0.0017389891 -0.87777382 0.05732397
592000000 -0.88049048 0.06553077 5.5771943e-005 -0.0018787758 5.1399129e-005 -0.0016884473 -0.87800705 0.057225671
593000000 -0.87985492 0.066035129 -0.0011757738 -0.00071742875 6.4607379e-006 -0.00043443072 -0.87631458 0.058513697
594000000 -0.87942636 0.064371355 -0.0002070417 -0.00047487023 0.00023631312 -0.0018036064 -0.87811136 0.059472188
595000000 -0.88053113 0.065620467 -0.00038663848 -0.0010464839 -0.00054454169 -0.00076758442 -0.87741852 0.058332898
596000000 -0.88124645 0.067085318 0.00091615855 -0.0013409657 0.00056860148 -0.00031887484 -0.87680066 0.058874551
597000000 -0.88017207 0.065496363 7.8587342e-005 -0.00068198395 -0.00091491902 -0.001646021 -0.87691939 0.057830464
598000000 -0.88045096 0.067855731 -0.00067009067 -0.0013342763 0.0011855139 -0.0010466444 -0.87727815 0.059736878
599000000 -0.88002056 0.065400727 -0.0012121684 -0.0020676926 5.6110403e-005 -0.001663294 -0.87955296 0.058570165
600000000 -0.88090229 0.067046069 -0.00026336944 -3.8144903e-005 0.00029916945 -0.00065155822 -0.87845689 0.060127571
601000000 -0.8798539 0.067702152 -0.0005425844 -0.00043739582 -0.00019215653 -0.0017099075 -0.87786275 0.05739345
602000000 -0.88066733 0.066896103 -0.00027450456 -0.0015864761 0.00075402559 -0.00092487881 -0.87783206 0.060252525
603000000 -0.87919843 0.065543093 -0.00096336071 -0.0010118689 0.00027515285 -0.001240559 -0.87956697 0.059495531
604000000 -0.88046324 0.067268692 -0.00010490547 -0.0017911023 -7.4014686e-005 -0.0016704705 -0.87816966 0.059623875
605000000 -0.88119465 0.067933358 -0.00073218066 -0.0017282828 -0.00016510034 -0.0020386197 -0.87699699 0.059676837
606000000 -0.88038188 0.067191847 -0.00099528604 -0.00065770786 -0.00039510406 -0.0020447613 -0.87634599 0.059000734
607000000 -0.88053793 0.068806142 -0.00030102298 -0.0004827877 -0.00036085417 -0.0011566485 -0.87641382 0.057672422
608000000 -0.87859869 0.068939358 -0.0014934838 -0.001025359 -0.00056060468 -0.0017118708 -0.8770017 0.059837747
609000000 -0.88024348 0.066771559 0.00067568914 -0.0024935377 0.00035816943 -0.00085167645 -0.87729084 0.059520725
610000000 -0.87902761 0.07003773 -0.00088627526 -0.0010694691 -0.00055251643 -0.0016958087 -0.87805915 0.060502902
611000000 -0.87947273 0.069074817 0.00042195802 -0.0010825053 -0.00018239327 -0.0014854921 -0.87671787 0.06035018
612000000 -0.88039917 0.068652131 -0.00036863174 -0.0012943019 0.00064337539 -0.0019463433 -0.87768841 0.06042669
613000000 -0.88001496 0.068627395 -0.00044669549 -0.001233442 -0.00077764073 -0.0015220105 -0.87761861 0.059203275
614000000 -0.87947905 0.06937696 0.00028768586 -0.0019381384 0.00063654967 -0.00055045076 -0.87757796 0.061079782
615000000 -0.87970251 0.068911731 0.00012078605 -0.00035230504 0.0002369883 -0.0010976933 -0.87751096 0.061614115
616000000 -0.8812995 0.069986068 -0.00083661173 -0.0014025233 -0.00046693764 -0.0016722304 -0.87766409 0.060821585
617000000 -0.8808403 0.067583479 5.0553335e-005 -0.0013365706 -0.00010915136 -0.001994241 -0.87693352 0.060578745
618000000 -0.88068253 0.070220441 0.00069579505 -0.0012206112 0.00064774981 -0.00062890904 -0.87695801 0.061061185
619000000 -0.8793391 0.069040172 -0.00048088739 -0.001800839 -0.00086822134 -0.0015151538 -0.87816608 0.060797065
620000000 -0.8788867 0.070007071 6.038128e-005 -0.00072681892 -0.00047309653 -0.0012757512 -0.879448 0.060835324
621000000 -0.87892383 0.069876373 -0.00062971207 -0.0019827224 -0.0010011727 -0.00063647103 -0.87749827 0.062028397
622000000 -0.88011634 0.06909582 0.0003473479 -0.00060322718 -0.0012096175 -0.002186364 -0.87748927 0.061482284
623000000 -0.87808907 0.071352109 -0.00059174263 -0.0019500232 -0.0013164904 -0.0017626098 -0.87690532 0.061327524
624000000 -0.87895507 0.070292763 0.00014240961 -0.0010915429 -0.00031072681 -0.0020918243 -0.87674034 0.061465684
625000000 -0.88007873 0.071234122 0.00016730216 -0.0010621063 -0.00046310044 -0.00074911327 -0.87771147 0.061901197
626000000 -0.88072777 0.070976235 0.00012711444 -0.0022292864 0.00010184676 -0.00099593308 -0.87634343 0.06171253
627000000 -0.87893671 0.070595935 -0.00030800258 -0.0023472672 -0.00081894989 -0.0017704702 -0.87707365 0.060988031
628000000 -0.87865841 0.070906974 -0.0003746525 -0.0010975632 -0.00018963059 -0.0024296064 -0.87529552 0.062932938
629000000 -0.8809306 0.071543939 0.00014128286 -0.0014870698 -0.00044430254 -0.00062129489 -0.87666613 0.061774425
630000000 -0.8784017 0.072181515 0.0005671907 -0.0012590844 0.00017524904 -0.00065314746 -0.87797898 0.061340678
631000000 -0.88098717 0.071769767 -0.00031289997 -0.0017144815 0.00010241331 -0.0022985602 -0.87744635 0.063748002
632000000 -0.87889373 0.070751719 8.4293839e-005 -0.001694856 -0.00075364002 -0.00089112908 -0.8760429 0.061391823
633000000 -0.87951773 0.072272398 -0.0011831092 -0.0017417525 -0.00043834434 -0.0014099239 -0.87600446 0.061800987
634000000 -0.87918508 0.072829105 0.00089870754 -0.0010284981 -0.0010264267 -0.00066324568 -0.87727147 0.060757402
635000000 -0.87948751 0.071809486 -8.1073602e-005 -0.0018985936 6.0759448e-005 -0.0010108986 -0.87688887 0.063099913
636000000 -0.87955844 0.072543763 -0.00019006708 -0.0016705607 -0.00047686897 -0.0019316656 -0.87690634 0.063044265
637000000 -0.88116127 0.072362646 -0.00033496175 -0.00094140106 -3.033461e-005 -0.0012073859 -0.8765673 0.064066097
638000000 -0.8797636 0.072899736 -0.00023779274 -0.0022523233 -0.00082901347 -0.0010175852 -0.87817538 0.061568219
639000000 -0.88010085 0.072212994 0.00035291471 -0.00087808003 0.00031716333 -0.0014838587 -0.87637115 0.062745914
640000000 -0.8797617 0.072664253 -0.00053687417 -0.0011662277 -0.00013779147 -0.00074352359 -0.87603062 0.061842039
641000000 -0.8796674 0.073522501 -0.00086368289 -0.00083182886 0.00018642617 -0.0024451353 -0.87622613 0.063390955
642000000 -0.87834173 0.072410829 -0.00023160451 -0.0015259598 -0.00028211516 -0.0024794515 -0.87704802 0.063527368
643000000 -0.87786621 0.073896065 -0.00063538388 -0.00095377146 0.00029017159 -0.0016179276 -0.87719864 0.063120775
644000000 -0.87900883 0.073039077 -0.00015031826 -0.00090037938 -0.00016558895 -0.0015116769 -0.8784048 0.063900396
645000000 -0.87995887 0.072242618 0.00051740813 -0.00028165651 -1.4954561e-006 -0.0011510305 -0.87708598 0.064281419
646000000 -0.87903523 0.072968587 -0.00086305611 -0.00098035601 0.00061590417 -0.0012833498 -0.87656403 0.063369364
647000000 -0.87948066 0.074314401 -0.0015669591 -0.0022671851 -0.00098488946 -0.0010500755 -0.87674534 0.063999131
648000000 -0.87890655 0.074160419 -0.00055312074 -0.0012859163 -0.00029724563 -0.0012757562 -0.87580609 0.063704297
649000000 -0.88047755 0.074363418 0.00012455125 -0.0016415499 -0.0012202142 -0.00076402677 -0.8770225 0.064824291
650000000 -0.87979949 0.074146681 -0.0005491894 -0.00073288509 0.00024994178 -0.0025944277 -0.87637782 0.065358847
651000000 -0.87886226 0.075707622 -0.000669236 -0.0021308647 -0.00015733912 -0.0019217146 -0.87612498 0.064135849
652000000 -0.87900114 0.072668836 6.0981802e-005 -0.0012976056 0.0007840179 -0.001590809 -0.8771888 0.065178081
653000000 -0.88011885 0.074418202 -0.00021463458 -0.00026599251 0.00013826476 -0.0011660812 -0.87622935 0.064178303
654000000 -0.87907022 0.075526118 -0.00022547427 -0.0019377263 -0.001375263 -0.0014539893 -0.87697732 0.064064033
655000000 -0.87852365 0.074604042 -0.00082360138 -0.0018125243 3.709169e-005 -0.0012206734 -0.87755477 0.064712353
656000000 -0.87853253 0.073995605 -0.00065417116 -0.00065360643 0.00014149953 -0.0019323783 -0.87696898 0.065389812
657000000 -0.87804013 0.074125394 -0.00036412192 -0.00064235396 -0.00012137436 -0.001833091 -0.87534499 0.065106504
658000000 -0.87710595 0.075749859 -0.00066505017 -0.0019708502 0.00013858361 -0.00094775611 -0.87657225 0.065105096
659000000 -0.87927616 0.073895313 0.00043730112 -0.0022564821 8.7758715e-005 -0.00080657826 -0.87738329 0.064068988
660000000 -0.8792851 0.075278856 -0.00019126627 -0.0004277172 -3.1708958e-005 -0.00071186642 -0.87592632 0.065414742
661000000 -0.88030881 0.076366879 0.0006729443 -0.00068451941 -0.0001618656 -0.0020021817 -0.87733418 0.065505594
662000000 -0.87893033 0.074837506 0.00021649139 -0.0013509241 0.0010736278 -0.00070810306 -0.87801021 0.065882064
663000000 -0.8783161 0.074645638 -0.0003687104 -0.00067910244 -0.00061255612 -0.00065503822 -0.87690598 0.064495318
664000000 -0.8797375 0.075408719 0.00044006904 -0.0013740647 -0.00022983436 -0.0015372215 -0.87624723 0.065467358
665000000 -0.87774628 0.074196175 0.00040618426 -0.0015220628 2.7270607e-005 -0.0013774697 -0.87622219 0.065445714
666000000 -0.88041478 0.075699329 0.00031794867 -0.0013716485 -0.00013673145 -0.00065793638 -0.87627769 0.063971683
667000000 -0.87880617 0.0757204 -0.00069842348 -0.0023269954 -0.00030612352 -0.00071165629 -0.87704718 0.065511756
668000000 -0.87876195 0.07589487 -0.00032029426 -0.0019223607 -0.00047299764 -0.0015345588 -0.8768667 0.065999232
669000000 -0.87862444 0.074030951 0.00077757589 -0.001771907 -0.00083234656 -0.0024070144 -0.87600195 0.065805092
670000000 -0.87778735 0.076243319 -0.00035286311 -0.0019974748 -0.0007480678 -0.00065904588 -0.8770541 0.066871591
