!Keysight Technologies,M9374A,MY55442783,A.12.55.05
!Date: Wednesday, May 19, 2021 16:46:09
!Correction: S11(Full 2 Port(1,2)) 
!S21(Full 2 Port(1,2)) 
!S12(Full 2 Port(1,2)) 
!S22(Full 2 Port(1,2)) 
!S2P File: Measurements: S11, S21, S12, S22:
# Hz S  RI   R 50
500000000 -0.88260251 0.060253795 0.0013079752 -0.0011564314 0.00018481573 -0.00087962323 -0.87737226 0.051590953
501000000 -0.88266343 0.059227753 -0.00062738243 -0.0017360551 -0.0016566915 -0.00047430635 -0.8768509 0.051971413
502000000 -0.88108474 0.059083652 -0.00040723325 -0.00090701907 0.00024903324 -0.00081897562 -0.87755501 0.051441826
503000000 -0.88074231 0.059113789 0.00054492248 -0.0014672203 0.00078747462 -0.00043820485 -0.87843621 0.051348969
504000000 -0.88102424 0.059980426 -0.00019856493 -0.0013233878 -0.0007531803 -0.00093242631 -0.87768936 0.051507529
505000000 -0.88027525 0.059428386 0.00054836791 -0.00066206901 0.00069976691 -0.0012535672 -0.87826836 0.052894738
506000000 -0.88192165 0.060213424 0.00038414492 -0.0011826846 0.00026302377 -0.0015690116 -0.87695402 0.051709898
507000000 -0.88104087 0.060858198 1.5618863e-005 -0.0012467996 -0.00059072062 -0.00027406283 -0.87703258 0.051898282
508000000 -0.88048387 0.060478058 -0.00035502709 -0.0017332881 -5.9564889e-005 -0.0016078555 -0.87904418 0.05348108
509000000 -0.88037348 0.060606956 -0.00019698005 -0.000727078 0.00014904785 -0.0011403996 -0.87708926 0.051809266
510000000 -0.8804189 0.059758324 -4.1733387e-005 -0.001168077 0.00066532829 -0.0019498599 -0.87708819 0.053316154
511000000 -0.88050145 0.061171655 -0.0010664577 -0.0013812362 -0.0003246562 -0.00023459972 -0.87813747 0.054027613
512000000 -0.88020313 0.060336124 -0.00037482282 -0.0003008015 0.00010023511 -0.001720845 -0.88048822 0.053927451
513000000 -0.88005227 0.059505202 3.3305449e-005 -0.00090533664 -2.9259245e-005 -0.00058568019 -0.87813181 0.053005967
514000000 -0.88169193 0.060020193 -0.00054670562 -0.00052984396 -0.00047728897 -0.0019037151 -0.87809056 0.05326236
515000000 -0.87991357 0.060839947 -0.00046334782 -0.00035416891 -0.00060281099 -0.00067160121 -0.87854356 0.053669412
516000000 -0.88102716 0.060974803 -0.00030401646 -0.00010732429 0.00046159947 -0.0003121841 -0.87851042 0.054007728
517000000 -0.88060409 0.061930802 0.00064218749 -0.00087032228 -0.0007417 -0.001043321 -0.87768364 0.054209962
518000000 -0.88070422 0.060829405 -0.00034835964 -0.00027849805 -0.00028852079 -0.0012648681 -0.87642968 0.054235019
519000000 -0.87963426 0.061860837 -5.774224e-005 -0.0016068316 -0.00084432453 -0.00072164001 -0.87800539 0.055368923
520000000 -0.87936163 0.060918659 -7.8585836e-005 -0.0024401257 5.2218289e-005 -0.0011890818 -0.87808055 0.053513341
521000000 -0.88070643 0.062517487 0.00019066189 -0.00067340425 -6.366142e-005 -0.00086764456 -0.87734103 0.054577578
522000000 -0.88251925 0.062546879 0.00029434561 -0.00037301093 -0.00038413127 -0.00056950946 -0.87843025 0.055138689
523000000 -0.87979978 0.060242079 0.00034308719 -0.0017131132 -0.00013233593 -0.00063403923 -0.87770677 0.053388119
524000000 -0.87982082 0.063438036 0.00036655867 -0.00028360661 0.00012830636 -0.00075272185 -0.87760526 0.055006169
525000000 -0.88045496 0.062475145 -0.00017214622 -0.0010586547 1.3378802e-005 -0.00033020167 -0.8784622 0.054134976
526000000 -0.88063627 0.061633758 0.0001670093 0.00026655965 0.00069419458 -0.0015284866 -0.87709385 0.05564614
527000000 -0.88190329 0.0625064 -0.00061982055 -0.00044945991 -0.00079271226 -0.0011956098 -0.87752259 0.055215668
528000000 -0.88084042 0.06242488 -0.00093350979 -0.00059799996 0.00039448935 -0.00087323308 -0.87708253 0.056880828
529000000 -0.88161659 0.06326697 0.00036515249 -0.0015039775 -0.00069838756 -0.00093667617 -0.87713331 0.055513505
530000000 -0.88051587 0.064695708 -0.0012783911 -0.0010833164 -0.00011208664 -0.00094652141 -0.87841076 0.054691665
531000000 -0.88126594 0.063491836 2.6859219e-005 -0.0016834281 -0.0013840483 -0.0010131096 -0.87798023 0.056744345
532000000 -0.8798365 0.061744876 0.00018246603 -0.00024936016 -0.00081593532 -0.0029008619 -0.87737298 0.05735169
533000000 -0.88017827 0.063356109 -0.00070266251 -0.00098087499 0.00056999142 -0.0013701333 -0.87586963 0.055849783
534000000 -0.88018519 0.062961385 -0.0005414554 -0.0012491497 -0.00050906994 -0.00056100159 -0.8772673 0.056079302
535000000 -0.87967259 0.063802816 0.00099993614 -0.0010471909 -0.00026971029 -0.0012210674 -0.87557584 0.056403603
536000000 -0.88079298 0.063248783 -0.00013800064 -0.00024807872 -0.0014587839 -0.001061729 -0.877689 0.056919616
537000000 -0.88050932 0.063082628 -0.00077339797 -0.00056252925 0.00079648098 -0.0010516552 -0.87712628 0.056607414
538000000 -0.87945551 0.063162066 5.3584299e-005 -0.00071348238 -0.00070635264 -0.0013435306 -0.87758487 0.057046667
539000000 -0.88215142 0.063815676 -0.00091180357 -0.002285413 1.3172717e-005 -0.00093108765 -0.87800163 0.056280561
540000000 -0.88075018 0.064622566 -0.0001523245 -0.00086702971 -0.00021059343 -0.0018941261 -0.87692428 0.057030875
541000000 -0.88025177 0.064459801 3.0057461e-005 -0.00022705559 0.00016020633 -0.0012866594 -0.8778699 0.056818821
542000000 -0.88031727 0.064899467 -0.0014535513 -0.0011470335 -0.00029869057 -0.0015955401 -0.87714446 0.057287503
543000000 -0.87979394 0.064718731 -0.00022273771 -0.0019460921 -0.00069008867 -0.0010624958 -0.87762052 0.0581211
544000000 -0.88144428 0.065614305 -0.00075514696 -0.00067840482 -0.00035993013 0.00021469564 -0.87749517 0.055245619
545000000 -0.88178378 0.064094365 -0.00017883211 -0.00047916343 0.00026457422 -0.0014672711 -0.87565762 0.058297824
546000000 -0.88038838 0.065170124 -0.00024874767 -0.0012201113 -0.00065507571 -0.0012153641 -0.87705034 0.0574059
547000000 -0.88118607 0.063890904 0.00013902137 -0.0016608045 0.00010398482 -0.0015483912 -0.87681812 0.056406155
548000000 -0.87891918 0.06659402 -0.00084892963 -0.0022987039 0.00054420735 -0.0010147986 -0.87758929 0.058340441
549000000 -0.88017344 0.064685233 -0.0012827928 -0.0015200232 0.00052737334 -0.0011791029 -0.87637687 0.057738546
550000000 -0.87963051 0.064812094 0.0003096518 -0.00085641845 -0.00018565326 -0.0010208929 -0.87704289 0.058212332
551000000 -0.87992394 0.064699084 -0.00051111617 -0.0006164909 -0.00078484748 -0.0015059928 -0.8793596 0.057837646
552000000 -0.88201511 0.065996476 -0.00058080029 -0.00044755344 -9.2521601e-005 -0.0017217643 -0.876423 0.057261717
553000000 -0.88070917 0.063617334 -6.0556402e-005 -0.00069386116 -0.00034945115 -0.00092881348 -0.87813789 0.05796016
554000000 -0.88096315 0.063905947 8.5677289e-005 -0.00092949462 0.00041628358 -0.0019773964 -0.87803459 0.058675077
555000000 -0.87988383 0.06573417 -0.00026968244 -0.0011917751 -0.00059607375 -0.0013022141 -0.87719595 0.058228746
556000000 -0.88167185 0.063948266 -0.00035974287 -0.0013752562 -0.00059012137 -0.00037897029 -0.87708908 0.05821215
557000000 -0.88018781 0.066089891 -0.00028815586 -0.00017080791 -0.0012458651 -0.001903628 -0.87777841 0.057336781
558000000 -0.87999612 0.066553816 8.6045191e-005 -0.0014253543 0.00041396564 -0.0014764613 -0.87729186 0.057466805
559000000 -0.87994832 0.065393105 0.00052326021 -0.00049278245 0.00041545829 -0.00090103428 -0.87688738 0.059988853
560000000 -0.88051581 0.065986305 -0.00055298948 -0.00024947591 -0.00033087033 -0.0016685536 -0.87710673 0.057800032
561000000 -0.87975532 0.066553026 0.00079002121 -0.0018888417 -0.0011118412 -0.0011727844 -0.87879747 0.058410671
562000000 -0.88096219 0.065676853 -0.00070900103 -0.00074000395 0.0016159138 -0.00060196442 -0.87724495 0.059201144
563000000 -0.88101768 0.065774649 -0.00018970596 -0.0010359713 6.8995025e-005 -0.00082041015 -0.87911361 0.059064195
564000000 -0.87988389 0.0652216 -0.00059053628 -0.00079094991 0.00043127019 -0.0011717343 -0.87689835 0.057825789
565000000 -0.87893867 0.066604167 -0.00098396279 -0.00093658152 5.2746956e-005 -0.00091915554 -0.87616217 0.059643701
566000000 -0.88113713 0.06578213 0.00015808463 -0.0017475971 0.00087037409 -0.0020506261 -0.87816507 0.059865523
567000000 -0.87948442 0.066369064 0.00036381566 -0.001842516 1.6539483e-005 -0.0022262081 -0.87680066 0.057535276
568000000 -0.87873447 0.065733731 -0.00054213929 -0.0020898362 7.8215407e-006 -0.00074448757 -0.87733972 0.05911155
569000000 -0.87940341 0.065976813 -6.7056344e-006 -0.00086463738 0.00061657204 -0.0007592417 -0.87604219 0.058358613
570000000 -0.88045532 0.065678574 -0.0012070091 -0.0008129428 -0.00017220744 -0.0012812113 -0.87695885 0.05867419
571000000 -0.88004309 0.066239893 -0.0011145349 -0.0014589515 -6.1081977e-005 -0.0010073931 -0.87839586 0.060246013
572000000 -0.88023579 0.066182636 -0.00064115558 -0.0021224953 -0.00015825825 -0.0008775274 -0.87683558 0.058307212
573000000 -0.88029349 0.064881794 -0.00096307334 -0.00072318484 -3.682782e-005 -0.00018614662 -0.8749842 0.059493519
574000000 -0.87969905 0.066649124 -0.00051327306 -0.0014675326 -1.7779095e-005 -0.0009120566 -0.87799793 0.060292717
575000000 -0.88197345 0.066212088 -0.00043276473 -0.00099130336 7.3829695e-005 -0.0013066549 -0.87776059 0.059185751
576000000 -0.87933666 0.066244155 -0.0007756417 -0.001052363 -0.00068183453 -0.0013612594 -0.87680423 0.06077148
577000000 -0.87920761 0.066821396 -0.00034441121 -0.0010600365 0.00028837609 -0.0016220049 -0.87977356 0.060042229
578000000 -0.87864816 0.066159062 3.3632812e-005 -0.00086099276 -0.00033158023 -0.0018169241 -0.876625 0.060224973
579000000 -0.87970138 0.067273729 -0.00018066884 -0.0013892922 -0.00025707149 -0.0013941398 -0.87607169 0.059104547
580000000 -0.87943965 0.065035075 -0.0013157787 -0.0008389742 -0.00059616339 -0.00063460181 -0.87725937 0.06103117
581000000 -0.87878853 0.066215739 0.00043466876 -0.00083145447 -5.1132483e-005 -0.00090006099 -0.8773182 0.059570752
582000000 -0.88064903 0.0653449 0.00057237258 -0.0009699965 0.00017946243 -0.0015882667 -0.87868875 0.058193892
583000000 -0.87885326 0.06686487 -0.00059879303 -0.00077392405 -0.00052217557 -0.00089010946 -0.87826192 0.059578702
584000000 -0.87990534 0.067961164 0.0011389558 -0.00079108949 -0.00022896849 -0.00070862332 -0.87709814 0.061438218
585000000 -0.88063377 0.066418499 0.0015667473 -0.00087485375 -0.00016002735 -0.0015880322 -0.87643301 0.059752133
586000000 -0.88026899 0.065805517 0.00074815092 -0.00079531269 0.00079320639 -0.0010562763 -0.87666935 0.058835354
587000000 -0.87855071 0.068111971 -0.00029522073 -0.0010066996 -0.00052274921 -0.00057720597 -0.87671763 0.060867537
588000000 -0.87954277 0.068411447 -1.7662538e-005 -0.0011231549 0.0011110886 -0.00078686408 -0.87805963 0.060073365
589000000 -0.87926811 0.067992575 0.00037067107 -0.0010123558 -0.0011233543 -0.0018012043 -0.87712014 0.061565965
590000000 -0.87904322 0.068643257 -0.00025404789 -0.0007702632 -0.00086273282 -0.0012247624 -0.87564212 0.061156634
591000000 -0.87914634 0.068142541 -0.00026520737 -0.0012566955 -0.00024870431 -0.001244101 -0.876589 0.061083242
592000000 -0.87898856 0.066428222 -3.6397476e-005 -0.0011889333 -0.00033107202 -0.0011202266 -0.87666267 0.060607765
593000000 -0.87914997 0.06777785 0.00017957632 -0.0009049683 -1.3838753e-005 -0.00088374817 -0.87954831 0.060747974
594000000 -0.87865233 0.068933018 -0.00073824939 -0.001426371 -0.00032972405 -0.00079572707 -0.87752604 0.060091227
595000000 -0.87997806 0.069934808 -0.00049256481 -0.00032701934 -0.00034325931 -0.00059521274 -0.87839854 0.062262278
596000000 -0.88072312 0.069621012 -0.00038257899 -0.00097081979 0.00012229448 -0.0011819323 -0.8775177 0.061551876
597000000 -0.88001752 0.06948594 7.6541772e-005 -0.0016239923 -0.0006634139 -0.0011874571 -0.87890589 0.060524192
598000000 -0.88008243 0.069497265 -0.00010995929 -0.0027581048 -0.00016662532 -0.0029736445 -0.87748706 0.062243864
599000000 -0.87820125 0.06873925 -0.0003022422 -0.0018799868 0.00073032494 -0.0015763387 -0.87837309 0.060788289
600000000 -0.8795228 0.067988217 -0.0010825195 -0.0016806788 -0.00021463266 -0.0014132361 -0.87785041 0.062139086
601000000 -0.87918413 0.071116596 -0.00017256878 -0.00086268398 -0.00080477697 -0.00094266451 -0.87606055 0.061835501
602000000 -0.87902284 0.070874356 -0.00084928406 -0.0019326404 0.0010576992 -0.0013019837 -0.87730253 0.062397029
603000000 -0.87947434 0.068319887 0.00043811894 -0.0011798978 6.4123436e-005 -0.0021019955 -0.87625104 0.061365101
604000000 -0.87903029 0.070338696 0.0011210444 -0.0019063483 -0.00090413494 -0.001378061 -0.87806308 0.062069885
605000000 -0.88102925 0.069769271 0.0003265001 -0.001926208 0.00011543014 -0.00066607253 -0.87743121 0.061256792
606000000 -0.88017547 0.070303082 -0.00058819423 -0.0014954653 -0.00047932946 -0.0017884478 -0.87618804 0.062048063
607000000 -0.8792786 0.070648387 -9.6860305e-005 -0.0010092196 -0.00089740439 -0.0001803021 -0.87745345 0.061343055
608000000 -0.87944764 0.070440002 4.7384751e-006 -0.0011267811 -0.00030678423 -0.0015400179 -0.87623096 0.063145235
609000000 -0.87874639 0.070937045 -0.00059620745 -0.00088255526 0.00025085491 -0.0021469779 -0.87648743 0.062932931
610000000 -0.87837344 0.06986586 -0.00014988139 -0.0015347248 0.00011819509 -0.00031320163 -0.87680942 0.062331304
611000000 -0.8786819 0.070957094 -0.00015827495 -0.00059408275 -0.00044236638 -0.00084315968 -0.87569112 0.064070158
612000000 -0.8795628 0.071048945 -0.00062451314 -0.0014929493 -0.00032407566 -0.0012241697 -0.8758117 0.063955575
613000000 -0.87962282 0.071180478 -3.2853841e-005 -0.001420642 0.00033672116 -0.0009979218 -0.87629128 0.062886633
614000000 -0.87912142 0.073155679 0.00022695403 -0.0013267039 0.00034128467 -0.00091258017 -0.87688684 0.063251667
615000000 -0.87816763 0.070124984 0.00016244645 -0.0012014809 -0.00024568307 -0.0019710073 -0.87785232 0.062793493
616000000 -0.87866175 0.072389841 -0.00038384448 -0.0017579022 -0.00082421111 -0.00056225568 -0.87826473 0.063855775
617000000 -0.88005447 0.072296634 -5.4808614e-005 -0.0013678105 -0.00045370281 -0.0013296156 -0.87980109 0.062512159
618000000 -0.87916505 0.072550222 4.5600766e-005 -0.0020044446 -0.00027065302 -0.0014917544 -0.87887317 0.063689902
619000000 -0.87752134 0.072913796 0.00042294405 -0.0016056749 -0.00017061249 -0.002312799 -0.87732416 0.063669406
620000000 -0.87823737 0.071890287 0.00026729217 -0.00026374296 -0.00022607783 -0.0020554252 -0.87761199 0.063414618
621000000 -0.88026971 0.07183519 -5.057453e-005 -0.0010280027 -0.00037213744 -0.0017763763 -0.87593299 0.064220861
622000000 -0.87961495 0.070809104 0.00027410389 -0.0014371749 -0.00015417753 -0.0020565188 -0.87681931 0.064479932
623000000 -0.88003832 0.07315477 -0.00034183133 -0.0014807655 -0.00097857881 -0.0010262298 -0.87786716 0.064581282
624000000 -0.87784427 0.072303258 -0.0001684484 -0.0017740483 -0.000748839 -0.00027355616 -0.87687826 0.063874625
625000000 -0.88066602 0.074429005 -0.00032480669 -0.0016098163 -0.00025772967 -0.0015109482 -0.87521744 0.063860171
626000000 -0.88113725 0.07431145 -0.00083918293 -0.001375468 -0.0002906959 -0.002329794 -0.8764773 0.066026241
627000000 -0.87828493 0.07443206 0.00041156329 -0.0016130715 -0.00066318095 -0.0024681047 -0.87763935 0.064920872
628000000 -0.88002074 0.074079864 -0.00065569882 -0.00042012916 0.00099750666 -0.0017723088 -0.87624222 0.064914361
629000000 -0.88044178 0.073779188 -0.00013677866 -0.0012717902 -0.0005146719 -0.00082272053 -0.87702352 0.065539494
630000000 -0.87704623 0.075222678 -0.00054450094 -0.0018275996 -0.00046373776 -0.0013704788 -0.8766712 0.065659516
631000000 -0.87870491 0.074628755 0.00026009174 -0.00059475942 0.00052268466 -0.00066809542 -0.87767637 0.065276816
632000000 -0.87934279 0.074665487 -0.00056940468 -0.0011436732 -0.0013505353 -0.00039671251 -0.87443495 0.064000726
633000000 -0.87835777 0.074538685 -0.00045155655 -0.001694384 -0.00033630463 -0.0020293375 -0.87593609 0.066136651
634000000 -0.87871718 0.075545155 -0.0010695563 -0.00094268046 -0.00069297268 -0.0016239688 -0.87679183 0.066751398
635000000 -0.87804538 0.074969925 0.00014753184 -0.0011100855 0.00024861429 -0.0015090342 -0.87630898 0.064699382
636000000 -0.87878972 0.075030223 -0.00064584496 -0.00088324468 0.00020038348 -0.0020338919 -0.876831 0.064422034
637000000 -0.88000488 0.075332075 -0.00052485877 -0.0018914007 0.00021069619 -0.0015055013 -0.87662423 0.065768532
638000000 -0.87779981 0.075137749 -0.0012534406 -0.0018370444 -0.0005418596 -0.00061551481 -0.87546849 0.06541042
639000000 -0.88029522 0.074545793 0.00011164107 -0.0014339319 -0.00023149345 -0.0012166699 -0.87641054 0.065392397
640000000 -0.87792498 0.076045603 1.9433061e-005 -0.00098198978 8.9639252e-005 -0.00062658486 -0.8769958 0.066758528
641000000 -0.87959772 0.076331444 0.00048289297 -0.00038654832 -0.00067940936 -0.00021668426 -0.87623191 0.065112561
642000000 -0.87942851 0.077041477 -0.00077374262 -0.0016735245 -0.00021819885 -0.0009912157 -0.8761915 0.06571801
643000000 -0.87902147 0.076211616 -0.00028178247 -0.0020342097 1.7671131e-006 -0.0017366699 -0.87580645 0.065544173
644000000 -0.87838066 0.077583022 -0.00031401197 -0.0012199744 -0.00062654266 -0.0017734019 -0.87678635 0.065245055
645000000 -0.87775064 0.077341847 0.00056877563 -0.0012132279 0.00019088695 -0.001046414 -0.87700444 0.066267341
646000000 -0.87753594 0.077894263 0.00016914043 -0.0012996973 -0.00027013646 -0.0012873586 -0.87632495 0.065315865
647000000 -0.87922597 0.077067547 -0.00062997121 -0.0012604765 0.00020540193 -0.0010017876 -0.87692511 0.067052901
648000000 -0.8782028 0.078156598 -0.00016884047 -0.0013909887 -0.00025366657 -0.0014715578 -0.87617666 0.068226486
649000000 -0.8786121 0.078387015 -0.00051395758 -0.0017578976 -0.00022848614 -0.0009068012 -0.87776804 0.06752605
650000000 -0.87731099 0.077682547 -0.00051406986 -0.0010732815 -1.7517179e-005 -0.0013915274 -0.87475324 0.065857112
651000000 -0.87927634 0.076924033 5.4239459e-005 -0.0013221907 -0.0010117147 -0.00065435859 -0.87455845 0.067547195
652000000 -0.87863314 0.077647977 -0.00046749573 -0.00082247547 -6.3999163e-005 -0.0018323039 -0.87474507 0.067415647
653000000 -0.87717402 0.079028718 -0.00090385182 -0.00094122294 -0.0002880047 -0.0016488569 -0.87589031 0.068216302
654000000 -0.87761784 0.077303357 -0.0002683874 -0.0013256297 -0.00067189499 -0.0027668716 -0.87736082 0.067642383
655000000 -0.87805283 0.07716234 -0.00055845827 -0.0012359291 0.00021701229 -0.0013474447 -0.87449002 0.068607599
656000000 -0.87709701 0.077131033 0.00020175007 -0.0020764349 0.00028679695 -0.0013220489 -0.87624073 0.067334034
657000000 -0.87923038 0.078493647 -0.00060510199 -0.0011881728 -0.00015278916 -0.0015297073 -0.87706298 0.067848876
658000000 -0.8776958 0.078371458 0.0001483486 -0.0023364441 -0.00019859802 -0.0014649985 -0.87612283 0.068138897
659000000 -0.87753141 0.077612586 -0.00071350206 -0.0014950095 0.00021067563 -0.0010457494 -0.87529135 0.067305028
660000000 -0.87763274 0.078235291 -0.00080176047 -0.0005141758 0.00070503174 -0.00075874652 -0.87539268 0.067533843
661000000 -0.87839472 0.077676967 -0.00039678288 -0.0015414135 -0.00012136984 -0.00053858373 -0.87702483 0.068375863
662000000 -0.87766755 0.077657357 -0.00029287639 -0.0018395205 0.0007521091 -0.0017489383 -0.87724966 0.069433428
663000000 -0.87767565 0.078883141 -0.0010688319 -0.001092804 -0.0016910096 -0.0017163052 -0.87564927 0.067609794
664000000 -0.8772611 0.076914065 -0.0012371818 -0.0005198351 8.2284096e-005 -0.00047749601 -0.87631685 0.068025216
665000000 -0.87834823 0.079652444 -0.00053864165 -0.0017384036 -0.00058206276 -0.0010632324 -0.87499309 0.069117218
666000000 -0.87946063 0.080303714 -0.00022921909 -0.0020395315 -0.00020926606 -0.0013613075 -0.87584931 0.067912742
667000000 -0.8788178 0.078578234 -0.00067390379 -0.00087299128 0.00069371628 -0.0017965543 -0.87435424 0.069759592
668000000 -0.87945092 0.078271873 -0.00081548071 -0.0018053054 -0.00023017253 -0.0022758741 -0.87714452 0.069003828
669000000 -0.8789013 0.077932291 -0.00039334389 -0.0008540625 -0.00092507014 -0.0014161899 -0.87644827 0.068722099
670000000 -0.87835211 0.078343108 -0.00019793402 -0.0013733143 0.00051662768 -0.002231583 -0.87576854 0.069162011
