!Keysight Technologies,M9374A,MY55442783,A.12.55.05
!Date: Wednesday, May 19, 2021 16:59:41
!Correction: S11(Full 2 Port(1,2)) 
!S21(Full 2 Port(1,2)) 
!S12(Full 2 Port(1,2)) 
!S22(Full 2 Port(1,2)) 
!S2P File: Measurements: S11, S21, S12, S22:
# Hz S  RI   R 50
500000000 -0.88169926 0.05651613 -0.00053000037 -0.0013088142 0.00049512531 -0.00082259724 -0.87750524 0.048393141
501000000 -0.88262159 0.056657601 0.00038139097 -0.0013889953 -0.0014049844 0.00023221671 -0.87955463 0.049914088
502000000 -0.88323492 0.057234161 -0.00060868025 -0.00020447589 -0.0004232332 -0.0010203837 -0.8800512 0.049600415
503000000 -0.88257915 0.05628702 -7.8500656e-005 -0.00032582221 -0.00044966902 -0.00075774087 -0.87838989 0.048373725
504000000 -0.88161588 0.057808857 -0.00089930167 -0.00052444445 0.0010538035 9.4233756e-006 -0.87985438 0.048781842
505000000 -0.88026208 0.057768706 -0.00025056978 -0.0015608567 0.00067224889 -0.00050344667 -0.87817532 0.050201036
506000000 -0.88253129 0.05626573 -0.00083485898 -0.0012601541 0.00071322086 -0.0018547913 -0.87745667 0.050251141
507000000 -0.88135898 0.056965955 0.00080967159 -0.00033154749 -0.0006227626 0.00097646395 -0.87692112 0.050410278
508000000 -0.88202828 0.058183976 -0.00013774635 -0.0015731304 0.00078302494 -0.00045856161 -0.87876534 0.049768198
509000000 -0.88141817 0.058620926 0.00061661459 -0.00097797299 -0.0002300255 -0.00068232697 -0.87963134 0.050470032
510000000 -0.88179415 0.058324292 -0.00014518357 -0.0015806129 -0.00024686533 -0.00080799049 -0.87779808 0.05092771
511000000 -0.88028795 0.05920177 -0.00066769304 -0.00078051828 0.00060346536 -0.0014720757 -0.87709671 0.051017821
512000000 -0.8821643 0.058090702 0.00040587355 -0.00081011176 -0.00022174254 -0.0020926178 -0.87963361 0.049989831
513000000 -0.88039488 0.058507364 0.00039735305 -0.0014564969 -9.6060849e-006 -0.0014378539 -0.87809289 0.048848066
514000000 -0.88135517 0.058304649 -0.0016671175 -0.00020430931 0.00085438904 -0.0011701855 -0.87778097 0.053034596
515000000 -0.88110399 0.057607111 0.00030062156 -0.0012272049 -0.00088035973 -0.000490351 -0.87871319 0.049128398
516000000 -0.88192278 0.058421228 -0.00065581902 -0.0012457337 -0.00013804586 -0.0013649842 -0.87834102 0.049754392
517000000 -0.8821547 0.060138438 -0.00024330158 -0.0016676803 -6.8409732e-005 -0.0015048834 -0.87673658 0.052628376
518000000 -0.88239294 0.057701755 -0.00056719687 0.00030277253 -0.00020159849 -0.00089257356 -0.87877131 0.051510867
519000000 -0.88135427 0.059254199 0.00055153086 -0.00056275429 0.00035808809 6.0493781e-005 -0.87811971 0.050955895
520000000 -0.88054192 0.058497272 -0.00037998945 -0.0013777808 0.00064536347 -0.0010494977 -0.87801725 0.051639199
521000000 -0.88188922 0.059322715 -0.0004386651 -0.0011624203 -0.000981619 -0.0016192815 -0.87808293 0.053153098
522000000 -0.88272095 0.057534352 0.00055777788 -0.0012554012 2.4045528e-005 -0.0014288821 -0.87825441 0.051826399
523000000 -0.88178265 0.058808275 7.766956e-005 -0.0011277626 -0.00025251211 -0.0013950408 -0.87918669 0.052065391
524000000 -0.88079131 0.059674378 -0.00026743178 -0.0017314737 -0.00076671119 -0.0015054002 -0.87831247 0.051811367
525000000 -0.87909454 0.058968276 -0.00046772754 -0.0010211113 -0.00011750178 -0.0018080084 -0.87896216 0.052266583
526000000 -0.88089395 0.060785845 0.00012148422 -0.00083114457 -7.4054915e-005 -0.0010498086 -0.87874138 0.052596398
527000000 -0.88122976 0.059774093 0.00051181455 -0.0003071941 -0.00029315404 -0.00070591329 -0.87835747 0.052145153
528000000 -0.88278317 0.059601523 0.00022020782 -0.0015121206 -0.00011679761 9.2464739e-005 -0.87715608 0.054121997
529000000 -0.8822419 0.058635559 0.0003677335 0.00057998754 -0.001219811 -0.00087091094 -0.87892365 0.054035269
530000000 -0.88231897 0.06015262 -0.00073674053 -0.0013640616 0.00033930514 -0.001322784 -0.87847036 0.052570254
531000000 -0.88192892 0.059476648 0.0011122831 -0.0002621302 -0.00030114243 -0.0016213824 -0.87822431 0.053941883
532000000 -0.88349169 0.059703812 -0.00025979037 -0.00070823781 0.00030270309 -0.0012590045 -0.87816668 0.052716061
533000000 -0.88097012 0.060768828 0.00020183885 -0.00086117157 2.6000964e-005 -0.0015453997 -0.87911886 0.054976653
534000000 -0.88184965 0.059804488 -0.0010992277 -0.00097463845 0.00062896416 -0.001739849 -0.87717807 0.052367423
535000000 -0.87959456 0.061321009 5.6384761e-005 -0.001793453 9.5167188e-006 -0.002000595 -0.8784709 0.052686881
536000000 -0.88099593 0.058772717 -0.00033003473 -0.0010876874 0.00062291877 -0.0012204539 -0.87794811 0.053175796
537000000 -0.88016737 0.062072307 0.00022695427 -0.0012010835 -0.00032403285 -0.0007976669 -0.87884468 0.052716717
538000000 -0.88120955 0.061149541 -6.1803126e-005 -0.0014621729 -0.00056043227 -0.0016783663 -0.87733269 0.05281996
539000000 -0.88067597 0.059302848 -0.00053214363 -0.0024823714 -0.00028997593 -0.00070805644 -0.8785581 0.053448349
540000000 -0.88142049 0.060744159 0.00032280717 -0.0009178266 -0.00016572316 -0.00092728529 -0.87924659 0.053135622
541000000 -0.88056278 0.061454315 0.00017204536 -0.0010845516 -0.0015028422 -0.0023958399 -0.87833172 0.05505427
542000000 -0.88037241 0.061202209 -0.0007200081 -0.0012223147 -0.0010102149 -0.0011511955 -0.87791985 0.054063447
543000000 -0.88113141 0.06073596 0.00031976879 -0.00088583992 0.0004551996 -0.00083243643 -0.87759101 0.055386987
544000000 -0.88056284 0.061997812 -0.00075793709 -0.00075850775 -0.00056718953 -0.0010434841 -0.8782441 0.05420142
545000000 -0.8815549 0.060841013 -0.0002650313 -0.0015915963 -0.00069680868 -0.00032562134 -0.87856805 0.053030703
546000000 -0.88107812 0.063471839 -0.00013824704 -0.00084624591 -0.0006980006 -0.0016604087 -0.87775373 0.055131972
547000000 -0.88093424 0.063151829 0.00067092135 -0.0018359348 -0.00069024932 -0.0018260893 -0.87793237 0.055652995
548000000 -0.88055331 0.061474491 -4.7970047e-005 -0.0019941744 -0.00039713041 -0.0019412939 -0.87613612 0.056155682
549000000 -0.88046765 0.061310396 -0.0004848252 -0.0026067214 -9.4734591e-005 -0.00097981142 -0.87872648 0.055820927
550000000 -0.88093293 0.062004603 6.2235791e-005 -0.0018899888 0.00014835107 -0.0010833413 -0.877747 0.055635352
551000000 -0.88194817 0.062094312 -0.00047606605 -0.0010124018 0.00054563984 -0.0014411916 -0.87770408 0.056521513
552000000 -0.88085067 0.060758177 0.00052888319 -0.0019206438 -6.4115346e-005 -0.0013257024 -0.87751961 0.054343507
553000000 -0.88097751 0.061928838 -0.00066033105 -0.00052868103 -0.00059065648 -0.0013186659 -0.8777895 0.055306651
554000000 -0.88073033 0.061356273 -0.00077824655 6.8358153e-005 -0.001141379 -0.002052326 -0.87926894 0.054853398
555000000 -0.88159645 0.062480424 -0.00085528032 0.00030452097 -0.0010260715 -0.0016758742 -0.87772399 0.054424327
556000000 -0.88076645 0.06252192 -0.0010910209 -0.00062337855 -0.00059843151 -0.00048494895 -0.87888336 0.055020265
557000000 -0.8831017 0.062824696 -0.00034914596 -0.0013173211 0.00026764625 -0.0022989896 -0.87734967 0.055080831
558000000 -0.8820914 0.061072249 -0.00049822504 -0.0016145136 0.00012039293 -0.0010355235 -0.87789029 0.055773258
559000000 -0.88098985 0.062643781 0.00010504576 -0.0010432079 -0.0016759045 -0.00015006482 -0.87852943 0.056197137
560000000 -0.88028073 0.062894806 -0.00023675927 0.00030592515 -7.7507815e-005 -0.00021786609 -0.87792039 0.056530748
561000000 -0.88075608 0.062172577 -0.00031404657 -0.00069664133 -0.00067587593 -0.0014904321 -0.87801033 0.055757392
562000000 -0.88131183 0.062963441 0.00025317087 -0.0013649758 -0.00081307633 -0.00088737317 -0.87848681 0.056044873
563000000 -0.87961364 0.063961543 0.0002946647 -0.0014891122 8.3935302e-005 -0.00097882072 -0.87776542 0.056223903
564000000 -0.88108629 0.061817504 0.00020324995 -0.0015644205 -0.00052408554 -0.0013973191 -0.87705237 0.056228373
565000000 -0.88156879 0.062112235 -0.00054550107 -0.00088674371 0.00024641221 -0.00071253668 -0.87793928 0.056152556
566000000 -0.88100451 0.062620871 -0.00049348455 -0.0011418416 -0.00056248513 -0.0012487085 -0.87930608 0.055970702
567000000 -0.88018906 0.0643785 -0.0005720699 -0.0014979091 -0.00010928258 -0.0012631556 -0.87793213 0.057578553
568000000 -0.87979144 0.063102357 -0.00031981186 -0.0015453928 -0.001032231 -0.0011550218 -0.87796676 0.055813868
569000000 -0.88086247 0.062161375 -0.00077242515 -0.00098779867 -0.00015060212 -0.0014393812 -0.87790096 0.056969345
570000000 -0.88103235 0.063565627 -0.00018957455 -0.0012349873 -0.00044129399 -0.0015419491 -0.87655193 0.054493919
571000000 -0.88052553 0.061514117 0.00045446592 -0.00081080396 0.00028579036 -0.0020165439 -0.87822825 0.056220919
572000000 -0.87947464 0.061149105 0.00025841888 -0.0018204579 -0.00027033978 -0.0006942263 -0.87699342 0.057330616
573000000 -0.88143456 0.061781101 0.00019403645 -0.0014276558 -0.00015767728 -0.00010332978 -0.87716216 0.057345379
574000000 -0.88033283 0.063112222 -0.00078304106 -0.0016324923 -8.7174914e-005 -0.00052627904 -0.87976366 0.054857217
575000000 -0.87996322 0.063480429 0.00043763264 -0.0019578615 0.00058394717 -0.0013998579 -0.87879163 0.056865707
576000000 -0.88077581 0.064352207 0.000578687 -0.001521452 0.00082236383 -0.0011328759 -0.87805438 0.05733978
577000000 -0.88190824 0.064405769 0.00051868946 -0.0013741679 0.000220983 -0.00047535804 -0.87842184 0.056555498
578000000 -0.88048792 0.063823745 0.00052760093 -0.00131787 0.00038326668 -0.0013276523 -0.87740493 0.05695397
579000000 -0.88125211 0.062925577 -0.00019182074 -0.001928561 5.2505784e-005 -0.00090824178 -0.87831306 0.05685503
580000000 -0.88036186 0.061614919 -0.00028214665 -0.001612076 -0.0011674642 -0.00040490253 -0.87802309 0.057202298
581000000 -0.88034552 0.062538579 4.7928468e-005 -0.00087455736 -0.00045452086 -0.0011008992 -0.87873566 0.056810964
582000000 -0.8786689 0.063755259 -0.0011090602 -0.0011800542 -0.0012149942 -0.0012681537 -0.87803972 0.055323225
583000000 -0.88062787 0.064430885 -0.00074326555 -0.00065928005 6.9820046e-005 -0.0016099805 -0.87780428 0.056713711
584000000 -0.88047141 0.062886842 -0.00032802243 -0.00060024002 -0.00054191181 -0.00090816192 -0.87918192 0.056843024
585000000 -0.88068491 0.064892128 0.00060282776 -0.0013538847 0.00021549706 -0.0017976908 -0.87818593 0.05870435
586000000 -0.88094997 0.063755967 -0.0005727408 0.00035351468 -0.001010846 -0.0015221753 -0.87783533 0.05767782
587000000 -0.88178957 0.064733289 -0.00057133764 -0.00155731 -0.00086472457 -0.0017605305 -0.87572205 0.056532234
588000000 -0.87933773 0.064606994 -0.00062250771 -0.0015884009 0.00024894066 -0.001352545 -0.87941891 0.058677986
589000000 -0.87988371 0.064659454 -0.00033310161 -0.0020034793 0.00036100013 -0.0007442034 -0.87785488 0.056083445
590000000 -0.87980217 0.063160345 -0.00026862524 -0.0003080937 -2.2285487e-005 -0.00094374007 -0.87846321 0.058691878
591000000 -0.8804006 0.065197006 0.00011546053 -0.00060621137 0.00023831247 -0.00089399563 -0.87974268 0.059043672
592000000 -0.88224941 0.064954087 -0.00059314561 -0.00099687744 -0.00040123455 -0.00066638022 -0.87674934 0.058073912
593000000 -0.87887049 0.064494275 0.00058269373 -0.00088441395 0.00080940034 -0.0015502251 -0.87777591 0.057782095
594000000 -0.88014543 0.06482777 0.00020322148 -0.00054655311 7.153053e-006 -0.0012057766 -0.87824178 0.058068726
595000000 -0.87858534 0.064886361 -0.00013479496 -0.00028470243 0.00023799425 -0.00086280401 -0.87762326 0.059041563
596000000 -0.88091964 0.063871063 -0.00068033312 -0.0011710887 -0.0008757271 -0.0011996006 -0.87795949 0.057732616
597000000 -0.88052446 0.065026462 -0.0014368303 -0.00095669541 -0.00045960708 -0.0012231922 -0.87877274 0.0584087
598000000 -0.88063937 0.066106737 -0.0010606123 -0.00050130475 7.8515724e-005 -0.0014508856 -0.87705094 0.058170069
599000000 -0.88015318 0.064949453 -0.00022321766 -0.0010704077 -0.00019891789 -0.0017974982 -0.87832355 0.059679773
600000000 -0.88047576 0.067376085 0.00049607549 -0.0017077324 0.00099878502 -0.00022380412 -0.87691087 0.05888959
601000000 -0.88117701 0.066029884 -3.4699973e-005 -0.0019022521 0.00045083047 -0.0020715813 -0.87623346 0.057799622
602000000 -0.88076973 0.067252874 -0.00011858967 -0.0010249818 8.7523535e-005 -0.0012696382 -0.87855297 0.059194665
603000000 -0.88003314 0.066247799 0.00020220045 -0.00073960796 -0.00098260399 -0.00040177008 -0.87692475 0.059362318
604000000 -0.88075525 0.066904537 -0.00030584249 -0.00076843495 0.00055225397 -0.0023728132 -0.87896562 0.058343746
605000000 -0.88075221 0.067196928 0.00046901972 -0.0017004436 -0.00038655219 -0.00084397331 -0.87822694 0.059314609
606000000 -0.88039815 0.066962212 0.00021693353 -0.0012366568 -0.00037463719 -6.0466984e-005 -0.87817705 0.058569789
607000000 -0.87885952 0.067732878 -0.00094603724 -0.00066348468 -0.00028634994 -0.00054207491 -0.87867099 0.059755258
608000000 -0.8807959 0.066409171 -0.00082461024 -0.00084241177 -0.00062362896 -0.0020252229 -0.87733841 0.058730606
609000000 -0.88029283 0.068686984 -0.00040210623 -0.00090967154 -0.00080807839 -0.0010925683 -0.87744933 0.060632851
610000000 -0.88064528 0.067502826 -0.00082957931 -0.0016415307 0.00080944912 -0.0007212449 -0.87682939 0.060438395
611000000 -0.87979913 0.067227706 -0.00062724086 -0.001016728 -0.00163884 -0.001659831 -0.87742764 0.058043357
612000000 -0.88021266 0.068245046 -0.00034267336 -0.0017402127 -0.00014734689 -0.0022253285 -0.87886524 0.059290968
613000000 -0.88208455 0.068391964 0.00060836854 -0.00073919271 -0.0011576395 -0.0012035721 -0.87655878 0.059790265
614000000 -0.88023734 0.070197999 -0.00014922382 -0.0014219451 -0.00076456479 -0.00040227937 -0.8766486 0.058417063
615000000 -0.88133717 0.067806914 -0.00058606075 -0.0013382899 5.3916472e-005 -0.00055920536 -0.8772825 0.060063004
616000000 -0.87944037 0.068855636 0.00011540777 -0.0012751565 -0.0013310654 -0.00092783355 -0.87672246 0.059810013
617000000 -0.88065356 0.066453882 -0.00090613094 -0.0014592413 -4.6635087e-005 -0.0015256883 -0.87696475 0.061326254
618000000 -0.87977928 0.069543943 -0.00068560662 -0.00092760508 0.00010393458 -0.0017181055 -0.87750739 0.059243023
619000000 -0.87951916 0.068516694 -0.0011156988 -0.0008147037 0.00086089969 -0.0013269793 -0.87768012 0.060935393
620000000 -0.87875396 0.068585075 0.00016554263 -0.0016969981 -0.001185289 -0.0019752828 -0.87711954 0.060645018
621000000 -0.8780567 0.069282643 0.00019019149 -0.00088144332 -0.00029425454 -0.0018699412 -0.87564921 0.059970301
622000000 -0.88036036 0.067676328 -0.0003397571 -0.00084898586 0.00050968543 -0.00063342694 -0.87726086 0.060374532
623000000 -0.87841219 0.070137493 0.00046191824 -0.0020422821 -0.00064655853 -0.0016869005 -0.87659794 0.061093505
624000000 -0.88041574 0.067995422 -0.00061463844 -0.0014116996 -0.00037364676 -0.00085358223 -0.87685049 0.06052722
625000000 -0.88027942 0.070470057 -0.00057260954 -0.0015020949 6.523724e-005 -0.00021723023 -0.87766677 0.060334612
626000000 -0.88119996 0.071392052 0.00012241812 -0.0022647521 -0.0010813077 -0.00030131888 -0.87762433 0.061711475
627000000 -0.87887228 0.068924166 0.00048407077 -0.00075398711 0.00052772509 -0.0014032674 -0.87723744 0.061687298
628000000 -0.88112193 0.071524583 7.6870574e-006 -0.00085262267 -0.00052582927 -0.00090714602 -0.87532735 0.060847726
629000000 -0.87840122 0.070006855 -0.00076548988 -0.00094213325 -0.00041916984 -0.0013752489 -0.87667269 0.060251452
630000000 -0.87815166 0.071193159 0.00088247005 -0.0009345726 0.00040692935 -0.00056197902 -0.87780213 0.061506364
631000000 -0.87898016 0.070427492 -5.7180499e-005 -0.00037606346 -0.00038369256 0.00027142011 -0.87771797 0.063031122
632000000 -0.87817776 0.071385197 -0.00046373994 -0.00080818805 -0.00074764632 -0.0014202533 -0.87715918 0.060882449
633000000 -0.88051391 0.071733803 0.00090887101 -0.00028298268 -0.00014114936 -0.0010498336 -0.87765008 0.060863905
634000000 -0.87904525 0.072509274 -0.00065293396 -0.0014296813 0.00069685245 -0.0022793412 -0.87707216 0.061444268
635000000 -0.88027084 0.071350992 -1.6545353e-005 -0.0024479427 0.00019190293 -0.00025320728 -0.87788838 0.062697925
636000000 -0.87955457 0.071097925 -0.00013766444 -0.0010539973 -0.00077461806 -0.0010304764 -0.87849551 0.061514873
637000000 -0.88074338 0.071643122 0.00055210403 -0.0019315695 -0.00039027323 -0.00079616974 -0.87588322 0.061332405
638000000 -0.87901545 0.071976542 0.001259707 -0.00094811857 0.00048972067 -0.00074954762 -0.87665761 0.062558815
639000000 -0.87837541 0.073896788 -0.00014943202 -0.00091913191 6.3310945e-005 -0.00060189952 -0.87749803 0.064072542
640000000 -0.87920487 0.074025482 -0.00049257785 -0.0024486503 -0.00067784963 -0.00068525592 -0.87607813 0.062318698
641000000 -0.8802734 0.07096526 -0.0010370994 -0.0017364457 -0.0013129922 -0.001585498 -0.87538642 0.062248074
642000000 -0.8783198 0.073512591 -0.00035856949 -0.00029633541 -0.00049189199 -0.00063631748 -0.8787238 0.062649205
643000000 -0.88040555 0.072180063 -0.00028535706 -0.00077424262 -0.00048991991 -0.0018786018 -0.87777215 0.062751271
644000000 -0.87826461 0.073556662 -8.6380816e-005 -0.00034229568 2.5437021e-005 -0.00061802089 -0.87612528 0.064135358
645000000 -0.87921196 0.073598325 -0.00060865888 -0.00024565888 -0.00016881073 -0.00067519193 -0.87709463 0.062415093
646000000 -0.87942046 0.073139235 0.00051498984 -0.00094613514 -0.0003117506 -0.00076397747 -0.8767485 0.063927166
647000000 -0.87896377 0.074472331 0.00035829816 -0.0020541886 -0.00053116243 -0.0013842888 -0.87799001 0.064221375
648000000 -0.87904131 0.073839158 3.9286371e-007 -0.00014023413 0.00079630077 -0.0011420024 -0.87720311 0.064517133
649000000 -0.88021839 0.073795363 0.00047189347 -0.00080492103 0.00058955536 -0.0004961185 -0.87795353 0.063070275
650000000 -0.87806994 0.073598742 -0.00037566066 -0.0012880884 -6.7171983e-005 -0.001113544 -0.87565523 0.06549073
651000000 -0.88016438 0.075098343 0.00015955366 -0.00058693875 0.00027614651 -0.00095361785 -0.87636787 0.063207515
652000000 -0.87907141 0.074904881 -0.0010246047 -0.00058431621 0.00022968842 5.5245109e-005 -0.8766278 0.064835563
653000000 -0.8790251 0.075137459 -0.00028137187 -0.0010302436 -0.0014349358 -0.0018013663 -0.87566406 0.062909402
654000000 -0.87897074 0.073001921 -0.00032549319 -0.00065631646 -0.00061117124 -0.0014054556 -0.87566626 0.063101456
655000000 -0.87812346 0.074193113 -0.00030999069 -0.0011979281 -0.0010949473 -0.00098810997 -0.87657654 0.064917453
656000000 -0.878088 0.073938839 -0.0005078605 -0.0018972289 8.9264118e-005 -0.0011784828 -0.8774364 0.065410651
657000000 -0.878492 0.075090922 7.2549083e-005 -0.0013529301 0.0001389418 -0.0011525417 -0.87687784 0.064837016
658000000 -0.88015825 0.074979655 -0.00039532364 -0.0015354299 -0.00053121144 -0.00081865257 -0.87695867 0.065228395
659000000 -0.87921512 0.074401803 -0.0012536123 -0.0012833747 -0.00084560108 -0.0008791975 -0.87783277 0.062885061
660000000 -0.87950891 0.075116046 -0.00071836793 -0.0017779865 -0.00027781999 -0.0017331186 -0.87696826 0.063673653
661000000 -0.87989163 0.075382955 -7.9044294e-005 -0.00012873742 0.0003172037 -0.0020023903 -0.87684137 0.064850137
662000000 -0.87972158 0.07527452 0.00056424789 -0.0010846165 -0.0002822192 -0.0014768438 -0.87805259 0.067125931
663000000 -0.87947953 0.074850522 0.00016488536 -0.00093748933 -0.0011434178 -0.0012166676 -0.87577075 0.065569572
664000000 -0.87933201 0.075727686 1.8414848e-006 -0.0019279748 -0.00010233335 -0.0016653511 -0.87734473 0.064232655
665000000 -0.87890702 0.075290546 7.3008843e-005 -0.0018489691 0.00013165838 -0.0011812838 -0.87598622 0.063634925
666000000 -0.88035214 0.074522436 0.00017155203 -0.0012688676 -0.00045545981 -0.00090602157 -0.87706196 0.064326875
667000000 -0.8791641 0.074393332 -0.00042430649 -0.0012242292 0.00017355193 -0.0013478865 -0.87736607 0.06492646
668000000 -0.88006222 0.07536111 0.00028998018 -0.0014321263 0.00010491622 -0.0020775588 -0.87733525 0.065821037
669000000 -0.87837583 0.073732041 4.7703063e-005 -0.00046046995 -8.0180667e-005 -0.0012703402 -0.87576902 0.065695457
670000000 -0.87939644 0.075804867 -0.00064185378 -0.0013789092 -0.00034181029 -0.0012371619 -0.87641907 0.064805306
