!Keysight Technologies,M9374A,MY55442783,A.12.55.05
!Date: Wednesday, May 19, 2021 17:05:05
!Correction: S11(Full 2 Port(1,2)) 
!S21(Full 2 Port(1,2)) 
!S12(Full 2 Port(1,2)) 
!S22(Full 2 Port(1,2)) 
!S2P File: Measurements: S11, S21, S12, S22:
# Hz S  RI   R 50
500000000 -0.881235 0.057251986 0.00010943887 -0.0001111169 4.9641025e-005 -0.0014745883 -0.87976563 0.048340172
501000000 -0.88257456 0.055795565 0.00037863734 -0.0013265336 -0.00030962777 -0.0012465337 -0.87788016 0.047787856
502000000 -0.88227355 0.055729553 -0.00013282133 -0.00092417072 0.00086180004 -0.00029237848 -0.87864506 0.049024619
503000000 -0.8823427 0.057235584 -0.00044132271 -0.0011556931 -2.0450523e-005 -0.00086351996 -0.88007849 0.049361516
504000000 -0.88248646 0.057161614 -0.00018230024 -0.0015132718 0.00011646746 -0.0010888232 -0.87911916 0.048509855
505000000 -0.88188273 0.055837333 0.00026086418 -0.0012674492 -9.2597104e-005 -0.00065124768 -0.87859935 0.04955443
506000000 -0.88217747 0.057217058 -0.00030300816 -0.00043853137 0.00066340866 -0.0005625941 -0.87743396 0.047115222
507000000 -0.88286161 0.055585921 -7.9777274e-005 7.2316871e-005 0.0010841659 -0.00047803682 -0.87881255 0.050337896
508000000 -0.88219815 0.056240037 -0.00032870701 -0.00056917121 -0.00035631575 -0.00034113502 -0.87895334 0.05026
509000000 -0.88134462 0.0563039 -0.0001247396 -0.0011696018 0.00013505798 -0.0012053553 -0.87939918 0.04892176
510000000 -0.88296384 0.05798015 -0.0002394591 -0.00046607031 0.00053832709 -0.00017275184 -0.8773365 0.049897395
511000000 -0.88235825 0.057222888 -1.2543072e-005 -0.0014788543 0.0004682951 -0.0011638952 -0.87873954 0.049746301
512000000 -0.88108796 0.056329001 0.00055516133 -0.00070841081 0.00018965917 -0.0017598366 -0.87878484 0.049246248
513000000 -0.88283551 0.058910113 -0.00087242911 -0.0017045897 -0.00044976702 0.00018984686 -0.87933242 0.049070358
514000000 -0.88147002 0.056620944 0.00049557548 -0.00058424158 -0.000370155 -0.0005786306 -0.87950468 0.050841127
515000000 -0.8827433 0.058453832 0.0014409424 -0.0011676245 -0.00017510721 -0.0019830975 -0.87815917 0.05130453
516000000 -0.88135493 0.057251364 0.00070369337 -0.00017085583 0.00041210372 -0.0012669034 -0.87817347 0.051131703
517000000 -0.88088083 0.057041273 -0.00052807847 -0.00064436655 0.0004150024 -0.001215696 -0.87831998 0.050982054
518000000 -0.88153636 0.057820503 4.0940319e-007 -0.00092622312 -0.00088771567 -0.0012070131 -0.87901282 0.049507078
519000000 -0.88193375 0.056941152 0.00060557079 -0.0014047939 -0.00056057586 -0.0013760868 -0.87903595 0.052083984
520000000 -0.88109881 0.05880734 -0.00068900053 -0.0024268192 -9.548488e-005 -0.0017521167 -0.87754166 0.049455024
521000000 -0.88131326 0.059305433 -0.0011446612 -0.0014038782 -0.00078090228 -0.0024952514 -0.87732488 0.050931603
522000000 -0.8821075 0.058850765 -0.0002677578 -0.00059078151 -7.9904312e-005 -0.00077961577 -0.87894362 0.051109117
523000000 -0.88246644 0.058477473 -0.00044323766 -0.00036181076 -0.0003539937 -0.0022894582 -0.87876004 0.050904766
524000000 -0.88006163 0.058038063 0.00015916367 -0.00015574295 6.3876454e-005 -0.0016652148 -0.87888712 0.050620224
525000000 -0.88120311 0.058993537 -0.0010984167 -0.00043811154 -0.00024499951 -0.0011054848 -0.87814957 0.05196178
526000000 -0.88124615 0.059488133 0.00014659455 -0.0010160494 -0.0011883422 -0.0018836902 -0.87854803 0.052356157
527000000 -0.88231927 0.058311693 0.00027700403 -0.0010828928 -0.0010333449 -0.0017142793 -0.87900245 0.05292321
528000000 -0.88095158 0.059012119 -0.00044193634 -0.0017603242 -0.00039736807 -0.0019559751 -0.87682807 0.052388363
529000000 -0.88119882 0.059864845 0.00019861394 -0.002703219 -0.00012913033 -0.0016551458 -0.87836605 0.051742695
530000000 -0.88174033 0.060141448 -0.0011540039 -0.00055975997 0.00012777097 -0.00067406485 -0.8786633 0.052928083
531000000 -0.88223916 0.061679896 0.00059265277 -0.0006303073 -0.0009779575 -0.0011928476 -0.87833995 0.054015331
532000000 -0.88163102 0.06007969 0.00036319441 -0.0010635541 -0.00012917978 -0.0010774494 -0.87830245 0.053391065
533000000 -0.88166815 0.059344184 -0.00067228556 -0.0014868262 0.00036405656 -0.0016339057 -0.87718213 0.053465132
534000000 -0.88140696 0.059559315 -0.00026544929 -0.0014408763 -0.00052481401 -0.00090447249 -0.87810755 0.051411375
535000000 -0.88115996 0.062210802 0.00097659999 -0.00082886562 -0.00099524728 -0.0013603366 -0.87759894 0.053596646
536000000 -0.88088673 0.059661567 0.00032383771 -0.001198958 -0.0001027809 -0.00097862957 -0.87922865 0.05417126
537000000 -0.8804639 0.060307469 0.00036559993 -0.0018476164 -0.00025945524 -0.0009578733 -0.87719834 0.053028401
538000000 -0.88225329 0.061038516 2.174072e-005 -0.001954451 0.00040568897 -0.0014531451 -0.87911409 0.053120878
539000000 -0.8823989 0.06055963 -0.00025241039 -0.0019366912 -0.0005737436 -0.0012152195 -0.87701869 0.052987456
540000000 -0.88214105 0.060297668 0.00077213708 -0.0012206991 0.00077165419 -0.0010057436 -0.87801456 0.053845387
541000000 -0.88137573 0.060850047 -0.00058505964 -0.0012816543 -0.00023892873 -0.0014271599 -0.87895912 0.053230859
542000000 -0.88130265 0.061635524 0.00012932291 -0.0015910571 0.00022005258 -0.0014373828 -0.87832844 0.053164247
543000000 -0.8815589 0.061256435 -3.7661594e-005 -0.0021289699 -0.00080553629 -0.0017019729 -0.87759274 0.053784147
544000000 -0.88120079 0.061190929 -0.00018032565 -0.0018988558 -0.00031422285 -0.00066762435 -0.87838966 0.053114939
545000000 -0.88102102 0.061501078 -0.00085907709 -0.00047946326 -0.00035508082 -0.0012305363 -0.87870431 0.054869369
546000000 -0.88183498 0.060324568 -0.00029262569 -0.00070153142 0.00066360697 -0.00038431911 -0.87694329 0.054858148
547000000 -0.88302547 0.060770389 0.00036155258 -0.0012159212 -3.0632873e-005 -0.0010944721 -0.87869745 0.053046647
548000000 -0.8819747 0.061103806 -0.0003407225 -0.001739944 -0.0003125644 -0.00092712376 -0.87683153 0.054339565
549000000 -0.88118011 0.059817076 1.8255823e-005 -0.00071081187 -0.00057208224 -0.0013443944 -0.879103 0.053989753
550000000 -0.88035995 0.062292483 0.00023812003 -0.0016106885 -0.00023728266 -0.00039136285 -0.87819904 0.055439733
551000000 -0.88120157 0.062159065 -0.00063625438 -0.00085334608 0.00022898847 -0.0016978757 -0.87786508 0.052825529
552000000 -0.88112891 0.06087029 5.2661595e-005 -0.0015677381 -0.0013767178 -0.0015607866 -0.87818772 0.055249084
553000000 -0.88036746 0.061529454 -0.00045827596 -0.0016715912 -0.0015242461 -0.0019804016 -0.87654889 0.053572867
554000000 -0.88131082 0.060109913 0.00041216798 -0.0010883476 -0.00076600432 -0.00083100208 -0.87755471 0.05469254
555000000 -0.88016701 0.063560344 -0.00059640239 -0.00084073568 -0.00087984314 -0.00072091125 -0.8783558 0.054946736
556000000 -0.87953204 0.060936693 -0.00044667785 -0.001158552 5.7171746e-005 -0.0015466172 -0.87712443 0.055559173
557000000 -0.88069254 0.062007017 -0.00026946186 -0.0012304117 -0.00018848221 -0.0015884069 -0.87826759 0.0547245
558000000 -0.88128704 0.060248297 0.00032241552 -0.00063715788 -0.0010327741 -0.00073687767 -0.87674439 0.056516271
559000000 -0.88089633 0.061623331 0.00087730994 -0.0020752326 0.00011327791 -0.0016395139 -0.87877339 0.055557918
560000000 -0.88066459 0.061324272 0.00043616942 -0.00078836939 0.00093210337 -0.0022374962 -0.87859815 0.056700535
561000000 -0.87934542 0.061397992 1.0717589e-006 -0.0019222511 -0.00052338443 -0.0015871552 -0.877388 0.053737797
562000000 -0.8807826 0.062649123 3.1820629e-005 -0.0018360714 -0.00053271517 -0.00065933209 -0.87739575 0.054575205
563000000 -0.87951589 0.061072797 0.00027594375 -0.0010507928 0.0013253613 -3.4910624e-006 -0.87980032 0.056194682
564000000 -0.88139355 0.062054567 -0.00052379811 -0.001201983 -5.770073e-005 -0.00030607337 -0.8773762 0.054376155
565000000 -0.88052797 0.06208669 0.00086360448 -0.0020070267 0.00054811849 -0.00075615197 -0.87819147 0.055804584
566000000 -0.88022274 0.06110622 0.00010181794 0.00015123894 0.00012639696 -0.0017222057 -0.87831098 0.056177694
567000000 -0.87935615 0.061466914 2.8886456e-005 -0.0010452149 -0.00041723545 -0.0014494257 -0.87772739 0.055976879
568000000 -0.88203579 0.06265983 5.4023356e-005 -0.0010808264 0.00023523621 -0.00043307574 -0.87867713 0.054519679
569000000 -0.88195258 0.061508913 -0.00030128256 -0.001588847 0.00082791277 -0.00054928381 -0.87804836 0.05536671
570000000 -0.88146067 0.062590487 -0.00028093052 -0.0012188499 -0.00054682157 -0.00098948064 -0.87899005 0.056612756
571000000 -0.88199025 0.061051227 -2.9806974e-005 -0.0007638383 -0.0010525325 -0.0016786265 -0.87941217 0.056201402
572000000 -0.87964952 0.062460989 -0.0002858029 -0.0024308902 -0.00019893028 -0.00081729743 -0.87802458 0.056854013
573000000 -0.88125974 0.064369857 0.00014209701 -0.0013126923 -0.00082912249 -0.0022575622 -0.87769043 0.056581672
574000000 -0.88047951 0.060834967 7.2931776e-005 -0.0011374956 0.00044531413 -0.00087742717 -0.87872726 0.055234998
575000000 -0.88160437 0.061704494 -0.00066890789 -0.0012550809 6.2130828e-005 -0.0017750189 -0.8783887 0.054460168
576000000 -0.88038892 0.062858611 0.00040631011 -0.0014241214 -0.00040431166 -0.00060632767 -0.87900645 0.055953734
577000000 -0.8820225 0.062010985 -0.00071329979 -0.0010444397 -0.0013775131 -0.0012599677 -0.87875408 0.056756508
578000000 -0.88072944 0.062055733 -0.00044430562 -0.00079253409 -0.00018879749 -0.0018583948 -0.87737215 0.055844247
579000000 -0.88059795 0.061598726 0.00021796992 -0.0010785637 -4.8963884e-005 -0.0019006275 -0.87891543 0.056361176
580000000 -0.87921542 0.062061213 0.00048294934 -0.00068873365 -1.5218988e-005 -0.0017523527 -0.87730211 0.057497304
581000000 -0.8805126 0.062821425 -7.4977237e-005 -0.00092854083 -0.00066235283 -0.0011624298 -0.87830228 0.055421382
582000000 -0.8798005 0.063436314 -0.00055417552 -0.0015171185 0.00024537995 -0.0015378053 -0.87953544 0.056586985
583000000 -0.87968385 0.062992513 -0.00043338511 -0.00077628426 -0.00038024664 -0.0012729878 -0.87895751 0.054468814
584000000 -0.88117528 0.063891046 -0.00025810802 -0.0019125615 -0.00059789873 -0.00076477975 -0.87777799 0.05632621
585000000 -0.88185549 0.063333981 0.00045639885 -0.00064704829 -0.00018358766 -0.0021371322 -0.87911206 0.056135472
586000000 -0.88124049 0.063058913 0.00085014355 -0.00012796452 -0.00010521006 -0.00081883307 -0.87709481 0.056512084
587000000 -0.88038766 0.064303331 0.00029757872 -0.00083468261 0.00024683774 -0.00073384744 -0.87825048 0.057266969
588000000 -0.88058609 0.065018713 -0.0004262763 -0.0013739606 0.00061268697 -0.001459832 -0.87907082 0.056927096
589000000 -0.8806532 0.064589761 -0.00032393826 -0.0012083652 -0.0011616789 -0.00088309165 -0.8784045 0.056546971
590000000 -0.88019824 0.063818693 0.00021835088 -0.0020437657 0.00055729807 -0.0010591075 -0.8791638 0.056635212
591000000 -0.88026154 0.063678764 0.00025690443 -0.0017042561 -0.00048210981 -0.0011100254 -0.87898719 0.057508755
592000000 -0.88013965 0.064684957 -0.00026450728 -0.0011126148 3.71389e-005 -0.0011660968 -0.8773095 0.056915019
593000000 -0.87995571 0.063240848 -0.00039547528 -0.00045228744 -0.0011131036 -0.0013578029 -0.87758934 0.057497751
594000000 -0.879969 0.065224878 0.001084358 -0.00041001968 -0.0010269721 -0.0013361487 -0.8772772 0.058089938
595000000 -0.88040113 0.063862562 2.7423819e-005 -0.00049572135 7.8019584e-005 -0.0018848272 -0.87802458 0.058807105
596000000 -0.88070512 0.065531351 -0.00086610316 -0.00072265457 0.00047216125 -0.00080522621 -0.87736905 0.054745812
597000000 -0.88043809 0.064556718 0.00011148614 -0.0010592265 -0.0003422024 -0.00023385193 -0.87585008 0.055092189
598000000 -0.87915426 0.064089976 -0.0010844581 -0.0020238669 -0.00011291794 -0.0005574809 -0.87841058 0.058916222
599000000 -0.88058329 0.063778996 -0.00031105726 -0.0013914125 -0.00034204745 -0.001212071 -0.87784547 0.056451172
600000000 -0.88068193 0.065953664 -0.00011435329 -0.00089322653 0.0010601245 -0.00094701833 -0.87725747 0.057477828
601000000 -0.8792128 0.066448167 -3.7897917e-005 -0.000412814 0.00032921709 -0.0012656703 -0.87800914 0.059719678
602000000 -0.8804028 0.064505965 -0.0004840059 -0.0012032735 -3.6768575e-005 -0.0021341753 -0.87837327 0.058604483
603000000 -0.88058966 0.065542683 -0.00056942896 -0.0011945926 -0.00057062018 -0.001029691 -0.87785989 0.05829734
604000000 -0.87959349 0.06739755 -0.00025891748 -0.0014909049 -0.00068436889 -0.0020200594 -0.87763387 0.058899146
605000000 -0.88116527 0.066288702 0.00018343919 -0.00050247007 -0.00046065749 -0.002287487 -0.8780151 0.057457514
606000000 -0.88184547 0.067477278 -0.0014959576 -0.0011482296 -0.00052116765 -0.0015935665 -0.87687659 0.058775093
607000000 -0.88112301 0.066794142 -0.00011077831 -0.0010223526 0.00032698104 -0.00063819304 -0.87634814 0.059328157
608000000 -0.87960845 0.067111425 0.0002889068 -0.0013243537 0.00034533112 -0.002107338 -0.87888134 0.058616016
609000000 -0.87958211 0.066505574 -0.00072671083 -0.00099011336 -0.00096422399 -0.0014543093 -0.87807202 0.058531146
610000000 -0.87949061 0.065275736 -0.00023649682 -0.0012918166 5.4483797e-005 -0.0010484882 -0.87857574 0.060428828
611000000 -0.88176179 0.067307785 0.00045649643 -0.00010782366 0.0012838653 -0.00062701647 -0.87771761 0.058352549
612000000 -0.87844527 0.065811224 -0.0010727865 -0.0009367431 4.6607001e-005 -0.00039521875 -0.87616271 0.057399556
613000000 -0.87915957 0.067650385 9.2064678e-005 -0.00096559309 0.00051048538 -0.0015959002 -0.87766421 0.059081629
614000000 -0.88047367 0.068171486 -0.00024481604 -0.00051745464 -0.00045405744 -0.0015708895 -0.87799931 0.060759936
615000000 -0.88137019 0.06636446 7.6345088e-007 -0.0013405868 -0.00071317394 -0.0016892081 -0.8773191 0.059779856
616000000 -0.88220185 0.067923389 0.00070189417 -0.00087434379 3.1575917e-005 -0.00027738113 -0.87711608 0.06070571
617000000 -0.87941533 0.069214195 -0.0005970312 -0.0015313405 -0.00048111536 -0.0011869585 -0.8772279 0.057747088
618000000 -0.88107961 0.068295538 -0.00064468966 -0.0020779087 -0.00044736883 -0.0016064062 -0.87809795 0.059941269
619000000 -0.87937915 0.069801301 -0.0006628487 -0.00031962706 0.00031503569 -0.001543112 -0.87718934 0.059520837
620000000 -0.8769964 0.068394363 3.6458598e-005 -0.0016395744 0.00074516702 -0.0011496641 -0.87700725 0.060723446
621000000 -0.87936944 0.070007779 -0.00081104512 -0.0018128854 0.00046977255 -0.001942225 -0.87677443 0.060516726
622000000 -0.8799001 0.067345142 -0.00093573797 -0.0012540201 -0.00034257848 -0.0014589189 -0.87779629 0.06079495
623000000 -0.87908179 0.069692001 -8.3394611e-005 -0.0012919984 -0.00019051235 -0.00071256579 -0.87802202 0.060725722
624000000 -0.87853938 0.069866136 0.00023966278 -0.0015258256 0.0011005924 -0.0020685266 -0.87856638 0.061513606
625000000 -0.87937516 0.069021858 0.00042600019 -0.0023228235 -0.00014090455 -0.0014418925 -0.8763023 0.060886264
626000000 -0.88033801 0.070049442 0.00024788547 -0.0014495389 -8.879423e-005 -0.0020734433 -0.87732989 0.059744444
627000000 -0.88032162 0.070143946 -0.00033009404 -0.00053454807 -0.00038291368 -0.0013716657 -0.87815332 0.061028834
628000000 -0.88153875 0.068599373 4.607045e-005 -0.0021354528 -0.001907803 -0.00077063718 -0.87770504 0.061732948
629000000 -0.88024056 0.069403611 4.6829267e-005 -0.0016824696 -0.00014480799 -0.0011004909 -0.87763351 0.060622573
630000000 -0.87898844 0.070387341 -0.00087039365 -0.0014014079 -0.00016996455 -0.0015813317 -0.87690973 0.061327271
631000000 -0.881639 0.070405394 -0.00043094362 -0.0014472089 -0.00092569261 -0.00085712783 -0.87776321 0.061655525
632000000 -0.88109297 0.072228976 -7.2651901e-006 -0.0008473802 -0.00043465511 -0.00063870387 -0.87732464 0.060761876
633000000 -0.88068718 0.070231393 3.1367992e-005 -0.00091553642 -5.9005382e-005 -0.0015182511 -0.87726444 0.059816338
634000000 -0.87901986 0.0706691 -0.00052427687 -0.0018439528 0.00038103023 -0.0011272304 -0.87761158 0.061678663
635000000 -0.88112259 0.070258997 -0.00088331942 -0.0010489174 -0.0011203708 -0.00068765657 -0.87709171 0.060706526
636000000 -0.88009125 0.069830872 -0.00025157823 -0.001385632 2.7749511e-005 -0.0011293256 -0.87980318 0.063949697
637000000 -0.88038355 0.071413033 -0.00071756594 -0.0018832717 0.00013066111 -0.00091997767 -0.87681204 0.061739229
638000000 -0.87857723 0.072571129 -0.0005330742 -0.0021277131 0.00081200869 -0.00092889572 -0.87789905 0.062055655
639000000 -0.87961501 0.072438456 -0.0010175225 -0.0015602028 -0.00045680939 -0.001027579 -0.87910569 0.061902672
640000000 -0.87988114 0.070944093 -0.00080396078 -0.001811041 0.00019702039 -0.00091704191 -0.8771103 0.061117865
641000000 -0.87747276 0.071329027 -0.00094084482 -0.00086814887 -0.00019471052 -0.0014126232 -0.87700194 0.061801028
642000000 -0.87905246 0.072983623 -0.00016920347 -0.0019562654 -0.00048267056 -0.00081385358 -0.87915462 0.061602037
643000000 -0.87917215 0.07144729 -0.00014775174 -0.0013759398 0.00034639152 -0.0019677216 -0.87825334 0.061422672
644000000 -0.87959665 0.072121672 -0.0002946535 -0.0015821904 0.00020973751 -0.0012240035 -0.87704808 0.063611038
645000000 -0.87961048 0.073190026 0.00070614566 -0.00078299968 0.00081416179 -0.0020817672 -0.87717158 0.063303389
646000000 -0.8804093 0.072897315 -0.00083349738 -0.0011172122 -0.00028216542 -0.0014023902 -0.8779664 0.063427746
647000000 -0.88010097 0.072469786 -0.00050179951 -0.0022607818 -0.00018950469 -0.0010032585 -0.8779192 0.061923277
648000000 -0.87941164 0.073656797 0.00054316974 -0.0012154625 -0.00052727928 -0.0010317223 -0.87762475 0.064365022
649000000 -0.88012534 0.071918137 -0.00069561478 -0.00064479461 0.00029214541 -0.0015026241 -0.8764751 0.06333869
650000000 -0.87883359 0.072665781 -0.00012971908 -0.0009996118 -0.0010967979 -0.0002866943 -0.87667936 0.062931485
651000000 -0.88056672 0.072633497 -0.00021712325 -0.00061753107 -0.00090753479 -0.00086287328 -0.87750185 0.06182164
652000000 -0.87974691 0.073769115 -0.0011168396 -0.0011677289 -0.0009968779 -0.00076961453 -0.87635314 0.063394189
653000000 -0.88035816 0.07445839 -9.2706337e-005 -0.0016040079 0.00084564328 -0.00072941504 -0.87787598 0.061639756
654000000 -0.88047111 0.074383929 0.00051930419 -0.0020493574 -0.0007952539 -0.001469961 -0.87681389 0.06238452
655000000 -0.87971932 0.075227268 -0.00029242036 -0.0015624515 7.4199677e-005 -0.0012720572 -0.87706578 0.063929833
656000000 -0.87929261 0.075053237 -0.00041466349 0.00064094923 -0.00029605211 -0.0013787549 -0.87781733 0.063791879
657000000 -0.87867999 0.074286439 0.00025157258 -0.00080623728 -0.00085502374 -0.0020680313 -0.87697262 0.06403973
658000000 -0.88116801 0.073876135 0.00067182357 -0.0011532297 -0.00020421908 -0.00029366754 -0.87629324 0.062190276
659000000 -0.87917143 0.075756282 -0.0006539005 -0.00082131976 -0.00055826781 -0.0016633961 -0.87726891 0.06483525
660000000 -0.87893569 0.073338993 0.00010193441 -0.001530052 5.5648987e-005 -0.0017420353 -0.87646186 0.063776642
661000000 -0.87926787 0.074818201 0.00015046405 -0.0019346621 0.00010351533 -0.0019765592 -0.8773784 0.064967155
662000000 -0.88043463 0.072885871 -0.00044566483 -0.0011736399 0.00028866783 -0.0015657425 -0.87780952 0.064267002
663000000 -0.87933511 0.072999567 0.00017507857 -0.0012540951 9.4336261e-005 -0.0012670931 -0.87572092 0.06386137
664000000 -0.87746745 0.074890412 -0.00050268101 -0.0014397042 0.00044764779 -0.00099909643 -0.87767518 0.062784471
665000000 -0.87971383 0.075549096 -0.00081275799 -0.0017424744 -0.001513914 -0.00081838586 -0.87593138 0.064817503
666000000 -0.87832952 0.075244918 0.00027518425 -0.0020039356 0.0007323458 -0.00087301701 -0.876845 0.064086974
667000000 -0.88004202 0.073525548 0.00039354933 -0.0012994187 -0.00016648417 -0.002011419 -0.87550062 0.065748967
668000000 -0.87903941 0.073811099 -5.8926809e-005 -0.00095104176 -0.00046089667 -0.00094758195 -0.87848902 0.064377621
669000000 -0.87935382 0.073834017 -0.00088155648 -0.00080021296 -0.001343013 -0.00030358441 -0.87630719 0.063538924
670000000 -0.87754428 0.074594788 0.00059960666 -0.001667461 0.0004425584 -0.0018187519 -0.87695765 0.064892933
