!Keysight Technologies,M9374A,MY55442783,A.12.55.05
!Date: Wednesday, May 19, 2021 16:48:51
!Correction: S11(Full 2 Port(1,2)) 
!S21(Full 2 Port(1,2)) 
!S12(Full 2 Port(1,2)) 
!S22(Full 2 Port(1,2)) 
!S2P File: Measurements: S11, S21, S12, S22:
# Hz S  RI   R 50
500000000 -0.88051379 0.058617748 -0.00018682254 -0.00084962882 -0.00023790709 -0.0014442378 -0.87878245 0.050629724
501000000 -0.88188356 0.058735218 0.00062079262 -0.00081513857 -0.00012287065 -0.0005459956 -0.87634468 0.052117109
502000000 -0.88308334 0.058164015 0.00025294485 -0.002260353 0.001081801 -0.0002539517 -0.87662369 0.050959609
503000000 -0.88048083 0.059427824 -0.00042218767 -0.00095107179 -0.00055236684 -0.0004945051 -0.87962902 0.049482528
504000000 -0.88189387 0.060414966 -0.00046718822 -0.0004999357 -0.0006439421 -0.0010792583 -0.87861246 0.050780267
505000000 -0.88062251 0.057005651 -0.00054751418 0.00017481191 -0.00069354248 -0.002166505 -0.87765872 0.050749913
506000000 -0.88105887 0.059720639 -0.00029072032 -0.00022389466 -0.0010647172 -0.0011903616 -0.87873209 0.050541364
507000000 -0.88165724 0.059250325 -9.682768e-005 -0.001071447 -0.00079122919 -0.00037525562 -0.87850493 0.052225608
508000000 -0.88118374 0.058930341 0.00014244672 -0.0010847913 0.00012527154 -0.001315295 -0.8785395 0.051075831
509000000 -0.87983364 0.060240339 -0.0012881875 -0.0011499332 -0.00010401271 -0.00056401006 -0.87886387 0.052558202
510000000 -0.88242292 0.060658522 -0.00056144776 -0.00071089808 -0.00014467929 -0.0013948582 -0.87845379 0.051967416
511000000 -0.88169724 0.059158366 -0.00026846706 -0.0015203829 -9.6090771e-005 -0.00087349291 -0.87854397 0.053366154
512000000 -0.88146132 0.059888035 -0.0002575804 -0.00062268547 -0.00099596777 -0.0017359356 -0.88050425 0.053358324
513000000 -0.8825959 0.060695011 -0.00082640274 -0.0010559984 0.00045479723 -0.0013549174 -0.87758714 0.052592065
514000000 -0.88143426 0.060677689 -0.00010078428 -0.0015714054 0.00062287069 -0.0019136982 -0.87978828 0.052666984
515000000 -0.88077784 0.060096782 -0.00049545558 -0.0013701491 0.00029490335 -0.00099682284 -0.87833762 0.053522449
516000000 -0.88266927 0.059486389 -0.00032473143 -0.0023737988 0.00012428366 -0.00083964935 -0.87813568 0.053377602
517000000 -0.88136452 0.059445631 0.0003005382 -0.00095885783 -0.0011420685 -0.0016244318 -0.87702364 0.052763995
518000000 -0.88148701 0.059568357 -0.00023852556 -0.0011319291 0.00021854611 -0.0010143773 -0.87741071 0.052692879
519000000 -0.88165092 0.06037901 9.0553345e-005 -5.8606041e-005 0.00065895362 -0.0014568794 -0.87608069 0.054686908
520000000 -0.8806771 0.060603246 -0.0010786561 -0.00058004638 -0.00095557747 -0.00052580761 -0.8773436 0.053241316
521000000 -0.87961423 0.061844606 5.8179317e-005 -0.0012456558 -0.00015187605 -0.0012025298 -0.87748396 0.054144721
522000000 -0.88140386 0.060690653 -0.00061943661 -0.002008409 -0.00042654329 -0.0010270105 -0.87750542 0.054727171
523000000 -0.8819443 0.060819265 -0.00091547397 -0.00097301241 0.00013851191 -0.00074580382 -0.8769114 0.054227445
524000000 -0.88120091 0.060749598 0.00019631805 -0.0019209855 -0.00082827715 -0.00063623895 -0.87686932 0.054137085
525000000 -0.88192576 0.060130812 0.00013222452 -0.0016746423 0.00019948973 -0.0012097311 -0.87819678 0.053183969
526000000 -0.88031101 0.062807508 0.00068516348 -0.0015481428 0.00031415606 -0.0014994235 -0.87730467 0.055294096
527000000 -0.88027364 0.062773071 0.0010691391 -0.0012537404 -0.00097707799 -4.9457583e-005 -0.87906486 0.055371873
528000000 -0.88162488 0.061021097 -0.00054318144 -0.0016854458 0.0002918315 -0.00064438442 -0.87626004 0.054720096
529000000 -0.88205558 0.061832089 0.000700003 -0.00061182445 -0.0014035933 -0.0008805223 -0.87749791 0.055784304
530000000 -0.88069481 0.062791526 -4.4524098e-005 -0.00061455125 -0.0012706261 -0.0013395729 -0.87760365 0.05469643
531000000 -0.88193977 0.062349536 -0.00034971818 -0.00087043975 -0.0005089959 -0.00082820049 -0.87851679 0.05567662
532000000 -0.8816545 0.063134193 0.00034319109 -0.0015932613 -0.00076087768 -0.00097464799 -0.87740135 0.055165704
533000000 -0.88046581 0.062499873 5.680482e-005 -0.0015075662 -0.00093394949 -0.0014576511 -0.87889433 0.055652507
534000000 -0.88201106 0.06290742 -0.00097056455 3.5849756e-005 0.00055330765 -0.00095928129 -0.87826824 0.05492948
535000000 -0.88213283 0.063992403 -0.00079253787 -0.001220269 -0.00014523929 -0.0009940078 -0.87722695 0.055270404
536000000 -0.88041121 0.064324625 -0.00082419929 -0.0013848986 0.00098678085 -0.0010088449 -0.87737513 0.055662252
537000000 -0.88087863 0.063594967 -0.0008676431 -0.0011592734 -1.7219139e-005 -0.0012918628 -0.87815732 0.055693939
538000000 -0.88121355 0.062404793 0.00015585183 -0.00039846092 0.00032345706 -0.00061581656 -0.87579167 0.055258233
539000000 -0.88128376 0.061127584 -0.00093662058 -0.0016732442 3.6472677e-005 -0.00091697904 -0.87716997 0.056010123
540000000 -0.88115829 0.061806358 -0.00063260732 -0.0015822073 0.0005776324 -0.0011623653 -0.8794983 0.056755736
541000000 -0.88214648 0.062649429 3.9388113e-005 -0.0022749191 -0.00045993426 -0.0012234374 -0.87680924 0.055865981
542000000 -0.88160187 0.062472016 0.00061467377 -0.0011271064 0.00037427814 -0.00043036407 -0.8764742 0.056844678
543000000 -0.87825656 0.062481951 0.00065889943 8.3950632e-005 -3.156946e-005 -0.00074871862 -0.87677413 0.056756675
544000000 -0.88065434 0.062195141 -0.00064008671 -0.0018948938 -2.0888147e-005 -0.0016129366 -0.87900084 0.056242235
545000000 -0.88077319 0.063376077 3.8619597e-005 -0.00031987269 -4.6259011e-005 -0.00060607074 -0.87770528 0.055908561
546000000 -0.88104707 0.064568363 0.00021934554 -0.00099759258 0.0016149267 -0.00019727144 -0.87785769 0.056358177
547000000 -0.88007414 0.0631641 0.00048877101 -0.00078879122 7.0746378e-006 -0.0014597353 -0.87749213 0.055883352
548000000 -0.88193065 0.064418338 -0.00070772722 -0.00140468 0.00014906142 -0.00066173624 -0.87888765 0.0579166
549000000 -0.88161552 0.064750142 0.00011378359 -0.001843137 -0.0014439794 -0.001088187 -0.8780328 0.056404192
550000000 -0.87929481 0.064876989 -0.00017469031 -0.0020702307 -8.4426152e-005 -0.00099917816 -0.87645066 0.05823347
551000000 -0.88075954 0.063674837 0.00012383028 -0.0012188993 -0.00060902711 -0.0017530462 -0.87625051 0.056876928
552000000 -0.88117766 0.063723177 -0.00014426386 -0.0020167544 -0.00014522451 -0.00027162288 -0.87750965 0.057390656
553000000 -0.88005883 0.063131116 0.00018327206 -0.0010827815 -0.00021115429 -0.00081116991 -0.87891346 0.057173654
554000000 -0.88036364 0.064049035 -0.0011549401 -0.00056612585 -0.00079251488 -0.001213975 -0.87757647 0.057841837
555000000 -0.88078749 0.064208433 -0.00010493649 -0.0013320888 -0.00038676441 -0.00048361867 -0.87716043 0.055849735
556000000 -0.88144428 0.064408101 -0.00028372236 -0.00082889723 -0.00073442928 -0.0010375397 -0.87915134 0.057506248
557000000 -0.88058686 0.06558308 0.00015684334 -0.0016384384 -0.00059891783 -0.00042239763 -0.87816668 0.057217546
558000000 -0.87958485 0.06327635 -0.0017691869 -0.0010294623 -0.00012324646 -0.00084774551 -0.8768819 0.056965586
559000000 -0.88129747 0.063331701 -0.00057943899 -0.00031300099 -0.0016535416 -0.0011459945 -0.87737006 0.059614994
560000000 -0.88049459 0.063459128 -0.00099696394 -0.0012094438 -0.00052263599 -0.0015279438 -0.87749779 0.058129087
561000000 -0.87949896 0.064804129 -9.4621493e-005 -0.0017281421 8.6078704e-005 -0.0011146908 -0.87729692 0.057293732
562000000 -0.88102192 0.064356036 -0.00057599222 -0.00077412173 -0.00041471768 -0.00096010935 -0.87723553 0.057299156
563000000 -0.88083285 0.063713469 -0.00040715255 -0.00084623171 -0.00051666133 -0.00091111765 -0.87840199 0.059575494
564000000 -0.8811745 0.064061947 -2.9209476e-005 -0.0017647403 -0.00022202177 -0.0010125914 -0.87857091 0.056924753
565000000 -0.880943 0.063807122 0.00049279915 -0.0013121187 0.00018513136 -0.0011162099 -0.87720692 0.057544667
566000000 -0.88140035 0.063460335 -0.00013345858 -0.0015253535 0.00016891354 -0.0003658566 -0.87701446 0.056549285
567000000 -0.87992305 0.064624563 -2.2713955e-005 -0.0011235358 0.00058762345 -0.0013469015 -0.87689209 0.058363006
568000000 -0.87954801 0.065310284 -1.6122391e-005 -0.0011095267 -0.00051626586 -1.980135e-006 -0.87891084 0.058599781
569000000 -0.88024014 0.064491443 0.00013017394 -0.0007130329 0.00051189645 -0.001026193 -0.87750047 0.056749877
570000000 -0.88091683 0.066426635 -0.00023571719 -0.00075224962 0.00013861942 -0.0012789479 -0.87662667 0.057572886
571000000 -0.88110691 0.064017691 -0.00067522854 -0.0009220941 0.00026382721 -0.00079128618 -0.87779844 0.058572244
572000000 -0.88018101 0.064406812 0.00033643816 -0.00079326116 -0.00087189703 -0.0022020536 -0.87797999 0.05774916
573000000 -0.88180536 0.063518807 1.6418851e-005 -0.0002783346 -0.00033609493 -0.00178105 -0.87769622 0.0592926
574000000 -0.88076568 0.064509735 0.00027886819 -0.00099785975 -0.0014251816 -0.0012246345 -0.8786875 0.057602413
575000000 -0.88004684 0.065185912 -8.8002387e-005 -0.0015608435 0.00051414012 0.00061598397 -0.87747556 0.057196684
576000000 -0.87974715 0.064154506 2.2468108e-005 -0.0018705777 0.00027581991 -0.001546837 -0.87701839 0.059035562
577000000 -0.87915224 0.063270278 -0.00020011318 -0.00056191272 -0.0010025591 -0.001112577 -0.87870771 0.058923591
578000000 -0.88038546 0.065487407 0.00034784825 -0.0018837627 -0.0003670255 -0.00076428719 -0.87838751 0.058740646
579000000 -0.87890637 0.064937666 -0.00029121235 -0.00071471237 0.0009364711 -0.0009263017 -0.87736732 0.05853245
580000000 -0.87984359 0.065753177 -0.00062651286 -0.0010528746 0.00011851903 -0.0016256141 -0.87729973 0.059460524
581000000 -0.88035417 0.065110318 -0.00034485915 -0.0010885668 -0.0012206121 -0.0018643762 -0.87690508 0.058188297
582000000 -0.88069117 0.065881044 -0.00094138982 -0.0016195512 -0.00012064642 -0.001355573 -0.87717903 0.058600061
583000000 -0.87980241 0.066412352 -4.6103549e-005 -0.00037997754 0.0001067935 -0.0020389324 -0.87624365 0.058007106
584000000 -0.88080293 0.064714685 -0.00016918092 -0.00012644245 -0.00038120477 -0.0018043589 -0.87720263 0.058499087
585000000 -0.8805871 0.067238107 -0.00015896669 -0.0024564322 -0.00035529389 -0.0013031176 -0.87803811 0.060269926
586000000 -0.87863714 0.06640555 -6.1212042e-005 -0.0020010641 -0.00056206645 -0.00097864482 -0.87764162 0.058618855
587000000 -0.87875575 0.065631323 -0.00098253158 -0.0017013757 -4.0686329e-005 -0.00061065052 -0.87729669 0.059901245
588000000 -0.87932539 0.067743629 0.00015895924 -0.0013968544 -0.00099799538 -0.0012163887 -0.87867475 0.058458515
589000000 -0.87856215 0.066789567 -0.00016497169 -0.0012601947 0.00026675325 -0.0013039263 -0.8763358 0.058854245
590000000 -0.87857848 0.068231955 -0.00062530045 -0.0014131718 -0.00077211246 -0.0025877315 -0.87827343 0.060198013
591000000 -0.87929559 0.065523848 0.00055768038 -0.0013893999 -0.00015615902 -0.0003113774 -0.87657249 0.062149901
592000000 -0.88086623 0.065236382 -0.00053418503 -0.00083802716 -0.00049501727 -0.0026152406 -0.87719655 0.05932904
593000000 -0.87937403 0.067432441 0.00020606973 -0.00098869961 0.0005705459 -0.0007702834 -0.87698138 0.058160745
594000000 -0.88056099 0.066974945 -0.00059643725 -0.00070626539 -0.00056943321 -0.0021103204 -0.87801903 0.060578775
595000000 -0.88014257 0.067541748 -0.00014668923 -0.00031761848 -0.00044399165 -0.001302405 -0.87771034 0.06022327
596000000 -0.88021797 0.067384236 0.00033998484 -0.0015815442 -0.00034448027 -0.00059329928 -0.87671638 0.059796102
597000000 -0.88088888 0.067715935 -9.9965364e-005 -0.001636691 -0.00022804407 -0.0013230107 -0.87752348 0.059423771
598000000 -0.87924963 0.067188397 -0.00023659891 -0.0014233409 -0.00026270805 -0.0021892425 -0.87764275 0.06011495
599000000 -0.87953377 0.067057431 0.00059097441 -0.00085025968 -0.0014597443 -0.0014280479 -0.87660587 0.061184183
600000000 -0.88089311 0.068251953 -0.00053423393 -0.00035790729 -0.00019935865 -0.00064744946 -0.87658936 0.059806641
601000000 -0.87989455 0.069580093 -0.00019893289 -0.0010668847 -0.00072263792 -0.00087959302 -0.87803358 0.061619829
602000000 -0.87959683 0.069046691 -0.00086661446 -0.00034995427 -0.00076952128 -0.0021917487 -0.87770575 0.059120413
603000000 -0.87860322 0.069615982 -0.00075625052 -0.0015467121 -9.7754586e-005 -0.0015697859 -0.87743264 0.060497485
604000000 -0.87889612 0.069370739 -0.00070309488 -0.00073025568 0.00012112965 -0.0010682329 -0.87635946 0.061366256
605000000 -0.87870556 0.069545463 -0.00083170593 -0.002766365 0.00043112968 -0.001284875 -0.87857777 0.060641274
606000000 -0.87863177 0.067765869 0.00017224396 -0.0016531524 -0.00065482612 -0.0017632685 -0.8762756 0.060857952
607000000 -0.87951279 0.069733009 0.00090864784 0.00028061177 -0.0017564861 -0.0017057521 -0.87639618 0.06064092
608000000 -0.88060772 0.069718726 -0.00093350391 -0.0015925723 0.0010714618 -0.0010120567 -0.87740827 0.060556252
609000000 -0.87949967 0.070028216 0.00029720116 -0.0010451271 0.0004171484 -0.00097462186 -0.87774408 0.061364207
610000000 -0.8783406 0.069219433 -0.0011146023 -0.00069186219 -0.00014969258 -0.0011846666 -0.87819844 0.060723476
611000000 -0.87941176 0.0699616 -3.5878365e-005 -0.00073798624 0.00053768873 -0.0013333359 -0.87742013 0.061996534
612000000 -0.8788082 0.070754893 -2.1986027e-005 -0.0010758726 -0.00013186618 -0.0025410205 -0.87723547 0.062811509
613000000 -0.87855607 0.070262007 -0.0001313228 -0.0023459026 0.00038000697 -0.0022719796 -0.87697184 0.062287457
614000000 -0.87920982 0.070797533 -0.00068595336 -0.0018446766 0.00041579537 -0.00044177176 -0.87812579 0.06125214
615000000 -0.87920105 0.070966259 -0.00034383079 -0.00020192665 -0.00061116932 -0.0011409406 -0.87737978 0.061748412
616000000 -0.87826169 0.071926512 0.00054084888 -0.0016486977 -0.00083201099 -0.00038401256 -0.87743688 0.062264822
617000000 -0.8804543 0.071196899 0.00073773263 -0.0016523125 -0.00018214504 -0.0010788232 -0.87902647 0.064863831
618000000 -0.88034791 0.072232977 -0.00063519797 -0.001777704 -0.0011769934 -0.0015796283 -0.87684721 0.063329175
619000000 -0.8787266 0.073028214 -0.00039512143 -0.0010605181 5.4806555e-005 -0.0019806474 -0.87562537 0.062761277
620000000 -0.87961179 0.071075477 0.00016685147 -0.0011334298 -0.00089161796 -0.0012184876 -0.87616551 0.062432077
621000000 -0.88071752 0.070799112 -0.00071672222 -0.0013556214 -0.00038723912 -0.001588985 -0.87682408 0.063020162
622000000 -0.87903214 0.071886316 1.9685389e-005 -0.0016053667 1.5518426e-005 -0.0020021696 -0.87833923 0.062163275
623000000 -0.87877661 0.073091745 -0.0007037507 -0.0014265503 -0.0014016994 -0.0009968403 -0.87685406 0.061927937
624000000 -0.87846136 0.072218291 -0.00077452965 -0.0014826927 -0.00092496094 -0.0015107794 -0.87638944 0.063481651
625000000 -0.87855583 0.073047839 0.00090760808 -0.00020068281 -0.000605801 -0.0010371379 -0.8778398 0.063595831
626000000 -0.88020623 0.072840422 -0.00076286332 -0.0011242013 0.00061771594 -0.00094622461 -0.87744224 0.064147308
627000000 -0.87899297 0.073234141 -0.0012978455 -0.0016328412 0.00023335035 -0.00079446594 -0.87784398 0.063302472
628000000 -0.87813908 0.071771637 -0.0001091946 -0.0019447563 -0.00055918325 -0.0017194551 -0.87723649 0.065066837
629000000 -0.8805331 0.073331408 -0.00073179055 -0.00079058413 1.0256493e-005 -0.0011362747 -0.87855893 0.06457898
630000000 -0.87798029 0.074053183 0.00084181968 -0.00079855399 -0.0004534155 -0.0015063938 -0.87732911 0.063907087
631000000 -0.87854397 0.073810965 -0.0011605095 -0.0011314744 0.00017666507 -0.00063786743 -0.87726712 0.064415909
632000000 -0.87983781 0.074712604 0.00041635346 -0.0013980832 -0.00050515146 -0.0020991024 -0.87565333 0.064252302
633000000 -0.87898898 0.073729724 -0.00028802943 -0.00049756141 -0.00017116842 -0.0017523642 -0.87664783 0.064516306
634000000 -0.87978703 0.07437858 -0.00012203701 -0.0016811694 -0.00035656363 -0.0018462132 -0.87774563 0.065129548
635000000 -0.87930578 0.075079761 -0.00029120588 -0.0013332893 -0.00036182525 -0.0020277628 -0.87728274 0.066424318
636000000 -0.88025254 0.074357897 -0.00080203661 -0.00046282104 0.00020118321 -0.00083614019 -0.87714744 0.063920557
637000000 -0.87802434 0.075936817 0.00012926848 -0.0014435184 -0.00010292078 -0.0020542643 -0.87570703 0.0652868
638000000 -0.87829334 0.074348524 -0.00022320211 -0.0019513806 9.887309e-005 -0.0012050578 -0.87663323 0.064457655
639000000 -0.87883753 0.074905545 -0.00072013133 -0.0011217883 -3.3986507e-005 -0.0008835186 -0.87655002 0.064825788
640000000 -0.87796384 0.074624598 -0.0003654015 -0.0016965194 -0.0006851689 -0.0017382194 -0.87460959 0.065606698
641000000 -0.87868994 0.07446152 -0.00079589424 -0.00019192789 0.00040137523 -0.0010390236 -0.87602049 0.064253636
642000000 -0.87933695 0.07488215 0.00036642054 -0.0016484248 9.0878937e-005 -0.0010240756 -0.87692386 0.065354817
643000000 -0.87891841 0.075952552 0.00033749716 -0.00084296137 -0.00077455415 -0.0017870434 -0.8767187 0.0649051
644000000 -0.87753427 0.076230131 -0.00018268453 -0.0012236312 0.00011627148 -0.0020241931 -0.87697279 0.066739514
645000000 -0.87692785 0.075135417 -0.00052883942 -0.0011553559 -0.00039090918 -0.00082702946 -0.87795806 0.065295689
646000000 -0.87933582 0.075937346 -0.0013364856 -0.001325911 -0.0007568904 -0.00098452601 -0.87695861 0.065667383
647000000 -0.88040543 0.075905479 -4.8118167e-005 -0.00055983372 7.2196417e-005 -0.00075776409 -0.87613857 0.064337753
648000000 -0.88015211 0.075294517 0.00083721662 -0.00094232574 -0.001603679 -0.0014232196 -0.87555689 0.06505499
649000000 -0.87886894 0.075680979 -0.00037710101 -0.0008770834 0.0001196626 -0.0010941864 -0.87597287 0.066121079
650000000 -0.87869954 0.07575985 0.0005307562 -9.4384115e-005 -0.00028196748 -0.0013449198 -0.87651134 0.06595657
651000000 -0.87981445 0.077113852 -0.00026417384 -0.00082325935 -0.00092792301 -0.0018204423 -0.87640607 0.06655819
652000000 -0.8795554 0.074876696 -0.00043194552 -0.0015272335 -0.00057166221 -0.0012301287 -0.87549567 0.066073753
653000000 -0.87903225 0.076762304 0.00024192184 -0.0013583011 -0.00069566839 -0.00027200134 -0.8756972 0.066006675
654000000 -0.87906897 0.075906999 1.4494854e-005 -0.0017960363 -0.00021316395 -0.0013428996 -0.87701774 0.067685343
655000000 -0.87772554 0.076028317 -0.00048658586 -0.0011509319 -0.00038599528 -0.0016112661 -0.87605089 0.067330122
656000000 -0.87936741 0.07649269 -0.00037928208 -0.0020601593 -0.00035837339 -0.0011609276 -0.87583309 0.065592036
657000000 -0.88023108 0.077318273 -0.00062943256 -0.00095227495 3.9289789e-005 0.00016866563 -0.87586814 0.067682289
658000000 -0.87985879 0.076462872 0.00034421586 -0.0015807456 -0.00045932661 -0.00093322806 -0.87659276 0.0674254
659000000 -0.87849909 0.077495635 -6.3186118e-005 -0.00078808592 -0.00033972462 -0.0018213636 -0.87736368 0.066944912
660000000 -0.87857068 0.078110203 0.00046543186 -0.0010477953 -0.00019340328 -0.0017524065 -0.87628424 0.065617681
661000000 -0.87790734 0.077226698 9.1977163e-006 -0.00048348826 -0.00073815242 -0.00040395901 -0.87582368 0.066376396
662000000 -0.87962919 0.076636024 -0.00020141251 -0.0012051223 -0.00010679998 -0.00098709296 -0.878645 0.068211429
663000000 -0.87940037 0.077841923 1.5253478e-006 -0.0010339718 -0.00034459052 -0.0014268043 -0.87363952 0.067139946
664000000 -0.87626749 0.07881891 0.00016135491 -0.0016956608 -0.00011618593 -0.0013797476 -0.87612247 0.06699229
665000000 -0.8784405 0.077522635 -0.00051774044 -0.0017920005 -0.00096856756 -0.0011528332 -0.87609822 0.067479551
666000000 -0.87763137 0.07868395 -0.00032728157 -0.00068231154 -0.00044832955 -0.0014160485 -0.87626559 0.067959107
667000000 -0.8779633 0.07757353 0.00027281497 -0.00090275891 -7.293107e-005 -0.00036158753 -0.87659734 0.066425607
668000000 -0.87995493 0.077928104 -0.00034854325 -0.00078060455 -0.0014592493 -0.00038598551 -0.87584931 0.067846984
669000000 -0.87906903 0.077544115 0.00027045622 -0.00094205659 0.00030210899 -0.0017436217 -0.87607336 0.06699346
670000000 -0.8793177 0.07894785 -0.00072315481 -0.0013131656 0.0010765132 -0.00138988 -0.87486607 0.06891714
