!Keysight Technologies,M9374A,MY55442783,A.12.55.05
!Date: Wednesday, May 19, 2021 17:10:29
!Correction: S11(Full 2 Port(1,2)) 
!S21(Full 2 Port(1,2)) 
!S12(Full 2 Port(1,2)) 
!S22(Full 2 Port(1,2)) 
!S2P File: Measurements: S11, S21, S12, S22:
# Hz S  RI   R 50
500000000 -0.88253748 0.054278389 5.81534e-005 -0.0013482788 -0.00089105748 0.00022931509 -0.87945384 0.047041636
501000000 -0.88345098 0.055949822 -0.00096238632 -0.0002748745 0.00021545064 -0.0016165928 -0.87899017 0.047675006
502000000 -0.88415968 0.05423915 -0.0007096146 -0.001225045 -0.00081060349 -0.0026181317 -0.87814009 0.048017077
503000000 -0.88105434 0.054285448 -0.00026532877 -0.00080472202 -0.00087261095 -0.0015333577 -0.87934887 0.049494587
504000000 -0.88272452 0.056021634 -2.8791763e-005 -0.0017874612 0.0011728727 -0.0015059316 -0.87775958 0.049195562
505000000 -0.88240689 0.056926318 0.0001550614 -0.00033266886 -0.00049862271 -0.0011823914 -0.87733138 0.049339462
506000000 -0.88170838 0.055339511 0.00016228651 -0.0010259395 0.00024280047 -0.0013378761 -0.87826735 0.04889299
507000000 -0.88293135 0.056668032 -0.00072602322 -0.00076468941 0.00043450727 -0.00058880908 -0.88007575 0.048284046
508000000 -0.88314503 0.056073707 0.00026874454 -0.0012768619 0.00012330477 -0.0016829477 -0.87779486 0.048927121
509000000 -0.88331401 0.055462945 0.00021094095 -0.0013049071 0.00096290308 -0.00097676157 -0.87873584 0.049383491
510000000 -0.88280642 0.05714241 -0.00026121904 -0.00073248718 0.00020030646 -0.00059165707 -0.87895811 0.04905704
511000000 -0.88271654 0.056873053 0.0005182387 -0.001175763 -0.00015541819 -0.0005266841 -0.87860787 0.050320078
512000000 -0.88309693 0.057587855 0.00041716965 -0.00092788 0.00052429124 -0.0013063273 -0.88033801 0.049738694
513000000 -0.88196927 0.054506917 0.00094111037 -0.00061583699 -0.001127551 -0.00088615064 -0.8783921 0.050223291
514000000 -0.88382548 0.056748942 -0.00048058759 -0.0019681712 -0.00020826096 -0.0025481666 -0.87798721 0.050107624
515000000 -0.88266981 0.057984892 -0.00054366875 -0.0011514088 -0.00022072083 -0.0010606338 -0.8772887 0.050087105
516000000 -0.8838765 0.057851624 0.00062225794 -0.0013136149 -0.00031121302 -0.0012439269 -0.87810928 0.049599569
517000000 -0.88193691 0.057483669 -0.00082904601 -0.0006921438 0.00017431514 -0.00059417164 -0.87899786 0.049826637
518000000 -0.88283068 0.057459783 0.00026724383 -0.0016520778 -3.4569861e-005 -0.0013929713 -0.87763846 0.05127665
519000000 -0.88354546 0.057602536 0.001264684 -0.0007476483 0.00013593391 -0.0014014005 -0.87776583 0.05019125
520000000 -0.88041383 0.056777943 0.0011021392 -0.00048603874 -0.00052342372 -0.0011012495 -0.87803441 0.050374161
521000000 -0.88356167 0.057598788 0.0004872047 -0.0007843952 0.00030390354 -0.0017486245 -0.87852609 0.051523842
522000000 -0.88396937 0.058103953 0.001050571 -0.00043965623 6.2921928e-005 -0.0016515373 -0.87831891 0.051900014
523000000 -0.88214731 0.057312351 0.00013314877 -0.000750534 0.00055323599 -0.0019324856 -0.87674099 0.051644873
524000000 -0.88142639 0.058073599 -5.5341003e-005 -0.00064187404 9.7390715e-005 -0.001844372 -0.87867266 0.050646599
525000000 -0.88150704 0.059168328 -0.00058611762 -0.0020025652 0.00039795553 -0.0010184031 -0.87708533 0.052185103
526000000 -0.88118172 0.05872852 -0.00087896123 -0.00069456594 -0.00064339291 -0.0019027096 -0.87763202 0.053957276
527000000 -0.88199985 0.057352964 0.00069164828 -0.0007276102 0.00052246667 -0.001692651 -0.87831688 0.050956953
528000000 -0.88349134 0.058806442 0.0002745855 -0.00021688901 -0.00061916665 -0.0012777975 -0.87681526 0.051607762
529000000 -0.88272208 0.059078965 -0.0014285238 -0.0011500181 -0.00035226921 -0.0017259562 -0.87808418 0.051691059
530000000 -0.88331157 0.059453532 -0.00013521603 -0.0014164808 -0.00013898633 -0.00039720084 -0.87801045 0.051763181
531000000 -0.88354045 0.057471085 -0.00030363971 -0.0012939801 -0.00039524867 -0.00023099771 -0.87924773 0.052192397
532000000 -0.88178325 0.059141848 -9.4255935e-005 -0.00022503233 -0.00064254657 -0.0014469075 -0.87723958 0.052537289
533000000 -0.88339996 0.05944249 -7.9838188e-005 -0.00088027091 -0.00065835193 -0.00050427503 -0.87752247 0.053116623
534000000 -0.88308537 0.058508106 -5.7180994e-005 -0.00082655298 0.00067510566 -0.0016085001 -0.87760186 0.052193049
535000000 -0.88089991 0.059968378 -0.0010575783 -0.00090428407 -0.00045071798 -0.00078017812 -0.87771392 0.053482674
536000000 -0.88230067 0.059549205 -0.00051955105 -0.00091815263 -0.0013327509 -0.00085566775 -0.87765217 0.051340405
537000000 -0.8817845 0.060126904 4.124179e-005 -0.0012650462 -0.00049239839 -0.00052673736 -0.87801141 0.054724466
538000000 -0.88254952 0.060987871 -0.000737058 -0.00090472336 0.00062018452 -0.0011181169 -0.87880808 0.051141329
539000000 -0.88162369 0.059398998 -0.00049527269 -0.00088024669 0.00020399179 -0.0008836569 -0.87755555 0.052531496
540000000 -0.8830561 0.060605362 -0.00036560043 -0.0009170461 -0.00018367982 -0.00048024079 -0.8785044 0.053021736
541000000 -0.88091969 0.059939988 0.00011769572 -0.0018252572 0.00023035376 -0.00082305865 -0.88049579 0.054753892
542000000 -0.88240778 0.061213076 -0.0006513393 -0.00075982139 -0.00042088932 -0.00075737486 -0.87762779 0.054842964
543000000 -0.88207018 0.061970111 -0.00030104109 -0.0018303579 0.00021136658 -0.0021278667 -0.8785826 0.052591603
544000000 -0.88328028 0.060125478 -0.00012624465 -0.0011377936 -0.0010105459 -0.0010075953 -0.87838328 0.052573677
545000000 -0.88335514 0.061886266 -0.00035138984 -0.0012891986 -0.00048312673 -0.0016951101 -0.87727529 0.055395823
546000000 -0.88253456 0.06090536 0.0005859909 -0.0011691044 -0.0004898443 -0.0011520885 -0.87790024 0.053324036
547000000 -0.88326949 0.060967624 0.00036504457 -0.0012393219 -0.00046667791 -0.0010517867 -0.87903929 0.053133205
548000000 -0.88162059 0.060237609 -3.8117018e-005 -0.00084620615 0.00026010763 -0.0005487632 -0.87790751 0.052442655
549000000 -0.88195807 0.059923436 -0.00050850451 -0.0011690161 -0.00024662568 -0.0020260864 -0.87831181 0.053669464
550000000 -0.88172227 0.061921693 -0.00032989535 -0.0003749622 -0.00085074623 -0.0010998849 -0.87852854 0.054661907
551000000 -0.88115585 0.060133655 0.00040571776 -0.00055090984 0.00010523658 -0.0012272917 -0.87678587 0.055078611
552000000 -0.88243026 0.058677711 0.00092288601 -0.0019834917 0.00048826286 -0.00043138533 -0.87774742 0.05482439
553000000 -0.8822096 0.061990269 -0.00031202039 -0.00012236883 -0.00094694196 -0.00018694474 -0.87654012 0.054263201
554000000 -0.88156718 0.060229853 -0.00017442586 -0.00056533155 -0.001054363 -0.0011695931 -0.87792242 0.055488158
555000000 -0.88223326 0.062430434 -0.00032307452 -0.00056822784 -0.00026990005 -0.0013202759 -0.87812257 0.053489234
556000000 -0.88094705 0.061075296 0.0010986131 -0.00088368781 0.00039999245 -0.0012941618 -0.87852919 0.054759301
557000000 -0.88208771 0.060450222 -0.00081190577 -0.001481415 -0.00023369805 -0.0014703367 -0.87841672 0.054313544
558000000 -0.88166571 0.060479648 -0.00086098502 -0.00066655868 0.00015807297 -0.0015561684 -0.87876248 0.054746319
559000000 -0.88125068 0.061436106 -0.00081834802 -0.0020302306 0.00021922163 -0.0013907894 -0.87691683 0.055155151
560000000 -0.88210821 0.061562315 0.0001921144 -0.00075013115 0.00024886036 -0.0018360177 -0.8792451 0.053760119
561000000 -0.88169992 0.061967567 -0.00092326617 -0.001582149 0.00053148268 -0.0008665513 -0.87785077 0.054400768
562000000 -0.88130617 0.061702222 -0.0011916971 -0.00089981686 -0.00017225715 -0.00041509251 -0.87852389 0.055801637
563000000 -0.88166946 0.062636703 0.00023406507 -0.00067272311 -0.00045268936 -0.0010580539 -0.87692559 0.05336453
564000000 -0.88340384 0.061219804 -0.00022166889 -0.0016606208 -0.00070814951 -0.0010820481 -0.87780625 0.054537952
565000000 -0.88231635 0.061521292 0.0004563932 -0.00012865635 -0.00098927983 -0.0020723976 -0.878016 0.056601819
566000000 -0.88219637 0.061879214 -0.00053860195 -0.00033039605 -0.00011850153 -0.0010044368 -0.87803584 0.054717038
567000000 -0.88217521 0.061910409 -0.00039558063 -0.0019283612 -0.00020604111 -0.00086463668 -0.87703836 0.05489441
568000000 -0.88319993 0.06233919 -0.00014172336 -0.00036062024 4.524512e-005 -0.0010664893 -0.87778759 0.054799832
569000000 -0.88121909 0.061588921 -0.0013488244 -0.00098077999 6.5517248e-005 -0.00099445472 -0.87601024 0.053832162
570000000 -0.8823483 0.061951004 0.0008212261 -0.0010466533 -5.9581515e-005 -0.0019372846 -0.87683672 0.055209003
571000000 -0.88155562 0.061624367 0.00099212502 -0.00065428688 0.00018332126 -0.00155187 -0.87781012 0.055855967
572000000 -0.88136232 0.062641829 0.00016394883 -0.0021815114 -8.9880719e-005 -0.0020595987 -0.87740558 0.056538496
573000000 -0.88219213 0.061193913 -0.00043482598 -7.7965291e-005 2.7329233e-005 -0.0016921997 -0.87844926 0.055491351
574000000 -0.88217378 0.063794933 -4.9551494e-005 -0.0015930939 -0.00051683676 -0.0019053656 -0.8771807 0.055675846
575000000 -0.88265634 0.063329205 -0.00053960719 -0.0011470485 -0.00038166528 -0.00069158635 -0.87838888 0.056564722
576000000 -0.88184774 0.062415462 0.00082016242 -0.00079365278 -0.00030143306 -0.00073524035 -0.87817347 0.056300186
577000000 -0.8819322 0.062248725 -0.00055778417 -0.0021339117 -0.00022951823 -0.00072205428 -0.87896723 0.055962365
578000000 -0.88211286 0.061593372 0.00070759404 -0.00030741561 -0.00073643669 -0.00067002408 -0.87694067 0.056129783
579000000 -0.88227904 0.062051695 0.00087918341 -0.0013701456 -0.00077860127 -0.0019538559 -0.87890452 0.056563865
580000000 -0.88114351 0.061639257 0.00014099914 -0.00073930819 -0.0002721425 -0.00071079936 -0.8770628 0.056586746
581000000 -0.88397837 0.062056821 0.00054900366 -0.0022683872 -0.00041717969 -0.002254623 -0.87971336 0.056520768
582000000 -0.88139725 0.061968647 -0.0006759307 -0.0020135436 -0.00044856861 -0.001977141 -0.87801027 0.055593729
583000000 -0.88090396 0.061829247 0.00032950711 -0.0011876628 -0.00019246856 -0.0015305935 -0.87667012 0.057190463
584000000 -0.88215852 0.06299492 5.8559377e-005 -0.0010181667 -0.0007065995 -0.0013378706 -0.87747747 0.055590913
585000000 -0.88184464 0.062442318 6.456679e-005 -0.00090329529 -0.00020161526 -0.0013650388 -0.87585783 0.055916905
586000000 -0.88249815 0.062566876 -0.00037245097 -0.0013997034 -7.7944918e-005 -0.00079143653 -0.87821776 0.056036115
587000000 -0.88214642 0.062479891 -0.00027666957 -0.0012573499 0.00030574287 -0.0019297648 -0.87620252 0.057695948
588000000 -0.88202041 0.064148888 0.00039195598 -0.00033765225 -0.00097559422 -0.0017774431 -0.87977254 0.0571482
589000000 -0.88186234 0.063922025 -0.000107166 -0.0012250352 0.00018769909 -0.00063127611 -0.87644577 0.056137092
590000000 -0.88191265 0.064058527 0.00070708088 -0.0012636792 -0.00031634982 -0.0011385852 -0.8773672 0.058082692
591000000 -0.88136846 0.064810805 -0.0010191983 -0.0011601369 -0.0012554647 -0.0018177651 -0.87663996 0.056271467
592000000 -0.8825168 0.063803852 -0.00015136319 -0.00124903 0.0010703002 -0.0017341515 -0.87815237 0.057195805
593000000 -0.88118517 0.06387753 -0.00039951631 -0.00064943451 -0.00066952634 -0.0021808688 -0.87780684 0.056178812
594000000 -0.88159567 0.064295508 -0.00030955518 -0.00035923699 -2.73762e-006 -0.00053431233 -0.87689441 0.056836318
595000000 -0.88169104 0.065513723 -0.00010028305 -0.0013666543 -0.00038272139 -0.0025063681 -0.87962627 0.057106167
596000000 -0.88154095 0.064707719 0.00077002379 2.2176169e-005 -0.00038322067 -0.0010390012 -0.87682217 0.056740645
597000000 -0.88152528 0.06488248 0.0002252656 -0.00087982684 7.27312e-005 -0.0012955704 -0.8794964 0.056918293
598000000 -0.88056564 0.064518355 -0.00068695098 -0.00094993506 0.00026935834 -0.0020262641 -0.87794316 0.057097342
599000000 -0.88145781 0.065599315 -0.00080933078 -0.00083812868 -0.0002320303 -0.0015308931 -0.87799978 0.057905536
600000000 -0.88205665 0.064643547 0.00010386643 -0.0019564233 5.2120322e-005 -0.0011767803 -0.87743503 0.056630023
601000000 -0.88022834 0.065533742 0.00034156532 -0.00088331039 0.0002518096 -0.0015941935 -0.87742639 0.058035612
602000000 -0.88065571 0.064187907 -8.1481521e-005 -0.001289977 6.1302853e-005 -0.001901744 -0.87649029 0.057388511
603000000 -0.88264859 0.066029459 -6.0627946e-005 -0.00077966321 0.00014959763 -0.0026324661 -0.87880522 0.05653993
604000000 -0.88033712 0.065428227 0.00053581531 -0.0012324993 0.00012616822 -0.0013629976 -0.87709945 0.057448331
605000000 -0.88154811 0.066299133 0.00013416934 -0.0012146615 -0.00075351977 -0.00064895116 -0.87603337 0.059601452
606000000 -0.88160235 0.064500533 0.00023212597 -0.0023044259 -0.00038948446 -0.0010301627 -0.87710416 0.057626624
607000000 -0.88306487 0.066395894 0.00024801827 -0.0012839282 0.00033528527 -0.00046293656 -0.87747955 0.057881817
608000000 -0.8828637 0.065826394 0.0010949913 -0.0016029879 -0.00027715004 -0.0013264533 -0.87643522 0.058365852
609000000 -0.88165694 0.066196732 -0.0003756177 -0.0010949486 -0.00018946319 -0.00067446171 -0.87690806 0.057889022
610000000 -0.88047212 0.065052196 8.7796383e-005 -0.00065636268 -0.00016038747 -0.001611752 -0.87655252 0.057881687
611000000 -0.880059 0.067641109 -0.00015870869 -0.0026638212 -4.9557744e-005 -0.0016263496 -0.87844914 0.059406355
612000000 -0.88165694 0.067737333 -0.0013500248 -0.0023958101 -0.00053463393 -0.00061018008 -0.87786484 0.05824621
613000000 -0.88023508 0.066155545 -0.00083445088 -0.0016913938 -0.0023207115 -0.00095166755 -0.87835997 0.059053004
614000000 -0.88038909 0.067639798 -0.0012578416 -0.00028434725 -0.00018350079 -0.0013247114 -0.87805271 0.059298925
615000000 -0.88157129 0.067797758 -0.00036554743 -0.00096407859 -4.2180953e-005 -0.00073686533 -0.87580127 0.059614867
616000000 -0.88232213 0.06810157 -0.0003734036 -0.0014346655 -0.00025261505 -0.0011742108 -0.87561125 0.059127524
617000000 -0.88104045 0.069218382 0.00046659849 -0.0019085796 -0.00051248644 -0.0010170495 -0.87767321 0.059506603
618000000 -0.87948084 0.068267576 0.00059295137 -0.00073970447 -8.1872728e-005 -0.0012475603 -0.87728935 0.05987094
619000000 -0.8796308 0.068211302 0.00018902983 -0.001711847 -0.0012150808 -0.0004717127 -0.87655818 0.059972797
620000000 -0.88067657 0.068741977 6.9426504e-005 -0.0010058526 -0.00073708768 -0.00090802979 -0.87810051 0.057654712
621000000 -0.88171542 0.067892574 0.00016833757 -0.00092081941 0.00017719503 -0.00074076094 -0.877994 0.059986468
622000000 -0.88099253 0.06708733 0.00048416125 -0.0010743347 -0.00036106657 -0.0021952665 -0.87753987 0.060550213
623000000 -0.87917566 0.069737397 -0.00075610698 -0.0019850405 0.00051567698 -0.00033188707 -0.8758992 0.061009459
624000000 -0.88204408 0.068055615 -0.00035356104 -0.00029404703 -0.00035468812 -0.0016187173 -0.87730521 0.060439177
625000000 -0.88049471 0.067517459 0.00051569851 -0.00076542253 8.9039393e-005 -0.00095206284 -0.8771109 0.059854209
626000000 -0.88146114 0.068959199 -0.00021079477 -0.00087814196 2.0032472e-005 -0.0014969368 -0.87591225 0.060223129
627000000 -0.88119179 0.068278067 -0.00011107529 -0.0011979603 -0.00065939035 -0.0005253636 -0.87639105 0.060232949
628000000 -0.88070947 0.068820342 0.0011358137 -0.0011513828 0.0001357149 -0.00080429052 -0.87838995 0.059746042
629000000 -0.88195527 0.069913074 -0.00029326443 -0.00036638754 0.00013463161 -0.001253078 -0.87785023 0.060220875
630000000 -0.8810823 0.069917306 0.0002153064 -0.0015418252 0.00023348109 -0.0015737575 -0.8771556 0.0609449
631000000 -0.88033319 0.07035052 0.00090523931 -0.0017526839 0.00039050938 -0.0018347381 -0.87835455 0.060723282
632000000 -0.88059723 0.071013309 -0.00048128277 -0.0016267091 -0.001011607 -0.0009049495 -0.87581426 0.061394874
633000000 -0.87917012 0.069958337 -0.00030948286 -0.00070418586 -0.00046306639 -0.0017732679 -0.87859827 0.060881689
634000000 -0.88033783 0.071514837 -0.00076882978 -0.0021052598 0.0010342592 -0.0018530665 -0.8766495 0.059971768
635000000 -0.88159978 0.071002036 -0.0012656908 -0.0015725167 0.00067328633 -0.0010022969 -0.8778289 0.061761681
636000000 -0.88184136 0.071490489 0.0002470882 -0.0017200601 -0.001074601 -0.0012408126 -0.87801111 0.060949892
637000000 -0.88103098 0.071076743 0.00056575576 1.733391e-005 -0.00017556493 -0.0015503824 -0.87469494 0.060737494
638000000 -0.8812536 0.070030324 -0.00041613769 -0.001603567 9.1936185e-005 -0.0010548802 -0.87750322 0.061509132
639000000 -0.88163871 0.070659034 -0.00027999515 -0.0021516404 -0.00067617028 -0.0016794923 -0.87726432 0.063195929
640000000 -0.88015592 0.071193084 0.00046647276 -0.00095530832 -0.00063583202 -0.0012859479 -0.87756205 0.062442593
641000000 -0.88019431 0.071428731 -0.00019687942 -0.00059906993 -0.00035410281 -0.0020050218 -0.87612683 0.06138055
642000000 -0.88061255 0.071773201 -0.00051215739 -0.0010951733 -0.00038953053 -0.00081920985 -0.87746847 0.062208116
643000000 -0.87973177 0.072428644 0.00024194262 -0.00091298227 -0.00079462753 -0.0010231759 -0.87709284 0.062566869
644000000 -0.88000226 0.07223545 -0.00014609097 -0.00093476824 -0.00027305042 -7.0587917e-006 -0.87758315 0.061853532
645000000 -0.88028723 0.0711537 -0.0010027275 -0.00039642374 -0.00085719675 -0.0015158727 -0.87736446 0.063326739
646000000 -0.88040668 0.07318151 -0.00030278252 -0.0022170346 -0.00081259041 -0.0015026239 -0.8761512 0.063081823
647000000 -0.88183481 0.072404318 -3.6714253e-005 -0.0023444979 -0.00081741181 -0.0013804159 -0.875934 0.062238142
648000000 -0.87999171 0.072755352 0.00027186438 -0.0016118827 7.1333823e-005 -0.0019911304 -0.87549621 0.061653238
649000000 -0.88081235 0.071507119 -0.00051370403 -0.0020098619 -0.00048015077 -0.0006701448 -0.87523282 0.061461162
650000000 -0.8798548 0.07329075 8.1513081e-006 -0.0012572133 -3.420806e-005 -0.002191297 -0.87687606 0.062511981
651000000 -0.88005459 0.072665222 0.00072897563 -0.0012660604 -0.0012459254 -0.0017133364 -0.87565511 0.062123001
652000000 -0.88071805 0.072166324 -0.00036620506 -0.0013721712 1.1263388e-005 -0.001156149 -0.87584746 0.06337554
653000000 -0.88092119 0.073611587 -0.00039654609 -0.00066900201 -0.00086912565 -0.0008635805 -0.87602198 0.062949009
654000000 -0.8796885 0.072351001 -0.00040601622 -0.0014407102 9.0427056e-006 -0.0013450129 -0.87704414 0.061225712
655000000 -0.8810057 0.0723207 0.00070615247 -0.0019532032 -0.00079772598 -0.001717141 -0.87663531 0.062654778
656000000 -0.88021672 0.07395076 -0.00092535117 -0.001523979 -0.00020164558 -0.0015529841 -0.87620276 0.062393285
657000000 -0.88061911 0.072429188 -0.00058417441 -0.0010353153 0.0004856083 -0.001488742 -0.87654203 0.062832259
658000000 -0.87918818 0.073253945 0.00012636786 -0.001659076 -0.00015411084 -0.0018271678 -0.87740523 0.062672369
659000000 -0.88010776 0.072904021 0.00031888695 -0.0009219342 -0.00016034124 -0.0013753275 -0.87782854 0.065144546
660000000 -0.88094193 0.074041933 5.2769537e-006 -0.0016180722 -0.00034040035 -0.0021813123 -0.875498 0.063578516
661000000 -0.88007987 0.073393628 9.7766606e-005 -0.0010311482 0.00021138116 -0.0013924005 -0.8770411 0.062832691
662000000 -0.88078517 0.072473317 -0.00020426601 -0.0013372806 0.00064482092 -0.0011373792 -0.87850291 0.063758276
663000000 -0.88095468 0.071704507 -0.00021784355 -0.0015286545 -0.00028511017 -0.00092063553 -0.87683243 0.063107193
664000000 -0.88123327 0.072941601 0.00039294641 -0.00089898048 -0.00081442366 -0.00089499482 -0.87607521 0.062831141
665000000 -0.88022643 0.072083503 0.00016824683 -0.0012974835 -0.00059936999 -0.00087244919 -0.87675524 0.064008318
666000000 -0.88018602 0.073496483 -0.00018085315 -0.0010845128 -0.00040652783 -0.0011411187 -0.87547469 0.063315131
667000000 -0.8792848 0.073457099 -2.8101338e-005 -0.0014767658 9.1784088e-005 -0.0014053558 -0.87808657 0.064708136
668000000 -0.88036484 0.07376001 3.4105258e-005 -0.0013565801 -0.00065368897 -0.0013588137 -0.87719917 0.064647175
669000000 -0.87994623 0.071975745 0.00022849148 -0.002061944 -0.00015938396 -0.0018522575 -0.87561357 0.064945109
670000000 -0.87934875 0.074495345 -0.00088974094 -0.0015223118 0.00019931761 -0.0012819986 -0.87854183 0.065259025
