Frequency	 |S11|	 Phase(S11)	 ExtPh(S11)	 |S21|	 Phase(S21)	 ExtPh(S21)	 |S12|	 Phase(S12)	 ExtPh(S12)	 |S22|	 Phase(S22)	 ExtPh(S22) 
5.000000e-001	-1.172270e+000	-3.766504e+000	-3.766504e+000	-5.803397e+001	-5.173219e+001	-5.173219e+001	-6.981467e+001	-6.817730e+001	-6.817730e+001	-1.238199e+000	-3.256728e+000	-3.256728e+000	
5.010000e-001	-1.179716e+000	-3.600975e+000	-3.600975e+000	-7.335430e+001	4.680894e-001	4.680894e-001	-5.631497e+001	7.443204e+001	-1.055680e+002	-1.227762e+000	-3.233894e+000	-3.233894e+000	
5.020000e-001	-1.186158e+000	-3.716526e+000	-3.716526e+000	-5.729805e+001	-4.825077e+000	-4.825077e+000	-5.633004e+001	7.114576e+001	-1.088542e+002	-1.217715e+000	-3.216036e+000	-3.216036e+000	
5.030000e-001	-1.176589e+000	-3.754164e+000	-3.754164e+000	-6.925808e+001	1.219923e+001	1.219923e+001	-5.393973e+001	-6.760704e+001	-2.476070e+002	-1.237511e+000	-3.230752e+000	-3.230752e+000	
5.040000e-001	-1.194236e+000	-3.697938e+000	-3.697938e+000	-5.836935e+001	8.716211e+001	8.716211e+001	-6.103714e+001	4.050082e+001	-1.394992e+002	-1.248917e+000	-3.236136e+000	-3.236136e+000	
5.050000e-001	-1.186585e+000	-3.739354e+000	-3.739354e+000	-5.253843e+001	-8.369889e+001	9.630111e+001	-5.869544e+001	6.834857e+001	-1.116514e+002	-1.248923e+000	-3.196796e+000	-3.196796e+000	
5.060000e-001	-1.185983e+000	-3.774717e+000	-3.774717e+000	-6.351676e+001	3.368460e+001	2.136846e+002	-5.603098e+001	-5.125487e+001	-2.312549e+002	-1.235834e+000	-3.341790e+000	-3.341790e+000	
5.070000e-001	-1.188511e+000	-3.802308e+000	-3.802308e+000	-5.956798e+001	-8.881870e+001	9.118130e+001	-5.604304e+001	5.551321e+001	-1.244868e+002	-1.235129e+000	-3.342532e+000	-3.342532e+000	
5.080000e-001	-1.173523e+000	-3.723989e+000	-3.723989e+000	-5.493945e+001	5.974036e+001	5.974036e+001	-5.445972e+001	7.275986e+001	-1.072401e+002	-1.220630e+000	-3.355949e+000	-3.355949e+000	
5.090000e-001	-1.186905e+000	-3.748508e+000	-3.748508e+000	-5.836819e+001	-6.620683e+001	-6.620683e+001	-5.608748e+001	6.816840e+001	-1.118316e+002	-1.240270e+000	-3.329797e+000	-3.329797e+000	
5.100000e-001	-1.178125e+000	-3.895871e+000	-3.895871e+000	-6.148994e+001	5.089874e+001	5.089874e+001	-5.692433e+001	7.071983e+001	-1.092802e+002	-1.232551e+000	-3.444927e+000	-3.444927e+000	
5.110000e-001	-1.196844e+000	-3.854019e+000	-3.854019e+000	-5.782069e+001	-6.135037e+001	-6.135037e+001	-6.253001e+001	1.783047e+001	-1.621695e+002	-1.234635e+000	-3.307665e+000	-3.307665e+000	
5.120000e-001	-1.174713e+000	-3.765656e+000	-3.765656e+000	-5.816117e+001	8.128106e+001	-9.871894e+001	-5.330051e+001	8.652274e+001	-9.347726e+001	-1.242065e+000	-3.443726e+000	-3.443726e+000	
5.130000e-001	-1.184249e+000	-3.817179e+000	-3.817179e+000	-6.146821e+001	3.011678e+001	-1.498832e+002	-5.610296e+001	4.858861e+001	-1.314114e+002	-1.239045e+000	-3.323884e+000	-3.323884e+000	
5.140000e-001	-1.183401e+000	-3.790468e+000	-3.790468e+000	-5.803282e+001	5.727760e+001	-1.227224e+002	-5.548902e+001	-8.428981e+001	-2.642898e+002	-1.241628e+000	-3.283176e+000	-3.283176e+000	
5.150000e-001	-1.182177e+000	-3.733218e+000	-3.733218e+000	-5.420765e+001	-6.440435e+001	-2.444044e+002	-6.637375e+001	-6.730150e+001	-2.473015e+002	-1.239388e+000	-3.373021e+000	-3.373021e+000	
5.160000e-001	-1.194117e+000	-3.896743e+000	-3.896743e+000	-6.559738e+001	-7.957061e+001	-2.595706e+002	-6.677239e+001	-7.856685e+001	-2.585669e+002	-1.238677e+000	-3.457340e+000	-3.457340e+000	
5.170000e-001	-1.179100e+000	-3.939064e+000	-3.939064e+000	-6.381871e+001	7.963537e+001	-2.803646e+002	-5.654228e+001	-6.459282e+001	-2.445928e+002	-1.236259e+000	-3.471274e+000	-3.471274e+000	
5.180000e-001	-1.181383e+000	-3.944218e+000	-3.944218e+000	-6.193662e+001	4.645891e+001	-3.135411e+002	-6.279146e+001	-6.798097e+001	-2.479810e+002	-1.245882e+000	-3.400418e+000	-3.400418e+000	
5.190000e-001	-1.180715e+000	-3.860143e+000	-3.860143e+000	-6.438848e+001	4.315675e+001	-3.168432e+002	-6.983651e+001	-1.849279e+001	-1.984928e+002	-1.238905e+000	-3.452814e+000	-3.452814e+000	
5.200000e-001	-1.201803e+000	-3.856650e+000	-3.856650e+000	-5.477875e+001	8.269046e+001	-2.773095e+002	-5.233277e+001	-6.669245e+001	-2.466924e+002	-1.252162e+000	-3.505263e+000	-3.505263e+000	
5.210000e-001	-1.173764e+000	-4.003018e+000	-4.003018e+000	-6.620762e+001	7.538871e+001	-2.846113e+002	-6.116987e+001	-2.871589e+001	-2.087159e+002	-1.239340e+000	-3.384104e+000	-3.384104e+000	
5.220000e-001	-1.166699e+000	-3.924188e+000	-3.924188e+000	-5.582962e+001	-6.899840e+001	-2.489984e+002	-5.667840e+001	2.745284e+001	-1.525472e+002	-1.235423e+000	-3.514397e+000	-3.514397e+000	
5.230000e-001	-1.177663e+000	-3.848055e+000	-3.848055e+000	-5.838405e+001	8.357663e+001	-2.764234e+002	-6.131396e+001	8.523385e+001	-9.476615e+001	-1.247953e+000	-3.479226e+000	-3.479226e+000	
5.240000e-001	-1.164032e+000	-3.934588e+000	-3.934588e+000	-5.679144e+001	5.623992e+001	-3.037601e+002	-5.467629e+001	-2.985616e+001	-2.098562e+002	-1.243318e+000	-3.440922e+000	-3.440922e+000	
5.250000e-001	-1.188057e+000	-3.917812e+000	-3.917812e+000	-6.428014e+001	8.304918e+001	-2.769508e+002	-5.776005e+001	-4.786880e+001	-2.278688e+002	-1.220857e+000	-3.431996e+000	-3.431996e+000	
5.260000e-001	-1.197698e+000	-3.950655e+000	-3.950655e+000	-6.347874e+001	-8.398329e+001	-2.639833e+002	-5.915894e+001	6.378454e+001	-1.162155e+002	-1.231213e+000	-3.516974e+000	-3.516974e+000	
5.270000e-001	-1.183539e+000	-3.949204e+000	-3.949204e+000	-5.342924e+001	-7.917738e+001	-2.591774e+002	-6.202110e+001	-8.793609e+001	-8.793609e+001	-1.222102e+000	-3.487338e+000	-3.487338e+000	
5.280000e-001	-1.177676e+000	-3.970600e+000	-3.970600e+000	-6.017973e+001	-8.433377e+001	-2.643338e+002	-6.340377e+001	5.414256e+001	-1.258574e+002	-1.245604e+000	-3.515773e+000	-3.515773e+000	
5.290000e-001	-1.189344e+000	-3.951528e+000	-3.951528e+000	-5.844221e+001	-8.834095e+001	-2.683410e+002	-5.524044e+001	6.373379e+001	-1.162662e+002	-1.235349e+000	-3.514978e+000	-3.514978e+000	
5.300000e-001	-1.181815e+000	-3.973303e+000	-3.973303e+000	-6.185457e+001	5.291623e+001	-3.070838e+002	-5.540776e+001	5.717732e+001	-1.228227e+002	-1.243017e+000	-3.523634e+000	-3.523634e+000	
5.310000e-001	-1.180484e+000	-3.892459e+000	-3.892459e+000	-5.953040e+001	4.986376e+001	-3.101362e+002	-5.620568e+001	-4.644873e+001	-2.264487e+002	-1.234414e+000	-3.557764e+000	-3.557764e+000	
5.320000e-001	-1.169941e+000	-3.976512e+000	-3.976512e+000	-5.571791e+001	6.717601e+001	-2.928240e+002	-5.490447e+001	7.988325e+001	-1.001167e+002	-1.232821e+000	-3.579682e+000	-3.579682e+000	
5.330000e-001	-1.178803e+000	-4.011519e+000	-4.011519e+000	-5.577736e+001	-7.704853e+001	-2.570485e+002	-5.667929e+001	5.594278e+001	-1.240572e+002	-1.238423e+000	-3.568673e+000	-3.568673e+000	
5.340000e-001	-1.171624e+000	-3.925839e+000	-3.925839e+000	-5.639472e+001	8.909695e+001	-2.709031e+002	-6.003255e+001	-8.154282e+001	-2.615428e+002	-1.217381e+000	-3.549194e+000	-3.549194e+000	
5.350000e-001	-1.189952e+000	-3.987123e+000	-3.987123e+000	-5.942033e+001	6.199804e+001	-2.980020e+002	-5.955182e+001	-1.831358e+001	-1.983136e+002	-1.235207e+000	-3.577989e+000	-3.577989e+000	
5.360000e-001	-1.193893e+000	-4.108207e+000	-4.108207e+000	-6.199683e+001	8.046821e+001	-2.795318e+002	-6.320043e+001	7.843507e+001	-1.015649e+002	-1.246734e+000	-3.542746e+000	-3.542746e+000	
5.370000e-001	-1.177678e+000	-3.947321e+000	-3.947321e+000	-5.866333e+001	-8.357656e+001	-2.635766e+002	-5.531289e+001	6.297406e+001	-1.170259e+002	-1.245597e+000	-3.580905e+000	-3.580905e+000	
5.380000e-001	-1.192773e+000	-3.978839e+000	-3.978839e+000	-5.814695e+001	4.810704e+001	-1.318930e+002	-5.987185e+001	8.080447e+001	-9.919553e+001	-1.236589e+000	-3.597514e+000	-3.597514e+000	
5.390000e-001	-1.171763e+000	-3.999360e+000	-3.999360e+000	-5.432279e+001	6.755850e+001	-1.124415e+002	-5.548841e+001	3.345803e+001	-1.465420e+002	-1.238158e+000	-3.596276e+000	-3.596276e+000	
5.400000e-001	-1.174730e+000	-4.036095e+000	-4.036095e+000	-5.524395e+001	8.981927e+001	-9.018073e+001	-5.925935e+001	5.474397e+001	-1.252560e+002	-1.218187e+000	-3.542057e+000	-3.542057e+000	
5.410000e-001	-1.178339e+000	-4.128031e+000	-4.128031e+000	-5.552728e+001	-8.498301e+001	-8.498301e+001	-5.631967e+001	-6.329427e+001	-2.432943e+002	-1.236905e+000	-3.630370e+000	-3.630370e+000	
5.420000e-001	-1.179690e+000	-4.115900e+000	-4.115900e+000	-5.381058e+001	8.071641e+001	-9.928359e+001	-5.955419e+001	-8.444329e+001	-2.644433e+002	-1.233283e+000	-3.575970e+000	-3.575970e+000	
5.430000e-001	-1.185811e+000	-4.073972e+000	-4.073972e+000	-5.657332e+001	8.120783e+001	-9.879217e+001	-5.974429e+001	7.983493e+001	-2.801651e+002	-1.251357e+000	-3.613018e+000	-3.613018e+000	
5.440000e-001	-1.162562e+000	-4.073733e+000	-4.073733e+000	-5.687237e+001	-1.776957e+001	-1.977696e+002	-6.192566e+001	7.649295e+001	-2.835071e+002	-1.235216e+000	-3.657313e+000	-3.657313e+000	
5.450000e-001	-1.179451e+000	-3.998751e+000	-3.998751e+000	-5.585040e+001	7.431054e+001	-1.056895e+002	-5.550432e+001	5.386593e+001	-3.061341e+002	-1.252507e+000	-3.620949e+000	-3.620949e+000	
5.460000e-001	-1.178274e+000	-4.025716e+000	-4.025716e+000	-6.117740e+001	7.952166e+001	-1.004783e+002	-5.376913e+001	-8.562982e+001	-4.456298e+002	-1.236064e+000	-3.638497e+000	-3.638497e+000	
5.470000e-001	-1.179669e+000	-4.037569e+000	-4.037569e+000	-6.318110e+001	6.321376e+001	-1.167862e+002	-5.639562e+001	-5.452643e+001	-4.145264e+002	-1.231602e+000	-3.633550e+000	-3.633550e+000	
5.480000e-001	-1.195363e+000	-4.108204e+000	-4.108204e+000	-5.664083e+001	7.254338e+001	-1.074566e+002	-6.375030e+001	-8.033905e+001	-4.403390e+002	-1.240940e+000	-3.584110e+000	-3.584110e+000	
5.490000e-001	-1.190227e+000	-4.074578e+000	-4.074578e+000	-5.651616e+001	8.942174e+001	-9.057826e+001	-5.596258e+001	-6.574011e+001	-4.257401e+002	-1.235200e+000	-3.684820e+000	-3.684820e+000	
5.500000e-001	-1.196659e+000	-4.133449e+000	-4.133449e+000	-5.791246e+001	-7.171902e+001	-7.171902e+001	-6.068660e+001	8.587836e+001	-4.541216e+002	-1.235687e+000	-3.689904e+000	-3.689904e+000	
5.510000e-001	-1.176445e+000	-4.068780e+000	-4.068780e+000	-5.584212e+001	-5.771530e+001	-5.771530e+001	-6.509571e+001	7.975895e+001	-4.602411e+002	-1.241154e+000	-3.659207e+000	-3.659207e+000	
5.520000e-001	-1.206611e+000	-4.093614e+000	-4.093614e+000	-5.724042e+001	-5.422373e+001	-5.422373e+001	-5.407491e+001	8.829012e+001	-4.517099e+002	-1.243843e+000	-3.662184e+000	-3.662184e+000	
5.530000e-001	-1.177359e+000	-4.114781e+000	-4.114781e+000	-6.207163e+001	5.892461e+001	5.892461e+001	-6.031257e+001	6.473890e+001	-4.752611e+002	-1.238818e+000	-3.581256e+000	-3.581256e+000	
5.540000e-001	-1.177655e+000	-3.966597e+000	-3.966597e+000	-5.816464e+001	-8.385324e+001	9.614676e+001	-5.739884e+001	-7.585629e+001	-4.358563e+002	-1.232195e+000	-3.662353e+000	-3.662353e+000	
5.550000e-001	-1.175929e+000	-4.090061e+000	-4.090061e+000	-5.733597e+001	-2.468391e+000	1.775316e+002	-6.506665e+001	-7.119469e+001	-4.311947e+002	-1.244460e+000	-3.685642e+000	-3.685642e+000	
5.560000e-001	-1.183868e+000	-4.052455e+000	-4.052455e+000	-6.464725e+001	-8.908292e+001	9.091708e+001	-6.360960e+001	-6.816787e+001	-4.281679e+002	-1.242968e+000	-3.749455e+000	-3.749455e+000	
5.570000e-001	-1.182059e+000	-4.148599e+000	-4.148599e+000	-5.668669e+001	6.035852e+001	6.035852e+001	-5.867806e+001	7.214049e+001	-4.678595e+002	-1.230534e+000	-3.635691e+000	-3.635691e+000	
5.580000e-001	-1.181247e+000	-4.172158e+000	-4.172158e+000	-5.429827e+001	-7.011520e+001	-7.011520e+001	-6.012382e+001	-5.495300e+001	-5.949530e+002	-1.247323e+000	-3.610319e+000	-3.610319e+000	
5.590000e-001	-1.184401e+000	-4.064464e+000	-4.064464e+000	-5.535304e+001	-7.506459e+001	-7.506459e+001	-5.778619e+001	-7.613449e+001	-6.161345e+002	-1.231593e+000	-3.691680e+000	-3.691680e+000	
5.600000e-001	-1.193590e+000	-4.199711e+000	-4.199711e+000	-5.519907e+001	5.338721e+001	5.338721e+001	-5.651332e+001	-7.684741e+001	-6.168474e+002	-1.235240e+000	-3.767979e+000	-3.767979e+000	
5.610000e-001	-1.178076e+000	-4.109051e+000	-4.109051e+000	-5.944723e+001	-7.283072e+001	-7.283072e+001	-5.381358e+001	8.518093e+001	-6.348191e+002	-1.236591e+000	-3.698136e+000	-3.698136e+000	
5.620000e-001	-1.185909e+000	-4.152127e+000	-4.152127e+000	-5.690997e+001	-5.989469e+001	-5.989469e+001	-6.838779e+001	-7.736786e+001	-6.173679e+002	-1.230652e+000	-3.570672e+000	-3.570672e+000	
5.630000e-001	-1.187412e+000	-4.188149e+000	-4.188149e+000	-6.706891e+001	-2.850123e+001	-2.850123e+001	-5.996996e+001	7.876036e+001	-6.412396e+002	-1.235605e+000	-3.734216e+000	-3.734216e+000	
5.640000e-001	-1.198249e+000	-4.116159e+000	-4.116159e+000	-6.050142e+001	-6.551499e+001	-6.551499e+001	-5.566350e+001	-6.615394e+001	-6.061539e+002	-1.228031e+000	-3.630374e+000	-3.630374e+000	
5.650000e-001	-1.177102e+000	-4.199081e+000	-4.199081e+000	-6.315428e+001	7.430904e+001	7.430904e+001	-6.576777e+001	8.980825e+001	-6.301917e+002	-1.247702e+000	-3.773433e+000	-3.773433e+000	
5.660000e-001	-1.181829e+000	-4.181632e+000	-4.181632e+000	-5.959110e+001	-8.339944e+001	9.660056e+001	-6.184430e+001	-5.041369e+001	-5.904137e+002	-1.244975e+000	-3.695624e+000	-3.695624e+000	
5.670000e-001	-1.185412e+000	-4.132593e+000	-4.132593e+000	-7.785043e+001	-6.013363e+001	1.198664e+002	-5.718807e+001	1.452291e+001	-5.254771e+002	-1.230452e+000	-3.667969e+000	-3.667969e+000	
5.680000e-001	-1.202255e+000	-4.177986e+000	-4.177986e+000	-5.877141e+001	-8.038184e+001	9.961816e+001	-6.121874e+001	-3.374876e+001	-5.737488e+002	-1.228042e+000	-3.736415e+000	-3.736415e+000	
5.690000e-001	-1.185693e+000	-4.133884e+000	-4.133884e+000	-5.696760e+001	3.793485e+001	2.179349e+002	-5.621378e+001	7.590852e+001	-4.640915e+002	-1.247279e+000	-3.555026e+000	-3.555026e+000	
5.700000e-001	-1.185749e+000	-4.108335e+000	-4.108335e+000	-5.896592e+001	5.343756e+001	2.334376e+002	-5.812254e+001	7.479196e+001	-4.652080e+002	-1.249316e+000	-3.811583e+000	-3.811583e+000	
5.710000e-001	-1.175112e+000	-4.151131e+000	-4.151131e+000	-5.078614e+001	-8.849282e+001	2.715072e+002	-5.689074e+001	8.387500e+001	-4.561250e+002	-1.245724e+000	-3.727997e+000	-3.727997e+000	
5.720000e-001	-1.195422e+000	-4.087567e+000	-4.087567e+000	-6.600472e+001	-2.917156e+001	3.308284e+002	-5.726652e+001	-8.522719e+001	-4.452272e+002	-1.247822e+000	-3.648859e+000	-3.648859e+000	
5.730000e-001	-1.177030e+000	-4.175945e+000	-4.175945e+000	-5.480242e+001	-8.336361e+001	2.766364e+002	-7.003337e+001	1.968457e+001	-3.403154e+002	-1.242852e+000	-3.761057e+000	-3.761057e+000	
5.740000e-001	-1.193381e+000	-4.176530e+000	-4.176530e+000	-6.040669e+001	-8.330607e+001	2.766939e+002	-6.240744e+001	-5.289286e+001	-4.128929e+002	-1.233853e+000	-3.819770e+000	-3.819770e+000	
5.750000e-001	-1.198865e+000	-4.189180e+000	-4.189180e+000	-5.582538e+001	7.353899e+001	2.535390e+002	-5.767571e+001	4.447495e+001	-3.155251e+002	-1.235460e+000	-3.838227e+000	-3.838227e+000	
5.760000e-001	-1.190732e+000	-4.218847e+000	-4.218847e+000	-5.265472e+001	6.691246e+001	2.469125e+002	-5.629069e+001	6.694710e+001	-2.930529e+002	-1.237801e+000	-3.812610e+000	-3.812610e+000	
5.770000e-001	-1.174608e+000	-4.185344e+000	-4.185344e+000	-5.522245e+001	-7.017782e+001	1.098222e+002	-5.818362e+001	-7.978636e+001	-2.597864e+002	-1.249603e+000	-3.794733e+000	-3.794733e+000	
5.780000e-001	-1.199939e+000	-4.166532e+000	-4.166532e+000	-6.200926e+001	6.632574e+001	2.463257e+002	-5.895733e+001	-2.330966e+001	-2.033097e+002	-1.240123e+000	-3.698572e+000	-3.698572e+000	
5.790000e-001	-1.191223e+000	-4.161421e+000	-4.161421e+000	-5.718976e+001	-8.545307e+001	2.745469e+002	-5.187962e+001	6.185680e+001	-1.181432e+002	-1.227244e+000	-3.760427e+000	-3.760427e+000	
5.800000e-001	-1.176200e+000	-4.238966e+000	-4.238966e+000	-5.494564e+001	6.167566e+001	2.416757e+002	-5.726907e+001	-7.325142e+001	-2.532514e+002	-1.234985e+000	-3.885125e+000	-3.885125e+000	
5.810000e-001	-1.200023e+000	-4.146936e+000	-4.146936e+000	-5.641380e+001	5.935985e+001	2.393598e+002	-5.716376e+001	6.424509e+001	-1.157549e+002	-1.230601e+000	-3.789918e+000	-3.789918e+000	
5.820000e-001	-1.198083e+000	-4.172599e+000	-4.172599e+000	-6.268333e+001	3.200585e+001	2.120059e+002	-6.560606e+001	3.151528e+001	-1.484847e+002	-1.242893e+000	-3.838101e+000	-3.838101e+000	
5.830000e-001	-1.189228e+000	-4.256210e+000	-4.256210e+000	-6.600890e+001	-3.754984e+001	1.424502e+002	-6.924765e+001	4.003470e+001	-1.399653e+002	-1.234519e+000	-3.867172e+000	-3.867172e+000	
5.840000e-001	-1.193948e+000	-4.299666e+000	-4.299666e+000	-5.223171e+001	8.891678e+001	2.689168e+002	-6.161605e+001	6.938023e+001	-1.106198e+002	-1.253650e+000	-3.773324e+000	-3.773324e+000	
5.850000e-001	-1.190017e+000	-4.195911e+000	-4.195911e+000	-5.546503e+001	6.533387e+001	2.453339e+002	-5.742765e+001	-5.973020e+001	-2.397302e+002	-1.223655e+000	-3.860098e+000	-3.860098e+000	
5.860000e-001	-1.187579e+000	-4.177688e+000	-4.177688e+000	-6.271763e+001	-2.829950e+001	1.517005e+002	-5.345609e+001	8.466978e+001	-2.753302e+002	-1.239640e+000	-3.870687e+000	-3.870687e+000	
5.870000e-001	-1.198069e+000	-4.286633e+000	-4.286633e+000	-5.906652e+001	-8.114801e+001	9.885199e+001	-6.122872e+001	8.509136e+001	-2.749086e+002	-1.229052e+000	-3.819293e+000	-3.819293e+000	
5.880000e-001	-1.186992e+000	-4.211916e+000	-4.211916e+000	-7.397797e+001	7.446207e+001	7.446207e+001	-6.568630e+001	3.928894e+001	-3.207111e+002	-1.235047e+000	-3.837728e+000	-3.837728e+000	
5.890000e-001	-1.182338e+000	-4.162661e+000	-4.162661e+000	-5.630662e+001	-7.310590e+001	1.068941e+002	-5.314243e+001	-8.938996e+001	-4.493900e+002	-1.246034e+000	-3.904036e+000	-3.904036e+000	
5.900000e-001	-1.194701e+000	-4.293142e+000	-4.293142e+000	-5.485664e+001	-4.055691e+001	1.394431e+002	-5.463421e+001	8.438877e+001	-4.556112e+002	-1.236854e+000	-3.798128e+000	-3.798128e+000	
5.910000e-001	-1.182914e+000	-4.308971e+000	-4.308971e+000	-5.871810e+001	-1.737837e+000	1.782622e+002	-6.028023e+001	-8.344201e+001	-4.434420e+002	-1.237589e+000	-3.928059e+000	-3.928059e+000	
5.920000e-001	-1.200270e+000	-4.170225e+000	-4.170225e+000	-5.655897e+001	8.314484e+001	2.631448e+002	-6.468666e+001	6.359671e+001	-4.764033e+002	-1.231319e+000	-3.791099e+000	-3.791099e+000	
5.930000e-001	-1.172118e+000	-4.203284e+000	-4.203284e+000	-6.142592e+001	5.440643e+001	2.344064e+002	-5.520592e+001	7.133652e+001	-4.686635e+002	-1.217803e+000	-3.840901e+000	-3.840901e+000	
5.940000e-001	-1.198946e+000	-4.371476e+000	-4.371476e+000	-5.645492e+001	-6.047681e+001	1.195232e+002	-6.222405e+001	5.049634e+001	-4.895037e+002	-1.246409e+000	-3.841053e+000	-3.841053e+000	
5.950000e-001	-1.197259e+000	-4.346688e+000	-4.346688e+000	-5.851005e+001	6.541181e+001	2.454118e+002	-5.717255e+001	5.802477e+001	-4.819752e+002	-1.249536e+000	-3.862618e+000	-3.862618e+000	
5.960000e-001	-1.211887e+000	-4.328123e+000	-4.328123e+000	-5.480764e+001	6.692588e+001	2.469259e+002	-5.690173e+001	7.807838e+001	-4.619216e+002	-1.233261e+000	-3.759513e+000	-3.759513e+000	
5.970000e-001	-1.186963e+000	-4.370856e+000	-4.370856e+000	-6.054133e+001	7.053537e+001	2.505354e+002	-5.363201e+001	5.634758e+001	-4.836524e+002	-1.247733e+000	-3.872603e+000	-3.872603e+000	
5.980000e-001	-1.192887e+000	-4.411158e+000	-4.411158e+000	-6.004416e+001	7.397137e+001	2.539714e+002	-5.469601e+001	6.443567e+001	-4.755643e+002	-1.255308e+000	-3.854243e+000	-3.854243e+000	
5.990000e-001	-1.192800e+000	-4.376637e+000	-4.376637e+000	-5.483700e+001	7.994605e+001	2.599461e+002	-5.777461e+001	6.392241e+001	-4.760776e+002	-1.240969e+000	-3.778234e+000	-3.778234e+000	
6.000000e-001	-1.187570e+000	-4.460097e+000	-4.460097e+000	-5.516194e+001	7.999868e+001	2.599987e+002	-5.907520e+001	8.731643e+001	-4.526836e+002	-1.251097e+000	-3.805086e+000	-3.805086e+000	
6.010000e-001	-1.201919e+000	-4.336451e+000	-4.336451e+000	-5.484903e+001	7.755227e+001	2.575523e+002	-7.057755e+001	-2.244206e+001	-5.624421e+002	-1.243270e+000	-3.875793e+000	-3.875793e+000	
