Frequency	 |S11|	 Phase(S11)	 ExtPh(S11)	 |S21|	 Phase(S21)	 ExtPh(S21)	 |S12|	 Phase(S12)	 ExtPh(S12)	 |S22|	 Phase(S22)	 ExtPh(S22) 
5.000000e-001	-1.191461e+000	-3.876777e+000	-3.876777e+000	-6.223210e+001	7.759051e+001	7.759051e+001	-6.300725e+001	-6.103749e+001	-6.103749e+001	-1.244353e+000	-3.327060e+000	-3.327060e+000	
5.010000e-001	-1.181496e+000	-3.959847e+000	-3.959847e+000	-5.861495e+001	-7.363784e+001	1.063622e+002	-6.007130e+001	7.012747e+001	7.012747e+001	-1.243377e+000	-3.361986e+000	-3.361986e+000	
5.020000e-001	-1.183692e+000	-3.839051e+000	-3.839051e+000	-5.677697e+001	-7.207843e+001	1.079216e+002	-6.155877e+001	7.781503e+001	7.781503e+001	-1.243062e+000	-3.492547e+000	-3.492547e+000	
5.030000e-001	-1.173617e+000	-3.915503e+000	-3.915503e+000	-6.133893e+001	7.312233e+001	7.312233e+001	-5.533184e+001	-7.829357e+001	1.017064e+002	-1.235205e+000	-3.433473e+000	-3.433473e+000	
5.040000e-001	-1.186909e+000	-3.972776e+000	-3.972776e+000	-5.721047e+001	3.621262e+001	3.621262e+001	-6.751998e+001	7.908702e+001	7.908702e+001	-1.232249e+000	-3.501847e+000	-3.501847e+000	
5.050000e-001	-1.181658e+000	-3.872911e+000	-3.872911e+000	-6.012877e+001	6.770034e+001	6.770034e+001	-5.483340e+001	-4.406870e+001	-4.406870e+001	-1.241995e+000	-3.414726e+000	-3.414726e+000	
5.060000e-001	-1.182906e+000	-3.794123e+000	-3.794123e+000	-5.343552e+001	-6.757075e+001	-6.757075e+001	-5.974181e+001	5.189838e+001	5.189838e+001	-1.233009e+000	-3.478516e+000	-3.478516e+000	
5.070000e-001	-1.190036e+000	-3.932468e+000	-3.932468e+000	-5.781831e+001	7.462022e+001	-1.053798e+002	-6.677592e+001	3.871179e+001	3.871179e+001	-1.239556e+000	-3.493340e+000	-3.493340e+000	
5.080000e-001	-1.181274e+000	-4.084647e+000	-4.084647e+000	-5.237198e+001	7.696399e+001	-1.030360e+002	-5.858072e+001	-8.518770e+001	-8.518770e+001	-1.236451e+000	-3.518781e+000	-3.518781e+000	
5.090000e-001	-1.190127e+000	-3.967853e+000	-3.967853e+000	-5.978296e+001	4.126926e+001	-1.387307e+002	-6.594775e+001	-5.284122e+001	-5.284122e+001	-1.249682e+000	-3.467427e+000	-3.467427e+000	
5.100000e-001	-1.173527e+000	-4.008994e+000	-4.008994e+000	-6.320688e+001	-7.192153e+001	-2.519215e+002	-5.581540e+001	5.559370e+001	5.559370e+001	-1.237891e+000	-3.550793e+000	-3.550793e+000	
5.110000e-001	-1.175333e+000	-3.901153e+000	-3.901153e+000	-6.022554e+001	5.870926e+001	-1.212907e+002	-6.659960e+001	-7.595551e+001	-7.595551e+001	-1.251151e+000	-3.532242e+000	-3.532242e+000	
5.120000e-001	-1.178906e+000	-3.870348e+000	-3.870348e+000	-5.615901e+001	7.677004e+001	-1.032300e+002	-5.755523e+001	3.977495e+001	3.977495e+001	-1.224395e+000	-3.506235e+000	-3.506235e+000	
5.130000e-001	-1.180379e+000	-4.003448e+000	-4.003448e+000	-6.411397e+001	7.334441e+001	-1.066556e+002	-5.841994e+001	8.908679e+001	8.908679e+001	-1.252317e+000	-3.402780e+000	-3.402780e+000	
5.140000e-001	-1.199805e+000	-3.984771e+000	-3.984771e+000	-5.992661e+001	7.591799e+001	-1.040820e+002	-6.083646e+001	-7.776244e+001	1.022376e+002	-1.242194e+000	-3.558467e+000	-3.558467e+000	
5.150000e-001	-1.174891e+000	-3.917443e+000	-3.917443e+000	-5.797522e+001	-7.306489e+001	-7.306489e+001	-5.659507e+001	6.359845e+001	6.359845e+001	-1.242726e+000	-3.535374e+000	-3.535374e+000	
5.160000e-001	-1.172507e+000	-3.946688e+000	-3.946688e+000	-5.842116e+001	-7.509373e+001	-7.509373e+001	-5.275813e+001	6.650996e+001	6.650996e+001	-1.241486e+000	-3.494637e+000	-3.494637e+000	
5.170000e-001	-1.166440e+000	-4.075959e+000	-4.075959e+000	-5.474632e+001	-4.579438e+001	-4.579438e+001	-5.760575e+001	-5.147243e+001	-5.147243e+001	-1.245703e+000	-3.559059e+000	-3.559059e+000	
5.180000e-001	-1.182905e+000	-3.962320e+000	-3.962320e+000	-6.241937e+001	7.807647e+001	7.807647e+001	-5.913660e+001	-8.576691e+001	-8.576691e+001	-1.249069e+000	-3.531298e+000	-3.531298e+000	
5.190000e-001	-1.184134e+000	-3.977709e+000	-3.977709e+000	-5.444950e+001	7.097484e+001	7.097484e+001	-5.626538e+001	-5.962029e+001	-5.962029e+001	-1.230155e+000	-3.591631e+000	-3.591631e+000	
5.200000e-001	-1.193420e+000	-4.067819e+000	-4.067819e+000	-6.248183e+001	-8.496950e+001	9.503050e+001	-5.840369e+001	3.779652e+001	3.779652e+001	-1.226171e+000	-3.601827e+000	-3.601827e+000	
5.210000e-001	-1.185252e+000	-4.100223e+000	-4.100223e+000	-6.055261e+001	7.860132e+001	7.860132e+001	-6.240692e+001	-6.448860e+001	-6.448860e+001	-1.236154e+000	-3.691794e+000	-3.691794e+000	
5.220000e-001	-1.178814e+000	-3.988385e+000	-3.988385e+000	-5.429261e+001	5.848151e+001	5.848151e+001	-5.761391e+001	-6.374803e+001	-6.374803e+001	-1.241723e+000	-3.594984e+000	-3.594984e+000	
5.230000e-001	-1.180589e+000	-4.072852e+000	-4.072852e+000	-5.395712e+001	-8.194422e+001	9.805578e+001	-6.434367e+001	-4.330621e+001	-4.330621e+001	-1.264232e+000	-3.625106e+000	-3.625106e+000	
5.240000e-001	-1.181837e+000	-4.107669e+000	-4.107669e+000	-6.466177e+001	-7.517176e+001	1.048282e+002	-5.870266e+001	2.873791e+001	2.873791e+001	-1.240120e+000	-3.729367e+000	-3.729367e+000	
5.250000e-001	-1.208574e+000	-4.093495e+000	-4.093495e+000	-5.481697e+001	-6.331442e+001	1.166856e+002	-5.391599e+001	-7.735612e+001	-7.735612e+001	-1.247939e+000	-3.752942e+000	-3.752942e+000	
5.260000e-001	-1.199628e+000	-4.120934e+000	-4.120934e+000	-6.245039e+001	-1.076315e+001	1.692369e+002	-5.640940e+001	6.857893e+001	-1.114211e+002	-1.247757e+000	-3.595849e+000	-3.595849e+000	
5.270000e-001	-1.171393e+000	-4.158025e+000	-4.158025e+000	-5.703044e+001	8.577716e+001	2.657772e+002	-5.941300e+001	7.984323e+001	-1.001568e+002	-1.236819e+000	-3.653760e+000	-3.653760e+000	
5.280000e-001	-1.190800e+000	-4.155077e+000	-4.155077e+000	-5.779592e+001	-8.022944e+001	2.797706e+002	-5.432622e+001	5.256415e+001	-1.274358e+002	-1.229581e+000	-3.665259e+000	-3.665259e+000	
5.290000e-001	-1.166329e+000	-4.115487e+000	-4.115487e+000	-5.949317e+001	-7.277683e+001	2.872232e+002	-7.592843e+001	-5.751748e+001	-2.375175e+002	-1.236733e+000	-3.684751e+000	-3.684751e+000	
5.300000e-001	-1.180466e+000	-4.155056e+000	-4.155056e+000	-5.199129e+001	8.876344e+001	2.687634e+002	-7.105743e+001	5.981110e+001	-1.201889e+002	-1.246681e+000	-3.653871e+000	-3.653871e+000	
5.310000e-001	-1.192085e+000	-4.069871e+000	-4.069871e+000	-6.455923e+001	7.950456e+001	2.595046e+002	-5.575519e+001	6.065102e+001	-1.193490e+002	-1.242396e+000	-3.703525e+000	-3.703525e+000	
5.320000e-001	-1.183738e+000	-4.123642e+000	-4.123642e+000	-5.490712e+001	7.635248e+001	2.563525e+002	-5.309829e+001	6.509129e+001	-1.149087e+002	-1.235301e+000	-3.690049e+000	-3.690049e+000	
5.330000e-001	-1.187841e+000	-4.211898e+000	-4.211898e+000	-5.798447e+001	4.276760e+001	2.227676e+002	-5.576674e+001	7.361184e+001	-1.063882e+002	-1.249621e+000	-3.756578e+000	-3.756578e+000	
5.340000e-001	-1.189423e+000	-4.150815e+000	-4.150815e+000	-5.741053e+001	3.520577e+001	2.152058e+002	-5.613954e+001	-7.149570e+001	-7.149570e+001	-1.245587e+000	-3.664576e+000	-3.664576e+000	
5.350000e-001	-1.196139e+000	-4.133413e+000	-4.133413e+000	-5.466111e+001	6.761668e+001	2.476167e+002	-6.066176e+001	6.534936e+001	6.534936e+001	-1.253130e+000	-3.686441e+000	-3.686441e+000	
5.360000e-001	-1.183629e+000	-4.260530e+000	-4.260530e+000	-5.727324e+001	-7.825274e+001	2.817473e+002	-6.084438e+001	2.294056e+001	2.294056e+001	-1.247095e+000	-3.754178e+000	-3.754178e+000	
5.370000e-001	-1.176578e+000	-4.217421e+000	-4.217421e+000	-6.110516e+001	8.335140e+001	2.633514e+002	-5.522716e+001	7.402859e+001	7.402859e+001	-1.235800e+000	-3.736650e+000	-3.736650e+000	
5.380000e-001	-1.192354e+000	-4.114060e+000	-4.114060e+000	-6.074933e+001	7.327890e+001	2.532789e+002	-5.411916e+001	-7.547775e+001	1.045222e+002	-1.224253e+000	-3.623651e+000	-3.623651e+000	
5.390000e-001	-1.177047e+000	-4.206149e+000	-4.206149e+000	-5.495604e+001	7.881815e+001	2.588182e+002	-5.647955e+001	7.316388e+001	7.316388e+001	-1.233395e+000	-3.816090e+000	-3.816090e+000	
5.400000e-001	-1.161615e+000	-4.161335e+000	-4.161335e+000	-6.716820e+001	5.524442e+001	2.352444e+002	-5.743439e+001	-8.439868e+001	9.560132e+001	-1.243245e+000	-3.771494e+000	-3.771494e+000	
5.410000e-001	-1.190048e+000	-4.224276e+000	-4.224276e+000	-5.503175e+001	8.870865e+001	2.687086e+002	-6.025805e+001	5.969708e+001	5.969708e+001	-1.248345e+000	-3.738427e+000	-3.738427e+000	
5.420000e-001	-1.184253e+000	-4.233722e+000	-4.233722e+000	-6.029781e+001	1.851201e+000	1.818512e+002	-5.619016e+001	4.916910e+001	4.916910e+001	-1.231496e+000	-3.708532e+000	-3.708532e+000	
5.430000e-001	-1.195751e+000	-4.243828e+000	-4.243828e+000	-5.850299e+001	-4.068341e+001	1.393166e+002	-5.907822e+001	6.389282e+001	6.389282e+001	-1.244051e+000	-3.820470e+000	-3.820470e+000	
5.440000e-001	-1.185652e+000	-4.281951e+000	-4.281951e+000	-7.749223e+001	-6.321495e+001	1.167850e+002	-5.985976e+001	7.914389e+001	7.914389e+001	-1.257236e+000	-3.761564e+000	-3.761564e+000	
5.450000e-001	-1.181471e+000	-4.261646e+000	-4.261646e+000	-5.922609e+001	-4.299450e+001	1.370055e+002	-5.427806e+001	5.222686e+001	5.222686e+001	-1.229771e+000	-3.821160e+000	-3.821160e+000	
5.460000e-001	-1.182454e+000	-4.180508e+000	-4.180508e+000	-5.854037e+001	-8.784982e+001	9.215018e+001	-5.749586e+001	-6.964755e+001	-6.964755e+001	-1.243831e+000	-3.817814e+000	-3.817814e+000	
5.470000e-001	-1.178487e+000	-4.265869e+000	-4.265869e+000	-5.078850e+001	4.903641e+001	2.290364e+002	-5.978926e+001	8.020438e+001	-9.979562e+001	-1.240757e+000	-3.844579e+000	-3.844579e+000	
5.480000e-001	-1.194207e+000	-4.233110e+000	-4.233110e+000	-5.677623e+001	8.915229e+001	2.691523e+002	-5.687899e+001	-7.037904e+001	-7.037904e+001	-1.239220e+000	-3.815754e+000	-3.815754e+000	
5.490000e-001	-1.199334e+000	-4.219102e+000	-4.219102e+000	-5.560213e+001	4.124074e+001	2.212407e+002	-5.552872e+001	-8.373972e+001	-8.373972e+001	-1.223903e+000	-3.895780e+000	-3.895780e+000	
5.500000e-001	-1.191130e+000	-4.295608e+000	-4.295608e+000	-5.671749e+001	8.131538e+001	2.613154e+002	-5.421827e+001	6.505562e+001	-1.149444e+002	-1.235573e+000	-3.909128e+000	-3.909128e+000	
5.510000e-001	-1.201009e+000	-4.248968e+000	-4.248968e+000	-5.933147e+001	6.347206e+001	2.434721e+002	-5.667237e+001	-8.378537e+001	-8.378537e+001	-1.231765e+000	-3.802687e+000	-3.802687e+000	
5.520000e-001	-1.179232e+000	-4.240992e+000	-4.240992e+000	-5.798006e+001	1.020638e+001	1.902064e+002	-5.223444e+001	-8.609617e+001	-8.609617e+001	-1.242779e+000	-3.851281e+000	-3.851281e+000	
5.530000e-001	-1.196792e+000	-4.205003e+000	-4.205003e+000	-5.576006e+001	-7.486873e+001	1.051313e+002	-5.885993e+001	-7.420455e+001	-7.420455e+001	-1.233751e+000	-3.827235e+000	-3.827235e+000	
5.540000e-001	-1.186268e+000	-4.167134e+000	-4.167134e+000	-5.543902e+001	8.560455e+001	8.560455e+001	-6.072143e+001	-6.020482e+001	-6.020482e+001	-1.238684e+000	-3.831449e+000	-3.831449e+000	
5.550000e-001	-1.192749e+000	-4.228736e+000	-4.228736e+000	-5.662412e+001	-8.674413e+001	9.325587e+001	-5.364890e+001	6.532753e+001	6.532753e+001	-1.250065e+000	-3.873809e+000	-3.873809e+000	
5.560000e-001	-1.174274e+000	-4.336567e+000	-4.336567e+000	-6.284059e+001	-7.648642e+001	1.035136e+002	-6.138229e+001	-8.350569e+001	9.649431e+001	-1.234549e+000	-3.899822e+000	-3.899822e+000	
5.570000e-001	-1.197348e+000	-4.328061e+000	-4.328061e+000	-5.705877e+001	-6.893826e+001	1.110617e+002	-6.166842e+001	5.754185e+001	5.754185e+001	-1.249492e+000	-3.796826e+000	-3.796826e+000	
5.580000e-001	-1.192141e+000	-4.275295e+000	-4.275295e+000	-6.112608e+001	7.643006e+001	7.643006e+001	-5.601446e+001	-7.430391e+001	-7.430391e+001	-1.220219e+000	-3.826709e+000	-3.826709e+000	
5.590000e-001	-1.182559e+000	-4.325217e+000	-4.325217e+000	-5.855563e+001	-5.559401e+001	-5.559401e+001	-6.776772e+001	-4.247792e+001	-4.247792e+001	-1.228000e+000	-3.838894e+000	-3.838894e+000	
5.600000e-001	-1.183152e+000	-4.268404e+000	-4.268404e+000	-5.864650e+001	7.704523e+001	7.704523e+001	-6.460361e+001	-2.689571e+001	-2.689571e+001	-1.232727e+000	-3.784120e+000	-3.784120e+000	
5.610000e-001	-1.186760e+000	-4.320488e+000	-4.320488e+000	-5.611737e+001	8.528597e+001	8.528597e+001	-6.075893e+001	8.385456e+001	8.385456e+001	-1.242086e+000	-3.762105e+000	-3.762105e+000	
5.620000e-001	-1.183891e+000	-4.183994e+000	-4.183994e+000	-6.465439e+001	6.029409e+001	6.029409e+001	-5.576504e+001	5.453543e+001	5.453543e+001	-1.237758e+000	-3.845013e+000	-3.845013e+000	
5.630000e-001	-1.178728e+000	-4.286419e+000	-4.286419e+000	-6.053059e+001	-5.899973e+001	-5.899973e+001	-5.616957e+001	8.229917e+001	8.229917e+001	-1.241151e+000	-3.921951e+000	-3.921951e+000	
5.640000e-001	-1.191344e+000	-4.278362e+000	-4.278362e+000	-5.564235e+001	8.728039e+001	-9.271961e+001	-5.692125e+001	8.902624e+001	8.902624e+001	-1.246114e+000	-3.816973e+000	-3.816973e+000	
5.650000e-001	-1.191461e+000	-4.284291e+000	-4.284291e+000	-5.547533e+001	6.284513e+001	-1.171549e+002	-6.453420e+001	-6.873168e+001	1.112683e+002	-1.229969e+000	-3.877198e+000	-3.877198e+000	
5.660000e-001	-1.189820e+000	-4.226761e+000	-4.226761e+000	-5.587231e+001	5.579101e+001	-1.242090e+002	-5.870661e+001	6.689768e+001	2.468977e+002	-1.223316e+000	-3.829618e+000	-3.829618e+000	
5.670000e-001	-1.181426e+000	-4.234257e+000	-4.234257e+000	-6.522484e+001	5.390680e+001	-1.260932e+002	-6.142441e+001	5.334366e+001	2.333437e+002	-1.233455e+000	-3.866483e+000	-3.866483e+000	
5.680000e-001	-1.189449e+000	-4.304222e+000	-4.304222e+000	-6.924555e+001	5.742596e+001	-1.225740e+002	-6.014890e+001	-6.201551e+001	1.179845e+002	-1.247532e+000	-3.880533e+000	-3.880533e+000	
5.690000e-001	-1.186073e+000	-4.227796e+000	-4.227796e+000	-6.961194e+001	5.153699e+001	-1.284630e+002	-5.634329e+001	4.434988e+001	2.243499e+002	-1.235029e+000	-3.908070e+000	-3.908070e+000	
5.700000e-001	-1.189724e+000	-4.283842e+000	-4.283842e+000	-6.798120e+001	7.127554e+001	-1.087245e+002	-5.546614e+001	8.025142e+001	2.602514e+002	-1.249153e+000	-3.926800e+000	-3.926800e+000	
5.710000e-001	-1.183377e+000	-4.264051e+000	-4.264051e+000	-5.979158e+001	6.483741e+001	-1.151626e+002	-6.120818e+001	-7.878706e+001	2.812129e+002	-1.236173e+000	-3.893111e+000	-3.893111e+000	
5.720000e-001	-1.197718e+000	-4.390117e+000	-4.390117e+000	-5.436250e+001	3.945466e+001	-1.405453e+002	-6.208892e+001	-7.966581e+001	2.803342e+002	-1.247934e+000	-3.856260e+000	-3.856260e+000	
5.730000e-001	-1.185200e+000	-4.251908e+000	-4.251908e+000	-5.277983e+001	-8.837619e+001	-2.683762e+002	-6.123029e+001	-7.319033e+001	2.868097e+002	-1.247397e+000	-3.922034e+000	-3.922034e+000	
5.740000e-001	-1.198178e+000	-4.249817e+000	-4.249817e+000	-5.430030e+001	6.824923e+001	-2.917508e+002	-5.490251e+001	-7.300913e+001	2.869909e+002	-1.242770e+000	-3.850340e+000	-3.850340e+000	
5.750000e-001	-1.201602e+000	-4.377888e+000	-4.377888e+000	-6.087240e+001	7.321715e+001	-2.867828e+002	-5.962614e+001	-6.255022e+001	2.974498e+002	-1.235935e+000	-3.906853e+000	-3.906853e+000	
5.760000e-001	-1.195647e+000	-4.451995e+000	-4.451995e+000	-5.538573e+001	6.711041e+001	-2.928896e+002	-5.881447e+001	-8.570637e+001	2.742936e+002	-1.247672e+000	-3.924911e+000	-3.924911e+000	
5.770000e-001	-1.193957e+000	-4.312853e+000	-4.312853e+000	-5.630214e+001	6.328938e+001	-2.967106e+002	-6.079657e+001	-2.218817e+001	3.378118e+002	-1.230060e+000	-3.887482e+000	-3.887482e+000	
5.780000e-001	-1.192107e+000	-4.348716e+000	-4.348716e+000	-5.339651e+001	6.887594e+001	-2.911241e+002	-7.036967e+001	-7.348426e+001	2.865157e+002	-1.245714e+000	-3.771739e+000	-3.771739e+000	
5.790000e-001	-1.186434e+000	-4.396639e+000	-4.396639e+000	-5.678511e+001	-4.447432e+001	-4.044743e+002	-6.123078e+001	6.720860e+001	2.472086e+002	-1.236786e+000	-3.940086e+000	-3.940086e+000	
5.800000e-001	-1.193605e+000	-4.359214e+000	-4.359214e+000	-5.501100e+001	8.133689e+001	-2.786631e+002	-5.444872e+001	6.537045e+001	2.453704e+002	-1.244643e+000	-3.992711e+000	-3.992711e+000	
5.810000e-001	-1.187236e+000	-4.283149e+000	-4.283149e+000	-5.786187e+001	7.003919e+001	-2.899608e+002	-6.302828e+001	-4.214016e+001	1.378598e+002	-1.211497e+000	-4.001914e+000	-4.001914e+000	
5.820000e-001	-1.198392e+000	-4.415255e+000	-4.415255e+000	-6.389336e+001	5.676934e+001	-3.032307e+002	-5.395135e+001	6.516506e+001	2.451651e+002	-1.237569e+000	-3.827280e+000	-3.827280e+000	
5.830000e-001	-1.194697e+000	-4.447513e+000	-4.447513e+000	-5.713453e+001	1.446669e+001	-3.455333e+002	-6.118872e+001	-7.047649e+001	1.095235e+002	-1.238342e+000	-3.920232e+000	-3.920232e+000	
5.840000e-001	-1.186621e+000	-4.353271e+000	-4.353271e+000	-5.554317e+001	5.104954e+001	-3.089505e+002	-6.876890e+001	7.559685e+001	7.559685e+001	-1.249048e+000	-4.014255e+000	-4.014255e+000	
5.850000e-001	-1.192666e+000	-4.414941e+000	-4.414941e+000	-5.567003e+001	3.429226e+001	-3.257077e+002	-6.154828e+001	3.523474e+001	3.523474e+001	-1.249988e+000	-3.898779e+000	-3.898779e+000	
5.860000e-001	-1.184722e+000	-4.370434e+000	-4.370434e+000	-5.497218e+001	-8.998852e+001	-4.499885e+002	-6.177787e+001	5.958117e+001	5.958117e+001	-1.229049e+000	-3.983365e+000	-3.983365e+000	
5.870000e-001	-1.185098e+000	-4.497093e+000	-4.497093e+000	-5.840301e+001	-7.076542e+001	-4.307654e+002	-6.012825e+001	-7.674360e+001	-7.674360e+001	-1.236998e+000	-3.956250e+000	-3.956250e+000	
5.880000e-001	-1.205214e+000	-4.350351e+000	-4.350351e+000	-6.503411e+001	-7.314229e+001	-4.331423e+002	-6.517671e+001	-7.851950e+001	-7.851950e+001	-1.231798e+000	-3.996248e+000	-3.996248e+000	
5.890000e-001	-1.182861e+000	-4.418018e+000	-4.418018e+000	-6.106845e+001	5.967008e+001	-3.003299e+002	-5.678935e+001	-8.369059e+001	-8.369059e+001	-1.247201e+000	-3.996084e+000	-3.996084e+000	
5.900000e-001	-1.189318e+000	-4.432150e+000	-4.432150e+000	-5.402102e+001	-8.347373e+001	-2.634737e+002	-5.739766e+001	-8.312183e+001	-8.312183e+001	-1.245882e+000	-3.988629e+000	-3.988629e+000	
5.910000e-001	-1.200370e+000	-4.490673e+000	-4.490673e+000	-5.490056e+001	8.585967e+001	-2.741403e+002	-6.261483e+001	7.949026e+001	-1.005097e+002	-1.256839e+000	-3.982801e+000	-3.982801e+000	
5.920000e-001	-1.203362e+000	-4.462699e+000	-4.462699e+000	-5.999706e+001	-7.549243e+001	-2.554924e+002	-6.503675e+001	-3.881736e+001	-2.188174e+002	-1.232227e+000	-4.074057e+000	-4.074057e+000	
5.930000e-001	-1.186344e+000	-4.463961e+000	-4.463961e+000	-6.461933e+001	-7.909828e+001	-2.590983e+002	-5.821783e+001	-4.526826e+001	-2.252683e+002	-1.224000e+000	-3.994335e+000	-3.994335e+000	
5.940000e-001	-1.204826e+000	-4.465461e+000	-4.465461e+000	-5.819938e+001	7.722159e+001	-2.827784e+002	-6.090065e+001	4.154767e+001	-1.384523e+002	-1.243971e+000	-4.052721e+000	-4.052721e+000	
5.950000e-001	-1.194839e+000	-4.428517e+000	-4.428517e+000	-5.678654e+001	-6.934665e+001	-2.493466e+002	-6.115931e+001	-3.739351e+001	-2.173935e+002	-1.227606e+000	-4.014919e+000	-4.014919e+000	
5.960000e-001	-1.189465e+000	-4.423546e+000	-4.423546e+000	-5.324524e+001	6.593174e+001	-1.140683e+002	-5.941193e+001	-5.334951e+001	-2.333495e+002	-1.229401e+000	-4.074374e+000	-4.074374e+000	
5.970000e-001	-1.170390e+000	-4.486551e+000	-4.486551e+000	-5.459885e+001	6.076619e+001	-1.192338e+002	-5.899856e+001	7.586777e+001	-1.041322e+002	-1.237895e+000	-3.998893e+000	-3.998893e+000	
5.980000e-001	-1.208063e+000	-4.505920e+000	-4.505920e+000	-5.548424e+001	-6.787331e+001	-2.478733e+002	-5.343316e+001	6.155439e+001	-1.184456e+002	-1.230097e+000	-3.990731e+000	-3.990731e+000	
5.990000e-001	-1.190104e+000	-4.565850e+000	-4.565850e+000	-5.239879e+001	8.652629e+001	-2.734737e+002	-6.405517e+001	2.991813e+001	-1.500819e+002	-1.241162e+000	-4.044342e+000	-4.044342e+000	
6.000000e-001	-1.185451e+000	-4.518840e+000	-4.518840e+000	-6.840502e+001	-8.658767e+001	-2.665877e+002	-6.015657e+001	-6.077974e+001	-2.407797e+002	-1.251584e+000	-4.070461e+000	-4.070461e+000	
6.010000e-001	-1.196365e+000	-4.659645e+000	-4.659645e+000	-5.810551e+001	7.549286e+001	-2.845071e+002	-5.462166e+001	7.272330e+001	-1.072767e+002	-1.229094e+000	-4.053864e+000	-4.053864e+000	
6.020000e-001	-1.194800e+000	-4.554404e+000	-4.554404e+000	-5.722250e+001	4.770763e+001	-3.122924e+002	-5.745227e+001	6.075216e+001	-1.192478e+002	-1.229885e+000	-4.073144e+000	-4.073144e+000	
