Frequency	 |S11|	 Phase(S11)	 ExtPh(S11)	 |S21|	 Phase(S21)	 ExtPh(S21)	 |S12|	 Phase(S12)	 ExtPh(S12)	 |S22|	 Phase(S22)	 ExtPh(S22) 
5.000000e-001	-1.186691e+000	-4.127919e+000	-4.127919e+000	-5.965175e+001	-6.387177e+001	-6.387177e+001	-5.331409e+001	-5.054155e+001	-5.054155e+001	-1.253889e+000	-3.625430e+000	-3.625430e+000	
5.010000e-001	-1.190092e+000	-4.068166e+000	-4.068166e+000	-6.966346e+001	-8.024872e+001	-8.024872e+001	-5.493609e+001	8.104297e+001	8.104297e+001	-1.238665e+000	-3.579294e+000	-3.579294e+000	
5.020000e-001	-1.190351e+000	-4.106095e+000	-4.106095e+000	-5.900932e+001	6.202762e+001	-1.179724e+002	-5.790560e+001	-8.542652e+001	9.457348e+001	-1.230382e+000	-3.661552e+000	-3.661552e+000	
5.030000e-001	-1.197474e+000	-4.147944e+000	-4.147944e+000	-5.553012e+001	4.124738e+001	-1.387526e+002	-6.275745e+001	7.468812e+001	7.468812e+001	-1.247074e+000	-3.647337e+000	-3.647337e+000	
5.040000e-001	-1.189210e+000	-4.206262e+000	-4.206262e+000	-5.987558e+001	-7.262658e+001	-2.526266e+002	-6.895307e+001	5.093072e+001	5.093072e+001	-1.243654e+000	-3.598483e+000	-3.598483e+000	
5.050000e-001	-1.193927e+000	-4.171788e+000	-4.171788e+000	-5.953953e+001	4.412558e+000	-1.755874e+002	-5.653248e+001	2.074099e+001	2.074099e+001	-1.255729e+000	-3.657239e+000	-3.657239e+000	
5.060000e-001	-1.197217e+000	-4.204177e+000	-4.204177e+000	-5.767559e+001	8.132417e+001	-9.867583e+001	-5.678611e+001	7.473002e+001	7.473002e+001	-1.258534e+000	-3.618015e+000	-3.618015e+000	
5.070000e-001	-1.180067e+000	-4.214333e+000	-4.214333e+000	-5.698532e+001	7.522673e+001	-1.047733e+002	-5.783323e+001	-8.634698e+001	9.365302e+001	-1.243087e+000	-3.743993e+000	-3.743993e+000	
5.080000e-001	-1.198549e+000	-4.209654e+000	-4.209654e+000	-5.721281e+001	4.912626e+001	-1.308737e+002	-6.030052e+001	5.588091e+001	5.588091e+001	-1.241875e+000	-3.775418e+000	-3.775418e+000	
5.090000e-001	-1.191097e+000	-4.210511e+000	-4.210511e+000	-5.865726e+001	-6.469846e+001	-2.446985e+002	-6.302609e+001	8.906324e+001	8.906324e+001	-1.236708e+000	-3.705228e+000	-3.705228e+000	
5.100000e-001	-1.202293e+000	-4.156149e+000	-4.156149e+000	-5.379932e+001	-8.640269e+001	-2.664027e+002	-6.168222e+001	-6.755776e+001	1.124422e+002	-1.251822e+000	-3.672727e+000	-3.672727e+000	
5.110000e-001	-1.190305e+000	-4.250713e+000	-4.250713e+000	-5.831339e+001	6.593278e+001	-2.940672e+002	-6.042152e+001	-1.124811e+001	1.687519e+002	-1.233923e+000	-3.732714e+000	-3.732714e+000	
5.120000e-001	-1.193550e+000	-4.191615e+000	-4.191615e+000	-5.329375e+001	6.848357e+001	-2.915164e+002	-5.321806e+001	5.257327e+001	2.325733e+002	-1.253233e+000	-3.828857e+000	-3.828857e+000	
5.130000e-001	-1.190031e+000	-4.065810e+000	-4.065810e+000	-5.817174e+001	6.975501e+001	-2.902450e+002	-5.581632e+001	-8.485390e+001	9.514610e+001	-1.250376e+000	-3.654844e+000	-3.654844e+000	
5.140000e-001	-1.190498e+000	-4.198921e+000	-4.198921e+000	-5.641466e+001	7.084410e+001	-2.891559e+002	-5.965157e+001	-3.025106e+001	1.497489e+002	-1.237100e+000	-3.821728e+000	-3.821728e+000	
5.150000e-001	-1.198918e+000	-4.318365e+000	-4.318365e+000	-6.240461e+001	-7.241226e+001	-2.524123e+002	-5.788351e+001	-7.324761e+001	1.067524e+002	-1.249159e+000	-3.729274e+000	-3.729274e+000	
5.160000e-001	-1.196764e+000	-4.245422e+000	-4.245422e+000	-5.260575e+001	7.590648e+001	-2.840935e+002	-5.879108e+001	-8.198925e+001	9.801075e+001	-1.241107e+000	-3.812683e+000	-3.812683e+000	
5.170000e-001	-1.186167e+000	-4.383377e+000	-4.383377e+000	-5.956624e+001	-7.067912e+001	-2.506791e+002	-5.708786e+001	4.473968e+001	2.247397e+002	-1.249305e+000	-3.828578e+000	-3.828578e+000	
5.180000e-001	-1.189513e+000	-4.326506e+000	-4.326506e+000	-5.963746e+001	-7.550958e+001	-2.555096e+002	-5.807789e+001	8.227545e+001	2.622754e+002	-1.241964e+000	-3.765897e+000	-3.765897e+000	
5.190000e-001	-1.192651e+000	-4.316219e+000	-4.316219e+000	-5.869193e+001	-7.887231e+001	-2.588723e+002	-6.612041e+001	-5.115677e+001	1.288432e+002	-1.259893e+000	-3.948428e+000	-3.948428e+000	
5.200000e-001	-1.202958e+000	-4.316042e+000	-4.316042e+000	-6.128841e+001	6.414033e+001	-2.958597e+002	-6.077546e+001	8.682876e+001	2.668288e+002	-1.245006e+000	-3.883174e+000	-3.883174e+000	
5.210000e-001	-1.193959e+000	-4.347125e+000	-4.347125e+000	-6.145208e+001	-8.425981e+001	-2.642598e+002	-5.449710e+001	5.123317e+001	2.312332e+002	-1.230088e+000	-3.852840e+000	-3.852840e+000	
5.220000e-001	-1.175975e+000	-4.373905e+000	-4.373905e+000	-5.663910e+001	8.413212e+001	-2.758679e+002	-6.277170e+001	-1.641454e+001	1.635855e+002	-1.243421e+000	-3.909118e+000	-3.909118e+000	
5.230000e-001	-1.171954e+000	-4.242506e+000	-4.242506e+000	-5.602946e+001	6.101716e+001	-2.989828e+002	-5.965494e+001	8.464707e+001	2.646471e+002	-1.232682e+000	-3.871973e+000	-3.871973e+000	
5.240000e-001	-1.201994e+000	-4.303351e+000	-4.303351e+000	-5.852109e+001	8.103069e+001	-2.789693e+002	-5.838810e+001	4.550532e+001	2.255053e+002	-1.244195e+000	-3.783609e+000	-3.783609e+000	
5.250000e-001	-1.185443e+000	-4.388344e+000	-4.388344e+000	-6.346994e+001	-5.685853e+001	-4.168585e+002	-5.935834e+001	-5.208259e+001	1.279174e+002	-1.237729e+000	-3.941428e+000	-3.941428e+000	
5.260000e-001	-1.199902e+000	-4.288189e+000	-4.288189e+000	-5.599262e+001	-8.915426e+001	-4.491543e+002	-6.063317e+001	8.149335e+001	2.614934e+002	-1.238204e+000	-3.766816e+000	-3.766816e+000	
5.270000e-001	-1.184635e+000	-4.397693e+000	-4.397693e+000	-5.529497e+001	7.007297e+001	-4.699270e+002	-6.644755e+001	6.059091e+001	2.405909e+002	-1.256597e+000	-3.839240e+000	-3.839240e+000	
5.280000e-001	-1.201361e+000	-4.375651e+000	-4.375651e+000	-5.959162e+001	6.656268e+001	-4.734373e+002	-6.153214e+001	2.255122e+001	2.025512e+002	-1.258681e+000	-3.916043e+000	-3.916043e+000	
5.290000e-001	-1.184419e+000	-4.415723e+000	-4.415723e+000	-5.920590e+001	8.120760e+001	-4.587924e+002	-6.940229e+001	2.550435e+001	2.055043e+002	-1.241984e+000	-3.870948e+000	-3.870948e+000	
5.300000e-001	-1.188925e+000	-4.409674e+000	-4.409674e+000	-5.249738e+001	-8.515520e+001	-4.451552e+002	-5.669110e+001	8.969824e+001	2.696982e+002	-1.240208e+000	-3.945841e+000	-3.945841e+000	
5.310000e-001	-1.181171e+000	-4.445681e+000	-4.445681e+000	-5.617777e+001	8.345484e+001	-4.565452e+002	-5.679167e+001	5.748559e+001	2.374856e+002	-1.246787e+000	-3.987174e+000	-3.987174e+000	
5.320000e-001	-1.194816e+000	-4.421199e+000	-4.421199e+000	-6.368675e+001	4.959308e+001	-4.904069e+002	-6.107235e+001	-8.136235e+001	9.863765e+001	-1.258387e+000	-4.027541e+000	-4.027541e+000	
5.330000e-001	-1.199771e+000	-4.360314e+000	-4.360314e+000	-5.872405e+001	6.409934e+001	-4.759007e+002	-5.790301e+001	4.754878e+001	2.275488e+002	-1.249179e+000	-3.977918e+000	-3.977918e+000	
5.340000e-001	-1.180578e+000	-4.432322e+000	-4.432322e+000	-5.360467e+001	-7.302578e+001	-6.130258e+002	-5.937716e+001	-8.620259e+001	9.379741e+001	-1.248669e+000	-3.958495e+000	-3.958495e+000	
5.350000e-001	-1.196059e+000	-4.346172e+000	-4.346172e+000	-5.614986e+001	8.875446e+001	-6.312455e+002	-5.666453e+001	7.351587e+001	7.351587e+001	-1.244739e+000	-4.052061e+000	-4.052061e+000	
5.360000e-001	-1.199156e+000	-4.444174e+000	-4.444174e+000	-5.594483e+001	8.507008e+001	-6.349299e+002	-5.728010e+001	-5.047035e+001	-5.047035e+001	-1.239211e+000	-3.911785e+000	-3.911785e+000	
5.370000e-001	-1.184859e+000	-4.451729e+000	-4.451729e+000	-6.068699e+001	7.111387e+001	-6.488861e+002	-5.610186e+001	-6.320668e+001	-6.320668e+001	-1.238343e+000	-3.950593e+000	-3.950593e+000	
5.380000e-001	-1.198062e+000	-4.445804e+000	-4.445804e+000	-5.982620e+001	4.817872e+001	-6.718213e+002	-6.659138e+001	-6.135350e+001	-6.135350e+001	-1.249662e+000	-3.952766e+000	-3.952766e+000	
5.390000e-001	-1.193850e+000	-4.469970e+000	-4.469970e+000	-5.478194e+001	-8.072872e+001	-8.007287e+002	-6.239199e+001	5.862818e+001	5.862818e+001	-1.232780e+000	-4.017709e+000	-4.017709e+000	
5.400000e-001	-1.183838e+000	-4.448691e+000	-4.448691e+000	-5.351557e+001	8.063220e+001	-8.193678e+002	-6.070164e+001	7.323923e+001	7.323923e+001	-1.239536e+000	-3.981618e+000	-3.981618e+000	
5.410000e-001	-1.188604e+000	-4.580541e+000	-4.580541e+000	-5.554968e+001	-5.987683e+001	-7.798768e+002	-5.374649e+001	6.423342e+001	6.423342e+001	-1.245345e+000	-4.057271e+000	-4.057271e+000	
5.420000e-001	-1.194900e+000	-4.522208e+000	-4.522208e+000	-6.533531e+001	5.583733e+001	-6.641627e+002	-7.899275e+001	9.672942e+000	9.672942e+000	-1.245642e+000	-3.944650e+000	-3.944650e+000	
5.430000e-001	-1.202747e+000	-4.507660e+000	-4.507660e+000	-5.825444e+001	-4.530855e+001	-7.653086e+002	-5.990121e+001	4.897051e+001	4.897051e+001	-1.241951e+000	-4.164645e+000	-4.164645e+000	
5.440000e-001	-1.178238e+000	-4.475365e+000	-4.475365e+000	-5.672471e+001	2.723016e+001	-6.927698e+002	-5.983180e+001	8.692859e+001	8.692859e+001	-1.248928e+000	-4.065307e+000	-4.065307e+000	
5.450000e-001	-1.169348e+000	-4.440791e+000	-4.440791e+000	-5.575137e+001	8.222550e+001	-6.377745e+002	-5.923934e+001	8.212263e+001	8.212263e+001	-1.251576e+000	-4.008542e+000	-4.008542e+000	
5.460000e-001	-1.194089e+000	-4.543063e+000	-4.543063e+000	-7.473081e+001	8.982196e+001	-6.301780e+002	-6.121609e+001	5.993975e+001	5.993975e+001	-1.241227e+000	-4.162105e+000	-4.162105e+000	
5.470000e-001	-1.195126e+000	-4.484573e+000	-4.484573e+000	-5.447215e+001	6.181096e+001	-6.581890e+002	-5.422359e+001	-5.018244e+001	-5.018244e+001	-1.246026e+000	-4.080274e+000	-4.080274e+000	
5.480000e-001	-1.187965e+000	-4.479165e+000	-4.479165e+000	-4.988692e+001	7.717226e+001	-6.428277e+002	-6.294711e+001	5.467127e+001	5.467127e+001	-1.246078e+000	-4.021118e+000	-4.021118e+000	
5.490000e-001	-1.198332e+000	-4.479403e+000	-4.479403e+000	-5.467875e+001	-7.246562e+001	-6.124656e+002	-5.294203e+001	7.452696e+001	7.452696e+001	-1.241374e+000	-4.106018e+000	-4.106018e+000	
5.500000e-001	-1.196145e+000	-4.496626e+000	-4.496626e+000	-5.349000e+001	7.561632e+001	-6.443837e+002	-5.706507e+001	3.083061e+001	3.083061e+001	-1.239653e+000	-4.027465e+000	-4.027465e+000	
5.510000e-001	-1.205799e+000	-4.524064e+000	-4.524064e+000	-5.887562e+001	5.997225e+001	-6.600278e+002	-5.644879e+001	8.330383e+001	8.330383e+001	-1.244164e+000	-4.095729e+000	-4.095729e+000	
5.520000e-001	-1.199594e+000	-4.478933e+000	-4.478933e+000	-5.774071e+001	6.237018e+001	-6.576298e+002	-5.919509e+001	5.478040e+001	5.478040e+001	-1.245382e+000	-4.118641e+000	-4.118641e+000	
5.530000e-001	-1.182994e+000	-4.532357e+000	-4.532357e+000	-5.516674e+001	-8.447220e+001	-6.244722e+002	-6.311908e+001	7.255158e+001	7.255158e+001	-1.256986e+000	-4.084943e+000	-4.084943e+000	
5.540000e-001	-1.195008e+000	-4.525275e+000	-4.525275e+000	-5.829696e+001	7.412103e+001	-6.458790e+002	-6.230223e+001	-5.252118e+001	-5.252118e+001	-1.243578e+000	-4.094338e+000	-4.094338e+000	
5.550000e-001	-1.197572e+000	-4.522961e+000	-4.522961e+000	-6.112515e+001	-5.535502e+001	-7.753550e+002	-5.357521e+001	6.972035e+001	6.972035e+001	-1.252294e+000	-4.104028e+000	-4.104028e+000	
5.560000e-001	-1.195576e+000	-4.548078e+000	-4.548078e+000	-5.749323e+001	-8.582663e+001	-8.058266e+002	-6.064259e+001	5.441903e+001	5.441903e+001	-1.244774e+000	-4.105288e+000	-4.105288e+000	
5.570000e-001	-1.195895e+000	-4.543419e+000	-4.543419e+000	-6.036832e+001	4.605238e+001	-6.739476e+002	-5.612982e+001	4.804274e+001	4.804274e+001	-1.245672e+000	-4.145552e+000	-4.145552e+000	
5.580000e-001	-1.191057e+000	-4.568536e+000	-4.568536e+000	-5.660561e+001	-8.900647e+001	-8.090065e+002	-5.656573e+001	1.610292e+001	1.610292e+001	-1.243944e+000	-4.160775e+000	-4.160775e+000	
5.590000e-001	-1.183962e+000	-4.530593e+000	-4.530593e+000	-5.397159e+001	8.338698e+001	-8.166130e+002	-5.680132e+001	-8.502994e+001	-8.502994e+001	-1.227490e+000	-4.161829e+000	-4.161829e+000	
5.600000e-001	-1.202957e+000	-4.657781e+000	-4.657781e+000	-5.176722e+001	8.525222e+001	-8.147478e+002	-6.034617e+001	5.665149e+001	-1.233485e+002	-1.235776e+000	-4.088258e+000	-4.088258e+000	
5.610000e-001	-1.198657e+000	-4.581966e+000	-4.581966e+000	-5.690296e+001	8.846831e+001	-8.115317e+002	-5.734865e+001	6.651197e+001	-1.134880e+002	-1.245049e+000	-4.082540e+000	-4.082540e+000	
5.620000e-001	-1.175343e+000	-4.642872e+000	-4.642872e+000	-5.708158e+001	-6.848816e+001	-7.884882e+002	-5.672167e+001	-7.918142e+001	-7.918142e+001	-1.241540e+000	-4.012949e+000	-4.012949e+000	
5.630000e-001	-1.186911e+000	-4.616821e+000	-4.616821e+000	-6.297657e+001	-3.329667e+001	-7.532967e+002	-6.037677e+001	-7.571784e+001	-7.571784e+001	-1.243142e+000	-4.085294e+000	-4.085294e+000	
5.640000e-001	-1.202473e+000	-4.559685e+000	-4.559685e+000	-6.016945e+001	8.633183e+001	-6.336682e+002	-5.984625e+001	-7.836436e+001	-7.836436e+001	-1.252353e+000	-4.229415e+000	-4.229415e+000	
5.650000e-001	-1.198946e+000	-4.598020e+000	-4.598020e+000	-5.531619e+001	8.445822e+001	-6.355418e+002	-5.490384e+001	-6.191735e+001	-6.191735e+001	-1.234875e+000	-4.111294e+000	-4.111294e+000	
5.660000e-001	-1.188006e+000	-4.518778e+000	-4.518778e+000	-5.587114e+001	5.048059e+001	-6.695194e+002	-5.755999e+001	-6.371981e+001	-6.371981e+001	-1.240477e+000	-4.174182e+000	-4.174182e+000	
5.670000e-001	-1.190106e+000	-4.596509e+000	-4.596509e+000	-5.796328e+001	8.134479e+001	-6.386552e+002	-6.159830e+001	8.737999e+001	-9.262001e+001	-1.240878e+000	-4.109936e+000	-4.109936e+000	
5.680000e-001	-1.208667e+000	-4.534186e+000	-4.534186e+000	-5.599212e+001	-6.781707e+001	-6.078171e+002	-5.354805e+001	8.251296e+001	-9.748704e+001	-1.247161e+000	-4.203295e+000	-4.203295e+000	
5.690000e-001	-1.199930e+000	-4.649340e+000	-4.649340e+000	-5.783827e+001	8.610547e+001	-6.338945e+002	-6.157526e+001	-8.585010e+001	-8.585010e+001	-1.240978e+000	-4.170123e+000	-4.170123e+000	
5.700000e-001	-1.209686e+000	-4.536202e+000	-4.536202e+000	-5.319996e+001	-8.381834e+001	-6.238183e+002	-5.415617e+001	-8.899565e+001	-8.899565e+001	-1.240766e+000	-4.168742e+000	-4.168742e+000	
5.710000e-001	-1.193102e+000	-4.656101e+000	-4.656101e+000	-5.318061e+001	7.945021e+001	-6.405498e+002	-5.743650e+001	-8.965462e+001	-8.965462e+001	-1.251911e+000	-4.233202e+000	-4.233202e+000	
5.720000e-001	-1.211349e+000	-4.552137e+000	-4.552137e+000	-5.911727e+001	6.535945e+001	-6.546405e+002	-5.943577e+001	7.181224e+001	-1.081878e+002	-1.250690e+000	-4.150619e+000	-4.150619e+000	
5.730000e-001	-1.207477e+000	-4.562828e+000	-4.562828e+000	-5.492112e+001	8.377443e+001	-6.362256e+002	-5.467095e+001	6.263285e+001	-1.173671e+002	-1.229403e+000	-4.259058e+000	-4.259058e+000	
5.740000e-001	-1.207010e+000	-4.621193e+000	-4.621193e+000	-5.690762e+001	8.071441e+001	-6.392856e+002	-6.338006e+001	-7.837481e+001	-7.837481e+001	-1.225232e+000	-4.321069e+000	-4.321069e+000	
5.750000e-001	-1.200617e+000	-4.601033e+000	-4.601033e+000	-5.345429e+001	-7.477946e+001	-6.147795e+002	-5.995232e+001	8.427872e+001	-9.572128e+001	-1.231994e+000	-4.258682e+000	-4.258682e+000	
5.760000e-001	-1.199548e+000	-4.763491e+000	-4.763491e+000	-5.621736e+001	8.781450e+001	-6.321855e+002	-6.030746e+001	8.156294e+001	-9.843706e+001	-1.241867e+000	-4.119926e+000	-4.119926e+000	
5.770000e-001	-1.201639e+000	-4.622053e+000	-4.622053e+000	-5.645300e+001	5.477333e+001	-6.652267e+002	-6.303293e+001	5.277930e+001	-1.272207e+002	-1.248276e+000	-4.230639e+000	-4.230639e+000	
5.780000e-001	-1.202115e+000	-4.533257e+000	-4.533257e+000	-6.883944e+001	-5.723409e+001	-7.772341e+002	-6.470836e+001	8.623296e+001	-9.376704e+001	-1.242777e+000	-4.181120e+000	-4.181120e+000	
5.790000e-001	-1.208694e+000	-4.665515e+000	-4.665515e+000	-6.173703e+001	7.708372e+001	-6.429163e+002	-5.937501e+001	-6.371459e+001	-6.371459e+001	-1.248242e+000	-4.212643e+000	-4.212643e+000	
5.800000e-001	-1.192592e+000	-4.630375e+000	-4.630375e+000	-5.957343e+001	-5.711596e+001	-7.771160e+002	-5.353131e+001	-8.851842e+001	-8.851842e+001	-1.228518e+000	-4.198930e+000	-4.198930e+000	
5.810000e-001	-1.184359e+000	-4.675967e+000	-4.675967e+000	-5.339608e+001	7.911930e+001	-6.408807e+002	-6.158171e+001	-6.787593e+001	-6.787593e+001	-1.242462e+000	-4.198875e+000	-4.198875e+000	
5.820000e-001	-1.190135e+000	-4.679936e+000	-4.679936e+000	-5.769880e+001	8.500523e+001	-6.349948e+002	-8.092679e+001	-4.346754e+001	-4.346754e+001	-1.253686e+000	-4.234118e+000	-4.234118e+000	
5.830000e-001	-1.201522e+000	-4.765454e+000	-4.765454e+000	-7.215402e+001	-6.555538e+001	-6.055554e+002	-5.878558e+001	8.979005e+001	8.979005e+001	-1.227516e+000	-4.210333e+000	-4.210333e+000	
5.840000e-001	-1.191502e+000	-4.657287e+000	-4.657287e+000	-5.799574e+001	7.230004e+001	-4.677000e+002	-5.696396e+001	-7.762456e+001	1.023754e+002	-1.249121e+000	-4.229279e+000	-4.229279e+000	
5.850000e-001	-1.197657e+000	-4.672733e+000	-4.672733e+000	-5.592769e+001	7.234429e+001	-4.676557e+002	-6.359871e+001	2.635901e+001	2.063590e+002	-1.251863e+000	-4.269767e+000	-4.269767e+000	
5.860000e-001	-1.180950e+000	-4.762112e+000	-4.762112e+000	-5.505200e+001	-8.413840e+001	-4.441384e+002	-6.170891e+001	-6.316170e+001	1.168383e+002	-1.250074e+000	-4.220189e+000	-4.220189e+000	
5.870000e-001	-1.202620e+000	-4.781968e+000	-4.781968e+000	-5.539315e+001	8.597626e+001	-4.540237e+002	-6.030737e+001	6.810213e+001	2.481021e+002	-1.260159e+000	-4.235117e+000	-4.235117e+000	
5.880000e-001	-1.207193e+000	-4.620286e+000	-4.620286e+000	-5.424936e+001	8.594456e+001	-4.540554e+002	-5.276209e+001	5.320850e+001	2.332085e+002	-1.246810e+000	-4.316171e+000	-4.316171e+000	
5.890000e-001	-1.193170e+000	-4.727711e+000	-4.727711e+000	-5.431369e+001	7.920883e+001	-4.607912e+002	-5.068475e+001	8.274716e+001	2.627472e+002	-1.240020e+000	-4.433885e+000	-4.433885e+000	
5.900000e-001	-1.203701e+000	-4.777641e+000	-4.777641e+000	-5.731870e+001	8.552995e+001	-4.544701e+002	-5.760225e+001	7.591579e+001	2.559158e+002	-1.243529e+000	-4.317700e+000	-4.317700e+000	
5.910000e-001	-1.213124e+000	-4.792382e+000	-4.792382e+000	-5.917415e+001	7.610080e+001	-4.638992e+002	-5.529443e+001	7.646003e+001	2.564600e+002	-1.254747e+000	-4.283891e+000	-4.283891e+000	
5.920000e-001	-1.185796e+000	-4.792199e+000	-4.792199e+000	-5.747499e+001	4.773186e+001	-4.922681e+002	-5.898123e+001	8.965626e+001	2.696563e+002	-1.247983e+000	-4.262251e+000	-4.262251e+000	
5.930000e-001	-1.205480e+000	-4.698625e+000	-4.698625e+000	-7.245376e+001	6.536204e+001	-4.746380e+002	-5.617480e+001	7.808671e+001	2.580867e+002	-1.231837e+000	-4.222497e+000	-4.222497e+000	
5.940000e-001	-1.202116e+000	-4.843683e+000	-4.843683e+000	-5.553284e+001	8.608921e+001	-4.539108e+002	-5.617133e+001	-4.961835e+001	1.303816e+002	-1.233584e+000	-4.223800e+000	-4.223800e+000	
5.950000e-001	-1.194140e+000	-4.866326e+000	-4.866326e+000	-6.267181e+001	-4.735974e+001	-5.873597e+002	-6.389106e+001	4.442801e+001	2.244280e+002	-1.231477e+000	-4.368260e+000	-4.368260e+000	
5.960000e-001	-1.186490e+000	-4.864057e+000	-4.864057e+000	-5.311922e+001	-6.951981e+001	-6.095198e+002	-6.357360e+001	-7.323348e+001	1.067665e+002	-1.252802e+000	-4.316825e+000	-4.316825e+000	
5.970000e-001	-1.193351e+000	-4.834143e+000	-4.834143e+000	-5.814265e+001	-7.327337e+001	-6.132734e+002	-6.600823e+001	6.040532e+001	2.404053e+002	-1.238501e+000	-4.283047e+000	-4.283047e+000	
5.980000e-001	-1.205478e+000	-4.845019e+000	-4.845019e+000	-5.991898e+001	8.631694e+001	-6.336831e+002	-7.583316e+001	4.736926e+001	2.273693e+002	-1.238960e+000	-4.283009e+000	-4.283009e+000	
5.990000e-001	-1.201879e+000	-4.772696e+000	-4.772696e+000	-5.955811e+001	6.907239e+001	-6.509276e+002	-5.953516e+001	2.181983e+001	2.018198e+002	-1.242371e+000	-4.251404e+000	-4.251404e+000	
6.000000e-001	-1.202186e+000	-4.863648e+000	-4.863648e+000	-5.479816e+001	6.628620e+001	-6.537138e+002	-5.923462e+001	5.605881e+001	2.360588e+002	-1.238213e+000	-4.251913e+000	-4.251913e+000	
6.010000e-001	-1.203489e+000	-4.857538e+000	-4.857538e+000	-5.488574e+001	7.575714e+001	-6.442429e+002	-5.576002e+001	6.599176e+001	2.459918e+002	-1.257206e+000	-4.476593e+000	-4.476593e+000	
