!Keysight Technologies,M9374A,MY55442783,A.12.55.05
!Date: Wednesday, May 19, 2021 16:01:16
!Correction: S11(Full 2 Port(1,2)) 
!S21(Full 2 Port(1,2)) 
!S12(Full 2 Port(1,2)) 
!S22(Full 2 Port(1,2)) 
!S2P File: Measurements: S11, S21, S12, S22:
# Hz S  RI   R 50
500000000 -0.90672714 0.034664594 0.00022145269 0.0019894359 0.00037553234 0.0017781436 -0.93915617 0.029609017
501000000 -0.90741771 0.036204103 0.00085427443 0.0012233948 0.00056756503 0.0011896973 -0.93732846 0.030725993
502000000 -0.90845197 0.035444416 -7.3552197e-005 0.0011938112 -0.00067856692 0.0015887778 -0.93905067 0.028922755
503000000 -0.9083029 0.033367585 -0.00068121828 0.0012011202 0.00048181872 0.0012445287 -0.93792266 0.02874681
504000000 -0.90697914 0.035016939 0.00027072328 0.0010031244 0.00042120487 0.0017474615 -0.93732023 0.029945789
505000000 -0.90511006 0.034097213 0.0010125411 0.0013885762 2.7797116e-005 0.00078648841 -0.93796545 0.030125864
506000000 -0.9071734 0.034983382 -0.0001069433 0.00096151984 0.00065976131 0.001391753 -0.93510491 0.03107026
507000000 -0.90627569 0.035321597 0.00041797213 0.001472763 -0.00065576466 0.0015864752 -0.93729627 0.029668998
508000000 -0.90658641 0.035711043 0.0010287676 0.0014663996 0.00024797983 0.00069299084 -0.93660021 0.030232856
509000000 -0.90512508 0.035853837 -2.7972805e-005 0.0012546118 -0.00046423436 0.0015550227 -0.93702179 0.029986743
510000000 -0.9046917 0.035818093 -0.00036110613 0.0014695848 -0.00027110873 0.0019143424 -0.93724298 0.030681852
511000000 -0.90608841 0.034922626 6.548332e-005 0.002000672 0.00049347477 0.0015044253 -0.93639666 0.032063115
512000000 -0.90633804 0.035024144 -0.0001262438 0.0019803136 0.00031343018 0.0013969428 -0.93629736 0.030729558
513000000 -0.90573138 0.036060128 0.00064864446 0.0013146349 0.00041483229 0.00092452462 -0.93709397 0.03029645
514000000 -0.90589756 0.036091778 0.00035145489 0.0011619751 -5.9168837e-005 0.0018691426 -0.93769437 0.032403242
515000000 -0.90648079 0.036145706 0.00085200323 0.0016580332 -0.00070040365 0.00030934755 -0.93800312 0.031390414
516000000 -0.9055087 0.03530639 -8.2054517e-005 0.0012166214 -0.00048826213 0.0021726303 -0.93751866 0.030150762
517000000 -0.90493935 0.036864936 2.9105157e-005 0.0018114676 0.00024454267 0.0017639202 -0.93563062 0.032475352
518000000 -0.90504658 0.035697069 0.0011930297 0.00076247496 -0.0015394356 0.00071404967 -0.93732613 0.029368334
519000000 -0.90515494 0.037233524 -9.6439333e-005 0.0017712406 0.0010679818 0.00093360042 -0.93721503 0.031476211
520000000 -0.90652084 0.036962807 -0.00074361009 0.0017307793 0.00077035622 0.0035319368 -0.93524408 0.031227287
521000000 -0.90571612 0.037800837 -0.00067440997 0.00094435154 0.0016159434 0.0016314194 -0.93663597 0.030670438
522000000 -0.90633678 0.038659088 -0.0001295523 0.0014126428 0.00092573074 0.0020662018 -0.9377377 0.032487243
523000000 -0.90588742 0.035209041 0.00034001603 0.0016477453 0.0002481034 0.00058039592 -0.93660581 0.031954676
524000000 -0.90662032 0.035341684 0.00020373415 0.0012064808 0.00072479527 0.00022907396 -0.93707204 0.030790431
525000000 -0.90480274 0.037925452 3.0328272e-005 0.0020921258 -5.2963594e-005 0.0014004617 -0.93719554 0.033079579
526000000 -0.90587068 0.037342466 0.00083512539 0.0018285195 0.00013355409 0.0010747957 -0.93659794 0.031609353
527000000 -0.90653473 0.037778694 -0.00011727075 0.0021769674 0.00019489626 0.0021550832 -0.93631476 0.031771593
528000000 -0.90585202 0.03736987 -5.1342537e-005 0.0014557572 -5.2089024e-005 0.0015309224 -0.93870872 0.032799128
529000000 -0.9075042 0.036731124 -0.00066717976 0.0011643494 -0.0006198762 0.0016276841 -0.93703991 0.034364693
530000000 -0.90483618 0.036174707 0.00030903023 0.0032560679 -0.00080489292 0.0013737786 -0.93671805 0.032391623
531000000 -0.90689152 0.037523709 0.00028628751 0.0010444749 0.00065965147 0.0015621973 -0.93706256 0.033248391
532000000 -0.90549117 0.036514942 -0.00022678374 0.0021138501 8.3666171e-005 0.0015023248 -0.93866897 0.033680696
533000000 -0.90607607 0.037011866 -0.0011366118 0.0016656638 0.00067679177 0.0016092382 -0.93700993 0.033414681
534000000 -0.90598989 0.036895543 -0.00041846663 0.0019570689 0.00055912929 0.00093642971 -0.93711036 0.032469466
535000000 -0.90615773 0.037692659 0.00035897168 0.0021208783 0.00079508289 0.0014964716 -0.93577087 0.033018131
536000000 -0.90537935 0.038969114 -0.00018030328 0.0013719789 0.0012536816 0.0012437258 -0.93606323 0.031762477
537000000 -0.90549988 0.037876453 0.00031860117 0.001843345 0.001027509 0.0021426994 -0.93652642 0.033470627
538000000 -0.9046905 0.037636269 7.3694673e-006 0.0015113087 -4.9672719e-005 0.0016578179 -0.93725407 0.034221556
539000000 -0.90660423 0.038713828 0.00022072488 0.0010783498 0.00031229947 0.00021337756 -0.9365443 0.034342051
540000000 -0.90611851 0.038029939 -0.0003010924 0.00096142665 0.0006870199 0.0012640948 -0.9360323 0.034281362
541000000 -0.90483487 0.038253389 0.00034544183 0.0017616511 0.00022051041 0.0021221179 -0.93650836 0.032700643
542000000 -0.90541387 0.03733075 -0.00037651937 0.00054885639 -1.1577996e-006 0.0007511797 -0.93651778 0.03446611
543000000 -0.90538192 0.038142603 0.00037627984 0.00050536427 0.00022494904 0.0013499648 -0.93787479 0.034592021
544000000 -0.90391338 0.039054979 0.00036039209 0.00093792146 0.00065847492 0.00050016487 -0.93801731 0.034545612
545000000 -0.90667677 0.038163837 -0.00062141841 0.0021590684 -0.00069289003 0.0014456357 -0.93579495 0.033338383
546000000 -0.9053427 0.038915414 0.00055628695 0.0011911516 0.00069000141 0.0017746892 -0.9386493 0.033500653
547000000 -0.90501285 0.037525736 0.0010000952 0.0019420852 0.00038009285 0.0012927742 -0.93794876 0.032020468
548000000 -0.90457118 0.039726879 0.00050813571 0.00086186104 0.0011229172 0.0016624716 -0.93754262 0.033725563
549000000 -0.90493047 0.037619244 -0.00049388886 0.0020589996 8.2510423e-006 0.0023932182 -0.93556917 0.033715364
550000000 -0.90369254 0.038738534 0.00078604033 0.00041838767 0.00052021805 0.003139938 -0.93742239 0.035033129
551000000 -0.90542376 0.037523061 -0.00076940848 0.0017450972 -0.00010035372 0.0014224158 -0.93747103 0.036208808
552000000 -0.90612471 0.037515227 0.00010814252 0.0011103341 0.00044500924 0.0011257152 -0.93681574 0.034404542
553000000 -0.90404147 0.037680399 -0.00016075425 0.0017691635 0.00087563007 0.001328873 -0.93767256 0.03322513
554000000 -0.90451115 0.037598398 -0.00079703913 0.0014114843 0.0014092837 0.0025407095 -0.93797886 0.033571329
555000000 -0.90677816 0.037549615 0.00051926955 0.00043564648 0.00088280084 0.0014368009 -0.93719614 0.033559505
556000000 -0.9052403 0.038767572 8.690924e-005 0.0026774649 0.00021575217 0.0018416055 -0.93695742 0.034362286
557000000 -0.90593296 0.038842622 -0.00023514232 0.0011620941 0.00065207761 0.0022862419 -0.93656695 0.033213299
558000000 -0.90632355 0.039222073 -0.0014509067 0.0013460381 6.3147403e-005 0.0007742446 -0.93614286 0.034395199
559000000 -0.9058525 0.038516447 0.00047044625 0.001889794 -0.00022365007 0.0016937112 -0.93728125 0.035647571
560000000 -0.90556502 0.038252864 -1.7790753e-005 -4.83892e-005 5.0308572e-005 0.002744426 -0.93668061 0.034160506
561000000 -0.90529954 0.038581084 0.00017872828 0.001701943 8.4448278e-005 0.0012770247 -0.93761718 0.033183638
562000000 -0.90511268 0.03878295 0.00089494581 0.001686366 0.00084759301 0.0017951804 -0.93767989 0.033295881
563000000 -0.90600353 0.038160581 0.0012932592 0.001094416 0.00060630578 0.00050650357 -0.93756407 0.034787562
564000000 -0.90421754 0.039006703 -0.00057214336 0.0025476608 0.0011475156 0.0017969145 -0.93763125 0.034736481
565000000 -0.905653 0.039111719 0.001231168 0.002249494 0.0010447666 0.0015787472 -0.93529624 0.033301573
566000000 -0.90544295 0.038530033 -0.00012704585 0.0022817368 0.00087040663 0.00029288174 -0.93830377 0.033676911
567000000 -0.90483946 0.039492242 -3.7688904e-005 0.0005326625 -0.00015884984 0.0024260518 -0.93565327 0.031937633
568000000 -0.9040677 0.038489766 -0.00026587638 0.0019359285 0.0005741358 0.0010923258 -0.9378258 0.034042992
569000000 -0.90471107 0.037811596 0.00018317408 0.0023260382 -1.109632e-005 0.0022795468 -0.93674916 0.03521049
570000000 -0.90298504 0.038580991 0.0010059183 0.0015433426 -7.965829e-005 0.0015211168 -0.93663549 0.034353215
571000000 -0.90481138 0.038457122 0.00019483415 0.0014305265 -0.00032488661 0.0016095387 -0.93771231 0.032988306
572000000 -0.90584207 0.037928544 -2.8414448e-005 0.0015861705 0.00055387348 0.0018612052 -0.93603384 0.034885369
573000000 -0.90548885 0.038595285 -0.00083596056 0.0011781277 -0.00027313395 0.0014924362 -0.93835789 0.034469955
574000000 -0.9045884 0.039037786 -0.00064640999 0.0017325316 0.00016907066 0.0016411591 -0.93840969 0.034947898
575000000 -0.90574849 0.038283668 -0.0001864138 0.0022345851 -0.00033876943 0.0013163052 -0.93738669 0.034729525
576000000 -0.90406972 0.037829418 0.00044543453 0.0020949303 0.00074828626 0.0013122472 -0.93801773 0.034788437
577000000 -0.90412825 0.035697032 -0.00011524212 0.0025650472 -0.00060640305 0.00050684856 -0.93578446 0.035404854
578000000 -0.90546489 0.038563028 6.1697508e-005 0.0017301457 0.00089552352 0.0015271545 -0.93557876 0.03323498
579000000 -0.90551084 0.037835535 0.00055447809 0.00094591937 -0.0011290534 0.0015033247 -0.93758297 0.033432651
580000000 -0.90523535 0.037073407 0.00059027527 0.0026052392 0.00013933473 0.0012858128 -0.9365806 0.032898325
581000000 -0.90456259 0.038773715 0.00011189802 0.0010611649 0.0006289861 0.0018235588 -0.93710953 0.034807079
582000000 -0.90435076 0.038504746 0.00036367512 0.002042101 0.00032095748 0.0014000295 -0.93697602 0.033829242
583000000 -0.90445346 0.037693549 -0.0011477689 0.00093896862 0.00014037258 0.0013608767 -0.93521386 0.034772493
584000000 -0.90440387 0.038652379 0.00044631987 0.0012632651 0.00032525175 0.0021645243 -0.93644428 0.034976669
585000000 -0.90551233 0.038126484 -0.00034267295 0.0020807923 0.00037099249 0.001878078 -0.93675143 0.03557013
586000000 -0.90480155 0.037240986 -0.00016096848 0.0018308206 -1.3533793e-005 0.0026078669 -0.93710142 0.035873465
587000000 -0.9048292 0.039817024 0.00016226423 0.00097953447 0.00027727184 0.0012153928 -0.93496877 0.035652269
588000000 -0.90341973 0.03994856 -0.00025749722 0.0019812817 -0.00065847335 0.0022819627 -0.93767601 0.036443971
589000000 -0.90629721 0.038817815 0.00034883432 0.0017383193 0.00079822273 0.0016009361 -0.93702608 0.035871275
590000000 -0.90437692 0.039040681 -3.8089413e-005 0.0020949997 0.00047170039 0.0021470718 -0.93723392 0.035704251
591000000 -0.90598619 0.038889993 7.4706237e-005 0.00057077472 0.0010789194 0.0014398848 -0.93723553 0.035049789
592000000 -0.90395427 0.038838577 -0.00040994323 0.0018615365 0.00023061785 0.0011760095 -0.93728095 0.034863006
593000000 -0.90354824 0.039312765 0.00020345609 0.0018448582 0.0016618518 0.0013905258 -0.93709481 0.034939289
594000000 -0.90471596 0.040106114 -0.00079253723 0.0016732469 0.0011146509 0.0016374744 -0.93820244 0.034874018
595000000 -0.90552014 0.03869291 0.00027483067 0.0011581786 -0.00032748908 0.0019844947 -0.93715239 0.036270682
596000000 -0.90364796 0.038853254 -3.5337789e-006 0.0020347692 0.00064241909 0.0024035601 -0.93511206 0.035567563
597000000 -0.90557075 0.040401045 0.00081715651 0.0024561605 -9.5938201e-005 0.0022853985 -0.93673122 0.036278285
598000000 -0.90489364 0.039070446 0.00017703997 0.0013903026 0.00028224575 0.0017900085 -0.93754888 0.034709368
599000000 -0.90466684 0.039450068 5.3665615e-005 0.0011413742 6.3100371e-005 0.0017625997 -0.93761569 0.035657506
600000000 -0.90551066 0.039510962 0.00061282882 0.00099403085 0.00015491014 0.001394876 -0.9366172 0.035842303
601000000 -0.90558982 0.039854489 -0.0001073266 0.0027544789 0.000523975 0.0017834087 -0.93744314 0.036277026
602000000 -0.90597486 0.03968877 -0.0005881142 0.0017220551 0.00082332961 0.00083002273 -0.93663478 0.037006389
603000000 -0.90521389 0.039821323 0.00027451446 0.0013575632 -0.00076418254 0.0015075327 -0.93682981 0.037441064
604000000 -0.90327251 0.040855139 0.0016815874 0.0015550941 -0.00030298083 0.0020619682 -0.93531078 0.035971828
605000000 -0.90419656 0.040121101 0.00033893282 0.0027506235 -0.0011898503 0.00095172931 -0.9362672 0.036308169
606000000 -0.90419823 0.040672753 -0.00019229301 0.002118449 0.0011212097 0.0011635908 -0.93742549 0.035723161
607000000 -0.90409029 0.041592006 0.00034597504 0.0018192785 0.00092094031 0.0015846741 -0.9363485 0.035570297
608000000 -0.90433127 0.04183815 0.00012176541 0.0027839628 -0.00052583509 0.001803841 -0.93701535 0.036126357
609000000 -0.90310508 0.039494164 5.0392773e-005 0.0018449855 -0.00062917708 0.0015847896 -0.9384833 0.036132783
610000000 -0.90396398 0.040687699 0.00047712974 0.001706991 0.00029846979 0.0031416782 -0.9362787 0.035803281
611000000 -0.9027971 0.041319292 -0.00044502402 0.0016250157 0.00045478181 0.0034193047 -0.93749845 0.035059549
612000000 -0.90550756 0.04034704 0.00053985248 0.0014471108 -9.2077153e-006 0.002323966 -0.93675268 0.036273949
613000000 -0.90565336 0.0407026 0.00094961294 0.0015285743 2.2839844e-005 0.0013310896 -0.93653804 0.034083933
614000000 -0.90348899 0.041711703 0.00096359232 0.0010325932 -0.00032958377 0.00092577975 -0.93851089 0.036136642
615000000 -0.9039126 0.042894121 0.00020592203 0.00046112374 0.0012056811 0.0020864701 -0.93634391 0.035482239
616000000 -0.90429902 0.042507447 0.0009630667 0.0011866669 0.00042368483 0.0021763106 -0.93599045 0.035359386
617000000 -0.90549225 0.042974088 0.00026989498 0.0011161085 -0.00069226325 0.002570902 -0.93588072 0.037727576
618000000 -0.90504003 0.042462461 0.00044260881 0.0010652263 0.00017320536 0.001698843 -0.93658227 0.036166333
619000000 -0.9038406 0.042249452 -0.00042799182 0.0018381154 -0.00023073483 0.0017565325 -0.93659145 0.03727369
620000000 -0.90338182 0.04219703 -0.00057899987 0.0010563142 0.0013502205 0.0018947574 -0.93674606 0.035626177
621000000 -0.90496141 0.043122441 -0.00046859647 0.0013740258 -0.00031928174 0.0017127712 -0.93682468 0.036578838
622000000 -0.90456563 0.042598933 -0.00065873866 0.0016592039 0.0011068658 0.0016340929 -0.93704706 0.037024435
623000000 -0.90335697 0.040502366 0.00017805598 0.0016475226 0.0007207446 0.0010739674 -0.936602 0.036802784
624000000 -0.90439856 0.043080159 0.00017233445 0.0012473328 0.00041754838 0.0017780502 -0.93735796 0.038114946
625000000 -0.90474784 0.044009741 6.0770653e-005 0.0021178797 -9.0960923e-005 0.0016761079 -0.9354533 0.037087165
626000000 -0.90421289 0.044126794 -0.00070512958 0.0015618054 -0.00014938011 0.002489893 -0.93595725 0.036818065
627000000 -0.90512228 0.042539842 0.0004312511 0.0019884 0.00014783378 0.0018615026 -0.93708336 0.038736872
628000000 -0.90381414 0.044873606 -0.00014971514 0.0010231473 0.0013903191 0.0027629354 -0.93676507 0.037430182
629000000 -0.90464407 0.045885775 -0.00038668391 0.00072063348 5.3440752e-005 0.0019698003 -0.93635589 0.039186552
630000000 -0.90385658 0.043512527 0.00013278752 0.0013255804 0.00039668829 0.0020037787 -0.9371528 0.038214456
631000000 -0.90571111 0.043248482 0.00025896844 0.0020102211 0.00045369336 0.0019910824 -0.93748313 0.038311377
632000000 -0.90462798 0.044654764 0.00070784497 0.0017154868 -1.0486032e-005 0.0014494386 -0.93704766 0.037771262
633000000 -0.90575242 0.044544782 4.0404466e-005 0.0013753716 0.0011002511 0.0023408288 -0.93724722 0.037588138
634000000 -0.90478772 0.044616934 -0.00037368023 0.0019885376 0.00068677776 0.0029059898 -0.93791872 0.038118996
635000000 -0.9041965 0.043769471 -0.0013248689 0.0018514412 0.00044065382 0.0033608407 -0.93754905 0.038297314
636000000 -0.90360737 0.043205012 0.00038633548 0.0025538418 0.00051481166 0.0018078507 -0.93716103 0.037171111
637000000 -0.90496719 0.045020096 -0.00026372203 0.0024886597 -0.00014104255 0.0018483525 -0.93570322 0.036612354
638000000 -0.90302002 0.044258952 0.00067722681 0.0020402663 0.00059706083 0.0019668783 -0.93730986 0.038486656
639000000 -0.90559661 0.04381251 0.0011686253 0.0024222017 0.00063070864 0.0013689357 -0.93500197 0.038203325
640000000 -0.90374285 0.04537905 0.00032959782 0.0015887716 0.0011909927 0.0015283788 -0.9370169 0.039212611
641000000 -0.90450424 0.044876121 0.0011222012 0.0011098585 0.00020336069 0.0027836531 -0.93619192 0.03821579
642000000 -0.90399569 0.045171514 0.0013155397 0.0023264149 0.00058529375 0.0017566475 -0.93596333 0.039874926
643000000 -0.90503931 0.04466103 0.00018991593 0.0014780413 -0.00034911945 0.0011742506 -0.93549609 0.039135039
644000000 -0.90431613 0.045917459 0.0003393536 0.001598694 -0.00026112015 0.0016020273 -0.93591768 0.039286949
645000000 -0.90486097 0.046463244 -0.00067215308 0.001797248 -0.00096904859 0.0016836487 -0.93758941 0.039803632
646000000 -0.90425199 0.045779124 0.00040844048 0.00078115769 -0.00074648589 0.0025441188 -0.93647337 0.037935909
647000000 -0.9047724 0.046108216 -0.00060770934 0.001265315 -0.00048168766 0.0023942301 -0.93737823 0.038930725
648000000 -0.90281796 0.045399718 0.00051163876 0.0010366015 0.00033106789 0.0017642581 -0.93615854 0.037751578
649000000 -0.90530092 0.04704586 0.00026283442 0.0016432656 7.5155585e-005 0.0014141178 -0.93630999 0.039704077
650000000 -0.90369201 0.045094866 0.00076402054 0.0017602271 0.00013624335 0.00087672123 -0.93612528 0.039038926
651000000 -0.90437871 0.047776479 0.00063179893 0.0010264382 0.0002446021 0.0031682663 -0.93728358 0.039349806
652000000 -0.90486372 0.045882896 -0.00024206116 0.0017106025 -0.00037779385 0.0017540319 -0.93571472 0.039836064
653000000 -0.90424305 0.044919163 0.00044154961 0.0017486807 0.00025926309 0.0017816315 -0.93596053 0.039085012
654000000 -0.90358281 0.046759624 0.00012122215 0.0019289656 -0.00018958279 0.0014808913 -0.93684196 0.039801393
655000000 -0.90451288 0.045777824 0.00032283054 0.001797032 0.00062221551 0.0016214184 -0.93596333 0.039338671
656000000 -0.90451115 0.044623289 0.00057982351 0.0018146104 0.00039170438 0.0021746233 -0.93549764 0.038497761
657000000 -0.90534198 0.046632871 -9.3729439e-005 0.0018315979 -7.7314668e-005 0.0022762336 -0.9364289 0.039369147
658000000 -0.90509534 0.045942359 -0.00014249544 0.0012628594 0.00016623629 0.0014449656 -0.93678319 0.037831083
659000000 -0.90404296 0.046835508 0.001347492 0.0018808536 0.00080300751 0.0011848707 -0.93622577 0.039686892
660000000 -0.90440673 0.04703787 -0.0003579219 0.0016337328 -0.00072410988 0.0017530828 -0.93560708 0.039456129
661000000 -0.90315801 0.047778778 0.0007556224 0.0026391447 -0.00019597064 0.0015471043 -0.93687844 0.040809374
662000000 -0.90247977 0.046496179 -3.2761523e-005 0.0012725512 0.00055553962 0.0017588853 -0.93774199 0.039292213
663000000 -0.90409845 0.047911093 0.00017155104 0.0016017262 0.00089068728 0.0016486919 -0.93493652 0.03915076
664000000 -0.90431774 0.046227653 0.00046894816 0.0014671029 0.00067342323 0.00065779808 -0.93783009 0.039512426
665000000 -0.90451097 0.045717619 0.0008520218 0.0015112038 -0.00017907716 0.0020160466 -0.9356975 0.040659264
666000000 -0.90478128 0.047411062 0.0008108443 0.001088695 -0.00079237693 0.0020184112 -0.9367547 0.040032227
667000000 -0.90381873 0.0463208 -0.00053166732 0.0012822669 0.00030232486 0.0010530548 -0.93490815 0.039132033
668000000 -0.90329999 0.046237573 0.00073459628 0.001762626 -2.7938848e-005 0.0014229766 -0.93729407 0.038051166
669000000 -0.90267515 0.046543647 0.00025725568 0.001514678 -1.9724763e-005 0.0018914224 -0.93623245 0.037389062
670000000 -0.90196472 0.045881394 -0.00010093523 0.0015398492 0.00022109371 0.0011742195 -0.93630809 0.041008491
671000000 -0.90422046 0.045214564 0.00056976918 0.0024860005 -0.00012251045 0.0020346972 -0.93619806 0.039008491
672000000 -0.90498126 0.046947006 -0.00018296142 0.0016764037 0.00043002074 0.0021791626 -0.93605644 0.039032586
673000000 -0.9042154 0.046675883 0.00060060283 0.0018251883 -0.00017312428 0.0013013206 -0.93639594 0.041819908
674000000 -0.90565252 0.045819949 0.00025683321 0.0018800634 -0.00012195148 0.0023713221 -0.93592054 0.037774213
