!Keysight Technologies,M9374A,MY55442783,A.12.55.05
!Date: Wednesday, May 19, 2021 15:47:45
!Correction: S11(Full 2 Port(1,2)) 
!S21(Full 2 Port(1,2)) 
!S12(Full 2 Port(1,2)) 
!S22(Full 2 Port(1,2)) 
!S2P File: Measurements: S11, S21, S12, S22:
# Hz S  RI   R 50
500000000 -0.92747837 0.035905384 -7.7388118e-005 0.0018240735 -0.0009567638 0.0024039526 -0.93737525 0.029886765
501000000 -0.92931134 0.035740044 -0.00023961549 0.0010725389 0.00021657365 0.00085153454 -0.9382965 0.030582177
502000000 -0.92827731 0.035149943 0.00088907423 0.00079158862 -0.00026043958 0.00095779554 -0.93622434 0.030368682
503000000 -0.92895854 0.037235882 -0.00017865327 0.00081442873 0.001478626 0.0010788845 -0.93629384 0.031086922
504000000 -0.92870301 0.038051456 0.00034835373 0.00107617 -0.00064547273 0.001573047 -0.93716246 0.031005388
505000000 -0.92832142 0.034871228 0.000660046 0.0013370613 0.00043172343 0.0013732141 -0.93637371 0.031737331
506000000 -0.92881924 0.035942793 -0.00030208653 0.0027617197 3.0931187e-005 0.0020724453 -0.9358114 0.030592892
507000000 -0.92668056 0.036818657 0.0011599082 0.0017863106 0.00017496185 0.0014057556 -0.93745464 0.030697858
508000000 -0.92794609 0.035730742 0.0005458275 0.0010388303 4.6467012e-005 0.0022212209 -0.93679249 0.031421091
509000000 -0.9278729 0.036915641 0.00081552914 0.0013764979 -0.00047440644 0.00092322205 -0.93724364 0.030211795
510000000 -0.92753005 0.037516039 0.00073591562 0.00088266889 -0.00026342168 0.002450421 -0.93674392 0.031172035
511000000 -0.9278273 0.036404774 0.000991471 0.0015079908 -0.00075949176 0.00046633137 -0.93650723 0.031605851
512000000 -0.92882806 0.036553238 -0.0013422149 0.0015908213 0.00015330504 0.0018347374 -0.93729353 0.031610124
513000000 -0.9289006 0.036302343 0.00084816996 0.0016640241 -0.00016429255 0.001771457 -0.93731993 0.032075178
514000000 -0.9291687 0.038360447 0.00034577493 0.00085138739 2.7022994e-005 0.0021118547 -0.93697256 0.030350626
515000000 -0.92836773 0.037723243 0.00019685084 0.0010484036 -0.00063471548 0.0017597586 -0.93758529 0.031287108
516000000 -0.92799813 0.039254069 -0.00047413111 0.0010807064 -0.00027357272 0.0017601278 -0.93512791 0.032726586
517000000 -0.92951673 0.037543491 0.00066647929 0.00021835459 0.00013577993 0.00063453818 -0.93638736 0.030837655
518000000 -0.92874175 0.036873568 0.00087850337 0.0024628015 7.3750023e-005 0.0021980994 -0.93542397 0.031531099
519000000 -0.9286046 0.03712048 -0.00046354238 0.0016039857 0.00085869891 0.0016799441 -0.93717891 0.031397328
520000000 -0.92921048 0.03777688 5.4981534e-005 0.00098287838 8.1940889e-005 0.0011376259 -0.93735886 0.033479337
521000000 -0.92757773 0.038301662 -0.00056070398 0.0015075002 0.00010619483 0.0019932208 -0.93676525 0.031442929
522000000 -0.92738402 0.038445972 0.00101177 0.0012401487 0.00022281353 0.0011894098 -0.9367277 0.033201847
523000000 -0.92667687 0.039110981 6.9097092e-005 0.0017202316 0.00043399914 0.0015760149 -0.93593264 0.032560106
524000000 -0.92747676 0.039639521 -0.00011689597 0.0013489296 0.00034756667 0.001996394 -0.93882388 0.032080971
525000000 -0.92672896 0.040287074 -0.0010509302 0.0018964539 0.0012631464 0.0011333257 -0.93659866 0.033004183
526000000 -0.92701864 0.03865267 0.00037323427 0.0013694932 0.00068338995 0.00079539401 -0.93571252 0.032826532
527000000 -0.92721027 0.039154444 0.00054900453 0.0005312842 0.00032025011 0.00079021498 -0.93777758 0.03447552
528000000 -0.92769861 0.039688628 -0.00019098919 0.00060972193 7.2591531e-005 0.0012519488 -0.93556428 0.033933736
529000000 -0.92914164 0.038486656 0.00034512469 0.001379837 -0.00013226439 0.0011895176 -0.93701982 0.034141324
530000000 -0.92932528 0.038852002 -4.1504511e-005 0.0021241533 0.00055979419 0.0011394157 -0.93766451 0.032668676
531000000 -0.92962712 0.038400758 0.00025154781 0.0012603594 -0.00033873221 0.00079389761 -0.93761855 0.033883557
532000000 -0.92724365 0.040616993 -0.00017496281 0.001685406 0.00015848682 0.0011682649 -0.93612742 0.03402983
533000000 -0.92718333 0.039320584 -0.00042056019 0.0016819518 0.00034558456 0.001419145 -0.93615258 0.033844821
534000000 -0.92857188 0.039305758 0.00032665572 0.00014471691 0.00019691618 0.00054931297 -0.93733704 0.032127801
535000000 -0.92804974 0.039296571 0.00066861825 0.00057486509 0.00077807117 0.00056224258 -0.93514055 0.034300514
536000000 -0.9281562 0.039874967 -4.0983134e-005 0.0020322825 0.0001362059 0.0012371144 -0.93775177 0.033222236
537000000 -0.92676061 0.03921498 0.00030472456 0.0013438644 -0.00019449207 0.00047532222 -0.93750602 0.033019468
538000000 -0.92829508 0.038165431 -7.2933057e-005 0.001751742 0.0011719509 0.0022250907 -0.93678522 0.034757651
539000000 -0.92819387 0.037400827 6.4817657e-005 0.001253203 -0.00041820781 0.0015175684 -0.9369269 0.033767391
540000000 -0.92770743 0.039346691 0.00031870071 0.0015154839 0.00040852782 0.0015534495 -0.93645984 0.034000691
541000000 -0.92815155 0.04003074 0.00091681845 0.0012064833 0.00013711465 0.0019133819 -0.93648303 0.033363502
542000000 -0.92709619 0.039723121 0.00017659785 0.00036143741 -0.0005851335 0.0019709803 -0.93625867 0.034595247
543000000 -0.92781138 0.038777154 -0.0015548667 0.000452846 -0.00011527791 0.0019128352 -0.93493783 0.034793828
544000000 -0.92659777 0.041853409 -0.00046501448 0.00083360815 0.00076453347 0.0023465003 -0.93691909 0.034353625
545000000 -0.92930955 0.039341636 -0.00040022735 0.0021426135 -0.00045037389 0.0013762243 -0.93637478 0.035313185
546000000 -0.92892802 0.039718017 0.00093255367 0.0012154047 0.00013317974 0.00072294672 -0.93613154 0.034050878
547000000 -0.9274978 0.041266032 0.00059772481 0.0016870879 0.00072587316 0.00096977997 -0.93759912 0.031766359
548000000 -0.92810857 0.039074317 0.00040659166 0.0016527673 0.00018282176 0.00075844291 -0.93688118 0.034388714
549000000 -0.92676085 0.04011957 -0.00037449965 0.0011081254 -0.00058689615 0.0019261668 -0.93734241 0.03426699
550000000 -0.92684728 0.039974805 0.0011229112 0.0010761117 0.00080503966 0.001183534 -0.936827 0.035674851
551000000 -0.92703706 0.039560806 0.00060089299 0.002184984 -0.00044831162 0.0016436407 -0.93765354 0.035511874
552000000 -0.92728406 0.039047353 -0.00049463718 0.0028417616 0.00045294737 7.263507e-005 -0.93578458 0.035949793
553000000 -0.92787808 0.040352095 -0.00092674972 0.00058428483 1.4523755e-005 0.0015668328 -0.93780988 0.034368277
554000000 -0.92755902 0.040409736 0.00081282802 0.001810808 0.00013510662 0.0022951139 -0.93689132 0.034168132
555000000 -0.92720824 0.039230242 0.00086752413 0.0011271005 -0.00032866775 0.0007522417 -0.93707448 0.032925129
556000000 -0.92826146 0.040259346 -0.00098433194 0.0010709811 0.00029744313 0.0011776832 -0.93786341 0.035012987
557000000 -0.92828786 0.041562878 9.5704869e-005 0.0014232086 0.00010755429 0.0016697609 -0.93556362 0.035715155
558000000 -0.92751646 0.040899288 0.00094060856 0.0018108481 -0.00035026937 0.0004752294 -0.93767458 0.034664419
559000000 -0.92836106 0.039594453 0.00038588987 0.002600339 0.00066713989 0.00098792405 -0.93513876 0.035458192
560000000 -0.92742783 0.04044741 -0.00010327508 0.0012610755 -0.00049030315 0.0015514561 -0.9367379 0.034585927
561000000 -0.92524904 0.040422495 0.00051945244 0.0021877538 0.0004907095 0.0021786047 -0.93669069 0.033615738
562000000 -0.9277848 0.040349398 0.00049725943 0.0019804656 0.00052706426 0.0013826397 -0.9380632 0.034819797
563000000 -0.92755997 0.038457587 0.00026216891 0.0014347091 0.00027380604 0.0018754214 -0.93689144 0.034787919
564000000 -0.92769843 0.040328182 0.00018352942 0.0020561439 0.00035606732 0.0016701804 -0.93783134 0.035248794
565000000 -0.92836779 0.040871251 0.00031997397 0.0012322299 8.8242909e-005 0.0010943807 -0.93719167 0.03328551
566000000 -0.92586714 0.041114733 0.00041012527 0.00093895232 -0.00019925652 0.002176347 -0.93627274 0.036062766
567000000 -0.92679262 0.038237676 0.0013593689 0.0022817808 0.00018971252 0.0020278788 -0.93642169 0.035386775
568000000 -0.9265632 0.041058704 0.00063885725 0.001253921 0.0006092157 0.00092442433 -0.93664676 0.035376403
569000000 -0.92751032 0.038706925 0.00035799123 0.00091550685 0.00035032225 0.0018231429 -0.93693131 0.032640189
570000000 -0.92504764 0.041073047 0.00047243995 0.0029923222 0.00098014215 0.0013033891 -0.9349528 0.036036182
571000000 -0.92702842 0.039747011 0.00075794547 0.0021276299 -5.7999474e-005 0.0018135647 -0.93615746 0.035765473
572000000 -0.92674518 0.039102118 -0.00025497362 0.0011840306 0.00088094943 0.0017231702 -0.93621016 0.035114124
573000000 -0.9275108 0.039156843 0.0012668262 0.0010222036 -0.00056917989 0.0012943125 -0.9372009 0.03553519
574000000 -0.92723817 0.041289959 -0.00044115301 0.0011660781 -0.0001020197 0.0012519627 -0.93751377 0.035539139
575000000 -0.9268077 0.039036483 5.6288627e-005 0.00025179895 -0.0004427286 0.0018430882 -0.93668926 0.038494773
576000000 -0.92547363 0.042354845 0.0018987206 0.0020551377 0.0003807483 0.0015102855 -0.93693519 0.036004089
577000000 -0.92681038 0.038537033 0.00029548688 0.0018234468 -0.00010271132 0.0016024167 -0.93579912 0.035391174
578000000 -0.9286195 0.041799039 -0.00027063442 0.0011716285 -1.1564485e-005 0.00098440342 -0.93542999 0.035846654
579000000 -0.92764097 0.039322611 1.466206e-005 0.0014962407 0.00094518426 0.0013822943 -0.9364664 0.035428938
580000000 -0.92595118 0.038047761 -0.00021865824 0.0016404671 -0.00043066766 0.0013849761 -0.93649811 0.034652531
581000000 -0.92688888 0.038392428 0.00022014341 0.0010638493 0.00035461044 0.0024580867 -0.9373098 0.034207769
582000000 -0.9268741 0.040892266 0.00042535615 0.0025587063 0.00012253143 0.0021548001 -0.9381724 0.036588687
583000000 -0.92574269 0.040403999 0.00041470423 0.0020039657 0.00086247438 0.0013352453 -0.93649882 0.035869442
584000000 -0.92685306 0.042808197 0.00062493089 0.0014946151 0.00031512132 0.0026237213 -0.93667668 0.035809465
585000000 -0.92757815 0.04108369 0.00022302254 0.00052651676 -0.00019401446 0.0013717506 -0.93640906 0.035726018
586000000 -0.92752653 0.041082174 0.00027136682 0.0010721256 0.00046089225 0.001724165 -0.93795866 0.03611128
587000000 -0.92706019 0.04065818 -0.00039850737 0.00081059622 0.00024681789 0.0014223651 -0.93485057 0.036836181
588000000 -0.92768973 0.039143112 1.0795847e-005 0.00084490987 -0.0008818229 0.0020188377 -0.93810111 0.035161
589000000 -0.92773211 0.040465031 0.00035315784 0.0024139921 -0.00034315491 0.0014175171 -0.93632871 0.035967175
590000000 -0.92658323 0.040892642 0.00020261045 0.0012459175 0.00065360876 0.0012313793 -0.93581885 0.036307387
591000000 -0.92585427 0.040886357 -0.00040162122 0.0016824614 -4.7101876e-005 0.0018156035 -0.93741512 0.036266968
592000000 -0.92834246 0.040267028 -0.00013088126 0.0017066445 0.00031043211 0.0015629129 -0.9367398 0.035681646
593000000 -0.92642605 0.041325387 0.0012113748 0.0022130869 0.00051061733 0.0014853983 -0.93689221 0.033805642
594000000 -0.92736101 0.041286223 -2.9806788e-005 0.0018273639 0.0011087802 0.0018610276 -0.936638 0.035936128
595000000 -0.92814976 0.040402073 0.0011422475 0.0014138744 0.00012453087 0.0018362607 -0.93785107 0.036103182
596000000 -0.92749512 0.041295759 0.00049728295 0.0018372791 0.00043608699 0.001149572 -0.93657577 0.036180817
597000000 -0.92843431 0.041868217 0.00010817073 0.001407233 -0.00032579224 0.0014229059 -0.93549591 0.036034837
598000000 -0.92856449 0.043316219 -0.0010231815 0.00096591108 4.0674968e-005 0.001523373 -0.93500161 0.037052732
599000000 -0.92741811 0.041559987 4.9001017e-007 0.00093676138 -0.00080579991 0.0016844883 -0.93709469 0.035742804
600000000 -0.92752969 0.042111259 0.0010126336 0.001463281 0.0013080022 0.0013890683 -0.9368853 0.036682636
601000000 -0.92783958 0.040826827 0.00023606168 0.0018239907 -0.00016439478 0.0019615886 -0.93415827 0.035900734
602000000 -0.92814809 0.041869439 0.00067549798 0.0025614921 -0.00029583188 0.0016324124 -0.93683207 0.037272654
603000000 -0.92793417 0.040846195 0.00078658928 0.0018510986 -0.00033955858 0.002201363 -0.93786067 0.036147557
604000000 -0.92537189 0.042402845 -0.00017684096 0.0016373419 -0.0012256221 0.00088469998 -0.93639386 0.035579745
605000000 -0.92607486 0.043449044 0.00036093016 0.0023760812 0.00099253666 0.0025612311 -0.93778473 0.036200911
606000000 -0.92831463 0.043354992 -0.00018188494 0.0007243111 0.0014472086 0.0015812288 -0.93597424 0.037091721
607000000 -0.92698056 0.043121174 -0.00060963456 0.0017808048 -0.00033490165 0.0017519938 -0.93577892 0.035736658
608000000 -0.92784631 0.045961078 0.00017688495 0.0016341492 0.00016466697 0.0013987537 -0.93820572 0.037285671
609000000 -0.92645419 0.042464957 0.0015262978 0.0019942471 -0.00062578282 0.0031514114 -0.93652964 0.034651078
610000000 -0.92747068 0.041364286 5.38122e-005 0.00042512798 8.4533633e-005 0.0015558889 -0.93579006 0.036043655
611000000 -0.92720288 0.044410773 0.00024852579 0.0027258608 -0.00046529536 0.0022055937 -0.93798459 0.037044551
612000000 -0.92586374 0.044518299 -0.00021457237 0.0020044062 0.0002226865 0.0016059192 -0.93613422 0.034942366
613000000 -0.92777693 0.043624286 0.0012905889 0.001807882 -0.00033887452 0.0022556672 -0.93508571 0.037318289
614000000 -0.92674327 0.04533001 -0.00059711706 0.0019344591 -0.0002170152 0.0024305533 -0.93640989 0.0379101
615000000 -0.92613596 0.042851198 0.00042765038 0.0017572356 -0.00042562018 0.0021891547 -0.93864626 0.037433006
616000000 -0.92709219 0.042314414 0.0010958238 0.0018744553 0.00012973846 0.0014890722 -0.93505043 0.037636284
617000000 -0.92757118 0.044293474 0.001505982 0.0024072209 0.0016462241 0.0019199991 -0.93462968 0.039464355
618000000 -0.92726564 0.044247508 0.00050883321 0.0015754636 0.00037992984 0.0018560549 -0.93386567 0.037487928
619000000 -0.92736137 0.04378926 -0.00025628484 0.00097182352 0.0014585231 0.0020285598 -0.93700725 0.03838636
620000000 -0.92772168 0.043272719 -0.0004214856 0.0013201507 0.00057280989 0.00099447928 -0.93515396 0.036719795
621000000 -0.92585963 0.044210963 -8.108926e-005 0.0017508698 0.0010229927 0.0012910856 -0.93558121 0.038263191
622000000 -0.92765373 0.044945534 0.00064596778 0.0025737705 0.00049163535 0.001049851 -0.93623841 0.03853976
623000000 -0.92717516 0.043913677 0.0006354425 0.0015107896 0.00023290077 0.0017286716 -0.93681043 0.037653778
624000000 -0.92734331 0.043474343 -0.00060896034 0.00089698547 0.00062394468 0.0016306429 -0.93627453 0.039196223
625000000 -0.92674631 0.043736231 0.00080924697 0.0027178146 0.00035296424 0.0018613224 -0.93529582 0.038060233
626000000 -0.92864704 0.044938877 -0.0013645288 0.0016292752 0.00034270959 0.0016108697 -0.93561286 0.03868239
627000000 -0.92614836 0.046050422 0.0011094391 0.0019797585 -0.00073679251 0.0018965274 -0.93591642 0.038167037
628000000 -0.92686552 0.045063172 0.00012411368 0.0013706423 0.0008561259 0.0013503514 -0.93661439 0.039237291
629000000 -0.92724836 0.046387229 0.00021644917 0.002574885 -0.00050689525 0.0022978645 -0.93602204 0.038630918
630000000 -0.92869121 0.045991141 -0.00031470877 0.0020066078 0.00018738737 0.0017944992 -0.93635911 0.03775565
631000000 -0.92782235 0.044717107 0.00067688164 0.0023287593 -0.00045614829 0.0018427643 -0.9372009 0.039717764
632000000 -0.92640454 0.046337802 0.00090388267 0.0018650567 -0.00053723279 0.001959245 -0.9355427 0.039598681
633000000 -0.92748386 0.045661062 -0.00015159005 0.0012921353 0.0009470568 0.0021511612 -0.93743098 0.038697824
634000000 -0.92641467 0.046216801 0.0014448417 0.0016947308 0.00042337654 0.0019844414 -0.9377206 0.037099995
635000000 -0.92623824 0.046701372 0.00064367295 0.0021899706 0.00047105437 0.0021294644 -0.93588382 0.036919732
636000000 -0.92834496 0.047022048 0.00026018024 0.0016926574 0.00046708478 0.0014590222 -0.9365747 0.038217559
637000000 -0.92734867 0.046355601 0.00016998721 0.00086238846 0.0016045324 0.0019434911 -0.93525797 0.03770712
638000000 -0.92664117 0.046792541 0.00049967627 0.0017995057 -0.00019837309 0.0021707814 -0.93782061 0.038057506
639000000 -0.92789191 0.046676707 0.00055173802 0.0015858881 0.0008121758 0.0012728669 -0.93626314 0.038299203
640000000 -0.92605066 0.047154158 0.0010400289 0.00072301942 -0.0002470545 0.0026352177 -0.93466872 0.03826353
641000000 -0.92653722 0.045892619 -8.7149841e-005 0.0022463778 3.850475e-005 0.0023782949 -0.93624097 0.040591106
642000000 -0.92589462 0.046448279 0.00098147034 0.0015408025 0.00030559552 0.00185041 -0.93568313 0.03817812
643000000 -0.92593652 0.046783555 -5.5141936e-005 0.0011471276 0.00078835251 0.0017127886 -0.93545979 0.03897243
644000000 -0.9268108 0.04696957 -0.0010328743 0.0021989732 0.00063111924 0.0017471049 -0.93531388 0.039416648
645000000 -0.92569387 0.048039742 0.00013325627 0.0017701974 -0.00040249154 0.0008419053 -0.93561256 0.038400911
646000000 -0.92758965 0.047639281 0.00063237245 0.00049797096 0.00013681773 0.002381552 -0.93527865 0.039538033
647000000 -0.9275701 0.048177224 0.00070032908 0.002062019 0.0020106479 0.0022515557 -0.9361307 0.039885391
648000000 -0.92677885 0.047750141 -0.00010880058 0.0018080604 0.00020200788 0.00091038988 -0.93546909 0.039513767
649000000 -0.92649376 0.047127035 -0.00024493822 0.0023821134 0.00042741888 0.0018856726 -0.93696022 0.040423714
650000000 -0.92611599 0.048474804 -0.00039096904 0.0011407605 0.00036135688 0.001505826 -0.93448585 0.040369887
651000000 -0.92697698 0.047346443 0.00024769554 0.001951008 4.8795293e-005 0.0013955183 -0.93580914 0.040092316
652000000 -0.9274199 0.047322165 0.00070107909 0.0018111721 -8.8106033e-005 0.0017230479 -0.93526924 0.040002946
653000000 -0.92505497 0.048801318 0.00022041849 0.0021918677 0.0001537979 0.0013057843 -0.93615097 0.03959484
654000000 -0.92683166 0.047878861 0.00013608244 0.0015965565 -3.6807844e-005 0.0013557215 -0.93520409 0.039875075
655000000 -0.92658436 0.047528666 -0.00015853386 0.0015708838 0.00057345803 0.0014136202 -0.93613613 0.040195718
656000000 -0.92592084 0.049230006 -2.3957607e-005 0.0020139576 0.00076455862 0.0017508621 -0.93483448 0.039377395
657000000 -0.92634296 0.048243057 0.00011386216 0.0015535235 -0.00018626559 0.0014966326 -0.93652588 0.038702201
658000000 -0.92714077 0.048698332 0.0013561655 0.0014391033 -8.0665368e-006 0.0024767297 -0.93451238 0.041451916
659000000 -0.92723197 0.048466098 0.00064955553 0.0016975714 0.00056272454 0.0013853218 -0.935229 0.03933223
660000000 -0.92670685 0.050213229 -2.6238347e-005 0.002499986 0.00038067324 0.0011241813 -0.93518513 0.039825428
661000000 -0.92719018 0.048969828 0.0011586242 0.0014157245 -0.00057520292 0.00080311502 -0.9359417 0.03835525
662000000 -0.9274388 0.049595781 0.00046881314 0.0020781884 0.0011506337 0.0022898081 -0.93458831 0.039579973
663000000 -0.92631119 0.048633892 0.00040685735 0.0023503019 0.00094317272 0.0016104331 -0.93495923 0.038866974
664000000 -0.92636997 0.049641784 -4.2782787e-005 0.0017716914 4.6384885e-005 0.0027259549 -0.9358269 0.04166837
665000000 -0.92480767 0.046845857 -0.0005663886 0.0011755741 0.00025211525 0.0019415844 -0.93473148 0.04050405
666000000 -0.92734003 0.047830343 0.00053416728 0.0019542289 7.1413233e-005 0.0018749902 -0.93486065 0.039721731
667000000 -0.92641801 0.047902767 0.00053763058 0.0020324073 7.673053e-006 0.0016960986 -0.93644297 0.040256608
668000000 -0.92721063 0.049230963 0.0008716936 0.0013343609 0.00023126377 0.002444335 -0.936041 0.039315615
669000000 -0.92651993 0.049212676 0.00085509341 0.0021019909 -2.9138344e-006 0.0013642104 -0.93596476 0.040036138
670000000 -0.92675161 0.048896287 -0.00021138797 0.0014637295 0.00034182417 0.0015627261 -0.93630809 0.041375358
671000000 -0.92700088 0.048762504 -0.00032337412 0.0016475003 -0.00040703404 0.0016076041 -0.93567824 0.040213022
672000000 -0.9271906 0.050016098 0.0011909626 0.0022311884 0.00033390877 0.001240985 -0.9372068 0.039543178
673000000 -0.92589217 0.050448909 0.00055507157 0.0022561022 4.6703226e-005 0.0016703042 -0.93620986 0.042189505
674000000 -0.92571026 0.048942477 0.00085716177 0.00040776638 0.00024786583 0.0021105297 -0.93601608 0.041572407
675000000 -0.92658627 0.04964608 -0.00010939048 0.0025074971 0.00059276912 0.0016620912 -0.93368 0.040514935
