!Keysight Technologies,M9374A,MY55442783,A.12.55.05
!Date: Wednesday, May 19, 2021 15:36:55
!Correction: S11(Full 2 Port(1,2)) 
!S21(Full 2 Port(1,2)) 
!S12(Full 2 Port(1,2)) 
!S22(Full 2 Port(1,2)) 
!S2P File: Measurements: S11, S21, S12, S22:
# Hz S  RI   R 50
500000000 -0.93103254 0.037530221 0.00069588667 0.0019881253 0.00043071015 0.0011215098 -0.93368536 0.031077206
501000000 -0.9312855 0.037987087 0.00028215043 0.00073167315 0.00013538764 5.6235818e-005 -0.93236315 0.031390872
502000000 -0.93138456 0.038355563 0.00082818297 0.00039099541 -0.00043274122 0.0028492617 -0.93356287 0.029428648
503000000 -0.9292019 0.035816379 -2.9681332e-005 0.0019775408 -0.00031187141 0.00072132639 -0.93237716 0.031454682
504000000 -0.92800003 0.038732715 0.00049724028 0.0011823992 0.0010587818 0.0014530362 -0.93408561 0.032788422
505000000 -0.93007892 0.037027821 -0.00089381431 0.0011448729 0.00025917389 0.001640945 -0.9322598 0.033303905
506000000 -0.92962939 0.036632031 -0.00046711834 0.0012061937 0.00042886208 0.0015343259 -0.93263841 0.033605821
507000000 -0.92922485 0.037481714 0.00073834346 0.0012690502 0.00072185887 0.0006632203 -0.93360358 0.032169063
508000000 -0.930058 0.038567532 -0.0005422929 0.0010930983 -0.00027629908 0.0009612866 -0.93458778 0.034396987
509000000 -0.92855161 0.037820388 -0.00035463332 0.00070049567 0.00017735094 0.0016219583 -0.93304735 0.032235634
510000000 -0.92908025 0.038492016 0.00053297135 0.00075225619 0.00031914492 0.0014543651 -0.93227702 0.031698372
511000000 -0.92800957 0.039130267 0.00072582997 0.00055280176 0.0013935677 0.0017897631 -0.93319529 0.033372849
512000000 -0.93017656 0.039077334 -0.00021432016 1.7368206e-005 -0.00021845535 0.0022020342 -0.93309641 0.033404421
513000000 -0.92903936 0.03923402 8.8348817e-005 0.0012813387 -0.00016058648 0.0022239136 -0.93467051 0.032240123
514000000 -0.92965108 0.039709825 -0.00031328172 0.0012603058 0.0006031568 0.0018821493 -0.9341526 0.032188367
515000000 -0.92998582 0.038367983 -3.7299251e-005 0.0014025421 0.00038263071 0.0015312058 -0.93413222 0.03262563
516000000 -0.9289462 0.040210836 -0.0011040543 0.00085926888 0.00071080989 0.0018897282 -0.93265969 0.033744041
517000000 -0.93063641 0.040377002 0.00094046455 0.0013891184 0.0007782777 0.0022101696 -0.93288368 0.032689106
518000000 -0.93034875 0.039791398 0.00038173795 0.001106651 -0.0012697799 0.001950221 -0.93496734 0.031582713
519000000 -0.9302389 0.039359279 -0.00030150541 0.0012525491 6.787997e-005 0.0016487113 -0.93335807 0.033671997
520000000 -0.92904359 0.040645588 -0.00039687526 0.0024531989 -3.6844049e-005 0.002022634 -0.93329197 0.033020422
521000000 -0.92943424 0.040512916 0.00021131383 0.0018101869 0.00020870485 0.0015670725 -0.93370241 0.03281476
522000000 -0.93240416 0.039493471 -0.00053910719 0.0021370002 6.0711427e-005 0.002063771 -0.93336928 0.034652434
523000000 -0.93028772 0.037531964 0.00041885604 0.0016731708 0.00015181626 0.00089895946 -0.93308544 0.035346095
524000000 -0.92891186 0.03988345 0.00036916521 0.0010413704 0.00054537883 0.00094314211 -0.93512571 0.035042554
525000000 -0.92824042 0.040750079 -7.4197109e-005 0.0021689986 0.0003675094 0.00068398163 -0.93370414 0.033825453
526000000 -0.92879969 0.041829474 0.00075898558 0.0010491749 -8.1701517e-005 0.0024852047 -0.9341557 0.034656692
527000000 -0.9307344 0.042042546 0.0004568705 0.0019536053 8.2855586e-005 0.0023522035 -0.9332273 0.032840107
528000000 -0.93024266 0.040717173 -0.00050228636 0.0016040314 0.00021715542 0.0016218993 -0.93142605 0.034545038
529000000 -0.93016344 0.041157052 0.00012061794 0.00074547675 0.00028297529 0.0027170854 -0.93138629 0.034102969
530000000 -0.93093818 0.040708616 0.00055900891 0.0020058542 0.00047984452 0.00037289775 -0.93375158 0.03321318
531000000 -0.92879504 0.039433412 -0.00044433435 0.00010009707 -1.9963716e-005 0.003198792 -0.93427116 0.034087103
532000000 -0.9291445 0.040277459 -0.0003292 0.0017120882 0.0001550236 0.0014043929 -0.93422157 0.03462993
533000000 -0.92902356 0.039407007 -0.00089109375 0.0017233544 0.0012285087 0.00060210528 -0.93397856 0.034458045
534000000 -0.93154484 0.039806388 0.00020811746 0.0010005407 -7.3144984e-005 0.0021359872 -0.93301886 0.034796633
535000000 -0.92874682 0.039770119 0.0010653866 0.00098886748 -0.00034126217 5.5888806e-005 -0.93270814 0.035144106
536000000 -0.92881531 0.04044478 0.00032197655 0.00050411443 5.0715986e-005 0.0018063196 -0.9333142 0.034708403
537000000 -0.92921078 0.040188387 -4.4284196e-005 0.00087340456 0.00080615905 0.0014588573 -0.93341416 0.035655342
538000000 -0.92904705 0.039748408 -0.0002267963 0.0015891413 0.0011773213 0.0018257539 -0.9333601 0.036461942
539000000 -0.92963082 0.040464446 -0.00047822707 0.0013747712 0.00037428911 0.0015544953 -0.93372053 0.03408327
540000000 -0.9306398 0.040697992 0.00069645623 0.0016633524 -0.00033174272 0.0011661565 -0.93372661 0.034449231
541000000 -0.92899466 0.04083138 6.4788976e-005 0.0018688344 -0.00052271382 0.001988766 -0.9324097 0.036042117
542000000 -0.93005389 0.042872351 0.00015181495 0.0014422737 0.00049707916 0.0014860136 -0.93390417 0.035533536
543000000 -0.92971647 0.041511234 -0.00032598362 0.001578894 -0.00095491082 0.00064479851 -0.93324429 0.03642565
544000000 -0.92927897 0.040897794 0.000727618 0.0011602971 -3.6351703e-005 0.0019053587 -0.9327299 0.035647463
545000000 -0.93110234 0.040543962 -0.00083458395 0.001165158 -0.00051341706 0.0018965272 -0.93363881 0.035410315
546000000 -0.92945576 0.041979831 -0.0013284762 0.0017107942 0.00048775208 0.0017595271 -0.93343365 0.035004627
547000000 -0.93150902 0.041243814 0.00032657187 0.00270647 0.00023778371 0.0012097976 -0.93412143 0.036284503
548000000 -0.92879558 0.041223291 -0.00078051095 0.001718104 0.00034392683 0.0011335321 -0.93365502 0.034995496
549000000 -0.9282369 0.042019811 0.00118312 0.0018985987 -0.00021424466 0.0021203991 -0.93360853 0.034472242
550000000 -0.93027055 0.041060574 0.00058392354 0.0015842415 2.2294207e-005 0.0016284228 -0.93394524 0.035424531
551000000 -0.92900747 0.041991975 0.00053725357 0.0016325401 8.2044186e-005 0.0011368089 -0.93260086 0.034809746
552000000 -0.93019432 0.040450912 0.00079483801 0.0021098279 0.00044377011 0.001139876 -0.93311971 0.035202119
553000000 -0.93095797 0.042922899 0.00025483151 0.0012564269 -0.00015321859 0.0024296548 -0.93410254 0.03475247
554000000 -0.929407 0.04189026 0.00049585465 0.0024262136 0.0005422773 0.0018006734 -0.93415374 0.035588913
555000000 -0.9297452 0.041191377 0.0018878412 0.00088743708 0.00049839163 0.0016619799 -0.93351483 0.035622738
556000000 -0.92881441 0.041156683 0.00062221824 0.0019760397 -9.6686483e-005 0.0012225958 -0.93327343 0.036229543
557000000 -0.92991483 0.04262514 0.00047634196 0.0015338354 -2.4168476e-005 0.0013199148 -0.93528068 0.034648877
558000000 -0.93140399 0.04261066 0.00017321666 0.0005119603 -0.00018772473 0.0018255255 -0.93314874 0.035933591
559000000 -0.92762619 0.041416608 0.00051247218 0.00081993832 -8.822848e-005 0.0015837043 -0.9338035 0.03614426
560000000 -0.92962813 0.039678201 -0.00014027499 0.0022911273 0.00024269561 0.0020956814 -0.93402946 0.036738597
561000000 -0.93012488 0.040831767 4.4070948e-005 0.0026971896 0.00027255295 0.0012439622 -0.93234861 0.036175746
562000000 -0.92864919 0.04209315 -0.00051192584 0.00074615073 0.00099164015 0.001889828 -0.93330437 0.03734019
563000000 -0.9295063 0.040748045 -0.00033547156 0.0024535931 -0.00026542661 0.00096334296 -0.93368095 0.037496321
564000000 -0.92894459 0.04083465 -0.00016671504 0.0018925112 -0.00029588945 0.00095786317 -0.93322724 0.036415614
565000000 -0.92990673 0.040311381 0.0011616111 0.0012555269 0.0011865973 0.0017877305 -0.93332684 0.035728045
566000000 -0.92898226 0.040186457 0.00021798663 0.0018140873 -0.00011138965 0.0018574402 -0.93218356 0.0365979
567000000 -0.92696649 0.042286593 0.0002001031 0.00057765591 0.00063235854 0.0018375979 -0.93275166 0.034669511
568000000 -0.92832857 0.041868616 0.00026635878 0.0010727461 0.00044338586 0.0017043048 -0.93427277 0.036739688
569000000 -0.92878348 0.042175189 0.00064985844 0.00063106208 -9.4025949e-005 0.001500264 -0.93268996 0.037724536
570000000 -0.9286049 0.041087072 -0.00011499871 0.0015227661 0.00035510791 0.0018571613 -0.93361855 0.03782317
571000000 -0.92935818 0.039924085 -0.00054175529 0.0011517729 0.00031403941 0.0017235476 -0.93244368 0.036991585
572000000 -0.9279145 0.040804494 -0.00090392714 0.0026527841 0.0010991506 0.0024059939 -0.93396604 0.036282357
573000000 -0.92850834 0.042180192 -0.00021413197 0.0013101323 8.4749488e-005 0.0015477415 -0.93302208 0.037008092
574000000 -0.92829078 0.040592078 0.00025627358 0.00083661918 -0.00017917552 0.0022316549 -0.93359601 0.036895301
575000000 -0.92844522 0.041174434 -0.00079190725 0.00073802832 0.00037429851 0.00090849091 -0.93416703 0.036556661
576000000 -0.92950362 0.043034818 0.00020966832 0.001242276 0.00062939682 0.0021549854 -0.93411911 0.036814582
577000000 -0.92947 0.040623698 0.00024351134 0.0016380079 -0.00028702125 0.002535275 -0.93507439 0.036245886
578000000 -0.92958206 0.040672295 -0.00017899605 0.0020414421 0.00042406196 0.0018396908 -0.9307819 0.034961611
579000000 -0.92770487 0.042471815 0.0012086456 0.0010442553 0.00053912 0.0013505992 -0.93590081 0.035826951
580000000 -0.9303152 0.040171549 0.00067470671 0.001920237 0.00063202495 0.0017749935 -0.932769 0.037879996
581000000 -0.9291544 0.040968727 -0.0002661788 0.0019531553 0.0011427406 0.0017064667 -0.93500572 0.035427082
582000000 -0.92960638 0.04175688 -0.00028051797 0.0022293313 -0.00026878092 0.0018820444 -0.93356365 0.03667555
583000000 -0.92815363 0.043084316 -0.00027921784 0.0018601663 0.00037511118 0.001242877 -0.9328807 0.036166314
584000000 -0.92849904 0.042604089 0.00069247012 0.0016442108 -0.00082037714 0.0013650345 -0.93355423 0.03726526
585000000 -0.92948687 0.040061895 0.00049602188 0.0011037432 0.0009690937 0.002003761 -0.9317174 0.036522485
586000000 -0.93049371 0.041884024 0.00010458945 0.0011235171 0.00042316265 0.0015181522 -0.93206596 0.037114106
587000000 -0.92762554 0.04273513 -0.000150548 0.0015050673 0.00088888156 0.0015244406 -0.93373197 0.03801351
588000000 -0.92850077 0.042722914 0.00085466041 0.00087624759 0.00023555482 0.0018983606 -0.93278497 0.036313802
589000000 -0.92892778 0.043294709 0.00060882163 0.0010745336 -0.00025039623 0.001839077 -0.9324367 0.038496807
590000000 -0.92960495 0.042145874 -0.00039987933 0.0015703377 -0.00013828071 0.0013160484 -0.93244857 0.036249533
591000000 -0.92808193 0.043429092 0.00037392013 0.0013724616 -0.0010182626 0.002297296 -0.93442249 0.037007656
592000000 -0.93002766 0.041668829 0.00096601178 0.0019587371 0.00035542669 0.0020684667 -0.9342339 0.036252163
593000000 -0.92912686 0.043073956 0.00052460813 0.0014546888 0.00085649703 0.0015610056 -0.9333939 0.037126828
594000000 -0.92949909 0.042996861 -0.00082228763 0.00113878 -0.00010896185 0.0015078383 -0.93437904 0.03461197
595000000 -0.92901105 0.043993663 -0.00022650525 0.0019244065 0.00081462192 0.00090329995 -0.93377674 0.036658242
596000000 -0.92769623 0.042536262 -0.00011185507 0.0013434989 -0.000331355 0.0016951262 -0.9332639 0.035547961
597000000 -0.92966181 0.043321405 0.00060861092 0.0023059151 0.00074261264 0.0017837288 -0.93400878 0.036932111
598000000 -0.93030256 0.043108683 -0.00041259755 0.0015210228 -0.0011220414 0.0014445877 -0.9339996 0.037156872
599000000 -0.93196082 0.042405669 7.6268923e-005 0.00072202558 0.0011817783 0.0014629643 -0.93482238 0.035697538
600000000 -0.93010598 0.043553665 3.7100035e-005 0.0021249836 0.00050998561 0.0017815033 -0.93257844 0.037944324
601000000 -0.92771608 0.044234987 -0.00020273156 0.0028519295 -0.00052099093 0.00045336934 -0.9337678 0.037677776
602000000 -0.92846864 0.044075858 0.00021668116 0.0025227387 0.00011482643 0.0017663201 -0.93442768 0.03810231
603000000 -0.92964554 0.043289028 0.00020349433 0.0016096666 0.00090676243 0.00099744031 -0.93566346 0.037559077
604000000 -0.93015373 0.04563928 -0.00031609103 0.0014429713 -0.00068574585 0.00087114412 -0.93450499 0.038424652
605000000 -0.92797035 0.043892398 7.3626521e-005 0.0029160779 0.00043097071 0.0026757852 -0.93347377 0.037641034
606000000 -0.93135464 0.044302292 0.00049847731 0.0021167782 -0.00068784581 0.0004915552 -0.93434227 0.036294911
607000000 -0.93063778 0.044036157 0.00077342038 0.0012346181 0.0013524954 0.0018135142 -0.93352026 0.037402712
608000000 -0.92938972 0.045379248 -0.00051420956 0.0023739433 0.00019177371 0.00080659607 -0.93361765 0.036700286
609000000 -0.92898834 0.044460557 -0.00020886323 0.0012764264 9.7134674e-005 0.0017651193 -0.93265456 0.035837896
610000000 -0.9290117 0.045353368 0.00017812545 0.001689326 -0.00051020924 0.002278303 -0.93197799 0.040166393
611000000 -0.92749083 0.044194307 0.00072950101 0.0018818264 0.00066916854 0.0021223575 -0.93350947 0.037907317
612000000 -0.92804706 0.044916406 -0.00050791318 0.0013467444 0.00036358449 0.0021748461 -0.93346494 0.03761154
613000000 -0.9280411 0.044723727 -0.00021465572 0.0012165548 0.0003378843 0.0019172153 -0.9333486 0.03654528
614000000 -0.92924255 0.045427557 -1.6412796e-005 0.0013555619 0.00053223543 0.0024780082 -0.9333306 0.038213506
615000000 -0.92962766 0.04447623 -0.000982314 0.0012009741 -0.00084016548 0.0010875204 -0.93216854 0.040310752
616000000 -0.92892438 0.045379754 -0.00022547957 0.00095892214 0.00049801997 0.00086659932 -0.93082404 0.038694937
617000000 -0.92937136 0.046408117 0.00071544433 0.0018012713 -0.00010436273 0.0011455592 -0.93305284 0.039441843
618000000 -0.92904073 0.046685822 -0.00025884248 0.0012032124 0.00045615021 0.001775831 -0.9322505 0.038388871
619000000 -0.92870146 0.046032984 0.0009668413 0.0026199811 0.00095566199 0.001328887 -0.93300402 0.038309369
620000000 -0.92947817 0.045721333 -0.00035204215 0.001264932 0.00066887517 0.001864314 -0.93461466 0.03903671
621000000 -0.92819166 0.045580689 0.00063146517 0.0020711413 -0.00031438493 0.001508612 -0.93281543 0.039018039
622000000 -0.92863131 0.046937767 0.00023910445 0.001762589 0.0012411415 0.0014849331 -0.93418682 0.039897677
623000000 -0.92674428 0.046164561 0.00039068703 0.0028075057 3.0305095e-005 0.0020959165 -0.93181896 0.03903209
624000000 -0.92942345 0.046431307 -0.00021251645 0.001884807 -0.00050696341 0.0020314017 -0.93318403 0.040148702
625000000 -0.92805606 0.047189031 -0.00087102351 0.0023651128 -0.00011305815 0.0023067314 -0.93180609 0.038514759
626000000 -0.92837691 0.046647362 0.00061965385 0.0016328509 -4.1368257e-005 0.0025511398 -0.93247831 0.039800283
627000000 -0.92767555 0.047280136 0.001000626 0.0014796975 3.1336036e-005 0.0021095786 -0.93246198 0.039378043
628000000 -0.93024218 0.046191592 -6.998219e-005 0.0014050032 -0.00060943986 0.0023655486 -0.93437046 0.040640641
629000000 -0.92916185 0.048199367 -0.00010617852 0.001003111 0.00073285139 0.00072594814 -0.93407679 0.039936233
630000000 -0.92757618 0.04822468 -0.00026538593 0.0021453532 -0.00039542976 0.0011652577 -0.93154669 0.040852387
631000000 -0.92882937 0.04702558 0.0012126591 0.0021065343 0.0009263875 0.0013511518 -0.93452525 0.038671881
632000000 -0.92728031 0.04758393 -0.00026867419 0.001925214 0.00030793482 0.0021967702 -0.93255162 0.038275074
633000000 -0.92836809 0.049396407 0.00034021129 0.0011834636 0.0013419065 0.0020387957 -0.93273956 0.040428668
634000000 -0.92846012 0.047737155 0.0012708032 0.0013087239 0.00079084875 0.0025337245 -0.93265861 0.038416129
635000000 -0.92899299 0.0468175 -6.4389707e-005 0.002268225 0.00030293886 0.0015297467 -0.9328168 0.039639931
636000000 -0.92807281 0.047722187 0.00093407702 0.001243777 8.6046472e-005 0.0020205323 -0.93189716 0.038842846
637000000 -0.92695022 0.049002383 0.0011705246 0.00038703214 0.0011988566 0.0019387619 -0.93312383 0.039908521
638000000 -0.92881918 0.049168989 0.00023921883 0.0012009547 0.00018278199 0.0019041857 -0.93365777 0.039232817
639000000 -0.93003821 0.048535012 -1.6880125e-005 0.0018618675 0.00093824061 0.0012404337 -0.93162978 0.039446864
640000000 -0.92774528 0.050361995 0.0011288041 0.0027202729 -0.00037233104 0.0020372942 -0.93317157 0.040367253
641000000 -0.92977631 0.047613703 0.00047710244 0.0018850182 0.0001878937 0.002210655 -0.93277305 0.040083803
642000000 -0.92840397 0.047504686 4.9872866e-005 0.0028450638 0.00065348163 0.0012799331 -0.93090409 0.041323639
643000000 -0.92845118 0.049079236 0.0005483019 0.0012504692 0.00076992239 0.0016454207 -0.93218154 0.040840182
644000000 -0.92969489 0.05060361 -0.00025248373 0.0014816622 0.00035932634 0.0017703731 -0.933918 0.040893458
645000000 -0.92849958 0.048583101 0.00034758478 0.0019692965 0.00031268038 0.00089434627 -0.93201613 0.041847713
646000000 -0.92799151 0.049043987 0.00034129407 0.0024232303 0.00024263089 0.0010866257 -0.93257666 0.040436279
647000000 -0.92778039 0.050296396 0.00046316045 0.0017202545 0.00021677172 0.0017937067 -0.9326703 0.040066361
648000000 -0.92959315 0.047684897 -8.8240733e-005 0.0024199504 0.0010279913 0.0022839096 -0.9319104 0.040682007
649000000 -0.92768019 0.04944589 9.0980706e-005 0.0019132592 -5.6840941e-005 0.0012382672 -0.93276888 0.041625936
650000000 -0.92908406 0.04782176 7.6014272e-005 0.0008536551 0.00021487052 0.0014678717 -0.93174225 0.041329298
651000000 -0.92907435 0.050893858 -0.00010360067 0.0025653127 0.00060635246 0.0016277271 -0.93104511 0.040990815
652000000 -0.92793429 0.049894046 0.00068518252 0.0017112397 0.0019740369 0.0022181103 -0.9323405 0.040721204
653000000 -0.92952943 0.048987042 0.00078837993 0.0015664113 0.00011334912 0.0023921342 -0.9298948 0.040207043
654000000 -0.92923295 0.048748169 0.00091565488 0.0016152775 0.00014269477 0.0024244657 -0.93234515 0.040376291
655000000 -0.92899573 0.049338058 0.00040290429 0.00094844273 0.0014098247 0.0017983498 -0.93133634 0.040862221
656000000 -0.92705488 0.049614105 -0.00032918665 0.0016945077 0.00047408976 0.0018401652 -0.9336623 0.040867589
657000000 -0.92594767 0.049559586 0.00028618876 0.0017238138 -0.00035823495 0.0016617717 -0.93332654 0.041986268
658000000 -0.92841285 0.04863552 0.00038828846 0.0019265708 0.00049001665 0.0014635616 -0.93218476 0.041730095
659000000 -0.92913753 0.049791701 0.00059643161 0.0016528106 7.4045194e-005 0.0019586312 -0.93406826 0.041633029
660000000 -0.92939401 0.050101198 0.00086341804 0.001528854 0.0012132104 0.0018072453 -0.93197548 0.041740332
661000000 -0.92837334 0.049565829 -2.1615007e-005 0.00090515544 9.2970302e-005 0.0021288733 -0.9316414 0.040979087
662000000 -0.92923969 0.049072985 0.0002294868 0.0015475833 -0.00030401142 0.0024965147 -0.93399918 0.041688602
663000000 -0.92881328 0.050272912 0.00052001287 0.0015261513 0.00079424778 0.0014648577 -0.93104964 0.041994981
664000000 -0.92540157 0.048177008 0.00010375272 0.002059981 0.00011327793 0.0013794213 -0.93172723 0.041253939
665000000 -0.92752242 0.049987558 0.00020747959 0.0012584716 0.00028159449 0.0010565057 -0.93144685 0.039774429
666000000 -0.92824405 0.049088251 0.00051530125 0.0013524875 -0.00050358981 0.0021790892 -0.93261445 0.040029012
667000000 -0.92769367 0.049394552 -0.00033132176 0.001800216 1.1212755e-005 0.0017769847 -0.93290597 0.041236077
668000000 -0.92789292 0.050934285 0.0004067409 0.0020727513 0.00088450353 0.0029317457 -0.93328661 0.040030777
669000000 -0.92821747 0.051463254 0.0008145367 0.001524351 0.0002543843 0.0019081663 -0.93194377 0.041565027
670000000 -0.92716658 0.051040512 -6.9442554e-005 0.0022899888 -0.00036417594 0.00097347301 -0.93326068 0.042367827
671000000 -0.92899817 0.050394379 -0.00025971152 0.0023490952 0.0011160168 0.0023280811 -0.93234897 0.041686606
672000000 -0.92765349 0.050680675 0.00058817113 0.0024113406 -0.00021586282 0.0012492981 -0.93245745 0.04074797
673000000 -0.92867845 0.050469127 -4.9461942e-005 0.0013799801 0.00058758003 0.0014841049 -0.9331826 0.041658659
674000000 -0.92835027 0.052005384 -0.00072012848 0.0022331066 0.0013750156 0.0015998185 -0.9327631 0.042426679
675000000 -0.92735922 0.049833421 -0.00031908188 0.00228104 -9.1537047e-005 0.002671659 -0.93051016 0.042991322
