!Keysight Technologies,M9374A,MY55442783,A.12.55.05
!Date: Wednesday, May 19, 2021 15:55:54
!Correction: S11(Full 2 Port(1,2)) 
!S21(Full 2 Port(1,2)) 
!S12(Full 2 Port(1,2)) 
!S22(Full 2 Port(1,2)) 
!S2P File: Measurements: S11, S21, S12, S22:
# Hz S  RI   R 50
500000000 -0.91835243 0.034727748 -0.00012356584 0.00088687742 0.00035096696 0.0012238391 -0.9376018 0.028814377
501000000 -0.9169786 0.034630373 0.00046877822 0.00073268334 -0.00030237404 0.0012373589 -0.93725443 0.030466113
502000000 -0.91729116 0.036681473 0.00046354646 0.0017139774 -0.0011905233 0.0015419731 -0.939421 0.030951783
503000000 -0.91617036 0.035560369 0.00080606033 0.001030478 0.00035044327 0.0019227477 -0.93828017 0.030819198
504000000 -0.91608298 0.036278952 -0.0002030671 0.0010729911 -0.00046045479 0.0005143804 -0.93591344 0.030730192
505000000 -0.91814125 0.035674088 0.0006716596 0.00039833496 7.6334611e-005 0.0010616782 -0.93585938 0.030767219
506000000 -0.91658849 0.035963215 -0.00016315104 0.0016671793 -0.00011075506 0.0015081468 -0.9363097 0.030348225
507000000 -0.91695082 0.03573614 -4.8629349e-006 0.00029851627 -0.00061385898 0.0014898123 -0.93799472 0.029773364
508000000 -0.9173854 0.036776412 0.00030846245 0.0022063204 0.00051685818 0.0021874388 -0.93882453 0.031424921
509000000 -0.91692215 0.037512925 0.0007855579 0.0025466711 -3.1402571e-005 0.0016539261 -0.93712169 0.031529859
510000000 -0.9190622 0.036539417 0.00060451345 0.0023746151 0.00013297131 0.0010176804 -0.93695593 0.030952476
511000000 -0.91685456 0.037060395 -9.6458298e-006 0.00099720352 -0.00046961903 0.001859052 -0.93621391 0.03275631
512000000 -0.91717714 0.035129193 0.00047906756 0.0017714316 -0.0003149824 0.0011896591 -0.93725878 0.033165559
513000000 -0.91653723 0.036593892 6.6903551e-005 0.00064654154 6.4927823e-005 0.0019118506 -0.93633491 0.029489424
514000000 -0.91796857 0.036467224 -0.00047901177 0.0014168423 -0.0005757804 0.0009568067 -0.939466 0.031288967
515000000 -0.91671824 0.034829114 0.0016694228 0.00095479406 0.00085193152 0.00069971342 -0.93835312 0.032428559
516000000 -0.91731703 0.036950693 0.00030290469 0.00092845073 -0.00096044142 0.0022599255 -0.93703341 0.03100507
517000000 -0.91717744 0.038144488 -0.00041812879 0.001021178 -0.00022831497 0.00088068884 -0.93680525 0.031572219
518000000 -0.91767985 0.036967024 0.0012626576 0.0022323374 -0.0012387722 0.0012590555 -0.9388175 0.030962704
519000000 -0.91830641 0.035850141 2.0622847e-005 0.0019803455 -0.00097752258 0.0012172863 -0.93728811 0.032338452
520000000 -0.91636294 0.037685405 -0.00044348591 0.0022808234 9.5658899e-005 0.0017880866 -0.93711025 0.032468263
521000000 -0.91752672 0.038385499 -0.00047484346 0.00094867562 0.00085918198 0.0022487631 -0.93747312 0.0328205
522000000 -0.91919249 0.037598621 0.0010320644 0.0012540424 -0.0001937757 0.002074217 -0.93738359 0.032277796
523000000 -0.91753709 0.036624286 -0.00021371171 0.0026825741 -0.00063946575 0.0020782221 -0.9369148 0.031336352
524000000 -0.91699797 0.039113246 7.4569951e-005 0.0008232558 -0.00014190422 0.00072804722 -0.93779743 0.034014151
525000000 -0.91798407 0.039081737 -0.00047787934 0.0017295409 0.00034835559 0.00072224479 -0.93854046 0.034232691
526000000 -0.91758877 0.038586199 0.00058708066 0.00064759969 0.00020982689 0.0013921114 -0.93771869 0.031977352
527000000 -0.91755027 0.03884054 0.00019762704 0.0011659148 0.00076057739 0.00055728504 -0.93708211 0.033360187
528000000 -0.91770136 0.038769495 0.00053712807 0.0022126376 0.0007177529 0.0016183923 -0.93737262 0.031267498
529000000 -0.91792953 0.039308891 0.00020001899 0.001203774 -8.3764307e-006 0.001746993 -0.93711376 0.033063583
530000000 -0.91748893 0.03727949 -0.00017928261 0.0012245557 0.00042722072 0.0011600337 -0.93728173 0.032647606
531000000 -0.91740042 0.037569672 -0.00081491913 0.0018176259 -0.0013506777 0.0021985238 -0.93679452 0.031957012
532000000 -0.91793513 0.036545001 0.00032202041 0.0012267341 0.000177697 0.0008354673 -0.93766117 0.033287771
533000000 -0.91651678 0.037025724 -0.00054004614 0.0013261556 0.00070512918 0.001087255 -0.93700069 0.033268947
534000000 -0.9181661 0.037365999 -0.001364053 0.0020891412 0.00047848339 0.00073458051 -0.93725783 0.0334749
535000000 -0.91708714 0.038273137 -0.00016715738 0.0014906127 1.9446845e-006 0.0027861574 -0.93562722 0.033706665
536000000 -0.91700685 0.038217273 -0.00023019068 0.0018695521 0.00030821556 0.00079766422 -0.93496853 0.033087723
537000000 -0.91667914 0.039505605 0.00045747531 0.00081701408 1.088287e-005 0.00080960966 -0.93749529 0.033010773
538000000 -0.9175185 0.038895786 0.00094832736 0.0016081561 0.00074389391 0.0027655349 -0.93729788 0.032612875
539000000 -0.91686177 0.039524507 0.00054389669 0.0013468214 0.00060618535 0.0021330696 -0.93685555 0.032844912
540000000 -0.91723323 0.037748102 -9.7762124e-005 0.00043029612 -0.00063890935 0.0010155793 -0.93692118 0.034545772
541000000 -0.91664147 0.039525684 0.0012977999 0.0018122077 -0.00031582508 0.002059449 -0.9374401 0.034639984
542000000 -0.91777271 0.036558654 0.00093845848 0.0013210878 -4.6015626e-005 0.0018229578 -0.93703645 0.032018617
543000000 -0.91724193 0.037577227 -0.00026663858 0.00062036602 0.00060362334 0.0014732404 -0.9385525 0.033054702
544000000 -0.91801196 0.039456192 -0.00026829282 0.0016002026 0.00043805415 0.00096168061 -0.93683708 0.035042949
545000000 -0.91620874 0.038097885 8.6956294e-005 0.0011174881 0.00064463518 0.0017566389 -0.93817258 0.033426609
546000000 -0.9162603 0.0394448 -0.00046989004 0.0017987497 -0.00028316834 0.0010698288 -0.93742609 0.033145592
547000000 -0.91665637 0.038924862 -0.00068704429 0.0011977634 -0.00057614577 0.0019374698 -0.93869531 0.035227899
548000000 -0.91718346 0.037955426 -0.00018954203 0.0017086384 -0.00024150456 0.00055478507 -0.93726248 0.034494683
549000000 -0.91804689 0.039643981 0.00056204235 0.0012285918 0.00010831438 0.0016038573 -0.93527019 0.035408601
550000000 -0.91632187 0.03854036 0.00039863164 0.00098404952 -0.00049513509 0.00075702905 -0.9379617 0.034663744
551000000 -0.91654712 0.038306937 -0.00016719688 0.0011123713 0.00061709271 0.0015078345 -0.93838233 0.034677055
552000000 -0.91784936 0.03768668 0.00067856576 0.0020462198 -0.00058419449 0.0015063673 -0.93778318 0.034952667
553000000 -0.91707283 0.038814005 0.00025081553 0.0013598482 -6.5790409e-005 0.0014172755 -0.9357295 0.034099218
554000000 -0.91897315 0.037951361 0.00026681917 0.0016322462 0.00062603498 0.0015698231 -0.93675667 0.03329204
555000000 -0.91749173 0.039478563 0.00042372406 0.0020016257 0.0015492443 0.00089248887 -0.93633652 0.033779908
556000000 -0.91731399 0.039130643 0.00033688787 0.0011386597 0.00057896477 0.0015675862 -0.93757588 0.035557151
557000000 -0.91811723 0.039499 -0.00026840615 0.0019182774 -0.00033685716 0.0008193017 -0.93729413 0.035416737
558000000 -0.9184168 0.038559087 3.436318e-005 0.0012755827 0.00090228452 0.00067982194 -0.93694788 0.034249585
559000000 -0.91739053 0.039804328 0.00012104656 0.001952487 0.00059481739 0.0025168697 -0.93826336 0.034323204
560000000 -0.91542876 0.03982041 -0.00096979609 0.001755101 -0.00035954159 0.0017028761 -0.93783861 0.034943659
561000000 -0.91782349 0.039344531 1.2543521e-005 0.0018518073 0.00076024828 0.0025401902 -0.93850017 0.033136368
562000000 -0.91685927 0.039450523 0.00035731186 0.0012393629 0.00099602959 0.001203857 -0.93783265 0.034965001
563000000 -0.91756922 0.039417714 0.00015972965 0.0015903874 -0.00034498901 0.000758184 -0.93777794 0.035175081
564000000 -0.91723746 0.037677355 0.00019905232 0.0023594778 -7.3127419e-005 0.0011428341 -0.93847448 0.033983819
565000000 -0.91798234 0.038677756 0.0004776353 0.0023594385 0.0011668693 0.0014589966 -0.93710643 0.034014039
566000000 -0.91612858 0.038490601 -0.00085070851 0.001772879 0.00032794039 0.001186672 -0.93807799 0.034818605
567000000 -0.91659492 0.038619544 0.0011472886 0.0020491567 0.001119482 0.0020986488 -0.93602556 0.034071732
568000000 -0.91643459 0.039649475 0.00014301747 0.0015076986 0.00019048352 0.0017777763 -0.93625182 0.033785019
569000000 -0.91719788 0.039994884 0.00028146093 0.002232746 0.00011718264 0.0015676576 -0.93622488 0.034763698
570000000 -0.91701978 0.041225992 0.00032592891 -4.0929866e-005 8.425807e-005 0.0013115871 -0.93740779 0.032715302
571000000 -0.91774881 0.038921118 0.0005701406 0.002354346 -0.00019598832 0.0016892847 -0.93765527 0.035495564
572000000 -0.91717291 0.037736528 0.00042521249 0.0011462973 0.0014439112 0.0020362271 -0.93663883 0.034553729
573000000 -0.91806972 0.038966611 -0.00032758809 0.0017496032 0.00041185488 0.0022198772 -0.93657452 0.036556058
574000000 -0.91607517 0.039386678 0.00021735876 0.0012949354 -0.0003001187 0.0015847461 -0.93721217 0.034791302
575000000 -0.91735601 0.039275266 0.00023686275 0.0019680385 0.00050306693 0.0016710112 -0.93803048 0.035568122
576000000 -0.91733396 0.039861515 0.00034574186 0.0022201596 -0.0014050963 0.0019051591 -0.93767232 0.035108849
577000000 -0.91554815 0.039382912 0.0008481337 0.0010645466 1.6386726e-005 0.0021827514 -0.93777007 0.034828022
578000000 -0.91672474 0.040686328 -0.00030708278 0.00054077781 0.00097966311 0.0020633738 -0.93590629 0.034268573
579000000 -0.91669679 0.039878104 0.00022575971 0.0019747824 0.00080847635 0.0015943231 -0.93699646 0.033760618
580000000 -0.91723138 0.038315352 -0.00028948087 0.0018214856 0.00061862275 0.0019875932 -0.9366411 0.03524778
581000000 -0.91654813 0.03915159 0.00065816165 0.0015144515 0.00082319073 0.0023484954 -0.93653941 0.033993021
582000000 -0.91718227 0.040047303 -0.00011676874 0.000614663 -0.00012074124 0.00045067217 -0.93842185 0.036258154
583000000 -0.91658372 0.040866099 0.00068155094 0.0023460228 0.00049130834 0.0014616619 -0.93706244 0.035306014
584000000 -0.9174183 0.038574155 0.00047504078 0.0011240761 -0.0001211964 0.00060387945 -0.93815571 0.034329299
585000000 -0.91691673 0.039183587 0.00036957697 0.00091653492 0.0016674609 0.0015101116 -0.93710071 0.035511944
586000000 -0.91812891 0.039529551 0.00067778688 0.001232028 0.00061799615 0.0023957493 -0.93833822 0.037020463
587000000 -0.915739 0.038625795 -0.00015374407 0.0016230873 0.00053621427 0.0019962471 -0.93867153 0.03488246
588000000 -0.91635489 0.039835516 0.0011860081 0.0022352093 0.00075509655 0.0023320457 -0.93642801 0.034490582
589000000 -0.91734725 0.039527316 1.7998482e-005 0.0013362917 -0.00049618509 0.0016499129 -0.93594414 0.036097214
590000000 -0.91537952 0.039799664 0.00028947357 0.0011454412 0.00048576517 0.0022758299 -0.9362781 0.034032259
591000000 -0.91691881 0.040706675 0.00070824922 0.0020957382 -0.0015167098 0.0016449331 -0.93697363 0.036259435
592000000 -0.91657609 0.040193539 0.00018456124 0.0021132256 0.00055242074 0.0014908604 -0.93768686 0.035090856
593000000 -0.91734409 0.039524402 -0.00041610625 0.0028515835 0.00076520821 0.00096691708 -0.93853933 0.035147142
594000000 -0.91743416 0.041194379 0.00051435031 0.0011151722 0.0013679536 0.0009562808 -0.93777072 0.036711186
595000000 -0.91658717 0.041301373 -0.0007676566 0.00087844155 0.0021991394 0.0019463905 -0.93625975 0.035557959
596000000 -0.91704381 0.038475122 -0.00062489696 0.0015225817 0.00046176667 0.0022341015 -0.93927896 0.035232846
597000000 -0.9170301 0.039547369 -0.00030056696 0.0014892569 -0.0009348258 0.0019662117 -0.93745404 0.033521432
598000000 -0.91771036 0.040725607 0.00093265384 0.0018988336 0.00023069482 0.0015440177 -0.93608183 0.035878401
599000000 -0.9160642 0.040479288 0.00040112159 0.0015722875 0.00078064174 0.0013796391 -0.93588948 0.033453256
600000000 -0.91657686 0.039715979 0.00028059477 0.0026033351 0.001545902 0.0019974837 -0.936611 0.033121526
601000000 -0.91714805 0.04115871 -6.242266e-006 0.0012338907 -9.1239221e-005 0.001075809 -0.93736255 0.034563284
602000000 -0.9173969 0.04150505 0.00031898744 0.0011565847 0.00073273556 0.0022361809 -0.93862379 0.035750598
603000000 -0.92013139 0.040877301 -4.8195696e-005 0.0016365857 0.00030945617 0.0012647095 -0.9365859 0.036261808
604000000 -0.91803968 0.043031257 0.00062984816 0.0020359657 0.00060687534 0.001711112 -0.93688339 0.036205724
605000000 -0.91671091 0.042787541 0.00011742162 0.0012526551 -6.1532781e-005 0.0013224987 -0.93605489 0.036802448
606000000 -0.91738492 0.040692799 0.00066575868 0.0023864533 -0.00019508252 0.0022000892 -0.93684793 0.035752743
607000000 -0.91780269 0.042225756 0.00010177997 0.0028866467 4.5843781e-006 0.00079102057 -0.93829995 0.036481153
608000000 -0.91787738 0.041350979 0.0015663905 0.00024428143 0.00055099005 0.0020480193 -0.93814653 0.035842892
609000000 -0.91755211 0.041153494 0.00057149079 0.0007194964 0.00028879545 0.00099146459 -0.93630278 0.035485603
610000000 -0.91772068 0.042732876 0.00012540517 0.0014242372 0.00090695819 0.0017581868 -0.93622547 0.036905434
611000000 -0.91671753 0.041477948 0.0010617439 0.0023905756 -0.00023884597 0.0019454469 -0.93661845 0.036118496
612000000 -0.91829073 0.044148471 0.0012022122 0.0015149746 0.00079236203 0.0016680226 -0.9364922 0.034559235
613000000 -0.91658193 0.04320161 0.00086799526 0.0023566682 0.00039130097 0.0011274052 -0.93711591 0.0374461
614000000 -0.91652989 0.042887088 0.00093144306 0.0014005254 -0.00025192535 0.0021754685 -0.93720615 0.035931341
615000000 -0.91577697 0.042707279 0.0012308599 0.0021527305 -0.00015226309 0.0013469734 -0.93718219 0.03707578
616000000 -0.91721338 0.042158924 0.00020046008 0.0012644723 0.0007162313 0.000824888 -0.93511903 0.038742121
617000000 -0.91531795 0.043611433 0.00054629339 0.0021949003 -0.00014630487 0.0012880872 -0.93552005 0.037139367
618000000 -0.91648901 0.043330111 0.0010214406 0.0015053204 4.0821902e-005 0.0015980066 -0.938012 0.036112402
619000000 -0.91734385 0.044299457 -0.00089124637 0.001387065 0.0010793727 0.002577733 -0.9364869 0.036645953
620000000 -0.91613203 0.042970188 5.8301093e-006 0.0020907382 0.0011667819 0.0017380798 -0.93713939 0.037510093
621000000 -0.91630459 0.042918596 0.00056832633 0.0015168614 0.00027809042 0.0018006634 -0.9368214 0.038621765
622000000 -0.91549909 0.043390397 -0.00011322609 0.0016819235 0.00029845603 0.002200271 -0.93680924 0.037766553
623000000 -0.91653806 0.044403188 0.00077060098 0.00082413771 -0.00040810092 0.0012717505 -0.93667787 0.038452715
624000000 -0.91727507 0.043851241 3.8687205e-005 0.0027798915 -0.00028789247 0.0027950865 -0.93689913 0.037485469
625000000 -0.91648662 0.045987111 0.0012998262 0.0021443327 -0.00069180276 0.0011022097 -0.93673116 0.03678257
626000000 -0.91781765 0.045540299 -0.00025555454 0.0027102593 0.00054505392 0.0023182905 -0.93555683 0.038372498
627000000 -0.91614628 0.044856049 0.00032932428 0.001707048 0.00011117222 0.0022065393 -0.93683368 0.037743509
628000000 -0.9177177 0.042968936 0.00073105592 0.0021061916 0.00093183987 0.000547409 -0.93591803 0.039097324
629000000 -0.91533953 0.044733956 0.00093487138 0.0025189703 -5.0934494e-005 0.0019197295 -0.93564928 0.03722867
630000000 -0.91654742 0.043533042 0.0010195033 0.0016198901 0.0010574645 0.0012106652 -0.93691295 0.039392009
631000000 -0.91719264 0.044651452 5.8998892e-005 0.0017431173 -0.00016901182 0.0026348846 -0.93802947 0.039789181
632000000 -0.91682643 0.045670923 0.00042349412 0.00096901867 0.00020077851 0.0014381588 -0.93602127 0.036927238
633000000 -0.9173227 0.043963153 0.00053618336 0.0017511215 0.00020841585 0.00095141568 -0.93697107 0.037859879
634000000 -0.91614217 0.046357531 -0.00013328655 0.0023718148 -6.8234825e-005 0.0014714772 -0.93635851 0.037927479
635000000 -0.91793156 0.044588193 0.00016757622 0.0015282191 0.00020635141 0.001869113 -0.93556875 0.037174735
636000000 -0.9155525 0.044333573 0.0001826716 0.0028420615 0.00022069929 0.0018873797 -0.93728405 0.03825238
637000000 -0.91772813 0.043020342 -0.00087291852 0.002569535 0.00012084794 0.0015256971 -0.93488985 0.038606357
638000000 -0.91926491 0.045290075 -6.7630754e-005 0.0020138214 0.00020478369 0.0023516538 -0.93732798 0.03694769
639000000 -0.91767657 0.047096897 0.00021766224 0.0016871181 0.00044348949 0.0018133237 -0.93594986 0.038304687
640000000 -0.91635752 0.046522301 0.00040596552 0.0015558825 0.00010382828 0.0020097722 -0.93614471 0.037901431
641000000 -0.91607171 0.046037681 0.00064812554 0.00020427529 -3.8401868e-005 0.0019433782 -0.93591624 0.038245227
642000000 -0.91644198 0.045082103 0.0007358907 0.0019072917 0.0008783465 0.0011337093 -0.93779403 0.038750201
643000000 -0.9173907 0.046563175 0.00042379124 0.0013522755 0.00047949099 0.0018330108 -0.93634129 0.03794425
644000000 -0.91739124 0.045535699 0.00023423872 0.0017590011 -0.00044935045 0.0016393565 -0.93619096 0.039660454
645000000 -0.91797179 0.046780922 0.00098870613 0.0014465428 -0.00021039466 0.0016198719 -0.93598062 0.037923332
646000000 -0.91682446 0.045913734 -0.0001647326 0.00063794281 0.00045602562 0.0027609826 -0.93335229 0.039371692
647000000 -0.91736692 0.047292002 1.8726344e-006 0.0014564221 0.0002666683 0.0031199586 -0.93627214 0.0390862
648000000 -0.91716468 0.047650538 0.0002778614 0.0018564016 0.00057582685 0.0018096614 -0.93546122 0.038715202
649000000 -0.91744506 0.045406163 0.00034207045 0.0023997768 -0.00055826723 0.0020063694 -0.93603969 0.039373752
650000000 -0.91611493 0.047040977 0.0017562658 0.0010786653 0.00033220771 0.0013101188 -0.9356752 0.039424449
651000000 -0.91663539 0.0489031 0.00076784636 0.0021506646 0.00063294615 0.0025552223 -0.93695551 0.038960185
652000000 -0.91564894 0.046196498 0.00025462575 0.00086680654 0.00088713499 0.0017620083 -0.93433487 0.039674688
653000000 -0.91847628 0.046304662 -0.0004540254 0.0017218739 6.392473e-005 0.0020598192 -0.935045 0.040783037
654000000 -0.91619277 0.047623549 -0.00031427969 0.0029736885 -0.00019085273 0.0013000765 -0.93694335 0.040333793
655000000 -0.91641378 0.047886774 -0.00016126568 0.0026081521 3.0097228e-006 0.0028948884 -0.93637782 0.039926335
656000000 -0.9173221 0.047327414 0.00067835691 0.0017890364 0.00058923656 0.0012264951 -0.93685985 0.036831621
657000000 -0.91758835 0.047752798 -8.9117224e-005 0.0021769949 -0.00067142595 0.0023451562 -0.93671453 0.039873067
658000000 -0.91818404 0.046435937 0.00028351336 0.0019058338 0.00060534244 0.0024520366 -0.93736255 0.038404427
659000000 -0.91659749 0.047348764 0.00033376139 0.0010613983 0.00063559 0.0017290333 -0.93603778 0.03859511
660000000 -0.91602218 0.048599049 0.00063899637 0.001335885 -0.00023920246 0.0017880185 -0.93562829 0.03806312
661000000 -0.91573936 0.046616852 -0.00055778702 0.00054196245 0.00093219941 0.0012948031 -0.93665826 0.039648168
662000000 -0.91674101 0.0475467 0.00017336459 0.0027752812 0.00054173125 0.0010170396 -0.9367981 0.039987177
663000000 -0.91738856 0.048349664 0.00031437504 0.001858938 0.0010302452 0.0014547108 -0.9354769 0.037739012
664000000 -0.9161576 0.046281379 0.00015045256 0.0016637301 -0.0003834012 0.0013971864 -0.93528527 0.040757164
665000000 -0.91603589 0.048345033 0.00091224303 0.0015754033 -0.00026029084 0.0012702292 -0.93623829 0.039644133
666000000 -0.9171083 0.046969038 0.00034266344 0.0018224512 0.0006867894 0.0024829351 -0.93613172 0.038423363
667000000 -0.91690212 0.047749463 -9.9767974e-005 0.0018390659 0.0010881136 0.0025482748 -0.93625945 0.038536821
668000000 -0.91704834 0.048107862 -4.1619656e-005 0.0018245244 0.00063137914 0.0014971165 -0.93542898 0.039340172
669000000 -0.91729254 0.048332743 0.00038491655 0.0018964655 0.00028258702 0.0014023696 -0.93524534 0.038211629
670000000 -0.91694468 0.047934957 0.00096306752 0.0017885757 -0.00031351298 0.0012523375 -0.93631256 0.040114176
671000000 -0.91569936 0.049210437 0.00081395044 0.0020144556 0.00012541095 0.0018217467 -0.93702894 0.042152625
672000000 -0.91667521 0.047858 0.0002586575 0.0014850146 5.1503044e-005 0.001719231 -0.93678498 0.039710149
673000000 -0.91694933 0.046928816 -0.00026432911 0.0022124904 0.00034349191 0.00079746533 -0.93578368 0.039398056
674000000 -0.91616464 0.046905171 6.329875e-005 0.0019620094 0.00042863548 0.001846464 -0.93454558 0.039434921
675000000 -0.91600645 0.047622163 0.00046402705 0.0021426214 -0.00059196528 0.0015821605 -0.9359346 0.039402831
