!Keysight Technologies,M9374A,MY55442783,A.12.55.05
!Date: Wednesday, May 19, 2021 15:50:28
!Correction: S11(Full 2 Port(1,2)) 
!S21(Full 2 Port(1,2)) 
!S12(Full 2 Port(1,2)) 
!S22(Full 2 Port(1,2)) 
!S2P File: Measurements: S11, S21, S12, S22:
# Hz S  RI   R 50
500000000 -0.91962171 0.035101365 0.00021369127 0.00092633499 -0.0010341128 0.0014901265 -0.93645501 0.029593309
501000000 -0.92152143 0.037439477 -0.00020084972 0.0010580055 0.00043044603 0.0014207645 -0.93755418 0.029355913
502000000 -0.92232209 0.036420297 -0.0011121852 0.0010779924 0.00062165689 0.0007016731 -0.93871117 0.030707045
503000000 -0.92016786 0.035755973 0.00024689094 0.0015470041 0.00046131742 0.00077529671 -0.93632823 0.029922035
504000000 -0.92095143 0.036601223 -0.0011787836 0.0020792505 0.00083946873 0.0015671859 -0.93835825 0.032094944
505000000 -0.92025834 0.037762851 0.00099062349 0.0013195287 0.0004046073 0.0015942655 -0.93931133 0.029751439
506000000 -0.9210096 0.037327755 -0.00047695555 0.00086623954 -0.0005404526 0.0017210988 -0.93630451 0.029003693
507000000 -0.9213326 0.036575194 8.2873179e-005 0.0011339531 0.00033554959 0.0017186558 -0.93657815 0.03080461
508000000 -0.9196738 0.036711425 0.00044887842 0.0015115618 0.00013030643 0.0015708627 -0.93687183 0.031501241
509000000 -0.92132324 0.03628923 0.00030456332 0.0012005644 0.0008612083 0.0015076881 -0.93624055 0.031116245
510000000 -0.91996264 0.036797702 0.00014715856 0.0013442507 0.0023421934 0.0018224115 -0.93545502 0.030441985
511000000 -0.92134064 0.035640262 0.0008814215 0.00086353673 0.0009793737 0.0021831505 -0.93742836 0.03132946
512000000 -0.91993636 0.037793245 -0.00054973282 0.00094759295 0.00058309577 0.0010885136 -0.93661022 0.031637348
513000000 -0.92168862 0.036487971 0.00036967179 0.0016371985 0.0015892556 0.0011027036 -0.93666553 0.032430504
514000000 -0.92013121 0.037697133 0.00032764452 0.0020505709 0.00027323587 0.0012135563 -0.93640196 0.031296939
515000000 -0.92253047 0.035757024 -0.00025300239 0.0011330049 0.001088919 0.0018033305 -0.93890697 0.032087829
516000000 -0.92080468 0.036720645 0.0002252758 0.0015900834 0.00086719735 0.002249147 -0.93785107 0.032005496
517000000 -0.92077923 0.038773485 -0.00049628533 0.0012274716 6.2475418e-005 0.0019152205 -0.93657559 0.031641524
518000000 -0.92118287 0.038558077 -9.9698562e-005 0.00051824778 3.2596501e-005 0.0014238994 -0.93508321 0.031721197
519000000 -0.9203319 0.040959623 2.5677597e-005 0.0011015988 0.00066956435 0.0017222137 -0.93609339 0.032860465
520000000 -0.91856718 0.036536422 0.00024267237 0.00074182684 -0.00019821164 0.0015341577 -0.93614697 0.034261249
521000000 -0.92081577 0.039212134 0.00088586705 0.00096985471 0.00029315884 0.0016218127 -0.93651742 0.033041358
522000000 -0.92001039 0.036833916 -0.00020566689 0.0015015926 5.871238e-005 0.0024375999 -0.9369458 0.030747615
523000000 -0.92063618 0.037506465 0.00089284894 0.0014049043 -7.4550594e-006 0.0021516068 -0.93693149 0.033605937
524000000 -0.9194122 0.03760257 0.00028540831 0.0013871094 0.00058298925 0.001284715 -0.93721372 0.032436494
525000000 -0.92092913 0.037328433 -0.00031541879 0.0013342313 -3.879342e-005 0.00087480602 -0.9362548 0.033899713
526000000 -0.92171538 0.039839767 -0.00024502046 0.00084320205 0.0011899071 0.00037648884 -0.93465936 0.032275856
527000000 -0.92120755 0.038148869 0.00058670196 0.0015136118 0.0011231517 0.0010567721 -0.93689394 0.032500856
528000000 -0.91920489 0.038576514 0.00040435264 0.0016455684 -0.00040959561 0.0012372273 -0.93761295 0.03264698
529000000 -0.92099404 0.037834171 -9.1673923e-005 0.0013415352 0.0001313791 0.0012128929 -0.93647808 0.033424813
530000000 -0.92007357 0.037480846 -0.00064914685 0.0011161967 -5.516264e-005 0.0012877254 -0.93714607 0.034909997
531000000 -0.92045802 0.037892308 -0.00060267549 0.0024475905 0.00060862605 0.001171433 -0.93716812 0.033540037
532000000 -0.91990983 0.037599284 0.00045093181 0.0013156025 0.00093602797 0.0016456455 -0.93670136 0.033230305
533000000 -0.92207056 0.040401105 0.00045656812 0.0019087711 -6.8686859e-005 0.0021860979 -0.93658262 0.033884034
534000000 -0.92233557 0.037229341 0.0010917655 0.0023853383 0.00018527242 0.0017359953 -0.93873662 0.033339016
535000000 -0.91960299 0.04037961 0.00034718675 0.0013196775 -0.00058852736 0.0019637835 -0.93651062 0.035220832
536000000 -0.91983873 0.038564492 0.00098140142 0.0014668272 0.00019352599 0.0019409365 -0.93527877 0.033287622
537000000 -0.92113572 0.039053749 -0.00014347433 0.00026561628 -0.00038439228 0.0010635284 -0.9371832 0.035011917
538000000 -0.92087495 0.038385294 -0.00019376306 0.002402781 5.4073458e-005 0.0011531779 -0.93569624 0.03269418
539000000 -0.92114234 0.038630269 0.00093287235 0.0013638906 0.0003022067 0.0028192271 -0.93762678 0.035687536
540000000 -0.91969568 0.038786687 -8.2674174e-005 0.0017182028 0.00014094041 0.0011166772 -0.93612987 0.033579543
541000000 -0.92002392 0.039991863 -0.00012266952 0.0011672594 -0.0009576467 0.0017364766 -0.93642539 0.035871595
542000000 -0.92019933 0.038733788 -0.00078254397 0.0015686741 5.2047781e-005 0.0014758592 -0.93784672 0.034263752
543000000 -0.92015302 0.039223578 0.0017591399 0.0023339749 0.00067105406 0.0013684504 -0.93706834 0.034057148
544000000 -0.92074454 0.039893419 0.00057355629 0.0009155898 0.0011277238 0.0012930793 -0.93734312 0.033863548
545000000 -0.92265648 0.038802341 5.4723871e-005 0.00098674104 0.00013972374 0.00068706041 -0.93599349 0.034305777
546000000 -0.92108083 0.041636512 6.5875494e-005 0.002322857 0.00028190479 0.0010363673 -0.93793845 0.034513768
547000000 -0.92156821 0.038556717 3.8316011e-007 0.0018595731 0.00013465722 0.0012464158 -0.93724579 0.03392183
548000000 -0.92079371 0.038764339 -0.00064061617 0.0013333032 -7.2442162e-005 0.0018542679 -0.93601429 0.035995651
549000000 -0.92077613 0.037067734 0.00074566668 0.0022139288 0.00021086258 0.0017369237 -0.93588859 0.035615437
550000000 -0.92081535 0.039409984 8.5968182e-005 0.0024489153 0.00088377786 0.0014648131 -0.93721825 0.034932636
551000000 -0.91975617 0.040596459 -0.00037567964 0.0016477782 0.00073343818 0.0026645181 -0.93763828 0.032908272
552000000 -0.92053759 0.037025262 0.00054325967 0.00090728444 0.00032236575 0.0016738909 -0.93674189 0.035167255
553000000 -0.92032903 0.040212229 0.00046967165 0.00094567292 -0.00026512574 0.0018436838 -0.93615049 0.03392164
554000000 -0.92015183 0.038821712 0.00083645951 0.0018580938 0.00096020254 0.00081680057 -0.93790603 0.033887066
555000000 -0.9198879 0.039181609 0.00011180079 0.0014078101 -0.00055402477 0.0016425112 -0.93726248 0.035336476
556000000 -0.91956055 0.037948977 0.00011357734 0.0012918186 0.0010283311 0.0010305714 -0.93723363 0.034116957
557000000 -0.92191035 0.040018298 -0.0012191543 0.0014984274 -0.00033232869 0.002195138 -0.93569475 0.034622237
558000000 -0.92004621 0.039981052 0.00025834952 0.00087144569 0.0011501843 0.0015136356 -0.93761843 0.034056757
559000000 -0.91962546 0.038818941 8.8687244e-005 0.00066745054 0.00039435257 0.00066357106 -0.93688977 0.034170214
560000000 -0.92086369 0.039047107 -2.6840312e-006 0.001698191 0.00044965357 0.0020863877 -0.93569732 0.033606198
561000000 -0.92014807 0.040647715 0.00017051278 0.0025277196 0.0010483928 0.0013921778 -0.93696797 0.034192562
562000000 -0.91969055 0.041519921 0.0010653608 0.00074002083 0.00029497623 0.001672008 -0.93858588 0.035802394
563000000 -0.92122287 0.03887115 0.00090259896 0.00099544192 0.0007230835 0.0014153785 -0.93548292 0.034500308
564000000 -0.92084605 0.039265007 8.649833e-005 0.00093155232 0.00087999704 0.0021069434 -0.93576354 0.034969844
565000000 -0.91968858 0.040081657 0.0012979591 0.0015823864 0.00041101518 0.0010440563 -0.93669689 0.034802619
566000000 -0.91999841 0.040419672 -0.00087284314 0.0012153058 0.00047750887 0.0011618959 -0.93777955 0.031978056
567000000 -0.92115116 0.039878517 0.00023662062 0.0013872242 0.001082535 0.0015091725 -0.93714201 0.034532342
568000000 -0.91977483 0.039338116 -0.0001124517 0.0016814603 0.00027744801 0.00097211963 -0.93778926 0.034698095
569000000 -0.92013729 0.040197458 0.0002027283 0.0017637464 0.00047885955 0.0022106536 -0.93757308 0.033403233
570000000 -0.92052633 0.039049029 0.00069232105 0.0024622059 8.47048e-005 0.0018956425 -0.93597549 0.035811704
571000000 -0.91974473 0.039727475 -0.00017971361 0.0017563778 -0.00043103818 0.0011796796 -0.9391163 0.035701953
572000000 -0.91937411 0.040244766 0.00056640292 0.0011218631 0.00080231199 0.0018090254 -0.93749803 0.03473739
573000000 -0.9216249 0.039151818 -0.00044636853 0.0010338064 -0.00014372151 0.0013950127 -0.93632817 0.035539184
574000000 -0.92031533 0.039927367 -0.00019278789 0.0020180086 0.0010407928 0.0015891086 -0.93694264 0.034936123
575000000 -0.92234343 0.039777223 0.00028193538 0.0016481084 -0.00029982749 0.0022725444 -0.93742979 0.035721611
576000000 -0.91882098 0.039460663 -0.00025301718 0.0015750594 0.00034704054 0.0014156034 -0.93718863 0.036331337
577000000 -0.91960537 0.038865235 0.00051675795 0.0012438599 0.00038648158 0.0018181143 -0.93601418 0.035027567
578000000 -0.92010295 0.039849006 0.00095718936 0.0020529267 -0.00040941712 0.0018925219 -0.93378913 0.035281587
579000000 -0.91865164 0.040179104 0.00038912552 0.0010755273 0.0013848393 0.0017335507 -0.93726033 0.034085643
580000000 -0.91961116 0.039607853 -0.00012180941 0.0013966078 -6.0004793e-005 0.0014365448 -0.93616831 0.03531795
581000000 -0.91952419 0.041033644 0.0010284111 0.0012178401 0.00020630431 0.0015589796 -0.9368636 0.036061369
582000000 -0.92003691 0.039950646 -0.00015720703 0.0025539093 0.00029086988 0.0026038161 -0.9357304 0.035913665
583000000 -0.91896623 0.040186148 0.00029819188 0.0013282476 0.00024779284 0.00151834 -0.93738645 0.03635307
584000000 -0.91976637 0.042090274 0.0011245923 0.001616472 0.00053301628 0.0014969247 -0.93749595 0.036165126
585000000 -0.92027551 0.03911674 2.1410273e-005 0.0016654055 -0.0011071869 0.0011170469 -0.93614888 0.034993861
586000000 -0.92115355 0.038483631 0.0012573564 0.0027645489 -0.00029257551 0.0013777275 -0.93461704 0.034360565
587000000 -0.92070621 0.039214674 0.00024328739 0.0014246135 -0.001020745 0.0017792211 -0.93459886 0.036746971
588000000 -0.91944289 0.039284684 0.0016152326 0.0016249765 -0.00015967734 0.0015580384 -0.93710691 0.036035743
589000000 -0.92004466 0.039944213 0.00072354107 0.0021580001 0.0019177236 0.00086980546 -0.93682069 0.036597729
590000000 -0.92011482 0.04072598 -0.00047367209 0.0016987895 0.00070253736 0.0016419522 -0.93557137 0.03539465
591000000 -0.9189142 0.041259017 0.00061067595 0.0015159565 -0.00050521019 0.0012734488 -0.93624133 0.03726995
592000000 -0.92097253 0.039704174 -7.6258882e-005 0.0033895546 0.00088926259 0.0010805171 -0.93660206 0.034455623
593000000 -0.91956776 0.040585618 3.1969492e-005 0.0014028829 -0.00027360185 0.0012757127 -0.93639839 0.036108892
594000000 -0.9213745 0.041040525 -0.00060937268 0.0023610359 -0.00073014334 0.001884554 -0.93631595 0.035574187
595000000 -0.9188292 0.040128153 -0.00043351203 0.0018127238 0.0011127569 0.0011637427 -0.9369331 0.03497697
596000000 -0.92220145 0.040862478 -0.00016411144 0.0015988492 0.00046142761 0.0015338635 -0.93804777 0.036294732
597000000 -0.9194454 0.040915146 0.00012082409 0.0013481386 -0.00072274788 0.0023375056 -0.93669736 0.035608079
598000000 -0.92127585 0.0407243 -0.00013819389 0.0017254736 -2.9166957e-005 0.001300459 -0.93760425 0.035137158
599000000 -0.91821104 0.041886184 4.5168079e-005 0.0019015725 -2.5594085e-007 0.0021550437 -0.93714517 0.035847254
600000000 -0.92146504 0.041347682 3.391572e-005 0.0013750609 0.00057406106 0.0014728867 -0.93609148 0.036927901
601000000 -0.92021751 0.041594431 -7.1159055e-005 0.0013789125 0.00047312755 0.0014416233 -0.93735224 0.03636656
602000000 -0.92100847 0.040316187 -0.00050762453 0.0015075451 0.00046536294 0.0023675249 -0.93791044 0.036371268
603000000 -0.92226636 0.042049203 0.00042222219 0.0017605666 0.0003846678 -0.00023821559 -0.93526942 0.036508203
604000000 -0.92088062 0.041732732 0.00081787648 0.001277714 -5.6251578e-005 0.0025398699 -0.93777597 0.035716172
605000000 -0.92012954 0.040889803 -0.00047659528 0.0015573832 -0.00026163552 0.0016675389 -0.93606257 0.036933631
606000000 -0.92172265 0.042204332 0.0004061895 0.0017656185 1.8992034e-005 0.0016171405 -0.93523639 0.036464829
607000000 -0.92082137 0.041148845 0.0007896375 0.0021777179 0.0015350871 0.0020967938 -0.93705338 0.036288243
608000000 -0.92119241 0.041961964 -0.00039323341 0.001845486 -0.00023573534 0.0012992782 -0.93733758 0.038020659
609000000 -0.91906041 0.042978872 0.00044766912 0.0010365475 -0.00037399487 0.0016279811 -0.93655831 0.036459383
610000000 -0.92147881 0.043816812 0.00074193586 0.0017640995 -0.00038616266 0.00088311284 -0.93654519 0.038331784
611000000 -0.91988087 0.042939767 -0.00093451672 0.00060143892 0.00068109814 0.0010303459 -0.93666208 0.03490749
612000000 -0.92137831 0.044071298 -0.0002907367 0.0016517064 0.0011076225 0.001621617 -0.93627727 0.036607206
613000000 -0.91957134 0.042806882 -0.00060345751 0.0023207525 0.00020681339 0.0022294216 -0.93500006 0.037269205
614000000 -0.91974711 0.043189734 -0.0004482606 0.0020708209 -0.00061343174 0.0013172863 -0.93521875 0.036933757
615000000 -0.92047489 0.043083526 0.00073996896 0.0012025143 0.0004747207 0.0016316221 -0.93656003 0.036457807
616000000 -0.92023766 0.043588165 -0.00016704555 0.0016054785 -0.0002318917 0.001401476 -0.9362368 0.037862234
617000000 -0.91996968 0.045204241 -0.00082289847 0.0011465063 0.0011124236 0.0019635174 -0.9369235 0.037472568
618000000 -0.92068917 0.044499166 0.0018002694 0.0015760029 -7.3045143e-005 0.0010875546 -0.93717927 0.036601361
619000000 -0.91939664 0.043875106 0.00075928529 0.0010497319 -0.00074902602 0.0017474688 -0.93667805 0.038493153
620000000 -0.92003435 0.043738078 -0.00050675584 0.0020405364 -2.3185577e-005 0.00092801347 -0.93750358 0.03837961
621000000 -0.92002493 0.045181915 0.00085545256 0.001766875 -6.943506e-005 0.00066486129 -0.93599123 0.036899351
622000000 -0.91995662 0.045704745 4.7789312e-005 0.001051173 -0.00027408832 0.0014024685 -0.93555987 0.037349839
623000000 -0.91942227 0.045238853 -0.00012969645 0.0013859031 5.8246813e-005 0.0020131429 -0.93634862 0.0382943
624000000 -0.91993761 0.044901665 1.9424926e-005 0.0020120696 0.00028306208 0.0019282664 -0.93499106 0.038781118
625000000 -0.91959411 0.045079805 0.001516502 0.0019116559 -0.00062572263 0.0016202929 -0.93602961 0.038025163
626000000 -0.92215729 0.044350691 0.00045526773 0.0014651977 -4.786862e-005 0.00077011331 -0.9353742 0.038656786
627000000 -0.92183608 0.044144988 -0.00044284784 0.0007174178 0.00034969836 0.0017522328 -0.93712044 0.0363
628000000 -0.92016631 0.044685677 0.00010572524 0.0020599386 -0.00088522286 0.001856392 -0.93622017 0.039842885
629000000 -0.91966403 0.045615152 0.0011260248 0.0014133173 0.00040478993 0.0015822849 -0.93484217 0.038473461
630000000 -0.91957664 0.04527805 0.00043584907 0.0013806428 -0.00091753085 0.0024387864 -0.93575764 0.037027214
631000000 -0.92024654 0.044083923 0.00016310198 0.0019967803 -0.00087481865 0.0020320301 -0.93626958 0.039484434
632000000 -0.92136103 0.04636386 0.00019590891 0.0011377019 -0.00027748189 0.0011758795 -0.93697011 0.038013499
633000000 -0.92126656 0.044655632 3.9446339e-005 0.0020438768 0.0010984759 0.0020306152 -0.93504906 0.03893777
634000000 -0.91983598 0.046389502 0.00084615283 0.0018972099 -0.00052103645 0.0011083264 -0.93527478 0.037552375
635000000 -0.92057955 0.046036858 -0.0012854456 0.0019973426 -0.0001582391 0.0015120476 -0.93732399 0.038859546
636000000 -0.92009866 0.045758713 -1.3819522e-005 0.0018756612 -0.00046565357 0.0019336551 -0.9379456 0.038924936
637000000 -0.91764653 0.045248568 2.1155194e-005 0.0018557968 0.00011299284 0.0020792189 -0.9346199 0.038122717
638000000 -0.91969031 0.047893267 0.00087577943 0.0020484733 -0.00093297759 0.0018819537 -0.93691134 0.039824806
639000000 -0.92030889 0.046495929 0.00067298411 0.0021325231 0.00040590216 0.0010736425 -0.93592733 0.039447017
640000000 -0.91796523 0.047047887 0.00024284609 0.0013391156 7.3184519e-006 0.0020570671 -0.93649548 0.037354924
641000000 -0.92056602 0.046139263 0.00021700544 0.00077015196 -0.00025589456 0.0022942673 -0.93535507 0.037934087
642000000 -0.91892904 0.04690069 0.00057477312 0.0017931509 -6.7628906e-005 0.0026746083 -0.93715948 0.039418396
643000000 -0.91819423 0.045457043 0.00041523212 0.00095898879 0.00040639326 0.0021090426 -0.93657732 0.038334474
644000000 -0.91898388 0.04695759 -0.0003366592 0.001858624 -0.00018714894 0.00083453843 -0.93819129 0.040233541
645000000 -0.9193061 0.048199296 0.00036624432 0.0012393472 -0.00072873582 0.0021129891 -0.93614846 0.039300814
646000000 -0.91935575 0.046901502 0.00049437617 0.0012248324 -8.4568215e-005 0.00097019447 -0.93612033 0.038697373
647000000 -0.91971755 0.048153333 1.326892e-005 0.0012769982 0.00083714275 0.0019238561 -0.9346779 0.037702963
648000000 -0.91886318 0.046380583 -0.00027748864 0.0022436201 0.0012265529 0.0015081847 -0.93610328 0.038334213
649000000 -0.91905206 0.046869248 0.00060909579 0.0018831961 0.0012125251 0.0010516654 -0.93705219 0.038455639
650000000 -0.91849965 0.046426937 0.00075141893 0.0018439686 0.00018118133 0.0020799646 -0.93410319 0.040261842
651000000 -0.91936672 0.046884038 0.00081560051 0.0033763377 0.00060948607 0.00098864373 -0.93403953 0.040211208
652000000 -0.9188481 0.046380538 0.00092507969 0.0012503229 -8.3567058e-005 0.0025108634 -0.93389452 0.037665598
653000000 -0.91909951 0.04603339 -0.00026378044 0.0011875868 -0.00063592702 0.0022337355 -0.93656045 0.037174549
654000000 -0.91872728 0.047378961 -0.00034605645 0.0011271712 -0.00014750691 0.0020295097 -0.93679184 0.039649621
655000000 -0.91853476 0.048240006 -0.00048888422 0.0015946368 0.00046541213 0.0023357656 -0.93576378 0.040151987
656000000 -0.92008859 0.047760718 0.0002944461 0.0020883167 0.00010473857 0.0022377744 -0.93466151 0.041062575
657000000 -0.91906786 0.047586415 -0.00023093124 0.0011473794 0.00038721252 0.0019180152 -0.93555313 0.039114978
658000000 -0.92033714 0.04740404 0.00019369338 0.0018289578 0.0009610547 0.001928019 -0.9350456 0.040409707
659000000 -0.91875201 0.047136109 0.00027729355 0.0010207813 0.00065473752 0.0026610401 -0.93549275 0.038971756
660000000 -0.92073315 0.047608372 8.9818524e-005 0.0022827287 0.00026933171 0.0022034605 -0.93499577 0.039588612
661000000 -0.91895634 0.048913874 0.0015868809 0.0025804061 0.00014789017 0.0014055229 -0.93530583 0.039948318
662000000 -0.9190833 0.0462326 6.0443444e-006 0.0017208002 0.00066135661 0.00072202692 -0.93583024 0.041226566
663000000 -0.9188261 0.048146013 0.00040957905 0.00092575251 0.00021470609 0.0015805535 -0.9350245 0.03974377
664000000 -0.91945678 0.048266739 0.00077175291 0.0017841946 0.00056309084 0.001651917 -0.93662381 0.041571971
665000000 -0.9189961 0.046610337 -0.0008008068 0.0022130192 0.0012007278 0.0021149027 -0.93607509 0.039096776
666000000 -0.91891301 0.049565718 -0.00059300708 0.00099074061 0.00043143024 0.001393234 -0.93665427 0.039630789
667000000 -0.91973829 0.048427675 0.0010487047 0.0020632306 0.00045826082 0.0020424693 -0.93573344 0.040485457
668000000 -0.9188962 0.048480358 -0.00037327784 0.0014689311 -0.00047046653 0.0016589158 -0.93676341 0.040760726
669000000 -0.9182868 0.047320805 7.2336159e-005 0.00091295817 0.00022618681 0.0017160201 -0.93561387 0.040372532
670000000 -0.91776323 0.049546763 0.0011171034 0.0013361728 0.0006358354 0.0019269658 -0.93599391 0.039884973
671000000 -0.91869891 0.048438124 -0.00087867648 0.0018143909 0.0012404079 0.0020904799 -0.93468845 0.040515959
672000000 -0.9193278 0.047464151 0.00058099919 0.0011412604 0.0011306619 0.0012080284 -0.93561834 0.040157635
673000000 -0.9185937 0.049933232 3.2610667e-005 0.0021237219 0.00036144524 0.0020095226 -0.9373067 0.039746739
674000000 -0.91713411 0.048953541 -0.00016791245 0.002628335 0.00037915076 0.0022199813 -0.93636584 0.03908379
