!Keysight Technologies,M9374A,MY55442783,A.12.55.05
!Date: Wednesday, May 19, 2021 15:39:37
!Correction: S11(Full 2 Port(1,2)) 
!S21(Full 2 Port(1,2)) 
!S12(Full 2 Port(1,2)) 
!S22(Full 2 Port(1,2)) 
!S2P File: Measurements: S11, S21, S12, S22:
# Hz S  RI   R 50
500000000 -0.93255353 0.036935616 -0.00049668108 0.00080684474 7.4087104e-005 0.0012647989 -0.93341398 0.028921219
501000000 -0.93049526 0.036206722 0.00092535821 0.0013124951 0.00069943059 0.0025782664 -0.93216509 0.031613939
502000000 -0.93089455 0.038324323 0.00034774365 0.00083349377 0.00049412099 0.00191538 -0.93395072 0.030158443
503000000 -0.93089384 0.035518385 0.00045529354 0.0010954634 0.00071123254 0.0020580136 -0.93491286 0.031792153
504000000 -0.92889547 0.037908338 0.00028602788 0.00055838237 -0.00046520654 0.0015453035 -0.93587852 0.029783593
505000000 -0.92908871 0.037865106 -0.00016403596 0.0014699717 0.00073884637 0.00085603265 -0.93518054 0.030871021
506000000 -0.92874485 0.037663307 -0.00039874439 0.00080170954 0.00059774559 0.0027235909 -0.9338783 0.031938825
507000000 -0.93121475 0.037513681 0.0010060461 0.0018703187 0.00044514073 0.00064702256 -0.93199003 0.033027418
508000000 -0.93014258 0.038157545 -0.00029248034 0.0011071562 2.4314475e-005 0.00150389 -0.93410963 0.032219149
509000000 -0.93259281 0.039208721 0.00041429661 0.0012731708 0.00034531273 0.0013354414 -0.93409699 0.031883765
510000000 -0.93128163 0.038797699 0.00025998091 0.0011621193 -0.00046948099 0.0018814328 -0.93340051 0.032499421
511000000 -0.93110728 0.039249189 -0.00020616458 0.0024827116 0.00052913924 0.0003109283 -0.93491405 0.031799804
512000000 -0.92966026 0.036850512 -2.7331453e-005 0.0014493157 0.0011052737 0.00051688444 -0.9327305 0.031611398
513000000 -0.92954886 0.037591159 0.0010504106 0.0025961471 0.00055256224 0.0009448292 -0.9345724 0.031216539
514000000 -0.93145585 0.037661124 2.6145832e-005 0.0019408383 0.0004686079 0.00074582751 -0.93421113 0.031344663
515000000 -0.92961329 0.039654452 0.00029873187 0.001048539 0.0011508111 0.0010971058 -0.93506324 0.03298641
516000000 -0.92992777 0.039259683 0.0007496429 0.0010678173 0.00053263461 0.00092888426 -0.93500042 0.032419316
517000000 -0.92930496 0.036948238 -0.00068340782 0.00058658497 0.00064712128 0.0013882375 -0.93292212 0.032129407
518000000 -0.93049461 0.039181806 0.00016607436 0.0011313332 -0.00026897591 0.0021416976 -0.93458056 0.032513365
519000000 -0.9314456 0.038698308 0.00020425218 0.0011093433 0.00057907426 0.0010138364 -0.93408912 0.032444879
520000000 -0.93002135 0.036927897 -1.8036049e-005 0.0029543149 -0.0003603966 0.0020932683 -0.93434811 0.032605402
521000000 -0.92955977 0.040104195 9.6861782e-005 0.00094838534 0.00037694609 0.00078253692 -0.93367118 0.034907434
522000000 -0.93057948 0.039737999 0.00028605934 0.00067105063 -4.2435273e-005 0.002833548 -0.93368959 0.03262369
523000000 -0.92908043 0.039766997 -0.00051677169 0.00097704411 0.00084329461 0.0013030194 -0.93267137 0.03261232
524000000 -0.92982233 0.04006362 -0.0010229625 0.00041803345 0.001067436 0.0017773096 -0.93390501 0.033284411
525000000 -0.92783719 0.039618868 -5.6197627e-005 0.0015279626 0.00017881626 0.0015110032 -0.93356192 0.033761606
526000000 -0.9299944 0.040228143 0.00073667889 0.0014385256 0.00012676571 0.0014474009 -0.93512994 0.033472531
527000000 -0.93038964 0.040301628 0.00089501037 0.001093385 -0.00042727881 0.0018785476 -0.93494171 0.033596277
528000000 -0.92964661 0.039880488 0.00057330151 0.0026475312 -0.00018057304 0.0009602473 -0.93308514 0.03314653
529000000 -0.93059373 0.040756315 0.0010414453 0.0014731052 -0.00042728966 0.00025122627 -0.93331468 0.03406316
530000000 -0.93219602 0.039588172 -0.0012930383 0.0016098459 4.0121493e-005 0.0031135373 -0.93394369 0.034959104
531000000 -0.92950654 0.039869253 3.0931587e-005 0.0012466027 0.00019982696 0.0026545136 -0.93422353 0.035905156
532000000 -0.93043029 0.040012363 0.00031451837 0.00077200634 -0.0010453335 0.002598064 -0.93360907 0.034167167
533000000 -0.93100452 0.039785292 -0.00049246068 0.0015416768 -0.00075554906 0.0012156583 -0.93274426 0.034030646
534000000 -0.93030697 0.039054643 0.00037685476 0.00061282387 -0.00045417581 0.0018217524 -0.93342865 0.033905387
535000000 -0.93006015 0.039434783 -0.00040895434 0.002932694 0.0011364999 0.0019198752 -0.9321627 0.034363434
536000000 -0.93007761 0.041313674 0.00054680882 0.0020367207 6.141769e-005 0.0012508035 -0.93438601 0.034127649
537000000 -0.92951846 0.03960827 4.6809448e-005 0.0017391468 0.0007791043 0.00044140915 -0.93420792 0.034957465
538000000 -0.92980677 0.039884649 0.0015715074 0.0012144448 0.00053572707 0.0015245366 -0.93468124 0.034299988
539000000 -0.93081951 0.041507132 0.00026745108 0.0018296116 0.0012053801 0.0014375837 -0.93289268 0.032677531
540000000 -0.9292413 0.04096799 0.00042246742 0.00067030807 -0.00075344986 0.0016713399 -0.93202817 0.035101429
541000000 -0.92979234 0.041845921 -0.00012289338 0.00032870538 0.00029063402 0.00045062581 -0.93379384 0.034290064
542000000 -0.92998272 0.040924165 -0.00092515274 0.0017345542 0.00030437708 0.00024983104 -0.93497247 0.035293736
543000000 -0.9313097 0.038341872 -0.00040405086 0.0016848913 0.00034240005 0.0012914512 -0.93344927 0.036070347
544000000 -0.92889792 0.041424397 -0.0002010466 0.0017912057 -0.00042540408 0.0019336642 -0.93463564 0.035216834
545000000 -0.93119127 0.039753065 0.00070769829 0.00079214049 -0.00059076911 0.00055889552 -0.93309915 0.036299467
546000000 -0.92980886 0.038991373 0.00061283296 0.00085074251 0.00068094098 0.0014087759 -0.93382037 0.033813927
547000000 -0.93175936 0.041117478 -0.00083957438 0.0011612732 0.00036424678 0.00046575791 -0.93265641 0.034527674
548000000 -0.9294709 0.041603163 0.0008190457 0.0016820506 -0.00024235374 0.0015500387 -0.9337914 0.035315376
549000000 -0.9308722 0.040746674 -6.6334037e-006 0.0023338965 -0.00010062994 0.0018776287 -0.93201625 0.03588761
550000000 -0.92873418 0.040653717 4.0123818e-005 0.002574912 -0.00033793302 0.0015887086 -0.93447787 0.036227155
551000000 -0.93067575 0.039778851 0.00026550714 0.0019842756 0.00028688298 0.0015552362 -0.93293852 0.033865921
552000000 -0.92784756 0.040350918 -0.00095731608 0.0013294739 0.00059971702 0.00058552128 -0.9342978 0.03522056
553000000 -0.93032706 0.041195843 -0.00043149258 0.0023035333 0.00026116639 0.00088114152 -0.9333725 0.034578204
554000000 -0.92944992 0.040569935 -0.00040827796 0.0019556887 -0.00044746531 0.0012843381 -0.93289936 0.032700874
555000000 -0.9294669 0.040082976 -0.0003619573 0.0025285506 3.4286735e-005 0.0011532687 -0.93509024 0.034945566
556000000 -0.92759913 0.041122433 -0.00016429766 0.0010306649 0.00016410968 0.0024342833 -0.93270302 0.035675686
557000000 -0.9298659 0.040102962 0.00051903568 0.0018179291 -0.00013441261 0.0014783951 -0.93352056 0.033645034
558000000 -0.93094683 0.041312143 0.00035004938 0.00091847434 0.00055593636 0.0010856562 -0.93437022 0.034219213
559000000 -0.92992842 0.039661601 -9.5896019e-007 0.0026541459 -0.00018588883 0.0011209418 -0.93305743 0.035520334
560000000 -0.92923021 0.041983973 0.00094979425 0.0010630229 0.00016502407 0.0017481905 -0.93478525 0.035165921
561000000 -0.92978638 0.03963438 -0.00029789837 0.0017755812 -0.00051773805 0.00056086888 -0.93431169 0.035000838
562000000 -0.9316017 0.041048031 0.00018968518 0.0018996719 -0.00093211408 0.00081492157 -0.93431354 0.035280619
563000000 -0.92961878 0.041445296 0.00016457673 0.002094896 -0.00029353294 0.0017642168 -0.9348703 0.035521332
564000000 -0.92916352 0.039570626 2.2840604e-006 0.0016985682 0.0002353593 0.0011967736 -0.93451339 0.037558362
565000000 -0.92833596 0.038818758 0.00031990476 0.00097271946 -0.00016995597 0.0012602278 -0.93395591 0.035056792
566000000 -0.92900139 0.04003644 0.00010777362 0.0017704802 0.00018444868 0.00078443834 -0.93444121 0.035619695
567000000 -0.92846757 0.040759332 -0.00090339262 0.0010360994 0.00021014796 0.0020481977 -0.93406677 0.035277251
568000000 -0.92811674 0.039885968 -0.00047427171 0.0020339123 0.00040053012 0.0016449975 -0.93412191 0.035173014
569000000 -0.92998767 0.041252106 -0.00018383413 0.0011846105 0.00023174273 0.0022393668 -0.93386233 0.035346162
570000000 -0.92967886 0.041923057 0.00049155968 0.0010678057 0.00022957535 0.0017096618 -0.93407822 0.037029926
571000000 -0.93056482 0.040486749 -7.0242291e-005 0.0015827547 0.00036186728 0.0023577567 -0.93323314 0.037404012
572000000 -0.92916501 0.040154126 -0.00036530365 0.0025415521 0.0012404156 0.0013209188 -0.93312693 0.035692979
573000000 -0.93119317 0.0417182 0.00041962243 0.0015407749 0.00058824464 0.0013166611 -0.93407243 0.036334909
574000000 -0.92837137 0.041069932 0.0014417736 0.0018074015 -0.00078691973 0.0013793637 -0.93332124 0.035207968
575000000 -0.92857236 0.040322646 -0.00052792195 0.0016684986 0.0016339361 0.0031592937 -0.9324106 0.036095295
576000000 -0.92721647 0.041003354 0.0011983123 0.001575716 0.00028932717 0.00082419196 -0.93420684 0.036878154
577000000 -0.92866898 0.04116438 0.00095678243 0.0014310061 0.00042566564 0.0015951841 -0.93332213 0.037373126
578000000 -0.92993265 0.040643238 0.00071851123 0.00060116139 -3.4341323e-005 0.00095932739 -0.93288314 0.036606513
579000000 -0.92862624 0.042144164 -0.00060381973 0.0019764565 3.3375913e-005 0.00069610507 -0.9341799 0.036727551
580000000 -0.93024027 0.041458391 8.8687011e-006 0.00093892298 -0.00039676286 0.0027003097 -0.93416369 0.03436698
581000000 -0.9280408 0.041497905 -0.00050555175 0.0011591837 0.00036283565 0.0022434772 -0.93413353 0.037118632
582000000 -0.92967582 0.040164024 5.4103009e-005 0.0013931432 -0.00013689036 0.0021571817 -0.93428272 0.036782466
583000000 -0.93012398 0.042323191 -0.0011145176 0.0017934177 -0.00078012142 0.0016985985 -0.93394834 0.036279868
584000000 -0.92817158 0.04140323 0.00048910361 0.0017733045 -8.5080981e-005 0.0020496724 -0.93298423 0.035260111
585000000 -0.9297964 0.039964322 -0.0004744475 0.0010294082 0.00063942355 0.0028689324 -0.93374366 0.036948767
586000000 -0.92909425 0.043495223 0.00078305008 0.002531661 -0.00065317802 0.0014776086 -0.93348563 0.03628882
587000000 -0.92741805 0.042291172 -0.00021080267 0.0016606442 0.00086068315 0.0021766359 -0.93387848 0.037494287
588000000 -0.92952788 0.041527919 0.0001902868 0.001258648 0.00023983193 0.00083600584 -0.93320829 0.035647783
589000000 -0.92977089 0.041491635 0.00026153069 0.0013046272 0.00056594447 0.0012342923 -0.93403178 0.03740143
590000000 -0.93019754 0.042237461 -0.00025783016 0.0015415675 -3.7468042e-005 0.0021987739 -0.93220615 0.035864022
591000000 -0.92837608 0.042098925 -0.00029497888 0.001310195 -0.00013375068 0.0028511733 -0.93451989 0.036519472
592000000 -0.92942971 0.040458623 0.00088152464 0.0012004777 -2.1124357e-005 0.0014284732 -0.93389696 0.036116976
593000000 -0.92769164 0.039743502 0.00077546888 0.0017715286 0.00065581844 0.0011078244 -0.93349963 0.03532619
594000000 -0.92875695 0.041108482 0.00086510176 0.0015632757 -0.0001895873 0.0019592296 -0.93276656 0.037011258
595000000 -0.92892849 0.042673223 0.0010667546 0.001294103 0.00052022206 0.0020536315 -0.93372017 0.037815902
596000000 -0.92829329 0.042277183 6.1382176e-005 0.0022999262 0.0007290956 0.0015692388 -0.93393624 0.036084674
597000000 -0.9288466 0.04392688 0.00059175334 0.0016336469 0.00089769083 0.0024697925 -0.93410033 0.037457347
598000000 -0.92847425 0.042395592 0.00095534563 0.0026118518 0.0014538493 0.0021073881 -0.93360907 0.036593787
599000000 -0.92903721 0.043826971 -0.00018067237 0.0012172335 0.0013263031 0.00068404665 -0.93319708 0.035924543
600000000 -0.92823714 0.043729872 0.00018590463 0.0017878637 0.00097978662 0.0010459023 -0.93542194 0.035978049
601000000 -0.92963022 0.044346645 0.00022915902 0.0012404039 0.00050809508 0.0018181077 -0.9318763 0.036572814
602000000 -0.93053442 0.043081924 -0.0004024175 0.0018298416 -0.00026324493 0.0015357859 -0.93415159 0.03741825
603000000 -0.92822635 0.042697079 2.7627827e-006 0.0024758868 6.8456444e-005 0.0017998837 -0.93523461 0.038789641
604000000 -0.92693496 0.043101609 0.00050287956 0.0013825098 0.00026270907 0.0022796518 -0.93450326 0.037589956
605000000 -0.92935973 0.04405503 6.2777232e-005 0.0018195292 0.00021236311 0.0015368295 -0.9338004 0.038479928
606000000 -0.92964178 0.045351334 0.00015386564 0.0019074894 0.0015609044 0.0014396999 -0.93245745 0.03771133
607000000 -0.93085879 0.041872207 0.00040550207 0.0002592683 -0.00026998852 0.0011534923 -0.93444133 0.035988919
608000000 -0.93012369 0.043966476 0.00047457198 0.00072378578 -0.00042705351 0.0020912413 -0.93322819 0.037721634
609000000 -0.92804414 0.043685582 -0.0013480255 0.0016400559 -0.0011520134 0.0025363308 -0.93303847 0.037151262
610000000 -0.9266302 0.043347437 -0.00010825604 0.0025660859 0.0013500417 0.00066909101 -0.93236363 0.037436161
611000000 -0.92765313 0.044455923 0.0005833914 0.0024153031 -0.00028257858 0.0020583558 -0.93466735 0.037394024
612000000 -0.92737752 0.045484077 0.0022349283 0.00097184005 0.00092129171 0.0022847662 -0.93277663 0.03727378
613000000 -0.9293623 0.044199388 0.00081011216 0.0017930219 0.0012904307 0.0019842666 -0.93215817 0.037671924
614000000 -0.92882055 0.044233009 -0.00029725587 0.0018477683 0.0002315138 0.0010515964 -0.93526959 0.037230588
615000000 -0.92803252 0.042864382 -0.00061980239 0.0014908016 0.0012004848 0.0016641422 -0.93205398 0.038584691
616000000 -0.93089294 0.044339936 0.00070420501 0.0023648511 0.00038269808 0.0021071271 -0.93271118 0.039001565
617000000 -0.92921466 0.045803983 0.0012180514 0.00073467346 -0.00089074578 0.001351367 -0.93459028 0.039238665
618000000 -0.9292981 0.045480087 8.4082159e-005 0.001940703 0.0020630111 0.0016200831 -0.93326181 0.037897516
619000000 -0.92950416 0.04448159 0.00050282414 0.001551392 0.00051224802 0.0011256965 -0.93342292 0.038962584
620000000 -0.92848939 0.042492609 -0.00017772673 0.0016149112 -0.00084110029 0.0011532312 -0.93265694 0.038880415
621000000 -0.92896461 0.045606975 0.00047245799 0.0011874537 0.00043710603 0.0018153415 -0.93230939 0.039032415
622000000 -0.92939717 0.045579329 6.2142317e-005 0.0010051084 0.0012567799 0.0015529101 -0.93401134 0.037478175
623000000 -0.9282195 0.04625205 -0.00040678441 0.0018561146 -0.00014342827 0.0024918632 -0.93493873 0.037283964
624000000 -0.92920256 0.044850655 0.0015806179 0.0012684097 3.9112583e-005 0.0027084828 -0.93284363 0.038096119
625000000 -0.92880094 0.046489328 -0.00038105625 0.0029393013 -4.2456821e-005 0.0013527254 -0.93180883 0.039218277
626000000 -0.93088907 0.045442052 -5.5138968e-005 0.0022164916 -0.0001326663 0.0020402747 -0.93236035 0.038171079
627000000 -0.92946386 0.047833942 0.00088250224 0.0018839877 0.00011940201 0.002586859 -0.93380558 0.037976004
628000000 -0.92987549 0.046588898 0.00011488311 0.0024712367 0.00062539522 0.0019505813 -0.93289095 0.039402351
629000000 -0.92854249 0.046376687 0.00034894739 0.0021973448 0.00047249114 0.0017669396 -0.93431902 0.038941141
630000000 -0.92801738 0.045975756 -0.00019948104 0.0025049774 -0.00033827647 0.00099393923 -0.9325189 0.038822297
631000000 -0.92853189 0.048262689 -0.00025874932 0.0010374589 0.00044513628 0.0019141054 -0.93282205 0.040215932
632000000 -0.92937374 0.048120379 0.00047868115 0.0015501882 -0.00011070354 0.001100248 -0.93306911 0.039435931
633000000 -0.93008399 0.047420297 0.00021658588 0.001537841 8.3203282e-005 0.0018487081 -0.93302321 0.039817635
634000000 -0.92814267 0.047038462 0.00030985623 0.0021881261 0.0010176796 0.0025109295 -0.93298966 0.039392076
635000000 -0.92967629 0.047311213 -0.0005098785 0.0019854803 -0.00010242943 0.0021661338 -0.93236423 0.038677037
636000000 -0.93000335 0.049140319 0.00098004949 0.0012857621 -1.161448e-005 0.0012851749 -0.93315673 0.039144237
637000000 -0.93004835 0.048674885 0.0015786223 0.0012518557 0.00033201359 0.0022505883 -0.93240517 0.039973281
638000000 -0.92881072 0.048345525 0.0009118595 0.00079127139 2.1014912e-007 0.0015928965 -0.93284011 0.040666118
639000000 -0.93116397 0.047884535 0.00037271209 0.0018940889 0.00063838001 0.0023199287 -0.93324095 0.039424583
640000000 -0.92827868 0.047345731 0.00065884413 0.0013493598 0.00013742983 0.0024523726 -0.93232971 0.038485408
641000000 -0.9279747 0.046503622 0.00045604678 0.0018355808 -0.00024493036 0.0015247441 -0.93144763 0.040540621
642000000 -0.92876607 0.049121939 0.00014920055 0.0022563138 -0.00077762641 0.0012831877 -0.93352127 0.038266744
643000000 -0.92721319 0.0481176 -0.00032251948 0.0016736727 0.00067250407 0.0012693816 -0.93435782 0.039565552
644000000 -0.92712939 0.048096519 0.00014589254 0.0027095426 2.8536018e-005 0.0008826995 -0.93417001 0.03992394
645000000 -0.92939204 0.049868703 -4.4626002e-005 0.0010144868 -0.00031651341 0.0022707866 -0.93256944 0.038728636
646000000 -0.93089682 0.048353355 0.00022188474 0.0016511544 0.00026066031 0.0025988072 -0.93281388 0.041340847
647000000 -0.92997372 0.048009343 0.00053272798 0.0018711226 0.00085578079 0.0026193073 -0.93275458 0.038012728
648000000 -0.92936915 0.048427198 0.0018275481 0.0021154936 -0.00016809083 0.0012018577 -0.93418813 0.040119067
649000000 -0.92875552 0.049944118 0.00093482021 0.0012088944 0.00011931887 0.0021029138 -0.93337095 0.043251045
650000000 -0.92999846 0.048244461 0.00087751774 0.0019457988 0.00052678242 0.0019053773 -0.93244117 0.04177719
651000000 -0.92865938 0.049052853 0.0011817607 0.0016369408 0.00026949091 0.0010042957 -0.93303514 0.0407914
652000000 -0.92821527 0.048296805 0.00051498692 0.0025883024 0.00059349858 0.0023051854 -0.9317953 0.041383624
653000000 -0.93021262 0.048920017 0.00042168846 0.00077089434 0.00046771226 0.0012767646 -0.93299741 0.0385786
654000000 -0.92886424 0.049619809 -0.0007735921 0.0016852592 0.00035173245 0.0021234283 -0.93233514 0.041447114
655000000 -0.92710584 0.05011287 -5.5193937e-005 0.002132606 -0.00043329617 0.0014588219 -0.93371058 0.039204717
656000000 -0.92850357 0.050110396 -0.00017857327 0.0013807062 0.00043490645 0.0013642384 -0.93284893 0.038993388
657000000 -0.93041778 0.048459139 0.00087904313 0.0014190784 -7.5850905e-005 0.0018244571 -0.9321999 0.039726272
658000000 -0.92866689 0.050278708 -9.2051305e-005 0.00167014 0.00030311997 0.0019307013 -0.93335468 0.040030967
659000000 -0.92821628 0.049324889 0.0013330947 0.0015933674 0.00040466033 0.0019024502 -0.93185413 0.041095987
660000000 -0.92703611 0.049945708 0.0012192411 0.0018814033 0.0011306952 0.0018410104 -0.93207067 0.041868251
661000000 -0.92749178 0.050241642 0.00071597123 0.00199976 0.00016532996 0.0012012755 -0.93315047 0.040332921
662000000 -0.92938316 0.050607037 0.00077509368 0.0013869797 0.00074974587 0.0014589743 -0.93337119 0.042999685
663000000 -0.92878759 0.049759503 0.00096704159 0.0019245633 7.1096045e-005 0.0018570961 -0.93255723 0.04114718
664000000 -0.92852366 0.050468426 -0.00016094261 0.0021757288 -0.00033831396 0.0027063617 -0.9343006 0.042381518
665000000 -0.92858469 0.050294641 0.00057471771 0.0018424509 -0.00023837754 0.0022169212 -0.93128937 0.040203419
666000000 -0.92853504 0.05098059 0.00018421633 0.0019256764 0.0010506039 0.0016829963 -0.9312948 0.040953688
667000000 -0.92869216 0.049478821 0.00045128411 0.0019845094 -0.00012305863 0.0020227639 -0.93323928 0.040914118
668000000 -0.92853898 0.049986333 0.0008383941 0.0019636871 0.00057482097 0.0019137154 -0.93339616 0.040148359
669000000 -0.92816138 0.04935611 0.0010496493 0.0015870684 0.00018917318 0.002081251 -0.93154746 0.03994292
670000000 -0.92847651 0.050394051 0.00047525085 0.0016372715 0.00054756616 0.0015328691 -0.93082947 0.04076729
671000000 -0.92791921 0.051128633 0.00067151862 0.0020671468 -0.00074608572 0.0023535695 -0.93350071 0.041808683
672000000 -0.92829585 0.049977496 0.00014298172 0.00094144396 0.00020644878 0.00075908296 -0.93130016 0.041948777
673000000 -0.92814589 0.04905593 0.00076686876 0.0018988203 0.00062631693 0.0025654063 -0.93305975 0.040465273
674000000 -0.92943186 0.048636496 0.00019685581 0.0019526999 -0.00022854769 0.0016085471 -0.93212247 0.041571919
