!Keysight Technologies,M9374A,MY55442783,A.12.55.05
!Date: Wednesday, May 19, 2021 15:58:35
!Correction: S11(Full 2 Port(1,2)) 
!S21(Full 2 Port(1,2)) 
!S12(Full 2 Port(1,2)) 
!S22(Full 2 Port(1,2)) 
!S2P File: Measurements: S11, S21, S12, S22:
# Hz S  RI   R 50
500000000 -0.8936094 0.033160284 -0.00047614693 0.0014588984 3.7445519e-005 0.0011667614 -0.9379366 0.028328139
501000000 -0.89345109 0.03644887 0.0015881365 0.001199345 -0.0004186171 -5.7476998e-005 -0.93751931 0.030037418
502000000 -0.8936888 0.033975378 -0.00094273896 0.0015734195 0.00014660387 0.0016251499 -0.9384287 0.031132763
503000000 -0.89265978 0.032943737 -0.00015844833 7.4686664e-005 -0.00016452324 0.0014438173 -0.93694955 0.031253736
504000000 -0.89361781 0.033642765 0.00034736059 0.0026294393 0.00078269508 0.0016117651 -0.93830872 0.030596655
505000000 -0.89206034 0.033099283 0.00065356388 0.0019587099 -0.00027585347 0.0019275587 -0.93609697 0.02902461
506000000 -0.89211816 0.034751642 0.00044199594 0.0012425707 0.00012210173 0.0011562851 -0.93677366 0.02899519
507000000 -0.89299226 0.034830742 0.00034569314 0.0012060315 -2.6043999e-005 0.00072038034 -0.93731093 0.03062409
508000000 -0.89106953 0.034915913 -0.00090335042 0.0025792525 0.0010398686 0.00048855215 -0.93959796 0.030129408
509000000 -0.89243913 0.03413495 0.0012711636 0.001154429 -0.00071385881 0.00096189399 -0.93730211 0.030529117
510000000 -0.8932963 0.035549294 0.00016563616 0.0017628541 0.00068592333 0.0014138861 -0.93711412 0.029888095
511000000 -0.89297289 0.034686219 0.000246868 0.0016644035 0.00018470461 0.0017020045 -0.93725365 0.031971615
512000000 -0.89296812 0.035056703 0.00036218407 0.0023990027 -0.00078002125 0.0010901543 -0.93774551 0.030938895
513000000 -0.89189523 0.034595452 -0.00025650085 0.00061927107 0.00056852185 0.0016395691 -0.93778676 0.030968076
514000000 -0.89163411 0.035302393 -0.0003859062 0.0012549963 0.00020919736 0.0015923555 -0.93819541 0.030349409
515000000 -0.89179242 0.035511978 0.00048409001 0.0012190281 -0.00014059336 0.0013389427 -0.93712461 0.032727193
516000000 -0.89295304 0.036525201 0.00093739334 0.0014656446 0.00021038475 0.00086712313 -0.93829787 0.031495038
517000000 -0.8927722 0.035762735 0.00030205256 0.0019178429 -4.5548531e-005 0.0010842783 -0.93618953 0.031660181
518000000 -0.89297926 0.035892688 0.00031951969 0.001536549 0.00010248767 0.0015268408 -0.93752056 0.031208625
519000000 -0.89296669 0.035233773 -1.1067192e-005 0.0013244961 -4.6406938e-005 0.0015366945 -0.9386102 0.031438693
520000000 -0.8933751 0.03525313 -0.00050203531 0.0028273354 -0.00053478713 0.00099298055 -0.93777078 0.032200374
521000000 -0.89329219 0.037464142 -0.00035538402 0.00089444179 0.00023699223 0.00095555146 -0.93724376 0.032887395
522000000 -0.893565 0.034436423 0.0001548852 0.0018023446 -0.00030211019 0.0011885003 -0.93711287 0.033948652
523000000 -0.89271897 0.036183998 0.00019792379 0.0016896694 -0.00072255323 0.00077701139 -0.93681401 0.032069732
524000000 -0.89180017 0.037003469 -0.00062168797 0.0015212524 0.00076188234 0.00052253326 -0.93646449 0.032705583
525000000 -0.89305526 0.036625683 -0.00011521043 0.0013528516 -0.00040145183 0.0012408199 -0.93822527 0.032303121
526000000 -0.89293337 0.035671931 0.00048183536 0.0015771757 0.00058849325 0.00079668208 -0.93805045 0.03199375
527000000 -0.89294386 0.036485936 0.0009127481 0.0019895064 0.0010593579 0.0016188418 -0.93746758 0.032886494
528000000 -0.8921473 0.037462268 0.0006095767 0.0017492658 0.00018349259 0.00121388 -0.93804282 0.033221181
529000000 -0.89217466 0.036620643 0.00055697683 0.0017644769 -0.00041875045 0.0010957033 -0.93691027 0.032914639
530000000 -0.89426047 0.037300218 -0.00094268419 0.0015547954 0.00037671954 0.0012159342 -0.93671685 0.032972373
531000000 -0.89395046 0.03653805 0.0001109529 0.0020770982 0.00088161929 0.0015550986 -0.93814123 0.033670895
532000000 -0.89297765 0.038551584 0.00023803962 0.0027978038 0.00028739587 0.0015273144 -0.93722469 0.03424063
533000000 -0.89268625 0.038128614 0.00010005596 0.0014502831 0.00062037678 0.0014153452 -0.9366864 0.034006823
534000000 -0.89146596 0.035575494 -4.4470024e-005 0.0022031162 0.00070075376 0.00080663181 -0.93694258 0.03322044
535000000 -0.89240032 0.036971554 -0.00020308074 0.0012907346 0.00070515345 0.0025360398 -0.93716103 0.033921588
536000000 -0.89260954 0.038126186 6.4571614e-005 0.001751796 0.0005520531 0.0013234681 -0.93621826 0.033122994
537000000 -0.89278531 0.036530312 0.00050537824 0.00034972781 -7.2389317e-005 0.0015463971 -0.93694144 0.033061251
538000000 -0.89311802 0.038011152 -0.00032558863 0.0012092313 -0.00031330381 0.00053006259 -0.93525487 0.033701744
539000000 -0.89211369 0.038067669 0.00059199263 0.0017494708 0.00046764649 0.0015081551 -0.93556178 0.034798238
540000000 -0.89315277 0.038101319 0.00073685939 0.0018496974 0.0010416494 0.00087806437 -0.935736 0.03346606
541000000 -0.89196336 0.038990472 -3.7304068e-005 0.0012255821 -0.00035830095 0.0019850698 -0.93778849 0.032858245
542000000 -0.8926428 0.037377257 -0.00054717186 0.0008533154 6.8984496e-005 0.0010774264 -0.93606126 0.033626325
543000000 -0.89219159 0.037791159 0.00036482676 0.0014798797 -1.6258875e-005 0.0010401246 -0.93659312 0.034388263
544000000 -0.89177817 0.038059164 -0.00016278993 0.0014156122 -0.00031597758 0.00069382286 -0.93656898 0.033039287
545000000 -0.89155251 0.036033768 0.00010709001 0.0011156109 0.0013857939 0.0011773917 -0.93637735 0.034358993
546000000 -0.89283633 0.036724675 0.00044500991 0.00043462831 -0.00018062115 0.001378739 -0.93763316 0.033706456
547000000 -0.89271379 0.038609184 0.000709694 0.0010755062 0.00024355674 0.001981166 -0.93691969 0.033636242
548000000 -0.89212704 0.03785599 -0.00087154284 0.0012905652 0.00061355205 0.0015792677 -0.93727404 0.034791578
549000000 -0.89201146 0.038684759 0.0014566047 0.0013256731 2.1655482e-005 0.0011078328 -0.93660909 0.033948183
550000000 -0.89072299 0.038274467 0.0010510411 0.0018450677 0.00027669358 0.00093528751 -0.93735754 0.034079324
551000000 -0.89203274 0.039611701 0.00033012059 0.0015410864 -0.00068876328 0.0013376462 -0.93745911 0.034216467
552000000 -0.89316481 0.038925331 0.0010975705 0.0014095871 0.00033374591 0.0022777815 -0.93585175 0.034410536
553000000 -0.89103711 0.0375751 -0.00022014316 0.0016924416 0.001193291 0.0024724195 -0.93571138 0.033492494
554000000 -0.89104211 0.036152687 -9.915416e-005 0.0017278263 0.00078817853 0.0013973423 -0.93681175 0.034381434
555000000 -0.89257997 0.037351206 0.00048975949 0.0017150949 0.00029492384 0.00039175217 -0.93727183 0.033995993
556000000 -0.89228278 0.037465572 -0.00022682204 0.0021365583 0.00031877411 0.0012771924 -0.93834174 0.033340514
557000000 -0.8922655 0.037726689 0.00018085614 0.0012975585 0.00017053641 0.0014777582 -0.93633997 0.033630751
558000000 -0.89294672 0.037871026 0.00035803742 0.0015975914 7.8919686e-005 0.0013551688 -0.93825001 0.033092689
559000000 -0.89156526 0.036946937 0.00029509197 0.0015067706 -0.00061252736 0.0020747543 -0.93809909 0.035404161
560000000 -0.89084375 0.037465777 0.00044653754 0.00064313813 -3.8812217e-005 0.0010707981 -0.93763775 0.036037125
561000000 -0.8912192 0.037982486 -0.0001752316 0.0018364342 5.3513177e-005 0.0011352748 -0.93677443 0.034276877
562000000 -0.89147758 0.037207089 -1.2482456e-005 0.0014732844 0.00066183921 0.0017272969 -0.93822098 0.033092808
563000000 -0.89168906 0.038802557 0.00095178105 0.0012863806 0.00070970674 0.00097156246 -0.93701351 0.0346356
564000000 -0.89204949 0.036797203 -0.00041988955 0.0014741067 -0.00038630288 0.0025605257 -0.93674624 0.034438983
565000000 -0.89245701 0.038636457 0.00052389345 0.0012252928 0.0012720985 0.0011313753 -0.93579912 0.035286475
566000000 -0.89145446 0.039145116 0.00038548198 0.0017701708 0.00018879323 0.0013225859 -0.93752748 0.033120755
567000000 -0.89335084 0.037373938 -0.00035464033 0.0017182091 -0.00037317394 0.0017541449 -0.93760437 0.033973921
568000000 -0.89189821 0.039030127 0.00020729798 0.0014574307 -0.00029461487 0.00037365966 -0.9381296 0.034365706
569000000 -0.89022142 0.037773978 0.00023026402 0.0011180467 -0.00036174513 0.0014477923 -0.93594676 0.035429709
570000000 -0.89214748 0.038965065 -0.00094921154 0.0010710566 0.00087126781 0.001705357 -0.93614864 0.034618426
571000000 -0.89374906 0.037601452 0.00055974297 0.00094580615 0.00017032913 0.0020050844 -0.93701857 0.035945717
572000000 -0.89092922 0.03734966 -6.8067595e-005 0.0022620752 0.00027451481 0.0016420527 -0.93783182 0.035437223
573000000 -0.89156514 0.037891068 0.00042617845 0.00064776884 1.5380403e-005 0.0017744997 -0.93752825 0.034921307
574000000 -0.89186633 0.037307762 -0.0001903425 0.0027772468 -2.8973753e-005 0.001280644 -0.93882221 0.034590177
575000000 -0.89256173 0.038907833 -7.4886193e-005 0.00090283557 -0.00041017204 0.0011717383 -0.93652886 0.035328537
576000000 -0.89117223 0.038783997 0.0005041025 0.0011944284 0.00045458239 0.001213956 -0.9377647 0.034780424
577000000 -0.89307827 0.038836308 0.0009467288 0.0012259275 -0.00052258215 0.0018913575 -0.93650109 0.033357814
578000000 -0.89224958 0.038526159 0.00052425312 0.0019247371 0.00029477142 0.0016410662 -0.93643761 0.032817103
579000000 -0.89015418 0.03811568 0.00027296282 0.0010561856 -8.0171587e-005 0.001994458 -0.93729103 0.034769453
580000000 -0.89114916 0.037931576 0.00029133447 0.0027038548 0.00054664304 0.0015693677 -0.9358629 0.035978548
581000000 -0.89224875 0.037775937 0.0010067227 0.00063495868 0.00049255759 0.0017434206 -0.93782747 0.034330405
582000000 -0.89029408 0.039018851 0.00072476605 0.0025463025 0.00045287382 0.0016503443 -0.93778062 0.034762599
583000000 -0.89151359 0.038470104 -3.5677596e-005 0.0010692854 -0.00014229202 0.0016449048 -0.9372279 0.036864046
584000000 -0.89063418 0.039085604 -5.2602969e-005 0.0016426838 0.00075781276 0.0013900936 -0.93614608 0.036764283
585000000 -0.89269745 0.037523035 -0.00026259397 0.0019659589 0.0011537599 0.0011199755 -0.93673992 0.036187313
586000000 -0.89177322 0.037637059 -0.0001292278 0.0013843979 -0.00082524656 0.0021342253 -0.93615317 0.034600768
587000000 -0.89145499 0.038238592 -0.00029436019 0.0018225975 -0.00069125433 0.0015691932 -0.93672669 0.036115587
588000000 -0.89292252 0.037880611 0.00064267719 0.0019779929 0.0002824605 0.0011479261 -0.9363808 0.035066549
589000000 -0.89288223 0.03858633 0.00027507124 0.0020149087 -0.00011613007 0.00030679168 -0.93763858 0.036892895
590000000 -0.89013714 0.039749727 0.00032883277 0.0023089964 -0.00051141618 0.0023740679 -0.93523633 0.0358073
591000000 -0.88873339 0.039072502 0.00026546957 0.00084135134 0.00043226674 0.00096026965 -0.9358834 0.03445635
592000000 -0.89097989 0.037775539 0.00028469486 0.00082881836 0.00033436602 0.0020884809 -0.93829489 0.036696028
593000000 -0.8913976 0.038746528 0.00083837594 0.0013409409 2.9389264e-005 0.0020258089 -0.9373613 0.036252331
594000000 -0.89169896 0.039090164 0.001710863 0.0010622804 0.000112723 0.001188007 -0.93621367 0.035460312
595000000 -0.88991505 0.037670467 3.3662811e-005 0.0024563828 -0.00010597136 0.0014811633 -0.93728071 0.035214506
596000000 -0.89191866 0.037777789 -0.00029841994 0.00044959964 -0.00029016091 0.0015406106 -0.93578756 0.034545567
597000000 -0.89196306 0.038211927 -0.00012828788 0.001728453 -0.00018013878 0.0017722717 -0.93576711 0.035856366
598000000 -0.8918494 0.040661104 -7.478804e-005 0.00058690429 0.00076575094 0.001020468 -0.93838531 0.036567234
599000000 -0.89088637 0.040589333 -0.0002781424 0.00080986827 0.0010960581 0.0021437209 -0.93606359 0.036156751
600000000 -0.89171034 0.040384598 -0.00057239347 0.0016123591 0.00037293395 0.0018607152 -0.93641907 0.036123015
601000000 -0.88971299 0.04173233 -0.00070360204 0.0019658166 -0.00010469097 0.0016948383 -0.93749601 0.036616314
602000000 -0.89159346 0.038480829 0.00048944936 0.0019989014 0.00015096446 0.001036772 -0.93810648 0.036085967
603000000 -0.89178503 0.040351149 0.0010241217 0.0011195918 0.0008272425 0.00052065786 -0.93789375 0.035373077
604000000 -0.8902815 0.04027018 0.000419466 0.0010351428 0.00025791954 0.0017401036 -0.93701088 0.037841056
605000000 -0.89115953 0.040034231 -3.6027272e-005 0.0023918601 5.4133507e-005 0.00087976718 -0.93722004 0.037186109
606000000 -0.89030254 0.040626355 0.00016345523 0.0015344555 -0.00080359797 0.0020382211 -0.93728071 0.034789409
607000000 -0.89182824 0.040271964 -0.0013943913 0.0011930967 -0.00068138406 0.0020480051 -0.93583435 0.035219457
608000000 -0.89086163 0.040262859 -0.00013119007 0.0015286867 0.00072307303 0.0016857727 -0.93669641 0.035353955
609000000 -0.89128953 0.040515423 -0.00047760131 0.00080997217 -0.00045436135 0.0007184869 -0.93696964 0.038092289
610000000 -0.89000469 0.040932249 -6.1668827e-005 0.0020185369 0.00015780606 0.0021743663 -0.93528521 0.037562963
611000000 -0.89056194 0.042376436 0.00032840815 0.0023398111 0.00038090479 0.0010208591 -0.93703985 0.035098542
612000000 -0.88908076 0.042719111 -0.00014272082 0.0015393071 0.0010792637 0.0034490956 -0.93625647 0.036795929
613000000 -0.89067936 0.040954459 -0.00018603081 0.00036180369 0.0013198406 0.0017029607 -0.93695521 0.036137093
614000000 -0.89137053 0.041388839 0.00081960083 0.0016902572 0.0004407469 0.00046044044 -0.9375084 0.035790466
615000000 -0.89016509 0.041740831 -0.00060311297 0.0017328836 -0.00065889809 0.002445997 -0.93524092 0.036269866
616000000 -0.89168113 0.040842801 -0.00038431818 0.0017885136 0.00020755843 0.00078931177 -0.93675137 0.036891453
617000000 -0.89224404 0.042076666 0.00095373299 0.0027359074 -0.0004104918 0.00087610586 -0.93590379 0.038549479
618000000 -0.89172292 0.042238016 0.00078872941 0.003009845 0.00034247388 0.0011436986 -0.93701255 0.036192894
619000000 -0.8906284 0.042763166 0.00070328871 0.0016415335 0.00023646824 0.00082300708 -0.93792003 0.036854532
620000000 -0.89072371 0.042251155 -8.7725726e-005 0.0012548956 0.00085168617 0.0020733366 -0.93596011 0.036217447
621000000 -0.89141977 0.042831652 -0.00076459977 0.0019652292 0.0003954354 0.0018060963 -0.93578809 0.038087189
622000000 -0.89135861 0.041459695 -0.00051891676 0.0012046405 0.00031309508 0.001402188 -0.93648988 0.036654521
623000000 -0.88980609 0.043449402 -5.124517e-005 0.0010231673 -0.00038400906 0.0015463387 -0.9349308 0.039133284
624000000 -0.89084381 0.041194659 7.0403701e-005 0.0016285471 -7.6454278e-005 0.0019798477 -0.93652141 0.039032608
625000000 -0.88955355 0.042883601 3.0422661e-005 0.0016575557 0.00027056047 0.0014953736 -0.93681103 0.036037084
626000000 -0.89109421 0.042651378 -0.0009014018 0.0016905001 -0.00020999063 0.0016649722 -0.93580854 0.036248554
627000000 -0.89183092 0.041329149 -0.0001220828 0.0024117816 4.7810361e-005 0.0014137048 -0.93574023 0.038045891
628000000 -0.89123577 0.042880245 0.00077482744 0.00097491924 0.00061491766 0.0016734774 -0.93780112 0.039259091
629000000 -0.88892877 0.043575656 0.00032930408 0.0015810308 0.00074989622 0.00073399482 -0.93536121 0.037201703
630000000 -0.89071047 0.043420415 -0.0012272154 0.0019879134 0.00040542148 0.0013888921 -0.93770325 0.038931917
631000000 -0.89207286 0.042327616 -0.00037049895 0.0016987645 0.00032533807 0.001478259 -0.93839526 0.038292833
632000000 -0.89077646 0.042589288 0.00071320398 0.0019999614 0.00010231046 0.0015827063 -0.93725914 0.037333503
633000000 -0.89065659 0.043678988 0.00064647436 0.00092557207 0.00046551038 0.0010982163 -0.93737775 0.037664428
634000000 -0.89112812 0.044893831 0.00058147765 0.0018874729 0.00077916856 0.00042411708 -0.93694037 0.037080582
635000000 -0.89149094 0.043572988 2.9260824e-005 0.0011823792 -7.4466603e-005 0.0022984708 -0.93685752 0.03927815
636000000 -0.89202774 0.045990221 -0.0004180437 0.0019839259 0.00093439402 0.00069639529 -0.93643671 0.038002811
637000000 -0.8901093 0.044390626 0.00041299936 0.0013110943 0.0004575596 0.0016681863 -0.93549508 0.036192775
638000000 -0.89025623 0.044618659 0.0014147901 0.0020488028 -7.4574862e-005 0.002453398 -0.93626505 0.036838647
639000000 -0.89025742 0.04480483 0.0002932387 0.0019300438 0.0001358006 0.0023641523 -0.93562299 0.0382259
640000000 -0.88916898 0.045874529 0.00044809817 0.0022804434 0.00012950528 0.0018487503 -0.93622077 0.038454343
641000000 -0.88963073 0.043082006 0.00034580549 0.0017751782 -0.00023039163 0.0023289449 -0.9361468 0.038331576
642000000 -0.89025611 0.045813896 0.0003711684 0.0026750655 -0.00044987487 0.0011064224 -0.93423212 0.039343968
643000000 -0.88940299 0.044385441 4.1154628e-005 0.0016671926 0.00078293099 0.0016216165 -0.93521315 0.039078023
644000000 -0.89072216 0.043383338 -0.00044268635 0.0011170151 0.0002038211 0.0012748555 -0.93769914 0.039652064
645000000 -0.8906911 0.045312312 -0.00044673792 0.0006263493 -0.00022467463 0.0012891734 -0.93706703 0.03862413
646000000 -0.89021182 0.045144234 -0.0012906211 0.0026888116 7.4949676e-005 0.0025911091 -0.93558609 0.039471101
647000000 -0.89022589 0.043857377 -0.00041332154 0.001923458 -0.00025518844 0.0012287046 -0.93725747 0.039305829
648000000 -0.89069581 0.046175737 0.00074596197 0.0012400828 0.00045169031 0.0013752053 -0.93751901 0.041014671
649000000 -0.88985342 0.045567632 0.00028616408 0.0014397486 0.00036872466 0.0010958026 -0.93727088 0.038227871
650000000 -0.88997978 0.045038819 8.6443833e-006 0.0017613473 0.00012416673 0.0015347068 -0.93822289 0.03899892
651000000 -0.89136761 0.044988245 0.00043981688 0.00099383167 0.00035682699 0.0013413604 -0.93688422 0.039758228
652000000 -0.88935143 0.045558382 0.00028752399 0.0028493737 0.0012454096 0.001172365 -0.93575132 0.038233332
653000000 -0.89107132 0.044942211 -3.2597749e-005 0.0020967906 0.0009743562 0.0018531937 -0.93501449 0.03924096
654000000 -0.88926899 0.045242984 -1.9707488e-005 0.00097359531 0.00012296399 0.00239851 -0.93681711 0.037872259
655000000 -0.88958395 0.046493091 -0.00012781034 0.0016872397 3.5722642e-005 0.0021171842 -0.93717754 0.039923426
656000000 -0.88962412 0.045997947 -0.0010587621 0.0019792239 -0.00021841776 0.00080576888 -0.93525404 0.039391864
657000000 -0.8893894 0.045133851 3.0320802e-005 0.00078826578 -6.72897e-005 0.0014890016 -0.93724453 0.041040745
658000000 -0.89174718 0.046340667 0.00023503663 0.0015027013 0.00039184012 0.0016723616 -0.93664378 0.036469154
659000000 -0.88892341 0.047008052 0.0004029941 0.0016234303 -0.00051504985 0.0012601078 -0.93624705 0.039216112
660000000 -0.89079815 0.046164464 0.00028021995 0.0029109549 0.00070823135 0.0012048217 -0.93519539 0.037784167
661000000 -0.88951933 0.045688387 -0.00056889741 0.0023744931 -0.00024167546 0.0023340555 -0.93673724 0.039093666
662000000 -0.88983631 0.046589188 -0.00019911566 0.0024216096 3.8834645e-005 0.0019901225 -0.93747342 0.041298244
663000000 -0.89114457 0.046756309 0.00074113614 0.0025394645 0.00036568765 0.0016820158 -0.93626416 0.038345609
664000000 -0.88919872 0.045031905 0.00028794818 0.0018780945 1.9758241e-005 0.0018283708 -0.9375518 0.039885022
665000000 -0.89017648 0.047419649 0.00034362011 0.0014969183 7.243787e-005 0.0010450449 -0.93498296 0.039371122
666000000 -0.88974351 0.047532309 0.00035871228 0.0018470306 0.00065209577 0.0018099005 -0.93614173 0.037737869
667000000 -0.88998222 0.046244234 -0.00020280591 0.0016881891 -0.00035875116 0.0010873154 -0.93547344 0.039189335
668000000 -0.88852131 0.046074335 -0.0010699296 0.001698463 0.00010040366 0.0023712486 -0.93496752 0.039114282
669000000 -0.88986778 0.045956742 0.00017055932 0.0020001158 0.00054606883 0.0015964846 -0.93576413 0.038431179
670000000 -0.89060122 0.046315748 -7.4930853e-005 0.0022758537 -0.00055339589 0.002280782 -0.93734026 0.040591687
671000000 -0.89012319 0.045812353 0.00014086442 0.0021052475 -0.00048848055 0.0010114237 -0.93472159 0.041561335
672000000 -0.89178216 0.045207109 9.868903e-005 0.0017000033 -2.2790762e-005 0.0021592882 -0.93572855 0.03858624
673000000 -0.88934916 0.047163732 0.00020123195 0.0018273694 -0.00029659411 0.0013610587 -0.93513662 0.039429117
674000000 -0.88951415 0.047551591 0.00040962777 0.0010200116 0.00061127136 0.0022473566 -0.93680292 0.040261276
