!Keysight Technologies,M9374A,MY55442783,A.12.55.05
!Date: Wednesday, May 19, 2021 15:34:15
!Correction: S11(Full 2 Port(1,2)) 
!S21(Full 2 Port(1,2)) 
!S12(Full 2 Port(1,2)) 
!S22(Full 2 Port(1,2)) 
!S2P File: Measurements: S11, S21, S12, S22:
# Hz S  RI   R 50
500000000 -0.92862242 0.036574759 7.9237099e-005 5.479579e-005 0.00079412328 0.001894164 -0.93342233 0.033870958
501000000 -0.93120271 0.038328696 0.00030699134 0.00139991 -0.00010129643 0.0012527509 -0.93305886 0.031341642
502000000 -0.92832673 0.039666176 -3.104674e-005 0.00087184447 0.00043355057 0.0010750877 -0.93395215 0.032744713
503000000 -0.93059272 0.036500838 0.0015424523 0.0014548989 0.00071613613 0.0012739259 -0.93363488 0.032850459
504000000 -0.92997116 0.038922373 0.00050451542 0.0011490544 4.8486694e-005 0.00093936844 -0.93492299 0.031051174
505000000 -0.92905223 0.036855578 0.00060212245 0.0013057071 0.00067591772 0.0011338242 -0.93327004 0.033129662
506000000 -0.92905903 0.037635326 -0.00027699285 0.00044679324 0.00070730102 0.0013133131 -0.93307441 0.03167465
507000000 -0.92882514 0.038440328 -0.00030365874 0.0012630706 0.00057341089 0.0021674773 -0.93324113 0.033158638
508000000 -0.92914647 0.03782393 0.0001485932 0.001098161 0.0017140935 0.0015861406 -0.93219793 0.033544727
509000000 -0.93038958 0.039510176 0.0010928706 0.0018639775 0.00019800053 0.0012562637 -0.93282324 0.033566307
510000000 -0.92953825 0.040869232 0.00010727531 0.0021708074 -0.00048991229 0.0024633976 -0.93288732 0.034193549
511000000 -0.92863816 0.039609343 5.3190848e-005 0.0024083084 0.00024880204 0.0011180291 -0.93243587 0.032934099
512000000 -0.92995858 0.037257377 -0.0013692626 0.0012638209 -0.00018441545 0.0010734893 -0.93308532 0.033436466
513000000 -0.92977756 0.036981404 -0.00015705288 0.0011103471 -0.00054778979 0.001587446 -0.93436867 0.030662475
514000000 -0.93064761 0.039237879 0.00035928519 0.0013631184 -0.00045273229 0.0020608876 -0.93291539 0.033615753
515000000 -0.93156397 0.039236505 0.00043921964 0.0010972418 0.0010042291 0.00043352754 -0.93301451 0.035066478
516000000 -0.92941451 0.041223463 0.00021245962 0.0012166981 -0.00033461454 0.0010414879 -0.93347359 0.031136539
517000000 -0.92849672 0.040752739 0.00034269929 0.0012852725 0.00072607357 0.0020001642 -0.93391728 0.03170931
518000000 -0.93062538 0.03926874 0.00078945654 0.0021620728 0.0012297137 0.0019511415 -0.93474442 0.034346841
519000000 -0.93048215 0.040441252 0.0011939219 0.0015419713 7.3705713e-005 0.00077562337 -0.93121439 0.03323013
520000000 -0.92887115 0.039987348 -0.00042068175 0.0019807843 -4.0038594e-005 0.0019528035 -0.93324822 0.033114869
521000000 -0.93046671 0.042078599 -0.00061426335 0.0017523015 0.0010029989 0.0015384653 -0.93220413 0.033562075
522000000 -0.92918813 0.040361244 -0.00013300164 0.0021955736 0.0006699962 0.0019299061 -0.93264085 0.035525054
523000000 -0.93039894 0.039307181 0.00027208927 0.0012326905 -0.00050982309 0.001293791 -0.93212664 0.032816194
524000000 -0.93048352 0.040489625 0.00015792092 0.0014354768 -0.00014030984 0.0020993119 -0.93262547 0.034521043
525000000 -0.92874914 0.040053584 9.9262223e-005 0.0016323435 0.00086681871 0.0011640736 -0.93430519 0.034606956
526000000 -0.93041778 0.041783944 0.00076541089 0.0015808885 0.0005212595 0.0013604254 -0.93285191 0.035072904
527000000 -0.92925251 0.040113598 0.00065644784 0.0014986107 -0.00021590476 0.0013856556 -0.93393135 0.035032708
528000000 -0.92927825 0.041103262 -0.00021246127 0.0028732026 -0.00020953234 0.0018349789 -0.93123674 0.035438485
529000000 -0.9282189 0.041178681 0.00021023928 0.0014015255 0.0013336492 0.0018123115 -0.93162239 0.036602452
530000000 -0.93023008 0.041170217 -9.122715e-005 0.00241919 0.00021954835 0.0022312999 -0.93322706 0.035462782
531000000 -0.92879927 0.040033177 0.00069859921 0.0016358881 0.00082108082 0.00083516387 -0.93322605 0.034922425
532000000 -0.92881113 0.040053599 -0.00016223559 0.00091968564 -7.9344238e-005 0.001407519 -0.93357748 0.035565715
533000000 -0.92869467 0.039778695 -0.00031083488 0.0015629176 0.00051550218 0.0018083429 -0.9310174 0.034905687
534000000 -0.92945462 0.040118329 0.0012016342 0.0010547504 -0.00014546129 0.0011141599 -0.93411988 0.035098068
535000000 -0.92836016 0.040846433 0.00033794978 0.0017870794 0.00083158817 0.0013370372 -0.93365836 0.035495061
536000000 -0.93003154 0.04062466 -0.00017438916 0.0021095609 0.000394412 0.00087752898 -0.93309307 0.035044495
537000000 -0.92839712 0.040170785 0.00024253312 0.0020749886 0.00065471593 0.0015083893 -0.93342054 0.035304923
538000000 -0.92909175 0.040999398 -2.4805182e-005 0.0019871963 0.00010570705 0.00078119751 -0.93381923 0.034986433
539000000 -0.93044871 0.042917896 0.00013278365 0.0015911688 -0.00050426397 0.00090019795 -0.93377966 0.035028543
540000000 -0.93001437 0.041278809 0.0013865688 0.0017200325 0.0004466752 0.0018436351 -0.93456185 0.034937877
541000000 -0.92883056 0.041967601 0.00046561565 0.0016235978 -0.00048704309 0.0017095821 -0.93472934 0.033935487
542000000 -0.9286539 0.040601768 -0.00027733549 0.0020631475 0.00022804104 0.0015970513 -0.93287832 0.03479312
543000000 -0.93025315 0.040993102 -0.00028559545 0.00099663262 0.0013225359 0.0014153637 -0.93240476 0.03633333
544000000 -0.9285478 0.040033348 -4.5708224e-005 0.0012210365 0.00057097501 0.0017934577 -0.93453228 0.037093118
545000000 -0.92958856 0.041708633 0.00036175526 0.0016002395 -6.0027548e-007 0.0012821272 -0.93314755 0.036274374
546000000 -0.93039298 0.040410437 0.00042583811 0.0022708147 -0.00047110132 0.0017432864 -0.93339777 0.036320191
547000000 -0.92984593 0.040506139 -0.00019927746 0.0018512933 -4.0545965e-005 0.002040385 -0.93441546 0.036121402
548000000 -0.92944431 0.0413942 0.00036052501 0.00068294612 -0.0005912084 0.00098518783 -0.93362081 0.036437292
549000000 -0.92760062 0.040106505 0.0003283642 0.0011720094 3.5290606e-005 0.001289128 -0.93212628 0.036064539
550000000 -0.92952424 0.041253172 0.00012718384 0.0022600789 -0.00017735882 0.0016868556 -0.93343437 0.037925988
551000000 -0.9301365 0.041341953 0.00055807707 0.0017458107 0.00070622086 0.001234904 -0.9341749 0.035764709
552000000 -0.93039668 0.041207634 0.00043735196 0.0015664694 -0.00026068106 0.0019460276 -0.93322176 0.036334828
553000000 -0.92922425 0.04157874 -0.0006640089 0.00090259738 0.00062947522 0.0012094053 -0.93517274 0.03565776
554000000 -0.92945558 0.041325133 0.0004832074 0.001668854 -0.00093602942 0.0016714 -0.93230641 0.036206201
555000000 -0.92749798 0.041178692 0.00051085342 0.0018164812 -0.0002471449 0.0012633882 -0.93319684 0.036668446
556000000 -0.92859584 0.041642044 0.00078971591 0.0021090175 0.0004372283 0.0012424962 -0.93247223 0.035776369
557000000 -0.93061006 0.040478967 -3.041216e-005 0.00090221252 0.00078451697 0.00079848891 -0.93316913 0.036765739
558000000 -0.92910272 0.041301291 0.00077589665 0.0013742161 0.00037344263 0.0013454689 -0.93225873 0.036762342
559000000 -0.92816716 0.042341895 2.0353407e-005 0.0013687251 0.00032803035 0.0015838033 -0.93389797 0.036789957
560000000 -0.92875224 0.04135105 0.0010073606 0.0013366661 8.6632223e-005 0.0011249569 -0.93347096 0.037423905
561000000 -0.92948824 0.041092727 -0.00028304179 0.0010925013 0.00075488613 0.0017627386 -0.9329555 0.037764031
562000000 -0.9292559 0.043097559 0.001044307 0.0015730914 6.6205735e-005 0.0030275097 -0.93302232 0.035479702
563000000 -0.92967254 0.041627932 -0.00070275547 0.002041385 -0.00055259734 0.0024496075 -0.93531257 0.036424015
564000000 -0.93097878 0.041650962 -0.00033939976 0.0019664171 0.0012245654 0.0012240738 -0.93269807 0.035880093
565000000 -0.92785776 0.041729864 0.00076721876 0.0014731842 -0.00048682385 0.0013198145 -0.93279719 0.037036587
566000000 -0.92900431 0.040304702 -0.00025089481 0.001113401 0.00043472211 0.0014672229 -0.93514991 0.036276437
567000000 -0.92903316 0.041368149 0.00083362701 0.00088101008 -0.00022736323 0.0017202183 -0.93367028 0.037000149
568000000 -0.92832208 0.042525776 0.0010532076 0.0021426983 0.0018234049 0.0015568957 -0.93352365 0.03611334
569000000 -0.92890728 0.042704958 -0.00035341247 0.00091335224 0.0003069443 0.0012027841 -0.93373227 0.035399809
570000000 -0.92769015 0.040966567 0.00081637164 0.00066380261 0.0010176046 0.0011541651 -0.93419462 0.03777577
571000000 -0.92936122 0.042053886 0.00037441353 0.0013395363 -3.3063396e-005 0.0014448786 -0.93330038 0.036651775
572000000 -0.92812258 0.042679828 0.0002717739 0.00067678909 0.0011095917 0.0022376459 -0.93359065 0.037643895
573000000 -0.93012154 0.042449519 0.00073083385 0.0012263798 -0.00032441123 0.0018656777 -0.93364894 0.037907168
574000000 -0.92863894 0.04169878 -0.0004401785 0.0014153866 -0.00013262592 0.0019726506 -0.93423724 0.036706612
575000000 -0.92739856 0.042831585 0.0003674051 0.002234804 0.00019258502 0.0021536481 -0.93384558 0.037054688
576000000 -0.92929131 0.043015368 0.00077181286 0.0014613678 0.0001525152 0.002344839 -0.93334359 0.037285477
577000000 -0.92869836 0.042305838 0.0014912643 0.0015750201 -0.00056386297 0.0013229382 -0.93310267 0.03762684
578000000 -0.92814147 0.041819345 -2.628509e-005 0.00047753131 -0.00017936455 0.00081536919 -0.93217945 0.03618177
579000000 -0.92753226 0.042258546 0.00058595714 0.0020694269 0.00061344652 0.0010433907 -0.93311715 0.037430264
580000000 -0.92908478 0.04247139 4.8744929e-005 0.0011051308 0.00083195715 0.002041135 -0.933119 0.036511473
581000000 -0.92974555 0.041904692 5.3328291e-005 0.0019792863 9.8536097e-005 0.0018388827 -0.93401897 0.038181078
582000000 -0.92850572 0.043232847 0.00041490342 0.0017440206 0.00033321363 0.0013037639 -0.93385047 0.036268231
583000000 -0.9282589 0.042721134 0.00095473847 0.0012428566 -7.9273595e-006 0.0013234487 -0.93326432 0.037509251
584000000 -0.92970377 0.042921327 0.00016439325 -0.00015732083 -0.0002747759 0.0016048424 -0.93366826 0.039315622
585000000 -0.93010205 0.041803587 -0.00023404951 0.0011514282 0.00053961697 0.0010039588 -0.93270516 0.039024152
586000000 -0.93077141 0.042534545 0.00029703591 0.0016488518 0.00026062655 0.0018065894 -0.93324643 0.036169745
587000000 -0.92961651 0.042204499 -0.00073016825 0.0022031791 0.00056407636 0.0017980519 -0.9318974 0.038218297
588000000 -0.92960709 0.042202588 -2.3442058e-006 0.002077986 0.00050094078 0.001824894 -0.93385589 0.03818316
589000000 -0.92739266 0.042761616 -7.0558504e-005 0.0012429606 -0.00027395974 0.0019991132 -0.9335162 0.036384456
590000000 -0.92923671 0.044199023 -0.00075039006 0.0025883801 -0.0010123036 0.00020176197 -0.93240112 0.037808057
591000000 -0.92981941 0.043586623 9.0309732e-005 0.0017635324 0.00062227721 0.0017849689 -0.93264496 0.036278859
592000000 -0.93024415 0.043617111 0.00085813034 0.00075354305 3.6205458e-007 0.0019947623 -0.933182 0.037791844
593000000 -0.92847139 0.042751718 4.9935476e-005 0.0012376038 0.00059178023 0.0019945675 -0.93375248 0.037777673
594000000 -0.92885756 0.043543339 0.00021745847 0.0010069223 -7.2976777e-006 0.0020296925 -0.93469095 0.037797961
595000000 -0.9287824 0.043479644 -0.00037795899 0.0019672799 -0.00058797258 0.0025700782 -0.93339586 0.039225236
596000000 -0.92873216 0.043636989 -7.5930948e-005 0.001273302 -0.00093451084 0.0024323547 -0.93262428 0.038640596
597000000 -0.92904139 0.044710886 0.00099769724 0.0017694738 0.00078794803 0.0016694445 -0.93449032 0.037101455
598000000 -0.92919707 0.043505091 0.00059086119 0.0014758343 -0.00024615822 0.0014935555 -0.93503976 0.037768807
599000000 -0.92933089 0.043468602 0.00052187976 0.0012227758 0.00062453368 0.0016356711 -0.9320004 0.037493166
600000000 -0.92937285 0.044302002 0.0005169037 0.0010658929 -0.00040000718 0.0020268401 -0.93215102 0.039406806
601000000 -0.9280805 0.044132099 -0.00031134326 0.00097173086 0.00041564862 0.0021048742 -0.93412864 0.03688458
602000000 -0.92883986 0.043604735 0.0014151115 0.0022613239 -0.00027483155 0.0021097998 -0.93299866 0.039657403
603000000 -0.93083185 0.045360971 -5.8700875e-006 0.0015233213 0.00043938798 0.0021759137 -0.9327336 0.038083535
604000000 -0.92706418 0.046239242 -0.00025773651 0.0013870475 -0.00040094083 0.0014407352 -0.93206441 0.036832407
605000000 -0.92806852 0.044732466 -0.00018104557 0.0025080109 -0.0014651184 0.0016734818 -0.93298817 0.036786415
606000000 -0.92996186 0.044467483 0.00059896597 0.0027446109 0.00010321179 0.0016487731 -0.93330783 0.03909383
607000000 -0.92663389 0.043155268 0.00068533217 0.0012459306 0.00019146116 0.0021405718 -0.93252259 0.036094479
608000000 -0.92794693 0.044110771 0.00015483767 0.00085432071 -0.00036605465 0.0024413499 -0.93361652 0.036244951
609000000 -0.92926878 0.045005377 -0.00036080345 0.0024416607 0.00026632068 0.0014500159 -0.93480319 0.037774563
610000000 -0.92893964 0.045113556 0.00043586071 0.0018502426 0.0006062098 0.0011975945 -0.93305826 0.039027255
611000000 -0.92904216 0.045261197 0.00043602224 0.0013044083 -0.00019755801 0.0011132583 -0.93181646 0.040013213
612000000 -0.92878622 0.045781001 0.00017511241 0.0015965437 -0.00013168812 0.00066882075 -0.9316166 0.038036045
613000000 -0.92837113 0.045537584 -0.00026578098 0.0009424712 0.00046013118 0.0020258902 -0.93313718 0.037009135
614000000 -0.92778438 0.045116358 0.00052598078 0.0034552729 0.0012139571 0.0011636654 -0.9334048 0.039050795
615000000 -0.92849606 0.045449678 -0.00042222388 0.0016185256 0.00026217173 0.00050171826 -0.93292254 0.037658948
616000000 -0.92922986 0.04621686 0.0011627662 0.00058437232 0.00056622381 0.0021668635 -0.93308359 0.038929686
617000000 -0.92963028 0.045211572 0.00050032866 0.0013198751 -0.0003891119 0.0014499255 -0.93252611 0.039755139
618000000 -0.92857194 0.045688819 0.0001560691 0.0012611469 -0.00050196896 0.0023906264 -0.93252367 0.038438227
619000000 -0.9285028 0.047773018 0.00041787192 0.0014264799 -0.00017163662 0.0012046932 -0.93279552 0.038957585
620000000 -0.92758548 0.046793699 0.00022936467 0.001961295 0.00030407662 0.0022197112 -0.93164104 0.039598316
621000000 -0.9278509 0.046874225 0.00021446639 0.0015523784 -0.00040270048 0.0013637632 -0.93385506 0.040760983
622000000 -0.92763436 0.046555843 0.00092197786 0.0020175255 0.0016817092 0.0015133119 -0.93400103 0.040221259
623000000 -0.92759097 0.046304166 0.00041687756 0.001812997 2.2504102e-005 0.0014146208 -0.93277705 0.038519997
624000000 -0.92793703 0.045932826 0.00092914322 0.0020977606 0.00070593046 0.0012262928 -0.93284208 0.038291831
625000000 -0.92893028 0.049368069 0.00018464786 0.0011035792 0.00078531861 0.0021957585 -0.932818 0.039442863
626000000 -0.92605436 0.048023414 0.0006752839 0.0020697906 -0.00010504467 0.0019555474 -0.93215674 0.039846331
627000000 -0.92960703 0.047347873 0.00035940629 0.0020910385 0.00066097849 0.00053005986 -0.93238586 0.040610168
628000000 -0.92990518 0.047762174 0.00010758577 0.0019468833 0.00037442762 0.0014272737 -0.93209815 0.04116891
629000000 -0.92811328 0.047611792 0.00019935329 0.0012255707 -0.0011993907 0.001346853 -0.9327929 0.04087032
630000000 -0.92868769 0.047342598 0.00056885945 0.0016308083 0.00049178803 0.0017655316 -0.93315899 0.040218782
631000000 -0.92825758 0.048917685 0.00035698432 0.001555062 -1.2476225e-005 0.0020165241 -0.93237031 0.040401358
632000000 -0.92954993 0.047005735 0.00011244867 0.00061191915 0.00073816389 0.0010009836 -0.93180138 0.039981604
633000000 -0.92834985 0.048951108 -8.8800211e-005 0.0015110102 0.00010476186 0.0019086931 -0.93331051 0.039116271
634000000 -0.92865837 0.049676642 0.00069786055 0.0016994498 0.00071235182 0.0016123033 -0.9325524 0.039934043
635000000 -0.92916536 0.048066393 0.0003360582 0.0012370351 0.00044866008 0.0014515934 -0.9321478 0.040368255
636000000 -0.93018037 0.048819907 0.0001121087 0.00090166845 -0.00062374462 0.0022205943 -0.93193841 0.039670359
637000000 -0.92935222 0.047452416 0.00019351489 0.00084451039 0.0003991345 0.0023719508 -0.9327336 0.040354256
638000000 -0.92677045 0.049311709 -7.3899806e-005 0.0011878054 -0.0001320415 0.0013511187 -0.93249518 0.039709393
639000000 -0.92897707 0.049160887 -0.00048017834 0.0021242378 -0.00039552103 0.0022938226 -0.9319849 0.042880211
640000000 -0.92621565 0.047719978 -0.00023730472 0.001426539 0.0018365268 0.00078661571 -0.93186516 0.041405756
641000000 -0.92688841 0.049260728 -0.00017650476 0.0020800813 0.0007929178 0.00096369785 -0.93232375 0.040524062
642000000 -0.92929316 0.050296269 -4.4213376e-008 0.0015187671 0.00020891895 0.0012103667 -0.93339765 0.039695751
643000000 -0.92768478 0.049092647 -0.00072336837 0.0014898399 0.00080526347 0.0016160677 -0.93334043 0.041227601
644000000 -0.92794567 0.049607445 -0.00085620984 0.0018296064 0.00062326959 0.0022395418 -0.93260723 0.041542701
645000000 -0.92902207 0.04919317 5.9594995e-006 0.0014362729 0.00034422002 0.0022372981 -0.93296814 0.041260518
646000000 -0.92849869 0.048592616 -0.00068251666 0.00099918374 0.00047869427 0.0004110061 -0.93195373 0.040906243
647000000 -0.92958421 0.049121462 0.000360379 0.001898467 0.00028695769 0.0012522729 -0.93221915 0.040788434
648000000 -0.9276461 0.050291318 0.00012327515 0.0021620097 0.00083115528 0.0021636526 -0.93142039 0.041853283
649000000 -0.92904574 0.049715191 -0.00049334409 0.0022053549 -9.5011499e-005 0.0019211491 -0.93179739 0.041217931
650000000 -0.92859769 0.048993673 -0.00030965937 0.0021114561 0.00059009815 0.0022102774 -0.93323368 0.041434161
651000000 -0.92778569 0.050324827 0.00095362437 0.0016933373 -0.00053467939 0.0013079448 -0.93321407 0.040363058
652000000 -0.9279229 0.050402649 0.00079148926 0.0001132711 0.00016176987 0.0018998238 -0.93276793 0.040718358
653000000 -0.92814577 0.049777299 -0.00035214555 0.0019780388 0.00027031155 0.0018561304 -0.93297082 0.042019617
654000000 -0.92904723 0.050996594 0.00042644213 0.001562089 0.0010758528 0.0021549831 -0.93339878 0.041292913
655000000 -0.92697656 0.050334219 0.0006423961 0.0013038157 -4.8408638e-005 0.0020400858 -0.93214077 0.042160906
656000000 -0.92850828 0.048372224 -0.00079399109 0.0017416305 0.00055571384 0.0022694853 -0.93333077 0.041722577
657000000 -0.92760777 0.049795844 0.00055244425 0.0011046322 0.00059071806 0.0016893542 -0.93328059 0.041241322
658000000 -0.9278748 0.050104976 0.00010198943 0.0018858617 0.00096394581 0.0014347513 -0.93244821 0.041882847
659000000 -0.9267168 0.050572913 0.00029653547 0.0017929355 0.00043211287 0.0021691297 -0.93353951 0.041586231
660000000 -0.92831874 0.051264044 -0.00043196927 0.0021819638 0.0010497521 0.001622336 -0.93163007 0.041589521
661000000 -0.92763275 0.051208477 7.8034784e-005 0.0010995979 0.00030939077 0.0015647897 -0.93249428 0.041831702
662000000 -0.92757785 0.051321834 -3.3798085e-005 0.0023377785 0.00060025795 0.00097722805 -0.93315351 0.041849691
663000000 -0.92769623 0.050978079 -0.00097034097 0.0014346093 0.00018244318 0.0015732164 -0.93358433 0.042158369
664000000 -0.92680633 0.049433913 2.6061069e-005 0.0026174893 0.00049320597 0.0021018898 -0.93288976 0.043279104
665000000 -0.92741013 0.050954249 0.00095235108 0.0015114151 0.00026621736 0.0021984798 -0.93187296 0.042849932
666000000 -0.92992592 0.050271064 0.00027915509 0.0020205346 0.00057973998 0.0017772258 -0.93215007 0.042171657
667000000 -0.92717749 0.051176727 0.00011390989 0.0022594803 0.0012679485 0.0018604554 -0.93252361 0.040716641
668000000 -0.92703605 0.051299334 -0.00067020877 0.0024694763 0.00063607062 0.0017855623 -0.93177849 0.043089606
669000000 -0.93029672 0.050412264 0.00027921697 0.0017454633 0.00050051941 0.0020176957 -0.93100339 0.042573608
670000000 -0.92810327 0.051919177 0.0011742036 0.0017077883 0.00026650535 0.0015734652 -0.93254781 0.043048084
671000000 -0.92657882 0.049725894 -5.6121629e-005 0.00160513 4.4630983e-006 0.0019865746 -0.93342036 0.043394256
672000000 -0.92844468 0.05326381 0.00027339239 0.0011099332 0.0015884644 0.00138114 -0.933119 0.041751627
673000000 -0.92878497 0.050680883 0.00075322291 0.0024582848 0.0013850381 0.0022055823 -0.93283236 0.042751767
674000000 -0.92854476 0.050084502 0.00031999277 0.0030283614 0.0012048386 0.0020749166 -0.93307525 0.04147194
