!Keysight Technologies,M9374A,MY55442783,A.12.55.05
!Date: Wednesday, May 19, 2021 15:28:51
!Correction: S11(Full 2 Port(1,2)) 
!S21(Full 2 Port(1,2)) 
!S12(Full 2 Port(1,2)) 
!S22(Full 2 Port(1,2)) 
!S2P File: Measurements: S11, S21, S12, S22:
# Hz S  RI   R 50
500000000 -0.92951947 0.039752644 0.00017683319 0.0013712897 0.00010902444 0.0021562541 -0.93313819 0.034096185
501000000 -0.92896605 0.040709466 0.0010901496 0.0012897078 2.6609099e-005 0.00091586175 -0.93245786 0.031826746
502000000 -0.92700952 0.039285351 0.0023578987 0.0015484635 0.00093389436 0.00098864047 -0.93402499 0.033695839
503000000 -0.9290154 0.039611794 0.00020621569 0.00069112662 0.00054668612 0.001913737 -0.93230391 0.032970194
504000000 -0.92816377 0.039220136 0.00071682688 0.0023713761 0.00037088353 0.0016377108 -0.93329322 0.033730064
505000000 -0.92818373 0.039688416 -0.00033618722 0.002068548 0.0002497776 0.0026074105 -0.93412238 0.034152284
506000000 -0.92854416 0.040931527 0.00023091993 0.0021937715 0.00030000173 0.00087967509 -0.93248749 0.035130039
507000000 -0.92936736 0.039868686 0.00042369755 0.0013971046 0.00020600366 0.0015412529 -0.93305099 0.034556217
508000000 -0.92877871 0.04148636 -0.00010942639 0.0020464638 0.0013663289 0.0012874483 -0.93335825 0.033901941
509000000 -0.92895496 0.038882513 0.00045568834 0.0020759422 0.0012236704 0.00083868392 -0.93295377 0.035208415
510000000 -0.92644882 0.041972715 0.00020411263 0.00069719082 0.00053663144 0.001357669 -0.9321388 0.032881875
511000000 -0.92893142 0.04238642 0.00064154551 0.00070276175 0.00012888898 0.0014659857 -0.93273962 0.034422804
512000000 -0.92884856 0.040311895 0.00068779138 0.0013328774 0.00090392603 0.001236074 -0.93256742 0.034924138
513000000 -0.93027353 0.041870732 0.0002091077 0.0022173706 4.2313095e-005 0.0018336446 -0.935072 0.033765301
514000000 -0.93033069 0.040432509 0.00063369278 0.0020556019 0.00014376279 0.0010851175 -0.93353951 0.035420254
515000000 -0.92705256 0.040222187 -2.7415219e-005 0.002157799 0.00069028966 0.0016130145 -0.93341172 0.035053764
516000000 -0.92819536 0.041762028 0.00029407209 0.002286094 0.0010014341 0.001726034 -0.93160671 0.03541062
517000000 -0.92890847 0.040641665 0.00097913353 0.0011146866 0.0001317002 0.0023057447 -0.9352296 0.035365157
518000000 -0.92659652 0.039871894 0.00046324433 0.0009483202 0.00066161784 0.00053444842 -0.93179929 0.035478264
519000000 -0.92720991 0.041767631 -0.00080911315 0.0013254998 -5.3633459e-005 0.0014379476 -0.93134326 0.035223719
520000000 -0.92625219 0.041782197 0.00040781699 0.0015417038 -0.00024135326 0.0015703327 -0.93239105 0.036646154
521000000 -0.92888141 0.040676069 -8.3250321e-005 0.0013796573 0.000347825 0.0011727535 -0.9325152 0.035501722
522000000 -0.93020928 0.040055819 0.00021213503 0.0012643916 0.00042358949 0.0018297832 -0.9336977 0.035346709
523000000 -0.92917389 0.042095028 -0.00040242044 0.0010655785 -0.00016943371 0.00056175562 -0.93230373 0.036614716
524000000 -0.92830306 0.043185007 0.0010003739 0.0015455082 0.00026350832 0.0015258039 -0.93255019 0.036609605
525000000 -0.92770034 0.042959288 -0.00054560602 0.0012019851 -0.00018276752 0.0014681681 -0.93466997 0.036498498
526000000 -0.92936444 0.043191645 -0.00084133877 0.0020227379 0.00041149187 0.0030622936 -0.93337429 0.034978274
527000000 -0.92961013 0.041199617 0.0011871512 0.0013217316 -0.0005864983 0.0028791965 -0.93148685 0.035415608
528000000 -0.92794019 0.042751178 5.8377751e-005 0.0010355505 0.00057928468 0.0017893619 -0.93237895 0.037247665
529000000 -0.92909628 0.041794978 0.00089282292 0.0021115807 0.00031317407 0.0015309493 -0.93367493 0.036962543
530000000 -0.92812109 0.044098124 -0.00055624254 0.0012013215 0.0013918289 0.0019740304 -0.93320382 0.036636572
531000000 -0.92895728 0.041656099 0.00042517309 0.00080095319 0.00057922659 0.0012014097 -0.93357354 0.037062161
532000000 -0.92896122 0.041684169 -0.00015626595 0.0021761034 0.00021135324 0.0011357639 -0.93273032 0.037665457
533000000 -0.92932844 0.043133885 -0.00013329879 0.0019087585 -0.00027490492 0.001318431 -0.9327184 0.037198316
534000000 -0.92876261 0.041385163 -2.3822668e-005 0.00049706385 -0.00051957089 0.00082487607 -0.93405324 0.036853381
535000000 -0.92827612 0.042384755 0.00025074239 0.001629518 0.00047729464 0.0014988806 -0.93151045 0.037341688
536000000 -0.92781204 0.042100523 0.00051558751 0.0010430547 0.00024565891 0.0015470348 -0.93399161 0.036741126
537000000 -0.92893779 0.041650418 -0.00037913088 0.0022973421 0.00028030539 0.001877333 -0.93450117 0.039347649
538000000 -0.92866999 0.042258617 0.00025369073 0.0013320616 0.00056874694 0.0015406479 -0.93392283 0.037097868
539000000 -0.92942065 0.043152113 0.00097209273 0.00099627848 0.00095425121 0.00088714552 -0.93256414 0.037794188
540000000 -0.92912531 0.043073803 -0.00027324713 0.0014952075 -0.00010944437 0.0016389599 -0.93307924 0.037051897
541000000 -0.92815679 0.04052401 -0.00015069904 0.0018951208 0.00061240693 0.0022408483 -0.93279511 0.039018687
542000000 -0.92919654 0.042659104 0.00037072322 0.0017069929 0.00016649053 0.0021905655 -0.93296921 0.038267318
543000000 -0.92946613 0.04326595 0.0012152662 0.00081941712 0.00058421353 0.00092517695 -0.93194753 0.038203336
544000000 -0.92810887 0.04324238 0.00030473294 0.0017966438 0.00072289602 0.0012156783 -0.93112212 0.039321721
545000000 -0.92827302 0.042827364 0.00064064167 0.0010300406 -0.00029640924 0.0012541184 -0.93238974 0.038507912
546000000 -0.92734915 0.043072108 0.00081267173 0.0020454561 -0.00025198612 0.0010747905 -0.9327237 0.037480637
547000000 -0.92746854 0.04380225 9.8556964e-005 0.0019047478 0.00076708873 0.0017001572 -0.93550444 0.03741502
548000000 -0.92724723 0.044044383 0.00010498711 0.0014650328 -0.0004136831 0.0018028623 -0.93283528 0.038841568
549000000 -0.92720139 0.044677451 0.00067909161 0.0011637072 0.00031851645 0.00015994137 -0.93385375 0.03775344
550000000 -0.92728335 0.043649495 0.00078233739 0.0014159363 0.00045840003 0.0017254875 -0.93207383 0.038310293
551000000 -0.92856872 0.044125192 3.613624e-005 0.00074695941 0.00062334939 0.0014145713 -0.9330408 0.039106362
552000000 -0.92802751 0.04289319 -0.00044223163 0.0021302437 0.00084896892 0.0012356404 -0.93098927 0.039449196
553000000 -0.92814636 0.043734666 -0.0014621192 0.0020229351 0.00098909135 0.00020548503 -0.93261355 0.03878659
554000000 -0.92747265 0.043685291 -0.0010710803 0.0017372625 0.00041213582 0.0012421712 -0.93337083 0.037386559
555000000 -0.92806196 0.042867254 0.00093775394 0.0021393006 -0.00023883207 0.00064189237 -0.93296534 0.038371205
556000000 -0.92877668 0.042609151 0.001231718 0.001587118 0.00055952539 0.0018715021 -0.93159211 0.03935295
557000000 -0.92858267 0.044115398 0.00024720497 0.0019680655 -0.00069301814 0.0015304718 -0.93206704 0.038724277
558000000 -0.92897248 0.043330617 0.0016249 0.00202632 0.00078596792 0.0014431629 -0.93322974 0.038934585
559000000 -0.92654592 0.04336296 0.00026429194 0.00098431506 -0.00045369045 0.00088088942 -0.93278778 0.04058088
560000000 -0.92820781 0.045015737 -0.00051419606 0.00174153 -0.00013763354 0.0014930667 -0.93262434 0.038866915
561000000 -0.92893255 0.043919537 7.9297657e-005 0.0011195171 -1.4838554e-005 0.0018487127 -0.93285543 0.039208364
562000000 -0.92699802 0.045570049 -0.00033391078 0.0018272389 0.00029936258 0.0018431583 -0.93344194 0.038757969
563000000 -0.92748588 0.044112131 0.00037771277 0.0015497742 0.00030318514 0.0015962286 -0.93274343 0.039751533
564000000 -0.92998618 0.043868713 5.7041729e-005 0.0013546335 -0.00043339777 0.0019644583 -0.93438745 0.038843669
565000000 -0.92854375 0.043000713 -3.1814605e-005 0.0012984795 6.4722379e-005 0.00072679145 -0.93183094 0.03876609
566000000 -0.92855608 0.04187094 -0.00022932721 0.00050507957 0.00057536154 0.0013679406 -0.93159187 0.039456367
567000000 -0.92857993 0.043257482 0.00066874054 0.0022173752 9.0164125e-005 0.0016450759 -0.93226629 0.038608
568000000 -0.92804497 0.042782485 7.4622592e-005 0.0010715242 0.00062929559 0.00092381792 -0.9325332 0.037209548
569000000 -0.9275195 0.044964105 0.00013511033 0.0019987382 0.001303005 0.0016878792 -0.93183571 0.038183834
570000000 -0.9264375 0.043861363 0.00034552955 0.0012730331 -0.00028724369 0.0013937812 -0.9321596 0.039673779
571000000 -0.92883432 0.044407099 0.0007322263 0.0015750857 0.00076016696 0.0014556252 -0.93126249 0.040038768
572000000 -0.92790043 0.043094747 0.0003896163 0.0017290643 0.0011044979 0.0015671803 -0.93186307 0.039912678
573000000 -0.92716914 0.043695323 0.00079266093 0.0018567522 0.00036456797 0.00077437208 -0.9322744 0.039572049
574000000 -0.92647165 0.042688474 0.00061316963 0.0018295411 -6.5541542e-005 0.0016348826 -0.93432748 0.038426824
575000000 -0.92762411 0.045223966 -7.2773757e-005 0.0014758775 0.0004982822 0.0019739589 -0.93319762 0.038937192
576000000 -0.92678916 0.044601582 3.8471695e-005 0.00092910958 0.00088957802 0.0015774615 -0.93224454 0.03959243
577000000 -0.9275797 0.044096801 -3.5853718e-005 0.0021781968 0.00080319133 0.0015795454 -0.9329167 0.038543701
578000000 -0.92773998 0.043311846 -0.00014178951 0.0010055408 2.7532502e-005 0.0020866976 -0.93154025 0.03841586
579000000 -0.92758256 0.043646816 0.00080860429 0.0016709662 0.00087266951 0.0016234404 -0.93214673 0.039105788
580000000 -0.92778331 0.042592537 0.00028518052 0.0025450499 0.0013759369 0.0017977364 -0.9323833 0.03899432
581000000 -0.92885971 0.045004088 -0.00018778752 0.0018463992 -0.00014013897 0.0016541963 -0.93420184 0.037579115
582000000 -0.92735493 0.043942835 -0.00037724074 0.0016289214 0.0005560338 0.0017313855 -0.93238664 0.039135762
583000000 -0.92754745 0.043574668 5.3788626e-005 0.00098592648 -0.00034794302 0.0017409669 -0.93170822 0.038647372
584000000 -0.92810869 0.044692818 0.0013604766 0.0017447448 0.00023634352 0.0017441713 -0.9323647 0.03969299
585000000 -0.92789018 0.045047037 0.00060725998 0.0014091864 0.00012842547 0.0021815042 -0.93316483 0.04021861
586000000 -0.92842752 0.044851758 0.00047819316 0.0014415059 0.00082030584 0.0020092085 -0.93245703 0.03990116
587000000 -0.92862552 0.047267094 0.00012228364 0.001159062 0.00057814916 0.0012320793 -0.93109155 0.039551284
588000000 -0.92792356 0.045551047 -0.00079902908 0.0015625359 -0.00025853873 0.0013355245 -0.93131 0.039455626
589000000 -0.92702585 0.044835795 -0.00010913889 0.0024980395 -9.1756236e-005 0.0020631026 -0.93312943 0.039675701
590000000 -0.92828459 0.045253426 -5.5745295e-005 0.0021516462 0.0011872456 0.0015190027 -0.93273288 0.038369797
591000000 -0.92796546 0.047060341 2.3613658e-005 0.0012321817 -0.00051640463 0.0012248076 -0.93184102 0.038341805
592000000 -0.92829329 0.043663997 -0.00018939633 0.0020791001 0.0013001423 0.0015304942 -0.93215692 0.038325056
593000000 -0.92761397 0.044457313 -0.00028220087 0.001617547 0.00090037222 0.00038861349 -0.9318065 0.039225183
594000000 -0.92873043 0.044784702 0.00044146724 0.0021643091 0.0013691576 0.00095379411 -0.93240869 0.041563552
595000000 -0.92836189 0.04621264 0.00084841426 0.0015131418 -0.00067736272 0.0010717085 -0.93429995 0.039089628
596000000 -0.92744744 0.047098447 0.00043142118 0.0015014773 0.00025213978 0.0015125473 -0.93227893 0.039840717
597000000 -0.92851913 0.044864956 -0.00051071594 0.001136767 0.00016695439 0.0016605021 -0.93416178 0.040282957
598000000 -0.92782897 0.047790498 0.00068411819 0.0014295236 -0.00017719228 0.00063081906 -0.93400216 0.040777985
599000000 -0.92873818 0.046967935 0.0006202503 0.00099563482 1.6661797e-005 0.0015057375 -0.93292844 0.03914649
600000000 -0.9285937 0.046176415 -0.00013805045 0.0016182003 -0.00087267166 0.00044647584 -0.93315363 0.040053818
601000000 -0.92796052 0.045887984 0.0011638481 0.0016483035 0.00061041769 0.0014247597 -0.93231666 0.040050566
602000000 -0.92776817 0.047276516 0.00052527059 0.0019444221 -5.2108353e-006 0.00073891861 -0.93446708 0.040428922
603000000 -0.92744684 0.047318753 -1.4000937e-005 0.0018080446 0.00045530501 0.0021505682 -0.93241173 0.039822243
604000000 -0.92849529 0.049451698 -8.3993902e-005 0.0011623288 0.00061350054 0.0017805415 -0.93393177 0.039355014
605000000 -0.92855459 0.046308685 6.2224986e-005 0.0012831693 -0.00057421852 0.00085143064 -0.93262649 0.040328
606000000 -0.92904007 0.046420272 0.00053913723 0.0014956427 0.00049784157 0.0020355608 -0.93219495 0.040879663
607000000 -0.92763019 0.047286216 0.00035481859 0.0010868002 0.000395132 0.0011507792 -0.93207115 0.040887199
608000000 -0.92976516 0.048274193 0.00042564471 0.0023803494 -0.0002083471 0.0019007619 -0.93185854 0.04069569
609000000 -0.92774409 0.046859909 0.00056025421 0.0012911812 0.00025065715 0.0007467398 -0.93156856 0.04173388
610000000 -0.929452 0.048424043 4.4696899e-005 0.0030501978 0.00028550663 0.0014413687 -0.93146598 0.040558361
611000000 -0.92629802 0.047682431 0.00048629986 0.0014255883 0.0012070249 0.0025744434 -0.93216246 0.040705662
612000000 -0.92712307 0.047755402 -0.00051074277 0.0015551982 0.00039230185 0.0012484229 -0.93441218 0.039185014
613000000 -0.92736614 0.047446717 -0.00033611379 0.00038020912 0.00065795821 0.0025444932 -0.93136257 0.041830242
614000000 -0.92729259 0.048186623 0.00079007848 0.001413129 -0.0006371882 0.0022501415 -0.93389034 0.039820679
615000000 -0.92732662 0.048813384 -0.00021645013 0.002220741 0.00012378552 0.0016886735 -0.93217391 0.040035635
616000000 -0.92763174 0.048911583 -4.7216523e-005 0.0021207717 0.00016701581 0.0016149154 -0.93123853 0.04273665
617000000 -0.92824394 0.049856622 -0.0005778725 0.0014199428 0.0013237647 0.0023792002 -0.93435514 0.042370979
618000000 -0.92709833 0.048457254 -0.0001909284 0.0014972192 0.00073281355 0.0010345171 -0.93153518 0.041666441
619000000 -0.92786163 0.0488775 0.00020738352 0.0018707485 0.00042038172 0.0016323625 -0.9317649 0.042556882
620000000 -0.92798245 0.050150231 -0.00015887459 0.0017347082 0.0002639814 0.00086742162 -0.93280077 0.042820185
621000000 -0.92932075 0.049793221 -0.00012852959 0.0022276235 0.00073153374 0.0022854316 -0.93099159 0.039908342
622000000 -0.92890054 0.047220401 -0.00019973214 0.0031451846 -0.0004922417 0.0022073835 -0.93375254 0.042104851
623000000 -0.9273693 0.04966953 0.001241853 0.0019416354 0.00033610006 0.0021810059 -0.93161559 0.041921463
624000000 -0.92751497 0.05018793 0.00039554099 0.0016700833 -0.00039813828 0.0014667908 -0.93194264 0.043196112
625000000 -0.92689204 0.049428217 -0.0011580457 0.00081573328 6.4436157e-005 0.002678016 -0.93166757 0.041459434
626000000 -0.92710775 0.050561704 0.00037568994 0.00250544 0.0011105338 0.0016304571 -0.93193692 0.042905763
627000000 -0.92862725 0.049550854 0.00067634846 0.0010983889 0.00094038568 0.0014579599 -0.93224382 0.043662593
628000000 -0.92837179 0.049569115 -0.00041800618 0.001234563 -0.0002771797 0.0022617537 -0.93279517 0.042240161
629000000 -0.9283306 0.04909566 -0.00078041106 0.0025927841 -1.6798886e-005 0.0029884274 -0.9321233 0.043338306
630000000 -0.92616993 0.049720272 0.00022416841 0.00093148008 0.00075826119 0.001397555 -0.93208659 0.043957718
631000000 -0.92709619 0.050107814 0.0011960407 0.0022237676 0.00011418527 0.0018562102 -0.93115687 0.042045545
632000000 -0.92826766 0.048958231 -0.00059814448 0.00061446085 -0.00013949703 0.0014309188 -0.93187004 0.041855514
633000000 -0.92677313 0.05008661 0.0018545439 0.0014495518 0.00032639006 0.0021956549 -0.93148088 0.042222284
634000000 -0.92808276 0.051457305 -0.00020919534 0.0019222596 6.4757878e-005 0.0019659582 -0.9328627 0.042467702
635000000 -0.92572737 0.050636433 0.00041826232 0.0012227809 -9.7047647e-005 0.0017284437 -0.93164575 0.042499281
636000000 -0.92781639 0.051605411 0.00044300786 0.0021221307 8.4511325e-005 0.002448167 -0.93334526 0.042631879
637000000 -0.92575103 0.050610837 0.00024754743 0.0019310305 0.00069013366 0.0028554411 -0.93197376 0.042083215
638000000 -0.92622137 0.050744843 -0.00045226541 0.00167588 0.00071710255 0.0010310587 -0.9323374 0.042439487
639000000 -0.92836326 0.051356722 -0.00022019364 0.0019997661 0.00036261231 0.0012154384 -0.93090028 0.04386232
640000000 -0.92710406 0.050796915 0.00088698103 0.0021947152 -0.00035895835 0.0024861817 -0.93186677 0.041846216
641000000 -0.9272601 0.050434109 0.0011528049 0.0020549491 -0.00016656404 0.00090801244 -0.93046039 0.041445717
642000000 -0.92706639 0.050020758 0.00012059853 0.0014740349 -6.2393257e-005 0.0010274264 -0.93092573 0.044500045
643000000 -0.92861897 0.051639866 -0.00016634091 0.0020863994 -0.00014852168 0.0019172422 -0.9308185 0.042188473
644000000 -0.92714798 0.05384947 3.4826691e-005 0.0019784609 7.4760552e-005 0.0018309373 -0.93182963 0.045675408
645000000 -0.92770529 0.050788336 -0.00035130238 0.00225525 0.00025716386 0.00033888014 -0.93220395 0.043989345
646000000 -0.92721123 0.052027762 -0.0011496468 0.0018245673 0.0010077363 0.0016869167 -0.93029964 0.042962965
647000000 -0.92835504 0.05226066 -3.6047983e-005 0.002047932 0.0011947878 0.0026220842 -0.93220764 0.043170951
648000000 -0.92602867 0.054001946 -0.00054311682 0.0024905573 -0.00026852381 0.0015257499 -0.93149996 0.045278061
649000000 -0.92716575 0.051436126 -0.00033809259 0.0018702872 0.00034661125 0.0011350339 -0.93250859 0.044950258
650000000 -0.92552364 0.052552674 -0.00076506095 0.0028713739 -0.00017588565 0.0032155686 -0.93084782 0.045854256
651000000 -0.92696059 0.052832004 -0.00038310714 0.00116876 0.00013899681 0.0015104401 -0.9318884 0.045580849
652000000 -0.92586452 0.053258155 0.00037456502 0.0014202119 0.00015897043 0.0022212809 -0.93054849 0.044178843
653000000 -0.92660236 0.050807308 0.00025580553 0.0011786103 0.00014273818 0.0015947704 -0.93136132 0.0430866
654000000 -0.92808676 0.05423208 -0.00041217604 0.0020803558 -0.00025118477 0.0014049719 -0.93252355 0.044078428
655000000 -0.92683208 0.053366948 -0.0004307112 0.0026934214 7.7886536e-005 0.0021038172 -0.93270737 0.04488761
656000000 -0.92654109 0.054565884 -0.00063728733 0.0022981062 0.00091964635 0.0018405187 -0.93296283 0.044024546
657000000 -0.92698586 0.052638359 0.0015831152 0.0017649502 -0.0004678152 0.0012733903 -0.93295819 0.044533558
658000000 -0.92661279 0.052522782 6.1817314e-005 0.0016628715 -4.8303762e-005 0.0014790491 -0.93132454 0.043601871
659000000 -0.92692327 0.053681843 3.7771581e-005 0.0024679343 0.00063801452 0.0019065016 -0.9318276 0.044470478
660000000 -0.9281438 0.054447658 0.00096031983 0.0013060181 -0.00043163248 0.0020885542 -0.93179697 0.044628948
661000000 -0.92681092 0.05372756 -0.00041948658 0.0022193445 0.0008042627 0.0023681794 -0.9319455 0.044969354
662000000 -0.92874837 0.052817654 0.0010547192 0.0012014837 0.00075145694 0.0023749822 -0.93175751 0.04405646
663000000 -0.92914093 0.053688191 0.00069439301 0.0022278179 -8.2035178e-005 0.0019077387 -0.93215823 0.044364698
664000000 -0.9283765 0.053432986 0.0005604981 0.0013244818 0.00038010423 0.0011833734 -0.9303869 0.043875821
665000000 -0.92660868 0.053468674 0.00056636764 0.0012397283 -0.0010094382 0.0025089469 -0.93214244 0.0461738
666000000 -0.92733198 0.054248363 0.0012146228 0.0024033342 -0.00019728513 0.0016097991 -0.93187028 0.043628514
667000000 -0.92549098 0.05395193 0.00019044033 0.001936615 0.00013890989 0.0016859286 -0.93222153 0.043875448
668000000 -0.92732626 0.052715648 4.0567673e-005 0.0021877331 0.00055798836 0.0023075945 -0.93169212 0.04366304
669000000 -0.92672902 0.053779908 -3.4990222e-005 0.0012567329 0.00065257924 0.0027261546 -0.93099934 0.043238595
670000000 -0.92701763 0.052714214 0.0003703362 0.0027278753 -4.4794688e-005 0.0022058829 -0.93105882 0.043155394
671000000 -0.928325 0.051644076 -0.00039545799 0.0017100848 0.00063238456 0.0009968566 -0.93216801 0.046552077
672000000 -0.92754394 0.054532219 0.0010058125 0.0026235483 -7.5885459e-006 0.0013095862 -0.93204308 0.045218699
673000000 -0.92776 0.053997107 0.00069310906 0.0021754832 0.00027043428 0.0020517637 -0.93147957 0.04500021
674000000 -0.92663938 0.054246318 -0.000293319 0.0020971426 0.0007354613 0.0011992605 -0.93202633 0.043971013
675000000 -0.92613459 0.054684542 -0.00049680902 0.0015511464 0.00019601174 0.0017414237 -0.93184006 0.045979105
