!Keysight Technologies,M9374A,MY55442783,A.12.55.05
!Date: Wednesday, May 19, 2021 15:42:19
!Correction: S11(Full 2 Port(1,2)) 
!S21(Full 2 Port(1,2)) 
!S12(Full 2 Port(1,2)) 
!S22(Full 2 Port(1,2)) 
!S2P File: Measurements: S11, S21, S12, S22:
# Hz S  RI   R 50
500000000 -0.93018496 0.034910548 0.00024689731 0.0022259695 0.00040285601 0.00044692567 -0.93346679 0.031842805
501000000 -0.93158954 0.03627491 -8.5365507e-005 0.001610712 0.00053087896 0.0013390976 -0.93442106 0.031385817
502000000 -0.93096584 0.03786457 0.0015998232 0.0012658514 0.0013605573 0.00081401889 -0.93559384 0.029826449
503000000 -0.92987454 0.036756016 -0.00045191424 0.0015096649 0.00018949564 0.0023236687 -0.93367857 0.031851552
504000000 -0.93128765 0.03856878 0.0008618724 0.0017037079 0.00087468873 0.0017736916 -0.93553954 0.030781299
505000000 -0.93060744 0.03789445 -0.00081512926 0.0017225947 0.0011689832 0.0018512028 -0.93380809 0.030073786
506000000 -0.93002093 0.036681049 0.00053607667 0.0015096728 0.0003683125 0.001680114 -0.93371767 0.030729609
507000000 -0.92906713 0.036933977 0.00042644134 0.00075267989 0.0014026905 0.0015536103 -0.93389678 0.032268919
508000000 -0.92926705 0.038467985 2.361228e-005 0.00091396994 -0.00063916366 0.00164616 -0.9340142 0.032023735
509000000 -0.92979974 0.037015982 0.00045652245 0.002560358 0.00026116605 0.00088884856 -0.93491817 0.030677134
510000000 -0.93029201 0.03769872 -0.00015398026 0.0015315734 0.00024223892 0.0011087613 -0.9328196 0.031360622
511000000 -0.92963111 0.037484664 0.00068613916 0.0013309765 0.0018898429 0.0013221056 -0.93347996 0.030236406
512000000 -0.93020785 0.039279368 0.00050329382 0.0014857912 -0.00030101324 0.00088308327 -0.93498284 0.031470407
513000000 -0.93072319 0.037913449 0.00040326119 0.0019380143 0.0011857164 0.0014351927 -0.93435258 0.031991664
514000000 -0.93016237 0.037292566 0.00042615316 0.0012720914 0.00026419928 0.0015053164 -0.93342638 0.032731894
515000000 -0.9295488 0.037286643 -0.00014080775 0.0016416833 -0.00021514934 0.0011785306 -0.93469244 0.032285973
516000000 -0.93204957 0.039264955 0.00053359562 0.0011201074 0.00028222031 0.0016717156 -0.934196 0.03201751
517000000 -0.92963326 0.038874432 -0.00071976002 0.00094501709 3.2892513e-005 0.0024211495 -0.93444467 0.032970231
518000000 -0.92850977 0.03858095 0.00073761254 0.0018758107 0.0008237104 0.0021525503 -0.93425661 0.031176776
519000000 -0.93013877 0.03852696 -0.0002232785 0.0012197903 -0.00014209196 0.0010849015 -0.93320066 0.031718157
520000000 -0.92716378 0.037987873 0.0003903496 0.0018342664 7.9304455e-006 0.0019838223 -0.93360323 0.032283477
521000000 -0.93115175 0.039252236 0.00044862225 0.0007051368 0.00051814312 0.0012558564 -0.93441504 0.031783715
522000000 -0.93028742 0.039202321 0.00065765961 0.00086982612 3.0046003e-005 0.0017265715 -0.935368 0.032203861
523000000 -0.92766106 0.039747898 0.00044395684 0.00087360252 0.00067749229 0.0026727174 -0.93217456 0.033019271
524000000 -0.92993605 0.040739484 -0.00037955667 0.0016056991 -0.00014907609 0.00047048437 -0.93339068 0.032896686
525000000 -0.92861497 0.039205998 0.00034293381 0.001771853 -0.0006060283 0.0016760685 -0.93390858 0.034224946
526000000 -0.93017 0.041551542 0.00015122721 0.0021268844 0.00031419087 0.0016075009 -0.93508619 0.034586456
527000000 -0.92907935 0.04024097 0.00093303539 0.0011469556 0.00047903028 0.0010583545 -0.93479645 0.033236343
528000000 -0.9302786 0.038909562 0.00017331034 0.00269158 0.0020294986 0.0022851371 -0.93388593 0.033735529
529000000 -0.93090016 0.039959658 0.00062938518 0.0017779848 -0.00030252343 0.0012885917 -0.93322939 0.031877954
530000000 -0.92954755 0.040195607 -0.00047090778 0.0015623079 0.00061192829 0.00098464335 -0.93280923 0.03245908
531000000 -0.92918205 0.040854752 0.00068175787 0.0016975085 5.6205656e-005 0.00078842626 -0.93467706 0.033462308
532000000 -0.92813998 0.03913442 0.00020884309 0.002488818 -0.00038599115 0.0013858124 -0.93430585 0.033641681
533000000 -0.93116009 0.041767254 0.0006424911 0.002190236 0.0002577682 0.0013192693 -0.93395191 0.032238029
534000000 -0.93063211 0.040381342 -0.00069415569 0.0015078827 -0.00034000049 0.0018319151 -0.93226737 0.033085391
535000000 -0.93038636 0.041759063 -0.00052105606 0.0015520295 -0.0005117383 0.0015593976 -0.93422979 0.034980789
536000000 -0.92871636 0.040551521 0.0003581722 0.0013241465 -0.00068487501 0.00074141508 -0.93442756 0.033046372
537000000 -0.92924058 0.040022776 0.0005844424 0.0013226831 -0.00038454455 0.0017013223 -0.93455637 0.035106841
538000000 -0.92965651 0.040173281 0.0001918409 0.0016267177 -0.00037132847 0.0018576987 -0.93572402 0.034794636
539000000 -0.9292928 0.039873064 8.9935966e-005 0.00065102137 0.00043444961 0.0027259986 -0.93366039 0.034644403
540000000 -0.93002254 0.039392166 -0.00048799429 0.0018551741 -0.00042536861 0.0020085534 -0.93314189 0.034768306
541000000 -0.92827725 0.040671818 0.00092928082 0.0016573523 0.00062289409 0.00098817714 -0.93319285 0.033356909
542000000 -0.92899817 0.041177697 0.00025933044 0.0014305086 0.00013296545 0.00083633378 -0.9332552 0.033288699
543000000 -0.92939478 0.040974647 0.00081370806 0.0020270834 -0.00038673921 0.0012795437 -0.93345273 0.034725614
544000000 -0.9286083 0.039763097 0.0005707352 0.0015473753 -0.00042622999 0.0012459003 -0.93430471 0.036245625
545000000 -0.93159223 0.039806891 0.00046318898 0.0017103724 0.0003466827 0.0018394986 -0.93395209 0.035258122
546000000 -0.92942053 0.039340414 -0.00072931818 0.0013327625 0.0010253052 0.0018585832 -0.93422139 0.034991503
547000000 -0.92934453 0.039467946 9.1459966e-005 0.00072196301 0.0018467193 0.0023933859 -0.93334419 0.03461571
548000000 -0.92999715 0.039788824 0.0005174228 0.0011387623 0.00016929227 0.00091910613 -0.932558 0.034995846
549000000 -0.93046027 0.03936132 -0.00019809119 0.0013922409 -0.00021154972 0.0013528792 -0.93372053 0.034793239
550000000 -0.92916209 0.040705651 0.00074898847 0.0013446889 0.00037591954 0.0023467245 -0.93336505 0.035979133
551000000 -0.93103671 0.040862303 0.00024765625 0.0010189435 -0.00033439137 0.00093188294 -0.93408918 0.034424447
552000000 -0.93039232 0.040904485 0.00059782731 0.001227924 -0.00056393142 0.0017491305 -0.93285018 0.034172267
553000000 -0.92912942 0.039967187 7.2907358e-005 0.00050635089 0.00010006993 0.0014082637 -0.93344182 0.0343499
554000000 -0.9287495 0.040620018 0.00089100696 0.0011591783 -0.00038378238 0.0011016575 -0.93436557 0.035018466
555000000 -0.92862284 0.041053779 0.00014666602 0.0009970247 0.00068190636 0.0026455019 -0.93367988 0.03350392
556000000 -0.92958212 0.03930223 0.00076872046 0.0015709667 0.0015451857 0.0018658179 -0.93404174 0.03722867
557000000 -0.93008333 0.041702203 0.00021279407 0.0015515997 -0.0001072307 0.0015823408 -0.93342549 0.034704883
558000000 -0.9284333 0.040908508 0.00063966512 0.00090078457 -7.1802839e-005 0.0021953189 -0.93321806 0.034510486
559000000 -0.92780709 0.039590739 -0.00096848496 0.0015388496 0.00097678171 0.0017693271 -0.9348129 0.034860976
560000000 -0.93009919 0.040569652 0.00029812378 -0.00020806747 0.00030283933 0.0015831128 -0.93446767 0.035663668
561000000 -0.92968345 0.040470459 -0.0002017526 0.0015132114 0.00067439902 0.0019896666 -0.9320901 0.035689417
562000000 -0.92912763 0.039751623 -0.0002082947 0.0021930509 -0.0002294165 0.003111603 -0.93516397 0.035223603
563000000 -0.92982042 0.040009655 0.00045916988 0.0014261563 0.00066815375 0.0015220125 -0.9344182 0.036677703
564000000 -0.93037325 0.039387379 0.0010827614 0.0024102249 8.8813576e-005 0.00062108284 -0.93380862 0.03601234
565000000 -0.92976958 0.040561959 0.00093936862 0.0019975931 0.0016098313 0.00042910536 -0.93360227 0.03525098
566000000 -0.92769563 0.041893858 -0.00015155063 0.0015658766 -0.00062803162 0.0017997992 -0.93436098 0.036190771
567000000 -0.93011516 0.040719461 -3.1859956e-005 0.00072336179 -1.0224788e-005 0.0016506971 -0.93383211 0.034704845
568000000 -0.92897272 0.039867286 0.0016025702 0.00075017329 0.00010975017 0.0025091248 -0.93502688 0.034846425
569000000 -0.92946738 0.041240998 -5.3782354e-005 0.0018817554 0.00087662635 0.0011102238 -0.93233258 0.03518169
570000000 -0.92967111 0.042865373 0.000433195 0.00042201378 -0.00062025012 0.0018283101 -0.93303114 0.036598839
571000000 -0.92916876 0.040723916 0.00044351627 0.0015516062 0.0011334022 0.0020516731 -0.93564785 0.036454238
572000000 -0.92853647 0.041089404 0.00069452421 0.0011903038 -0.00078057521 0.0020473483 -0.9339242 0.036722127
573000000 -0.92867595 0.039356608 -0.00010117392 0.0015712311 0.0013772929 0.0018857579 -0.93554509 0.036709707
574000000 -0.92890072 0.040027678 0.00013164629 0.0013759271 5.6159286e-005 0.0024787292 -0.93447524 0.035023425
575000000 -0.92944032 0.040874869 0.00034414281 0.001580657 -0.00020830511 0.0011481768 -0.93352544 0.035108652
576000000 -0.92933041 0.040259797 0.00063969678 0.0020247304 -0.0010087297 0.00079902489 -0.93479067 0.036179133
577000000 -0.92985207 0.040129438 -0.00056467444 0.0010593812 2.0235271e-005 0.0016332986 -0.93354791 0.034168836
578000000 -0.92766213 0.040214051 -0.0001103046 0.0019752893 0.00072269887 0.001359952 -0.93396676 0.035102293
579000000 -0.92992657 0.042549532 0.00042985249 0.0017662223 0.00025238184 0.0015195084 -0.93353969 0.035569303
580000000 -0.9289127 0.040918503 0.0010179095 0.0013267796 -0.00062925968 0.0016319692 -0.9329958 0.036554728
581000000 -0.93108684 0.041539297 0.00024251854 0.0014853311 0.0010225758 0.0019587658 -0.93390143 0.035245497
582000000 -0.92833394 0.041273847 -6.1903207e-005 0.0019444914 -0.00086810277 0.0021679467 -0.93324018 0.034191769
583000000 -0.92830414 0.042528056 0.00017812918 0.0017550059 -0.001131861 0.0013543712 -0.93464935 0.035456207
584000000 -0.92922574 0.03988963 0.0007800961 0.0018189531 -0.00034244228 0.0003887997 -0.93450594 0.036404669
585000000 -0.92981404 0.040249888 -0.00012491894 0.00087252131 -0.00021062461 0.00089681975 -0.93424028 0.035741895
586000000 -0.9298358 0.040819585 -0.0008299686 0.001962258 0.0016882485 0.002463338 -0.93323964 0.033775847
587000000 -0.9278695 0.042366549 -0.00036567095 0.0018848702 0.00070651458 0.00057464797 -0.93386441 0.036255807
588000000 -0.92858189 0.042331681 0.00048771434 0.0012726448 0.00030636371 0.00034423507 -0.9346692 0.036984324
589000000 -0.92863929 0.04126462 -0.00056600047 0.0019135297 0.00094354525 0.00084344379 -0.93350333 0.035400562
590000000 -0.92873877 0.040950175 0.00166481 0.0012885366 -2.74129e-005 0.0013702202 -0.93225902 0.035722088
591000000 -0.928352 0.040181477 0.00055432634 0.001979402 4.2991636e-005 0.0013255021 -0.93449646 0.035496883
592000000 -0.93040651 0.041249443 2.0518439e-005 0.0018917437 -0.0007986491 0.00086636958 -0.9345746 0.033883862
593000000 -0.9285512 0.041656211 0.00035842077 0.0014820832 9.6513817e-005 0.0022541881 -0.93481785 0.036177769
594000000 -0.92856508 0.042186309 0.00073386403 0.0019974892 -0.00037290863 0.001297259 -0.93313956 0.037184663
595000000 -0.928846 0.04319495 -3.1838521e-005 0.002030035 0.00022637749 0.0015600377 -0.9348551 0.036431421
596000000 -0.92911065 0.042221893 0.0008205442 0.0013416521 0.00017875117 0.0015937421 -0.93356323 0.037493765
597000000 -0.92977178 0.043280311 -0.000167563 0.00086335436 1.6359618e-005 0.002037107 -0.93456066 0.035827804
598000000 -0.93034816 0.041689824 0.0013844105 0.0013571957 0.0011162392 0.0024918714 -0.93332195 0.036543656
599000000 -0.92950708 0.04150065 -2.5176792e-005 0.00025880002 0.00034289426 0.001748509 -0.9353655 0.035914745
600000000 -0.92946267 0.042283785 0.00053394079 0.0023533702 -0.00013242706 0.0017951934 -0.93400013 0.036254801
601000000 -0.92922664 0.043750875 0.00077258312 0.0025919015 -0.0004082087 0.0018608632 -0.93471187 0.035652202
602000000 -0.9295885 0.042913541 4.3768305e-005 0.0018091077 0.00087722344 0.0016972254 -0.93269295 0.036386121
603000000 -0.92820227 0.044192079 0.00065591291 0.0024645601 0.0013795316 0.0018203779 -0.93573761 0.036872651
604000000 -0.92921817 0.043054312 -0.00020054309 0.0017161852 0.0012427319 0.0010773559 -0.93401396 0.035804898
605000000 -0.92828137 0.04312402 0.00029471485 0.0015627524 0.0007086235 0.0022828481 -0.93338966 0.037707772
606000000 -0.92791367 0.044230264 0.0011223144 0.0020462985 0.00046178204 0.0014897865 -0.93246961 0.038066696
607000000 -0.92912054 0.042690046 -6.2614439e-005 0.0016151749 2.9564408e-006 0.001123859 -0.93404227 0.036380049
608000000 -0.92786866 0.042841345 -0.00076781819 0.0022428068 -0.00022803733 0.0012901674 -0.93572086 0.036911502
609000000 -0.92808348 0.042956244 0.0012802375 0.0013048771 -3.031889e-005 0.0010271806 -0.93509513 0.03602881
610000000 -0.92938095 0.043289568 -0.00066916284 0.0017583788 -0.00012645467 0.0019152137 -0.93151599 0.037202578
611000000 -0.92832917 0.043337163 2.8285996e-005 0.001301424 -0.00069005822 0.0023770421 -0.93339068 0.036629863
612000000 -0.92937547 0.043246314 -0.0002286638 0.001435588 0.0010858625 0.0012499915 -0.93370688 0.039114758
613000000 -0.92872953 0.043525618 -4.1143496e-005 0.0012281911 0.00047363425 0.0018396637 -0.93226999 0.037303321
614000000 -0.92718351 0.04432879 0.00096312619 0.0019922296 0.00051054376 0.0022043444 -0.93394601 0.038333617
615000000 -0.92767459 0.044303946 -0.00018447422 0.00063057762 0.0011809503 0.0026149875 -0.93417281 0.038937323
616000000 -0.92872179 0.043282419 0.00077879714 0.0017269592 -7.1295137e-005 7.1462702e-005 -0.93129086 0.039223984
617000000 -0.92878854 0.045679957 0.00033788179 0.00053751905 0.00063235592 0.0014243129 -0.93198687 0.037574816
618000000 -0.92888194 0.043999922 0.00038012356 0.001200162 0.0011094541 0.0012950308 -0.93302941 0.040170297
619000000 -0.92628449 0.04556945 -9.7195632e-005 0.0017350885 0.00080532039 0.0010330771 -0.93285012 0.038141426
620000000 -0.92829853 0.044123054 0.00031158034 0.00083980802 0.00085670035 0.001327561 -0.93435127 0.039040301
621000000 -0.92987597 0.046300929 0.00036841558 0.0025856132 0.00038846428 0.00067713467 -0.93380159 0.039650336
622000000 -0.92816025 0.045702942 0.001748113 0.0020886154 -0.00019941146 0.0016638356 -0.93291622 0.039040342
623000000 -0.928155 0.046418969 0.0013371998 0.0022577331 0.00021125251 0.0017125075 -0.93379754 0.03918181
624000000 -0.92908478 0.044300757 6.5217748e-005 0.0014100005 -0.00045583904 0.0019604934 -0.93372679 0.039113782
625000000 -0.92985314 0.046113096 2.7307195e-005 0.0026847792 0.00051106734 0.0016363754 -0.93406397 0.03781309
626000000 -0.92870045 0.045603003 -0.00038546778 0.0021345899 -0.00040743721 0.002801677 -0.9324463 0.040517475
627000000 -0.92940646 0.045599908 0.00042772398 0.0011075801 4.3828546e-005 0.0010315117 -0.9329865 0.03680446
628000000 -0.9300862 0.047694582 0.0012414 0.0018424266 0.00020015506 0.0020725518 -0.93263727 0.037962459
629000000 -0.92701781 0.048724618 0.0013764933 0.0016326071 -0.00022264732 0.00165574 -0.93405205 0.04004496
630000000 -0.92932874 0.045463625 0.0012895996 0.0014839133 0.0004163718 0.0014427729 -0.93486607 0.038348146
631000000 -0.92729932 0.047777604 -0.00021570016 0.0017791665 0.00059030455 0.0021172657 -0.93494827 0.039502133
632000000 -0.92882043 0.046929363 0.00020612076 0.0017805747 0.00020318734 0.0022915667 -0.93282288 0.038120124
633000000 -0.92954516 0.044154648 0.0011468446 0.0021638675 0.00053050701 0.0020692695 -0.93447971 0.039011203
634000000 -0.92859846 0.046857968 0.00026778417 0.0009056289 0.00018650356 0.0022055677 -0.93439668 0.039089531
635000000 -0.92916417 0.048125017 0.00074287388 0.0012305209 0.00018129488 0.0016550262 -0.93323851 0.038755033
636000000 -0.92826301 0.046044912 0.0020702945 0.0012554106 0.0002139867 0.0020192512 -0.93260217 0.03935656
637000000 -0.92822307 0.047336191 5.6023688e-005 0.0010319888 2.1075999e-005 0.0023137953 -0.93222165 0.038766973
638000000 -0.92780244 0.047562234 0.00017566512 0.0011033115 0.00033136009 0.00061028008 -0.93329453 0.039329361
639000000 -0.9287166 0.045783825 0.00031785684 0.0014009568 -0.00084432267 0.0017559773 -0.93380541 0.039302509
640000000 -0.92744154 0.048906788 0.0003026331 0.0013517827 0.00092522427 0.0021356076 -0.93259501 0.038207475
641000000 -0.92822695 0.04684931 -0.00086513971 0.0028840716 0.00011480209 0.00067031139 -0.93211395 0.04035382
642000000 -0.92809564 0.048123647 0.00025815942 0.0025825745 0.0011544231 0.0016256393 -0.9327544 0.038714692
643000000 -0.92719984 0.047243841 9.8802549e-005 0.0026374743 0.00047420751 0.0016543667 -0.93341827 0.040368147
644000000 -0.92719376 0.046774112 0.00012464027 0.0018822618 0.0003941434 0.0017950119 -0.93235266 0.039791219
645000000 -0.92917341 0.048672192 0.00047160132 0.0010647853 -9.3123715e-005 0.0021305094 -0.93373847 0.040746171
646000000 -0.92807907 0.048403837 -0.00030365278 0.0016079422 0.00093414809 0.00081948057 -0.93310523 0.041155152
647000000 -0.92845333 0.048381101 -5.4766992e-005 0.0021865664 0.00042398533 0.0026558046 -0.9332279 0.039350044
648000000 -0.92826349 0.047723569 -0.0012438358 0.0013453196 2.287871e-005 0.0013493903 -0.93170351 0.040045857
649000000 -0.92941511 0.047424372 0.00039855306 0.0020928741 -8.3151041e-005 0.0021794185 -0.93373197 0.03967886
650000000 -0.92894459 0.047441222 -0.00026983058 0.00090864784 0.00016855588 0.0018250219 -0.93304294 0.042091079
651000000 -0.92923588 0.047201883 0.00086525962 0.0020511472 0.00076122605 0.0024334986 -0.93280923 0.040940639
652000000 -0.92809856 0.047071472 0.00050727546 0.0011815813 -0.00043746192 0.0014321366 -0.93251026 0.041223094
653000000 -0.92939073 0.04862814 -4.0697108e-005 0.0013843701 0.0004454841 0.0020996528 -0.93307811 0.039936639
654000000 -0.92602289 0.049205527 -0.00022813371 0.0033017332 -0.00038575818 0.0018334655 -0.93407851 0.039308142
655000000 -0.92834693 0.047229666 0.00021007689 0.0017078144 -0.00012609654 0.0030625949 -0.93311661 0.040930331
656000000 -0.92779028 0.049031872 0.0011223039 0.0011240019 0.00055319985 0.0023750749 -0.932818 0.040322386
657000000 -0.92703992 0.0478242 4.1302243e-005 0.0016765699 0.00024566063 0.0019408272 -0.93339521 0.041095119
658000000 -0.92819899 0.049040031 -9.4990144e-005 0.0020197853 0.00094965764 0.0024240341 -0.93357223 0.040037762
659000000 -0.92823917 0.048114225 0.00026803985 0.0023479348 0.00019668434 0.0014775746 -0.93282813 0.03873907
660000000 -0.92790455 0.049895413 -0.00020294785 0.001853279 0.0003345068 0.001571961 -0.93124312 0.040022045
661000000 -0.92790568 0.048079573 0.00086527021 0.0018867999 0.00089384621 0.0022892919 -0.93322206 0.0398282
662000000 -0.92741817 0.049553461 0.0010577512 0.0019075664 0.00098994561 0.0025068445 -0.93397909 0.040698268
663000000 -0.92929822 0.047647279 3.466296e-005 0.0028164682 0.0013144045 0.0022973339 -0.93426424 0.039634369
664000000 -0.92798072 0.047468692 0.00046739573 0.0016557348 -0.00026782558 0.0029016843 -0.93262988 0.039423764
665000000 -0.92688233 0.04800275 0.00016896319 0.00096988661 0.00058126386 0.0025235 -0.933819 0.040545877
666000000 -0.92812586 0.048564363 0.00079550338 0.0011533282 0.0010757835 0.001446523 -0.93331349 0.041031849
667000000 -0.92866147 0.050802484 -0.00028257479 0.0014117527 3.6020738e-005 0.0020909202 -0.93288666 0.041153394
668000000 -0.92921847 0.049748182 -8.3879262e-005 0.0025566563 0.00012688352 0.0014955651 -0.93441331 0.040445492
669000000 -0.92841899 0.049867671 -0.00057577947 0.00078789849 0.00035188394 0.0016294448 -0.93320429 0.040798813
670000000 -0.92809451 0.050299477 0.0017050313 0.002181943 0.00013148446 0.0014713916 -0.9336074 0.040010478
671000000 -0.92813933 0.04906312 0.00032653444 0.0021463085 0.00044664633 0.0017153672 -0.93257582 0.041112196
672000000 -0.92871779 0.050802313 -0.00040368058 0.0023180691 -0.00039687401 0.0025586053 -0.93377173 0.04012889
673000000 -0.92924368 0.051057264 -6.6967943e-005 0.0018621014 0.00040115058 0.002374182 -0.93088996 0.04004113
674000000 -0.92973876 0.049591634 0.00040392525 0.0014397814 0.00044911329 0.0023709608 -0.93292832 0.040859144
675000000 -0.92759353 0.048452247 -0.00073253125 0.0015757425 0.00010923143 0.0014559296 -0.9314509 0.04154586
