!Keysight Technologies,M9374A,MY55442783,A.12.55.05
!Date: Wednesday, May 19, 2021 15:45:02
!Correction: S11(Full 2 Port(1,2)) 
!S21(Full 2 Port(1,2)) 
!S12(Full 2 Port(1,2)) 
!S22(Full 2 Port(1,2)) 
!S2P File: Measurements: S11, S21, S12, S22:
# Hz S  RI   R 50
500000000 -0.92747253 0.037026811 3.7214526e-005 0.00071706204 0.00065541343 0.0015882822 -0.9356904 0.030049583
501000000 -0.92906314 0.038058344 -1.3266852e-005 0.0010533162 0.00044521826 0.0023514987 -0.93366396 0.029410446
502000000 -0.92856795 0.036486838 -7.7025041e-005 0.0025369036 0.00028539333 0.0019167032 -0.93507016 0.031158281
503000000 -0.92855054 0.037456453 -0.00072729966 0.0015704451 -0.00030853858 0.0027476386 -0.93401009 0.030759204
504000000 -0.92693263 0.036753982 -0.00045119631 0.00015411187 -0.00059073232 0.0020690479 -0.937397 0.031119561
505000000 -0.92911446 0.037019093 0.00056660513 0.0012498338 0.0010040049 0.0013763182 -0.93519068 0.03147845
506000000 -0.92895687 0.03575616 -0.00017325826 0.0021242849 -0.00033252875 0.0013023873 -0.93584788 0.029940052
507000000 -0.92648005 0.037062027 -0.00032276855 0.0016502633 -0.00011096505 0.0014970762 -0.935534 0.030836621
508000000 -0.92832261 0.036799259 0.00040766108 -0.00026772174 0.00074675353 0.0020290732 -0.93477714 0.031914767
509000000 -0.92871171 0.03753794 2.5033583e-005 0.0021177942 0.00017493196 0.00075832062 -0.93712229 0.032187417
510000000 -0.92751187 0.037755027 -0.00020706763 0.0022662007 -9.0171241e-005 0.0024866245 -0.93496269 0.032025542
511000000 -0.92915612 0.039605025 -0.00045424094 0.0012193579 0.00060953508 0.00041941903 -0.9335866 0.032869242
512000000 -0.92788345 0.037168205 -3.9848423e-005 0.0020366653 -0.00040570696 0.0014733849 -0.93596953 0.032140914
513000000 -0.92706198 0.038409319 -0.00015993569 0.0015756337 0.00046079725 0.0027609135 -0.93628991 0.032122325
514000000 -0.92703581 0.038173113 0.00078657112 0.0019488169 0.00055823871 0.0013685935 -0.93449694 0.031096648
515000000 -0.92762166 0.03810928 -0.00022482626 0.0016840742 0.00016420172 0.0016781659 -0.93557143 0.032125082
516000000 -0.92985225 0.037940018 -0.00025170387 0.0017546085 0.0011271368 0.0021476264 -0.93459553 0.03064126
517000000 -0.92645103 0.037137717 0.00048059231 0.00099263014 0.0018115198 0.0019400405 -0.93523216 0.031958241
518000000 -0.92740816 0.036222629 0.00068934285 0.00077590556 -0.00075006764 0.00073848502 -0.93575108 0.029602006
519000000 -0.92915201 0.037693072 8.566193e-005 0.001242384 -0.00073411886 0.0011005152 -0.93573207 0.033655725
520000000 -0.92690063 0.036890179 -0.00067295658 0.0010849193 0.00014125253 0.0011643252 -0.93497938 0.032164268
521000000 -0.92782992 0.038139224 0.0013852331 0.0012317947 0.0012023804 0.0017504634 -0.93431795 0.033823952
522000000 -0.92970556 0.039293703 0.00078411086 0.0018628767 0.00044333222 0.001961333 -0.9346028 0.033119306
523000000 -0.92853349 0.037430264 0.00041809442 0.00088570738 0.00034416426 0.0012519829 -0.93524396 0.033053868
524000000 -0.93070543 0.039264116 0.00089095929 0.0010702899 -0.00052881276 0.001328701 -0.93449897 0.034068841
525000000 -0.92844588 0.038608927 0.0012041368 0.002021709 -0.00069436955 0.0018377507 -0.9346562 0.031348698
526000000 -0.92685544 0.039336327 0.0014609671 0.0011283909 0.00052536104 0.0014165303 -0.93589717 0.033697918
527000000 -0.92747021 0.037319679 4.6651126e-005 0.0015155118 0.00048189893 0.0015601426 -0.93526387 0.03367649
528000000 -0.92753464 0.038334098 0.0012531031 0.0017901207 3.9908748e-005 0.0016255827 -0.93464655 0.034030486
529000000 -0.92794847 0.039749086 4.5523579e-005 0.0010931892 -0.00020737184 0.00029012118 -0.93377858 0.034212545
530000000 -0.92846644 0.038746554 6.8958216e-005 0.0016858089 0.0006915995 0.0011888137 -0.9347471 0.032978918
531000000 -0.92871034 0.037795573 -0.00047764808 0.001169477 -0.00010328664 0.0016834836 -0.9361822 0.03451997
532000000 -0.92766613 0.040637434 0.00027640167 0.0015612531 0.00038423721 0.0012332893 -0.93597418 0.035421316
533000000 -0.92872953 0.038001187 0.0010126086 0.0018903788 0.00055128074 0.0011553308 -0.93465286 0.033707865
534000000 -0.92650855 0.039247878 0.00015131544 0.0016541289 0.00057674124 0.0015880459 -0.93540412 0.034421716
535000000 -0.92748857 0.040009562 -0.00014669479 0.0013386216 -0.00031982857 0.0013676421 -0.93432546 0.03278356
536000000 -0.92761695 0.039907437 -0.00019321434 0.0010160392 -0.00034370975 0.0014786443 -0.93307179 0.034199532
537000000 -0.92818028 0.040446166 0.00026212327 0.0010720819 0.00057924597 0.00046086797 -0.93353355 0.036271449
538000000 -0.92759633 0.040356133 0.0003200332 0.0013992321 0.00066339894 0.0022488816 -0.93399894 0.034828376
539000000 -0.92671877 0.041050889 -9.0801936e-005 0.0014571301 0.00028515767 0.0011468774 -0.93393028 0.03470597
540000000 -0.92610103 0.038893133 0.0012715784 0.0015466991 -0.00010926444 0.001737892 -0.93338847 0.034037545
541000000 -0.92750162 0.039183311 0.00033119306 0.0014317462 -0.00039488744 0.0011194695 -0.93406403 0.035047237
542000000 -0.92808646 0.040216677 0.00055921724 0.0012425418 -0.00044579103 0.0019395348 -0.93346852 0.03329083
543000000 -0.92836231 0.038468558 0.00092494005 0.001905872 0.00047917719 0.0013779413 -0.93479329 0.035646137
544000000 -0.92698985 0.040814269 0.00034033976 0.0012633258 -0.00028944653 0.0013745788 -0.93560261 0.033402912
545000000 -0.92764628 0.039692685 0.00032971374 0.001084679 -0.00037359621 0.00087354763 -0.93568486 0.035180748
546000000 -0.92823315 0.039759234 0.00055666611 0.0017510143 0.00013904218 0.0017250614 -0.93411195 0.032787286
547000000 -0.92720264 0.040856864 0.00048890349 0.00072482193 -0.00022637568 0.0014907292 -0.93567449 0.034471303
548000000 -0.92726117 0.04154665 0.00016682563 0.0019113888 0.00026257162 0.0012761637 -0.93643939 0.035888579
549000000 -0.92730772 0.039695378 0.00011356095 0.0017426276 -0.00054926565 0.0017608849 -0.93547064 0.034249794
550000000 -0.92640686 0.040191457 -5.9015576e-005 0.0014122623 -0.00036594638 0.0011034469 -0.93586564 0.034619644
551000000 -0.92768806 0.040063594 0.0012313359 0.0016840552 0.00092712522 0.0019488708 -0.93631035 0.034028798
552000000 -0.92791593 0.039432272 0.00037698486 0.0013018518 6.5946292e-006 0.0025056824 -0.93580645 0.035386499
553000000 -0.92643869 0.041110069 0.00027291704 0.002488232 -0.00046390027 0.0023168158 -0.9358232 0.03470543
554000000 -0.92837143 0.04110796 3.8512648e-005 0.0020247202 -0.00011817561 0.0013116429 -0.93481416 0.035613809
555000000 -0.92649317 0.04045286 -0.00059039117 0.0017447885 -7.1394737e-005 0.0013579812 -0.93397921 0.034654006
556000000 -0.92704344 0.040112574 7.7992401e-005 0.0016540395 0.00057123764 0.0018376013 -0.93328243 0.034097906
557000000 -0.92773205 0.038745344 0.0011071033 0.00023984018 0.00038299535 0.0021012954 -0.93489903 0.03583901
558000000 -0.9287107 0.040041931 4.0559949e-005 0.00097660942 0.00025382731 0.0014299266 -0.93508619 0.034535304
559000000 -0.92841613 0.03861206 0.00040188921 0.0021949648 -0.00023424819 0.0025410622 -0.93640387 0.034781344
560000000 -0.92761415 0.041619033 -9.0307796e-005 0.0018243805 0.00019016486 0.0013510786 -0.93512076 0.034635238
561000000 -0.92605954 0.038960017 7.8080368e-005 0.0014154871 -7.4910087e-005 0.0019540915 -0.93442905 0.036006033
562000000 -0.92704576 0.041316759 0.0005884564 0.00075549068 0.00018888264 0.0013008764 -0.93492693 0.034145497
563000000 -0.92781842 0.041572388 -9.5435826e-006 0.0012858191 0.0013627323 0.0019884275 -0.93542266 0.035902563
564000000 -0.92617577 0.038786367 0.0011009682 0.0010791336 0.00039762992 0.0021624954 -0.936207 0.034146126
565000000 -0.92659098 0.039383739 0.00084006222 0.0018686543 -0.00017183184 0.0019074313 -0.93624026 0.03398589
566000000 -0.92547607 0.040537387 0.0011080476 0.0019027627 0.00015891934 0.0014252304 -0.93541282 0.034533635
567000000 -0.92625356 0.03985161 -0.000685893 0.0011996124 0.00077821669 0.0014723523 -0.93439156 0.035278857
568000000 -0.92613655 0.040476754 -0.00061827328 0.0030081552 -0.00064222375 0.0021414051 -0.93496579 0.03562307
569000000 -0.92713445 0.040475547 -0.00082445983 0.0015847975 0.0004770165 0.0020887519 -0.93400204 0.034261279
570000000 -0.92757499 0.039685354 -0.00049529533 0.0015794822 0.00034445187 0.0018537159 -0.93407857 0.0360655
571000000 -0.92729253 0.040600788 0.00089774816 0.0020716325 0.00066896586 0.0019595153 -0.93490571 0.03435697
572000000 -0.92707354 0.04033713 0.00029648261 0.0025229489 -0.00057046523 0.0008787007 -0.9333663 0.033913929
573000000 -0.92779845 0.040310346 -6.8125591e-005 0.0014295835 0.00038453305 0.0019202749 -0.93366987 0.035365634
574000000 -0.92587709 0.039892972 -9.4424424e-005 0.0017373532 0.00045372706 0.0018938727 -0.93558466 0.036162399
575000000 -0.92624968 0.040737461 0.00025628958 0.0018031809 0.00022777701 0.0015751306 -0.93585467 0.035531245
576000000 -0.9267652 0.040722143 -0.00043432563 0.001309569 -0.00021744161 0.0011635727 -0.93544364 0.037355375
577000000 -0.92528003 0.040127605 1.3550302e-005 0.0017779241 4.8946909e-005 0.0010435684 -0.93499315 0.035559043
578000000 -0.92544878 0.041253805 1.1210338e-005 0.0019507506 0.0012567368 0.0019640597 -0.9348675 0.03496385
579000000 -0.92638797 0.040937606 -0.00073108956 0.0007131123 0.00086537685 0.00092798471 -0.93524933 0.035358835
580000000 -0.92750567 0.041738562 0.00071065896 0.003019701 0.0012785139 0.0017877641 -0.93535417 0.036103297
581000000 -0.92663693 0.040959027 0.00084889302 0.0015185225 6.1950879e-005 0.00212095 -0.93652809 0.034503039
582000000 -0.92738366 0.039651137 -0.00051991234 0.0017607177 0.00056465092 0.0023062653 -0.93551683 0.032782495
583000000 -0.92773473 0.040992212 0.0002390789 0.0014705665 -0.00040112375 0.00069896545 -0.93449873 0.035000443
584000000 -0.92745107 0.040467754 0.00058032613 0.0014745228 0.00016746734 0.0021712305 -0.93436384 0.035341579
585000000 -0.92779571 0.040140096 0.00018726842 0.0016024092 8.9013498e-005 0.0031034106 -0.93520451 0.034470126
586000000 -0.92732978 0.041663513 0.0013033341 0.0011430414 0.00029027418 0.0021423656 -0.93355477 0.03727068
587000000 -0.92721587 0.040105477 -0.00052002317 0.0017268473 -0.00060414639 0.0019625905 -0.93411452 0.036598533
588000000 -0.92677444 0.040923629 -3.2537228e-005 0.0015092824 0.0014533421 0.0016587923 -0.93587804 0.035456356
589000000 -0.92558211 0.039711583 0.00063905172 0.0014226158 0.0011947559 0.0015902953 -0.93611014 0.037388824
590000000 -0.92595309 0.041869134 0.00035520311 0.0019535576 0.00092839845 0.001261976 -0.9348858 0.035590168
591000000 -0.92614299 0.04124777 0.00017892002 0.0025739037 -0.0011006483 0.0019300199 -0.93512017 0.035384029
592000000 -0.92704886 0.042150114 -0.001287898 0.0022027635 0.00029502349 0.0013765434 -0.9342376 0.03642223
593000000 -0.92420483 0.041825216 0.00034655139 0.00095992046 0.00045908726 0.0019309189 -0.93509489 0.035543032
594000000 -0.92718166 0.040941816 0.0010049777 0.0012257389 0.00051092036 0.0020995394 -0.9350729 0.036626425
595000000 -0.92693734 0.04113888 0.00080005848 0.0015613382 -0.00049916265 0.0012280451 -0.93547046 0.035189111
596000000 -0.9267025 0.041946542 0.00055605132 0.0017507784 0.0012720923 0.0015063033 -0.93514454 0.035400521
597000000 -0.92858237 0.040602796 -9.0247966e-005 0.0017004741 0.00020478656 0.0015615928 -0.93411762 0.035017271
598000000 -0.92688996 0.043217413 -0.0003131667 0.0026618333 9.3351409e-005 0.00081670523 -0.93580812 0.036214862
599000000 -0.92705452 0.040430449 0.00023771902 0.0027995398 0.00042296265 0.0020934786 -0.93694186 0.035979372
600000000 -0.92632222 0.041463323 0.00082822435 0.0017360073 -0.00081810349 0.002181608 -0.93474299 0.035635494
601000000 -0.92673475 0.043800011 0.00045056126 0.0017022686 -5.3188684e-005 0.001854177 -0.93595392 0.035940394
602000000 -0.92848992 0.042255182 2.0294952e-005 0.0018182328 -0.00058070367 0.0023516018 -0.93458897 0.036478423
603000000 -0.92670608 0.042426154 0.000345729 0.0021366153 0.00032091202 0.0024710724 -0.9369902 0.03616073
604000000 -0.92428738 0.042936124 -0.00032386594 0.0013546447 0.00024920309 0.001728137 -0.93427366 0.039020106
605000000 -0.92801386 0.043738294 0.00062563503 0.0010248632 0.00075297704 0.0012767583 -0.93497509 0.037617713
606000000 -0.92534333 0.041861158 0.00039314057 0.0026930645 0.0007601066 0.0015851579 -0.93298322 0.036027882
607000000 -0.92766702 0.041103896 2.1147425e-005 0.00087858149 0.0006274645 0.0015531889 -0.93465519 0.037504137
608000000 -0.9265455 0.042131394 0.00033894522 0.0018030421 0.0007707309 0.001911507 -0.93341172 0.037448421
609000000 -0.92580485 0.04378875 -0.00022210184 0.0024644157 0.00092646905 0.0016833161 -0.93329579 0.037316065
610000000 -0.92824495 0.043765903 -0.0007741825 0.0021397914 0.0010929967 0.0011049925 -0.93276048 0.035219073
611000000 -0.92686558 0.045374557 -0.00078548264 0.00159321 -0.00052282849 0.0022820886 -0.93395323 0.036766861
612000000 -0.92594367 0.043790843 -5.6662462e-005 0.0013164143 0.00029790067 0.0018070784 -0.93454766 0.036772709
613000000 -0.9272818 0.042880751 0.00011482332 0.0015238298 0.00013147491 0.0021784953 -0.93401235 0.037356336
614000000 -0.92595208 0.043930463 0.0014297109 0.0012193328 0.0010139301 0.0017651024 -0.93501085 0.038089417
615000000 -0.92674643 0.043987297 0.00028746543 0.0011785752 0.00020106771 0.0019906044 -0.93329042 0.037069701
616000000 -0.92632216 0.044525202 -0.00052954734 0.0014184965 0.00016351245 0.0015903094 -0.93295461 0.037874218
617000000 -0.92638004 0.045134012 0.0016365391 0.0018771432 -0.00046197596 0.0018976546 -0.93422323 0.038384866
618000000 -0.92637944 0.043998849 5.1721236e-005 0.0011917873 -0.00029548397 0.001561898 -0.93569309 0.037517
619000000 -0.92554879 0.045570903 -4.4953216e-005 0.0018454618 -0.00017160506 0.0030071086 -0.93398911 0.036994927
620000000 -0.92638636 0.044205647 -0.00070221518 0.00066224823 -0.0011878465 0.0019045682 -0.93405932 0.039594725
621000000 -0.92671669 0.044155333 0.00042040105 0.0033414511 0.0013522484 0.0015375862 -0.93506062 0.038716994
622000000 -0.92625815 0.044916026 0.00053362304 0.0013893351 -0.0003818697 0.0013185891 -0.93569648 0.037488192
623000000 -0.92731315 0.044960368 -0.00034715288 0.0017725761 -0.00071403652 0.0025642985 -0.93538451 0.03745994
624000000 -0.92714596 0.043924928 0.00025405941 0.002836541 0.001200062 0.0018732655 -0.93437582 0.038225342
625000000 -0.92634147 0.045968171 -0.0012155832 0.00051694235 0.00072917796 0.0011613984 -0.93458551 0.037595861
626000000 -0.92681134 0.045256216 -0.0007546983 0.0028177348 3.0400124e-006 0.001639946 -0.93483108 0.038511273
627000000 -0.92678076 0.045481443 6.162608e-005 0.0016673547 0.00024159189 0.0022169533 -0.93526304 0.037052795
628000000 -0.92574018 0.047393247 -0.00023374011 0.001960319 -0.00016724737 0.0015129548 -0.93541181 0.038175251
629000000 -0.92662692 0.046022318 0.00039354057 0.0013495723 0.00039841089 0.00062298385 -0.93413669 0.037941411
630000000 -0.9272427 0.04697324 0.00031293635 0.0016394713 -0.0011435464 0.0016889842 -0.93426806 0.03954751
631000000 -0.92608553 0.046616774 -0.00021013826 0.0022885478 0.00042715707 0.0026463117 -0.93343568 0.039316066
632000000 -0.92822474 0.047175646 0.0016663192 0.0012757105 0.00065914012 0.0020077636 -0.93334925 0.038790062
633000000 -0.92596608 0.046200141 -0.00015392927 0.0012452105 -0.00016262346 0.0022752546 -0.93594658 0.040026981
634000000 -0.92588216 0.047288831 -0.0003557606 0.00097729079 -0.00030160224 0.00084904232 -0.93513715 0.037530739
635000000 -0.92597747 0.046583079 0.00097665272 0.0010453213 0.00067601033 0.0012437146 -0.93297827 0.039266013
636000000 -0.92531902 0.04690687 0.00052589364 0.0017949499 -1.6788754e-006 0.0018778014 -0.93532342 0.037979312
637000000 -0.92546809 0.047354002 0.00072726735 0.0016239044 0.0010810475 0.0021960158 -0.93411732 0.038655281
638000000 -0.9256053 0.046949558 -0.00077697373 0.0012875994 -0.00046133404 0.0023932101 -0.93437392 0.038492825
639000000 -0.92723465 0.046441272 0.00033618778 0.0014138413 -9.0194597e-005 0.00085852941 -0.93383116 0.038867638
640000000 -0.9270063 0.04769117 0.00033846745 0.0020220666 -0.00013950697 0.0013980885 -0.93423456 0.039501943
641000000 -0.92597431 0.045888886 0.00083252124 0.00059363572 0.00010289624 0.0027799115 -0.93341351 0.03859815
642000000 -0.92632556 0.047967639 0.00026875603 0.0013369239 0.0010223548 0.0015906825 -0.93392813 0.040045768
643000000 -0.92758036 0.049184859 -8.2490282e-005 0.0023324178 -0.00017519515 0.0019811555 -0.93503124 0.038279425
644000000 -0.92656243 0.048409414 0.00071655086 0.0016681484 0.00015038556 0.0021547202 -0.93627101 0.039935466
645000000 -0.92630917 0.047177859 -0.0005127422 0.0018448785 0.00020053027 0.00252944 -0.93443972 0.039525576
646000000 -0.92671639 0.047342405 6.7830864e-005 0.0011207882 0.00031042084 0.0023377349 -0.93351042 0.038684949
647000000 -0.92779177 0.048683997 -0.00016741626 0.001346338 -0.00047196969 0.0012927734 -0.93506122 0.039441846
648000000 -0.92598492 0.048460819 0.0013606711 0.0011626877 0.0008659985 0.00074657728 -0.93501723 0.039740913
649000000 -0.92619473 0.048009854 0.0013297234 0.0019580119 0.00025092161 0.0014298476 -0.9334783 0.040290177
650000000 -0.92544943 0.04678886 -1.7513677e-005 0.0011948162 0.00088790193 0.0016549581 -0.93328512 0.04010994
651000000 -0.92671108 0.048339583 0.00056676101 0.00097773329 2.8088258e-005 0.0019289334 -0.93283099 0.039997835
652000000 -0.92543155 0.04944896 0.00041117391 0.0024608497 0.00070057 0.00083255186 -0.93430728 0.039602935
653000000 -0.92552549 0.047827594 0.00062689959 0.0014644263 -0.00010925485 0.0025603732 -0.93477345 0.039064296
654000000 -0.92635655 0.049787357 -5.5571189e-005 0.0015471121 -0.00088757486 0.0013004475 -0.93338001 0.039363366
655000000 -0.92613178 0.048159204 0.00060251961 0.0017872411 0.00050211663 0.002806958 -0.93407398 0.040167861
656000000 -0.92598987 0.049649887 -0.00077866652 0.0019634559 0.00025318199 0.0021201868 -0.93406463 0.040382069
657000000 -0.92515785 0.047036633 -0.00041374326 0.0006145339 0.00027764202 0.0013813282 -0.93427104 0.040109184
658000000 -0.92803109 0.04918221 0.00018070493 0.0020878138 0.00019317643 0.0019183542 -0.93386239 0.039838795
659000000 -0.92472327 0.048639126 -0.00012994884 0.00068807031 0.00041508282 0.0013156153 -0.93350101 0.041326668
660000000 -0.925035 0.048258658 -5.6637673e-005 0.0021092121 0.00057093072 0.0012567925 -0.93321645 0.040009614
661000000 -0.92584294 0.048757635 -0.00024844968 0.0020368351 -0.00014516222 0.0019100468 -0.93477142 0.041518461
662000000 -0.92736679 0.048644926 0.00053150067 0.0013872496 0.00086395652 0.0010710603 -0.93609196 0.039953068
663000000 -0.92572832 0.048555635 0.00047071214 0.002010955 6.2619045e-005 0.0021461656 -0.93412948 0.038969692
664000000 -0.92590058 0.047904786 5.4018833e-006 0.002117191 0.00035155733 0.0014112503 -0.93343514 0.040184848
665000000 -0.92657375 0.047593944 9.4313356e-005 0.002232657 0.00060478627 0.0016483754 -0.93346441 0.039626271
666000000 -0.92722797 0.049084652 -0.00063850387 0.001769246 -6.6374349e-005 0.0015103499 -0.93545341 0.038568657
667000000 -0.92643327 0.050999023 0.00039103234 0.0024289333 0.0005755591 0.0025507894 -0.9341718 0.039837129
668000000 -0.92526764 0.048441127 0.0006517109 0.0015459061 -0.0005705239 0.001945841 -0.93489814 0.040823612
669000000 -0.92770505 0.049499109 3.9436494e-005 0.0024604974 0.0001486828 0.0017396667 -0.93212509 0.041035596
670000000 -0.92530119 0.049306259 -8.7937209e-005 0.0018167829 0.00074119354 0.00086861383 -0.93425763 0.04060116
671000000 -0.9267872 0.048555024 0.00054454949 0.0026728183 0.00057550106 0.0021901096 -0.93419379 0.040830962
672000000 -0.9256227 0.048289794 0.0003193822 0.0012944798 0.00033363322 0.0023729361 -0.93358785 0.040165689
673000000 -0.92637789 0.05009922 0.00027167713 0.0012898244 -8.9198438e-005 0.0019051444 -0.93479097 0.042469885
674000000 -0.92506701 0.04912078 6.7788383e-006 0.0013302426 0.00051594508 0.0010890734 -0.93511695 0.040299635
