!Keysight Technologies,M9374A,MY55442783,A.12.55.05
!Date: Wednesday, May 19, 2021 15:53:10
!Correction: S11(Full 2 Port(1,2)) 
!S21(Full 2 Port(1,2)) 
!S12(Full 2 Port(1,2)) 
!S22(Full 2 Port(1,2)) 
!S2P File: Measurements: S11, S21, S12, S22:
# Hz S  RI   R 50
500000000 -0.9226408 0.035123754 -0.00043832912 0.0016966111 0.00088035112 0.00041436852 -0.9382906 0.029485704
501000000 -0.92258811 0.036903374 0.00021269613 0.0018470817 0.00015489865 0.00121244 -0.93711936 0.03003634
502000000 -0.92169243 0.035573006 0.00040114592 0.0012558682 0.00072387786 0.0010712357 -0.93842089 0.031202208
503000000 -0.92163366 0.034685068 0.00061929907 0.0015902235 -3.1965636e-005 0.0016459131 -0.9363212 0.029564621
504000000 -0.92119789 0.036377236 0.00058029225 0.00068196579 -6.4221422e-005 0.0017978272 -0.93621653 0.031222418
505000000 -0.92134082 0.036002573 -0.00072490011 0.0019313829 -0.00024113205 0.00054953003 -0.93711513 0.030984141
506000000 -0.92348415 0.03533927 0.00029769496 0.001391788 0.00023792284 0.00092643168 -0.93606889 0.032642219
507000000 -0.92235059 0.037301395 0.00066159677 0.0020443364 0.00019302261 0.0019853148 -0.9379757 0.032045826
508000000 -0.92208219 0.035734233 -0.00011208276 0.0016592165 -0.00037210909 0.00081713015 -0.93711478 0.032755982
509000000 -0.92247796 0.037262585 0.00021387791 0.0020645862 0.00045541604 0.0012130014 -0.93801904 0.031730976
510000000 -0.92161959 0.03628166 0.00082244753 0.0016621253 0.00063478097 0.0012864786 -0.93513089 0.030349489
511000000 -0.92270899 0.038413003 0.00023613517 0.0011826982 -0.0005582482 0.0015212833 -0.93873966 0.032867525
512000000 -0.92301947 0.037300579 5.4726977e-005 0.00065939344 0.0010873856 0.0013447906 -0.9372347 0.031388257
513000000 -0.92297292 0.03698035 -0.0015623268 0.0020465173 0.00071997271 0.0021216176 -0.9368366 0.032461822
514000000 -0.92342156 0.038584735 0.00022709956 0.0021596279 3.0462446e-005 0.0019342129 -0.9388352 0.031893484
515000000 -0.92321318 0.037624963 0.0010239671 0.0012541916 -0.0014433806 0.00014071807 -0.93774515 0.032330025
516000000 -0.92422491 0.037714206 -0.0006396196 0.00089695374 0.00042437282 0.0010648813 -0.93719941 0.031964075
517000000 -0.92380023 0.038323689 1.2641104e-005 0.00050440786 -1.3927398e-005 0.0011565324 -0.93628246 0.031742539
518000000 -0.92196071 0.03639695 0.00072172651 0.00216424 -0.0010906338 0.0018552755 -0.93737149 0.030666694
519000000 -0.92220044 0.038107477 0.00081764825 0.0015963209 0.00093769992 0.00096855633 -0.93730396 0.033141878
520000000 -0.92056978 0.035765748 -0.00053584808 0.0019203559 0.00063164718 0.0014060755 -0.9374494 0.032683693
521000000 -0.92031741 0.036345363 0.00085071649 0.0017899524 -0.00055470999 0.00084430177 -0.93730277 0.03153491
522000000 -0.92049563 0.03754431 -0.0008021057 0.0014779781 -3.7970847e-005 0.001679316 -0.93739915 0.032671962
523000000 -0.9213416 0.0379388 0.0017387132 0.00095297798 -0.00041819544 0.0017414208 -0.93701613 0.033153579
524000000 -0.92137605 0.036752488 -5.2729414e-005 0.0011059269 0.00067404471 0.0026668871 -0.93750715 0.032454208
525000000 -0.91982472 0.037593797 0.00014383713 0.00016483603 -0.00022328306 0.0014691026 -0.93701726 0.032588467
526000000 -0.92137861 0.038304098 0.0010064003 0.00053732633 -0.00015449428 0.00039617441 -0.93697071 0.032714851
527000000 -0.92157859 0.037899531 0.00036087047 0.0016896287 -0.00024667307 0.00080475979 -0.93815941 0.032961279
528000000 -0.9219687 0.03826426 0.00030210189 0.00090371625 -3.9153241e-005 0.00095434079 -0.93582153 0.033020657
529000000 -0.9200182 0.036674991 0.00023606207 0.001485022 0.00034749036 0.001843996 -0.93608207 0.03299303
530000000 -0.92353708 0.039705586 -0.00023070983 0.0010570188 -0.00024751143 0.0014363823 -0.93705237 0.031173775
531000000 -0.92286712 0.037191998 0.00024939078 0.0018113238 0.00048441719 0.0026236339 -0.93730235 0.033676431
532000000 -0.92176485 0.038033269 0.00014187666 0.0024182987 -1.9751878e-005 0.0016356971 -0.93594807 0.03329416
533000000 -0.92099631 0.037762392 0.00049444527 0.0011576207 -9.0100286e-005 0.0015731463 -0.9378987 0.033293225
534000000 -0.92119879 0.037727125 0.00068302895 0.00082709081 0.0007297484 0.0011784727 -0.93653691 0.032703698
535000000 -0.92179424 0.038417026 0.0002060027 0.00087619713 0.00045319446 0.0014571961 -0.93577081 0.032841653
536000000 -0.92142588 0.039371349 0.0009030989 0.00067766622 -0.00015545607 0.0014921749 -0.93635374 0.033056673
537000000 -0.92021823 0.038467072 -0.00065363495 0.0025524397 0.00072676182 0.0019213388 -0.93527657 0.033575665
538000000 -0.92227232 0.0378397 1.736925e-005 0.0014976527 0.0005374084 0.0014112479 -0.93568695 0.032388788
539000000 -0.92105144 0.041408192 0.00091784546 0.0014399528 0.00027158388 0.0016296979 -0.93606782 0.033321444
540000000 -0.92139477 0.039069176 0.0010609158 0.0014732406 0.00051566958 0.00102788 -0.93775111 0.033018004
541000000 -0.92175162 0.038149226 -0.00046575637 0.00062712864 0.0011178056 0.0016383319 -0.93654579 0.034211602
542000000 -0.92158926 0.038141377 0.00046055438 0.0020149981 0.00030951545 0.0005602148 -0.93632162 0.03354615
543000000 -0.92242008 0.03899933 0.00086652243 0.0020994761 0.0002134284 0.0011616118 -0.93658829 0.033946496
544000000 -0.92314678 0.040160857 -0.00033253804 0.0016478497 0.00071874872 0.0024166522 -0.93766129 0.034003228
545000000 -0.92246395 0.03880107 1.9280067e-005 0.00048517657 0.00075803458 0.0023838559 -0.93691939 0.034562852
546000000 -0.92170841 0.039427374 -6.4857348e-005 0.0014833923 6.8575682e-005 0.00089371012 -0.93731302 0.03377527
547000000 -0.92120177 0.038181897 0.0010014359 0.0018354504 0.00046784274 0.0014315303 -0.93782294 0.035550579
548000000 -0.92115384 0.040917106 1.6497041e-005 0.0012151768 3.3742494e-005 0.00070938212 -0.93644708 0.035175622
549000000 -0.92053378 0.039747238 7.5079108e-005 0.0015504286 0.00057781528 0.00068499765 -0.93677413 0.03508655
550000000 -0.92097372 0.040881258 0.00051408511 0.0015663806 0.0003337558 0.0017986562 -0.93626863 0.034834106
551000000 -0.92467314 0.039089303 -0.0006725323 0.0018617919 0.00074750901 0.0011973815 -0.93636775 0.034640815
552000000 -0.92173433 0.037346758 0.00070411147 0.0023104663 0.0011042507 0.0008613416 -0.936198 0.034912325
553000000 -0.92231059 0.038938411 -0.00080948061 0.0021826457 0.0010183343 0.0016254382 -0.93651688 0.035073806
554000000 -0.92182755 0.038968112 -9.5084368e-005 0.0010478831 0.00090936356 0.0018776302 -0.9368934 0.034088515
555000000 -0.9209277 0.039363101 6.9833906e-005 0.0021495149 0.00015347412 0.00069097732 -0.93706822 0.033961486
556000000 -0.92086327 0.039522685 -0.001051352 0.0017121845 -4.7459907e-005 0.0019232801 -0.93692642 0.033699591
557000000 -0.9231773 0.038884502 0.00079821725 0.00095104263 6.2490635e-006 0.0011683883 -0.9368071 0.034479082
558000000 -0.9226715 0.039110832 0.00044229315 0.00094345346 -6.0112805e-005 0.0018917181 -0.93636781 0.035150729
559000000 -0.92062575 0.039485183 -9.7352771e-005 0.0018662511 -3.0789703e-005 0.00092816871 -0.93668002 0.03280507
560000000 -0.92252576 0.037793022 -0.00019808566 0.0016039553 0.00046415403 0.00053668895 -0.93665648 0.034679621
561000000 -0.92182922 0.03980875 -0.0004461456 0.00071775855 0.00065521331 0.0025510469 -0.93855751 0.033952273
562000000 -0.92214197 0.039555155 0.00057117734 0.0015443114 0.00019791603 0.0011496887 -0.93710256 0.034892697
563000000 -0.92071068 0.039674163 0.00046299229 0.0012129369 -0.00015679703 2.8841767e-005 -0.93624312 0.035115469
564000000 -0.92186779 0.039537359 7.4399024e-005 0.0012538722 -0.00033114923 0.0014186453 -0.93792349 0.033806119
565000000 -0.92208213 0.040264387 -6.7355577e-005 0.0022186986 0.0006617438 0.0015129722 -0.93647373 0.03488173
566000000 -0.92227209 0.038178373 -0.00032782141 0.0019751659 0.00055453327 0.00092883996 -0.93883783 0.035538688
567000000 -0.92206848 0.039581764 -0.00042955173 0.0012280615 0.00068063906 0.0016086907 -0.93708944 0.034784641
568000000 -0.92148536 0.040168706 -0.00043261147 0.0019193187 -0.0004092404 0.001806751 -0.93829352 0.033795476
569000000 -0.92079371 0.040399142 -0.00028026113 0.0016838915 0.00018941521 0.0023450374 -0.93605524 0.034263942
570000000 -0.9230755 0.038853999 0.00094984053 0.0018546601 -0.00058689294 0.0011350159 -0.93732762 0.036507327
571000000 -0.92146873 0.037718087 0.0003291165 0.00092555408 -0.00032429455 0.0017411867 -0.93831152 0.034292754
572000000 -0.92089492 0.039398018 0.0003598062 0.00028889792 -6.7037858e-005 0.00096543785 -0.93737519 0.036133621
573000000 -0.92199415 0.03893856 0.00015471362 0.001444719 0.00084452605 0.0018144881 -0.93655598 0.034924738
574000000 -0.92252976 0.040417045 0.00086367538 0.0011680445 0.0012199552 0.0017185427 -0.93844485 0.034309555
575000000 -0.92273754 0.039726954 0.00018120902 0.0023351067 3.5729536e-005 0.00073394738 -0.9384746 0.035135739
576000000 -0.9196592 0.039810747 0.00080833462 0.00058323331 0.0009928178 0.0018565541 -0.93820542 0.035257213
577000000 -0.92053336 0.039482288 0.00047735163 0.0015001572 4.0908861e-005 0.0010025235 -0.93651247 0.033132229
578000000 -0.92152661 0.039954897 0.00033859801 0.0009098117 -0.0002004789 0.0026064375 -0.93693471 0.034806304
579000000 -0.921417 0.040429853 0.00017992772 0.0018516305 0.00021384831 0.00056582328 -0.93791026 0.035084859
580000000 -0.92152739 0.037962623 -0.00087377976 0.00078385416 0.00058644568 0.0012789179 -0.93579561 0.035671484
581000000 -0.92142892 0.039645027 0.0001441819 0.0028445199 0.00070263917 0.00098166778 -0.93735611 0.035077769
582000000 -0.92099094 0.04099663 -0.00046857682 0.0015653351 -0.0011568402 0.0020883565 -0.93819755 0.035079483
583000000 -0.9216525 0.039924357 0.00044848488 0.0016103381 -0.0010685917 0.0013412287 -0.93787593 0.035094634
584000000 -0.92286468 0.040521681 -0.00069812377 0.00044308329 5.9654114e-005 0.00095207832 -0.93613118 0.035086136
585000000 -0.9212997 0.041995481 0.00069456198 0.0017186861 -0.00066464918 0.001795973 -0.93660927 0.034971666
586000000 -0.92097563 0.040679164 -0.00086899963 0.0016107227 0.00011253929 0.0020157511 -0.93730617 0.034308478
587000000 -0.92249709 0.04063848 3.526771e-006 0.00098363217 -0.00032422561 0.0013373274 -0.93740433 0.035751354
588000000 -0.9200362 0.039567798 0.0007599853 0.0016286785 0.0011334008 0.0016825669 -0.93691206 0.035707023
589000000 -0.92040783 0.038932309 -0.00029335701 0.0017816905 0.00032123289 0.0012710921 -0.93812704 0.035754379
590000000 -0.920681 0.03919201 -0.00029962903 0.0011568391 -0.00022382881 0.0011340103 -0.93583852 0.033761207
591000000 -0.92021108 0.039230354 0.00097323419 0.001305172 3.4506957e-005 0.0015345609 -0.93694919 0.035278715
592000000 -0.92172062 0.040065885 0.00055255345 0.0017508187 -0.00015077612 0.0010915879 -0.93767226 0.034835778
593000000 -0.9197343 0.040021945 0.00046181172 0.0022552751 0.00065042364 0.001177359 -0.93744713 0.033535931
594000000 -0.91960347 0.040205181 0.00040824615 0.00097344239 0.0012381921 0.0018381649 -0.93765199 0.036281224
595000000 -0.92254847 0.039934982 -2.9803348e-005 0.0013142289 -0.00071393664 0.0023449778 -0.93692577 0.035352483
596000000 -0.92206961 0.041821089 0.0010199001 0.001470071 -0.00034348731 0.001470742 -0.93663239 0.035050914
597000000 -0.92104542 0.041104209 0.0010814532 0.0020866632 7.1712922e-005 0.0018776116 -0.93526781 0.035084866
598000000 -0.92216516 0.042383 0.00022334133 0.0015545129 0.00068359257 0.0017313031 -0.9372552 0.036247205
599000000 -0.92163306 0.041923504 0.0007143814 0.00021244641 -0.00012918831 0.00088881084 -0.9384557 0.034482282
600000000 -0.9213258 0.042902067 0.00036368839 0.0016008255 6.3381507e-005 0.0015211899 -0.93594521 0.035838921
601000000 -0.92015994 0.041444294 -0.00014951029 0.0019056208 2.3232769e-005 0.00031437533 -0.93692333 0.037012178
602000000 -0.92020488 0.042119995 -0.00019584985 0.0013352182 0.00068918237 0.0012749399 -0.93612218 0.036181357
603000000 -0.92064899 0.042190902 0.0011780469 0.0011728288 0.00033519597 0.0012626107 -0.93659914 0.035978589
604000000 -0.91915327 0.042810183 -0.00017132246 0.0013446308 -0.0010589481 0.0028159146 -0.93551701 0.035817429
605000000 -0.92156583 0.041908424 -6.061676e-005 0.0022521445 0.00031140519 0.0011804664 -0.93511432 0.035400748
606000000 -0.92236716 0.040862672 -1.2249809e-005 0.0013279568 -0.00041449771 0.00086816429 -0.93685985 0.036087923
607000000 -0.92140335 0.041611794 0.00090497331 0.0017158978 0.00058250938 0.0019637325 -0.93551785 0.035107277
608000000 -0.92171383 0.041526575 0.00063214463 0.0016125017 0.00058160577 0.0011762179 -0.93539697 0.034215968
609000000 -0.92102122 0.041825343 0.00023536209 0.0014344192 -0.00022961655 0.0010712338 -0.93646765 0.03804126
610000000 -0.92069435 0.041365635 -0.00033431104 0.0020758209 0.00010914687 0.0017060479 -0.93567502 0.036555775
611000000 -0.9217118 0.043021966 0.00083319104 0.0020438752 0.00036201967 0.0029347213 -0.93564695 0.036325242
612000000 -0.92063093 0.043444153 -0.00071624125 0.0018751347 0.0011133181 0.0017253435 -0.93756056 0.036674023
613000000 -0.92127466 0.043677822 0.00030629651 0.0013808631 8.8884364e-005 0.0010295316 -0.93635535 0.035771493
614000000 -0.91976333 0.043467823 6.9997142e-005 0.0022540758 0.00058718561 0.001249928 -0.93655354 0.03512333
615000000 -0.92094207 0.0431314 -0.0003515899 0.00078259449 -4.3332395e-005 0.001905817 -0.93755496 0.035976548
616000000 -0.92248869 0.043770779 0.00017208281 0.0024126105 0.0011839747 0.0013570356 -0.93654358 0.036682513
617000000 -0.92185062 0.043468747 0.00036326377 0.0022748811 0.00017464613 0.0019760153 -0.93629891 0.038593166
618000000 -0.92044485 0.04416272 0.0009566127 0.0015208739 -0.0011194351 0.0020163674 -0.93684894 0.036289744
619000000 -0.92295486 0.044283558 0.00051466504 0.002361923 -0.0005490047 0.001628774 -0.93769622 0.037261195
620000000 -0.92082393 0.043577693 -0.00017873738 0.00090790761 6.8976842e-005 0.0015088472 -0.93625921 0.038152967
621000000 -0.92129785 0.045369662 6.0594222e-005 0.001470801 0.00020847349 0.0018015911 -0.93651897 0.037506506
622000000 -0.92208934 0.043651789 0.00062824605 0.0023167541 -5.7632096e-005 0.0020219868 -0.9380244 0.03843708
623000000 -0.92068696 0.04375248 0.00074344815 0.00071088306 0.0003743514 0.00053050905 -0.93555099 0.03760834
624000000 -0.9201265 0.042769238 6.4507651e-005 0.0016452179 0.0014590672 0.0020835132 -0.93598378 0.036909658
625000000 -0.92201626 0.046537638 6.6310968e-005 0.0026810861 0.00044762253 0.0014541856 -0.93701518 0.036614262
626000000 -0.92080653 0.044370674 -4.4632019e-005 0.0023380173 0.00038149965 0.0021432186 -0.93748492 0.037025273
627000000 -0.92060584 0.045736287 0.00017151368 0.0020427823 -0.0008950581 0.0017720078 -0.93643069 0.038168807
628000000 -0.92116857 0.045335636 0.00094186928 0.0018012897 0.00056387449 0.0010446802 -0.93733197 0.038259897
629000000 -0.92247814 0.04585287 0.0003041077 0.0013717475 -1.0202431e-005 0.0012607188 -0.93528748 0.03824247
630000000 -0.91948265 0.045869529 -0.0004078185 0.00085259735 -0.00024155874 0.0012477904 -0.93577099 0.040665109
631000000 -0.92009306 0.045819573 -0.00019106999 0.0015628772 0.00015627395 0.0016861357 -0.93571097 0.037570853
632000000 -0.92061335 0.046429541 0.00044027064 0.0016621071 0.0007187255 0.0014901351 -0.9368788 0.039289553
633000000 -0.91954792 0.044771314 0.00051271223 0.0025172841 0.0006167909 0.0014882562 -0.9361757 0.038173471
634000000 -0.92123491 0.046300776 -0.00023031971 0.0013701663 0.0010631434 0.0026205531 -0.93711239 0.037450902
635000000 -0.91894966 0.045907427 0.00053860899 0.0017804337 0.00019826202 0.00049561355 -0.93637323 0.037447114
636000000 -0.92039484 0.0449287 -0.00056766113 0.002209787 0.00014358327 0.0021854644 -0.93772775 0.037615575
637000000 -0.9205904 0.045933537 -0.00073914381 0.002640492 0.0011238544 0.0011862031 -0.9358412 0.038002107
638000000 -0.92000622 0.045899767 0.00064296054 0.0021529577 -0.00026302555 0.001546036 -0.9359504 0.038150787
639000000 -0.92023391 0.045851592 -0.00034735672 0.0014075743 -0.00053808262 0.0015899178 -0.9371745 0.039145514
640000000 -0.92221457 0.047821362 0.00049578334 0.0012578985 4.0433865e-006 0.0024505868 -0.93492794 0.038867928
641000000 -0.92140466 0.046641361 -0.00040866289 0.0019531394 0.00037879523 0.0013965009 -0.93446219 0.038009901
642000000 -0.9204669 0.046162114 0.00088795193 0.0018923013 0.00013152325 0.0023505243 -0.93553495 0.038829565
643000000 -0.92131364 0.047662489 0.00059649668 0.0020526622 0.00010295099 0.0013180231 -0.93762577 0.039596464
644000000 -0.91935885 0.045944236 0.00087722845 0.0017216551 -0.00044376886 0.0016996881 -0.93550652 0.04004398
645000000 -0.92045665 0.047489457 -0.00050711638 0.00090177596 0.00056458119 0.0026194181 -0.93695539 0.040096294
646000000 -0.92167187 0.048136029 0.00068362302 0.0020675247 0.00010845816 0.0016576012 -0.93551111 0.039139856
647000000 -0.92098576 0.046054471 0.00068112649 0.0010197255 0.00032167503 0.0023144844 -0.93535018 0.038308688
648000000 -0.92173707 0.04681427 -0.00037904567 0.0019381816 0.0012253153 0.0016681075 -0.93587953 0.039099157
649000000 -0.9221704 0.047791593 0.00022926871 0.0013244592 0.00037640115 0.0016483448 -0.9366262 0.040376175
650000000 -0.92092353 0.048331544 0.00057946105 0.0016994651 -0.00013853029 0.001915241 -0.93621951 0.038503505
651000000 -0.92156446 0.046407297 0.0011319158 0.0026267918 0.00029890839 0.0010520353 -0.93648887 0.040375788
652000000 -0.92090303 0.045969874 0.00071006274 0.0019452731 0.00038161257 0.0020938634 -0.93581939 0.039571449
653000000 -0.92156339 0.04708188 0.00025016814 0.0020585451 -6.5120577e-005 0.0017805496 -0.93590647 0.04008092
654000000 -0.92044479 0.048162028 0.00059220038 0.0017478245 0.0012329514 0.0022495862 -0.93801075 0.039220095
655000000 -0.91997516 0.046542976 -0.00022579836 0.0017718425 0.00029315875 0.0024400323 -0.93557042 0.040662121
656000000 -0.92028505 0.048152253 -0.00013321327 0.0014141627 0.0010486885 0.001893377 -0.9357788 0.038688067
657000000 -0.92125243 0.049562383 -0.00046265483 0.0017568157 0.00047094593 0.0017459129 -0.93712711 0.040951185
658000000 -0.92132568 0.046922423 0.00066281878 0.0018963054 -6.8473266e-005 0.0017049464 -0.93750346 0.039828084
659000000 -0.92026156 0.048900321 0.00038335018 0.0014264339 0.00045353797 0.0023892222 -0.93539965 0.041623294
660000000 -0.92023498 0.046547141 0.0011305101 0.0021349625 0.00065561337 0.0026500169 -0.93559581 0.039558701
661000000 -0.92112851 0.048284091 0.00053568528 0.001536802 8.8294888e-005 0.0019978108 -0.93510449 0.039684594
662000000 -0.92079502 0.047838431 -0.00025055467 0.0018121395 0.0010551077 0.0012750183 -0.93777293 0.039351944
663000000 -0.91983718 0.04653747 -3.9008799e-005 0.0016772571 -0.00017070281 0.0012746511 -0.93556237 0.039219316
664000000 -0.92016035 0.047460373 -6.7703135e-005 0.0014308613 -0.0001417465 0.0014102118 -0.93632954 0.039539836
665000000 -0.92027283 0.04657593 0.00023429439 0.0016399901 0.00019601831 0.0010668032 -0.93532676 0.040724866
666000000 -0.92035878 0.048254121 -2.5895924e-005 0.0021519135 0.0005055631 0.0025528551 -0.9371587 0.040667333
667000000 -0.92041939 0.046528883 -0.00032270027 0.0022513841 -0.0001302116 0.0020039959 -0.93682688 0.039358117
668000000 -0.91994667 0.048747342 0.00022857511 0.0013211517 0.00076434948 0.0020710537 -0.93609405 0.039615162
669000000 -0.92156529 0.049337417 0.00019455876 0.0026111153 0.00049290818 0.00095142599 -0.93709171 0.039647743
670000000 -0.91867644 0.047492504 9.8228193e-005 0.0022619516 0.00047466956 0.0021954786 -0.93470317 0.040687151
671000000 -0.92172682 0.046929777 -0.00039179288 0.0015683628 0.00035840491 0.0022464462 -0.93564504 0.040111881
672000000 -0.92086875 0.047855951 -0.00029187373 0.0022202595 0.00080392702 0.0030525541 -0.93415964 0.03937611
673000000 -0.92036182 0.048946392 0.00059572794 0.0018545055 -5.289599e-005 0.0019827003 -0.93549687 0.038390838
674000000 -0.92082882 0.047646649 0.00091199501 0.0022201231 -0.00011475953 0.0019810346 -0.93636876 0.03971976
