!Keysight Technologies,M9374A,MY55442783,A.12.55.05
!Date: Wednesday, May 19, 2021 15:31:34
!Correction: S11(Full 2 Port(1,2)) 
!S21(Full 2 Port(1,2)) 
!S12(Full 2 Port(1,2)) 
!S22(Full 2 Port(1,2)) 
!S2P File: Measurements: S11, S21, S12, S22:
# Hz S  RI   R 50
500000000 -0.93085462 0.038074471 0.0012385279 0.0017842733 0.0012351901 0.0016417125 -0.93382752 0.033597782
501000000 -0.92948765 0.038250972 0.0013756769 0.00074724614 -0.00045069068 0.0019860228 -0.93411911 0.033067737
502000000 -0.92842758 0.038180847 0.0011836267 0.0022625045 0.00031070609 0.00037986482 -0.93408328 0.033817992
503000000 -0.92828852 0.037811432 -4.7463549e-005 0.0014785476 -0.00011355907 0.0018957964 -0.93457639 0.032305241
504000000 -0.92935437 0.040014353 0.00077653688 0.0020480368 0.00090062857 0.0024935862 -0.93302351 0.03302962
505000000 -0.92950052 0.040014487 0.00063105667 0.0018609285 0.00019993755 0.002337798 -0.93239802 0.032890905
506000000 -0.92982453 0.038520329 0.001657484 0.00074835913 0.0010647423 0.0013142142 -0.93249261 0.033755586
507000000 -0.92886686 0.038780618 0.00020148685 0.0021190271 -7.4283125e-005 0.0028425863 -0.93400538 0.034276672
508000000 -0.9299922 0.039187506 0.00029195234 0.00057534018 -0.000434455 0.0025579445 -0.93494201 0.032833666
509000000 -0.92951256 0.040240932 0.0003503382 0.0012825395 -6.4094943e-006 0.0010747504 -0.93338764 0.034981929
510000000 -0.92901528 0.039311048 0.00052920339 0.00071994466 0.00032210624 0.0013215546 -0.93200946 0.032994218
511000000 -0.92842257 0.040783938 -0.00086278637 0.0017975356 -0.00053698185 0.00071516418 -0.9330864 0.033295877
512000000 -0.93007696 0.038370918 -0.00016290358 0.0014735616 0.00094970409 0.0018713129 -0.93360567 0.033810072
513000000 -0.92927045 0.039710347 0.00030877948 0.00042530894 7.2281648e-005 0.0021044107 -0.93338758 0.033814244
514000000 -0.92959517 0.039919432 0.0010146304 0.0015024034 -0.00022567059 0.001272974 -0.93378109 0.034516498
515000000 -0.92993641 0.039611582 0.00053822855 0.0020519495 -2.178614e-005 0.0015498583 -0.93501002 0.034195472
516000000 -0.9286992 0.041021362 -0.00049208337 0.00088136009 0.00054795481 0.0020261407 -0.93395907 0.034506012
517000000 -0.9287762 0.039731838 -0.00034583776 0.0014240481 0.00034329959 0.0014218845 -0.93389821 0.033551313
518000000 -0.92884004 0.039688401 0.0007346429 0.0017731546 -0.00035687021 0.001744747 -0.93454283 0.034707278
519000000 -0.93005115 0.04240511 -0.00076965807 0.00067717809 0.00038495008 0.0017524239 -0.93238562 0.034804147
520000000 -0.9300735 0.041890685 -0.00038270315 0.0013598647 0.00030765214 0.0011522645 -0.93315387 0.034761224
521000000 -0.92821145 0.043117095 0.00046758857 0.00087709026 0.00011045339 0.0019216877 -0.93410856 0.033793859
522000000 -0.93061119 0.039449364 0.00053891214 0.0010454421 0.0012955008 0.0022325329 -0.93266588 0.035161879
523000000 -0.92912817 0.040498231 3.9851253e-005 0.0016639151 -5.418025e-006 0.0013799268 -0.93259311 0.034201015
524000000 -0.92930317 0.041936394 0.00062647631 0.0024235467 -0.0004807841 0.0015293648 -0.93401128 0.035250064
525000000 -0.92914629 0.041659553 -0.00016934883 0.0016394798 0.00092738337 0.0013686209 -0.93429255 0.035147082
526000000 -0.92898905 0.040497597 -0.00019206776 0.0011683473 -0.00019936029 0.0010448818 -0.93399096 0.035692137
527000000 -0.9301725 0.041229308 3.3435987e-005 0.0018657689 0.00032360363 0.0020751662 -0.93238074 0.034147911
528000000 -0.92732489 0.041788008 0.00015632645 0.0017138516 6.2320622e-005 0.00091385067 -0.93271643 0.036233153
529000000 -0.92982197 0.041826956 -0.00018929626 0.0021825486 0.00044966803 0.0015409957 -0.93125105 0.036658175
530000000 -0.92948669 0.042632375 0.00038925925 0.00085400062 0.00085125136 0.0018359061 -0.93198812 0.036103193
531000000 -0.92974168 0.041780781 -0.00026195604 0.0017875533 -4.2471005e-005 0.00082084967 -0.93389755 0.035424337
532000000 -0.92878294 0.041839499 0.0004623275 0.00036542234 -0.00067005417 0.001288843 -0.93197578 0.035661332
533000000 -0.92849725 0.042285312 3.7290087e-005 0.0018576427 0.0016708964 0.0011563611 -0.93223798 0.036366679
534000000 -0.92975342 0.042670816 0.00053393154 0.0017833709 0.0010659542 0.0023259323 -0.93341839 0.03522661
535000000 -0.92895532 0.042107493 0.00070958101 0.0003619804 -0.00038218955 0.0019675377 -0.9333744 0.036405392
536000000 -0.9287222 0.042271897 0.00078164891 0.0017540649 0.00027785072 0.0017668199 -0.9315452 0.036188733
537000000 -0.92968529 0.04174773 -0.00055520004 0.001111205 -0.00069382106 0.0020772899 -0.93324631 0.036671773
538000000 -0.92873299 0.042249091 0.00023745028 0.0011179239 0.00051588303 0.0018339817 -0.93343669 0.036020312
539000000 -0.93059325 0.042032059 0.0007308427 0.0020419373 6.9276197e-005 0.0019893809 -0.93403637 0.035316784
540000000 -0.92961866 0.043180645 0.00094069395 0.0018093791 0.00084272685 0.0010164203 -0.9341557 0.036778089
541000000 -0.92928517 0.041850135 0.0010635596 0.00066119072 -0.00017592979 0.0020996353 -0.93449974 0.036931679
542000000 -0.92902213 0.042078689 0.00011094685 0.0013194811 0.00058892032 0.0020902115 -0.93165368 0.037929613
543000000 -0.92980582 0.043015011 -0.00076398702 0.00086892751 0.00064291951 0.0018095451 -0.93345731 0.036997326
544000000 -0.93019283 0.042853113 -0.00015716693 0.0018962291 0.00051387597 0.0010643592 -0.93453306 0.038328435
545000000 -0.92926657 0.042011078 0.00072461431 0.0018556557 -1.4860707e-005 0.0018379039 -0.93266559 0.036883194
546000000 -0.93001223 0.0424463 0.00039082798 0.0019442505 0.00029012928 0.0015594848 -0.93175918 0.036207195
547000000 -0.93085301 0.042207934 0.00048595842 0.001260641 -0.00025279119 0.0021439786 -0.93314815 0.037244003
548000000 -0.92962444 0.041523367 0.00039550057 0.0013062732 -0.00054761645 0.0016564942 -0.93373036 0.038028926
549000000 -0.92797369 0.041257665 -5.6673362e-005 0.0012505794 -0.00017843414 0.00065352116 -0.93386209 0.037470374
550000000 -0.92838424 0.042238597 0.00032062875 0.0017158403 0.0016035053 0.0017679087 -0.93387866 0.036211941
551000000 -0.92872441 0.042995084 0.00037816519 0.0021379541 -0.00070039026 0.0014907938 -0.93313718 0.035974488
552000000 -0.92928529 0.040890638 -0.00016932181 0.00079902512 0.00022662322 0.0011529714 -0.93299723 0.036620393
553000000 -0.92944193 0.043293167 -0.00010960309 0.0014159207 0.00051064818 0.0021986514 -0.93251348 0.037229467
554000000 -0.9270007 0.04183545 0.00081819174 0.0015590123 -0.00044504731 0.0017424421 -0.93104875 0.03647479
555000000 -0.92740506 0.042836294 -0.00061151554 0.0013102387 0.00074792973 0.0011374106 -0.93278855 0.036423381
556000000 -0.92834127 0.042137612 -4.2060883e-006 0.0011009442 3.6224585e-005 0.00055752986 -0.93249929 0.038174964
557000000 -0.92925888 0.042690594 -0.00031846101 0.0020953636 2.5023175e-005 0.0016652211 -0.93463022 0.037439235
558000000 -0.92909545 0.042430762 0.00014625241 0.0017542747 -0.00010111993 9.4947791e-005 -0.93288404 0.036089864
559000000 -0.92959017 0.041229002 5.8822068e-005 0.0012367121 0.00068080047 0.0016479444 -0.93287224 0.037637357
560000000 -0.92972338 0.043487255 -7.9029793e-005 0.00067921262 0.00021793245 0.0015752527 -0.93271095 0.035945866
561000000 -0.92822695 0.041879293 0.00023405248 0.0015807817 6.40988e-005 0.0017566278 -0.93276489 0.037118822
562000000 -0.92726308 0.043446068 0.00070015097 0.0013694603 0.00034466991 0.00088284974 -0.93253332 0.037858892
563000000 -0.92887104 0.043338101 0.00089201471 0.0014368711 0.0011680191 0.0015223755 -0.93098998 0.038142007
564000000 -0.92973357 0.04349808 -0.00012808639 0.0019313724 0.0012531366 0.00078865793 -0.93361872 0.037182059
565000000 -0.92859519 0.041312076 0.0011100537 0.001778528 7.5459495e-005 0.0016523978 -0.93301594 0.03706545
566000000 -0.92924339 0.041170325 0.000363617 0.00043286604 0.00028019646 0.001116522 -0.93436563 0.038465172
567000000 -0.92871791 0.042216253 -0.00053260213 0.0013356272 0.00039153959 0.0023417296 -0.93363982 0.036648259
568000000 -0.92773688 0.043035548 -0.0003947264 0.0021957711 -7.7830089e-005 0.00059303251 -0.93360633 0.036853801
569000000 -0.92928398 0.044872358 0.00015935696 0.0020057405 0.00051777234 0.0013086173 -0.93353939 0.037513401
570000000 -0.92847723 0.042489305 0.00075671758 0.00096550974 -6.3905514e-005 0.001154872 -0.93156224 0.037747093
571000000 -0.9285754 0.043237731 0.00026693832 0.0011156378 0.00010303554 0.0015395914 -0.93399292 0.037110243
572000000 -0.92759901 0.043213814 0.0010031208 0.0018566953 -0.00024410198 0.0018428522 -0.93366271 0.037256509
573000000 -0.92906845 0.043588843 0.00051114301 0.0013650035 -0.00047184638 0.0023051861 -0.93368208 0.038566548
574000000 -0.9264043 0.044119034 -0.00022071657 0.0016707338 0.00021170187 0.00058280019 -0.93286073 0.037323367
575000000 -0.9277994 0.044186238 0.00057925633 0.0014723028 0.00051133282 0.0011528394 -0.9332248 0.037127726
576000000 -0.92872697 0.043341942 -0.00070810801 0.0016469781 0.00063830189 0.0011740553 -0.93347591 0.037724312
577000000 -0.92876339 0.04289221 0.00091722503 0.0015486518 0.00056352513 0.0018983039 -0.93307734 0.037405979
578000000 -0.92931861 0.042489391 9.7415556e-005 0.0020962842 2.7955113e-005 0.0018684382 -0.93240249 0.036540229
579000000 -0.92934626 0.043583695 0.00026834014 0.0010863495 -0.00026675174 0.002121204 -0.93487817 0.037007559
580000000 -0.92798221 0.042336736 -0.00052184972 0.001885366 0.00022910148 0.0021670396 -0.93282366 0.03817451
581000000 -0.92867315 0.043014746 0.00016322186 0.0015474152 -0.0005772232 0.0016542291 -0.93223476 0.035383143
582000000 -0.92843926 0.043352082 -0.00050835666 0.0022142399 -0.00026832128 0.00079998374 -0.93376189 0.037067603
583000000 -0.92909247 0.043574069 0.00034528272 0.00071294588 -0.0001145465 0.0013670818 -0.93314666 0.038125549
584000000 -0.92955995 0.043194894 -0.00024407633 0.0018200014 -0.00053700822 0.0010432511 -0.93295348 0.039022524
585000000 -0.92814857 0.043224227 0.00027635673 0.00097496394 0.00025924123 0.00087374868 -0.93108571 0.03829965
586000000 -0.93016869 0.043137632 0.00024450087 0.0018060543 0.00057125516 0.002185795 -0.93330574 0.037192356
587000000 -0.92915183 0.043546494 0.0017153865 0.0014120491 0.0005708214 0.0021786871 -0.93229133 0.037580214
588000000 -0.92843562 0.043296214 0.00056551571 0.001608327 -0.00015468287 0.0019949616 -0.93279237 0.037714608
589000000 -0.9288494 0.044045288 0.00055258878 0.0011670688 -0.00011769298 0.0020324991 -0.93102062 0.039219283
590000000 -0.92699897 0.044458307 0.00068134395 0.0023921675 0.00040976159 0.0018054976 -0.93202496 0.039606635
591000000 -0.92850262 0.04395793 -0.00091705966 0.0016358867 0.00029015235 0.0017160495 -0.93338943 0.036865357
592000000 -0.92894053 0.044174112 -5.6245051e-005 0.0016605199 0.0008167479 0.0013798331 -0.93332332 0.038244151
593000000 -0.92841244 0.043333683 0.0013940608 0.001025075 0.00020512867 0.0021309461 -0.93415761 0.036469053
594000000 -0.9287706 0.042598862 0.00039284508 0.0020296709 -0.00032822441 0.00055156817 -0.93276596 0.038932029
595000000 -0.92823946 0.043184884 -0.00062112074 0.0008761168 0.00069700147 0.0020166547 -0.93274748 0.038961284
596000000 -0.92758608 0.045580205 0.00069571362 0.0004467644 0.00088935043 0.0013306946 -0.93326801 0.037502181
597000000 -0.92792988 0.044887282 0.0001391742 0.0006466051 -5.9565085e-005 0.0010953753 -0.93309385 0.040222161
598000000 -0.92925549 0.043915957 0.00042044758 0.00070412667 0.00039516197 0.00088658783 -0.93088871 0.038038943
599000000 -0.92706275 0.044177894 0.00024958738 0.0010877702 0.0013470644 0.00084655668 -0.9323774 0.038034834
600000000 -0.92895252 0.046279173 0.00012961717 0.0013318689 0.0011009143 0.0015197444 -0.93317592 0.038130168
601000000 -0.92748606 0.045685325 -0.00090211717 0.0018384053 0.00055730034 0.00024032094 -0.93367392 0.038077075
602000000 -0.92842501 0.04691131 2.2849663e-005 0.0020537521 -0.00027078114 0.0020847204 -0.93225664 0.040369727
603000000 -0.92977571 0.045209657 -0.00013064478 0.0014419748 0.00012660293 0.0025522616 -0.93268836 0.039144855
604000000 -0.92840016 0.044019893 0.0001101301 0.0012959398 -0.0006593361 0.0023965416 -0.93203604 0.03903944
605000000 -0.92886335 0.045175001 -0.00012018558 0.0020492806 7.7955818e-005 0.0011908738 -0.93515974 0.040403176
606000000 -0.92926168 0.044819493 -0.00059963 0.0025438194 7.9633865e-005 0.0021553393 -0.93262571 0.038254671
607000000 -0.92920035 0.045847908 0.0011542325 0.00120401 -1.8886962e-005 0.0017911298 -0.93427354 0.038549066
608000000 -0.9277373 0.046506476 0.00015106914 0.00070520851 -0.00094954844 0.0017683798 -0.93448395 0.040077019
609000000 -0.92754614 0.045322731 0.001136861 0.0016528121 0.0004330368 0.0021001073 -0.93296331 0.038474251
610000000 -0.92770535 0.047107626 0.0012018374 0.0024839742 9.0990718e-005 0.0016182747 -0.93237382 0.03847507
611000000 -0.92916083 0.044488534 0.00067432696 0.0011765829 0.00032081563 0.0016955832 -0.93237579 0.039366703
612000000 -0.92878991 0.047087852 1.0063967e-005 0.0021857023 -0.0015241472 0.002757641 -0.93144339 0.038413048
613000000 -0.92794293 0.045973882 -0.00028590445 0.001378624 5.3657615e-005 0.00075976097 -0.93297088 0.040110018
614000000 -0.92952281 0.045653462 -1.1688367e-005 0.0025264788 -0.00014898091 0.0014205128 -0.93234777 0.038553711
615000000 -0.92951 0.047560133 -0.0010192705 0.00047362535 -0.0014024585 0.0010850768 -0.93292308 0.039450604
616000000 -0.92941558 0.046119235 0.00076100184 0.0018551354 0.00084186194 0.0014629703 -0.93158925 0.039985545
617000000 -0.93052787 0.048470102 0.00016940755 0.0012039208 -0.00018755902 0.0016047101 -0.93308371 0.040956981
618000000 -0.92867106 0.047055405 0.00063578546 0.0024894394 -0.00054568553 0.001768482 -0.93220049 0.03960317
619000000 -0.92607975 0.047592681 1.1482e-005 0.0021764957 0.00017754779 0.0012501082 -0.93306416 0.041262932
620000000 -0.9271242 0.048005618 0.00018919415 0.0014885274 0.00036498907 0.0013531955 -0.93355805 0.039785028
621000000 -0.9294368 0.048583768 8.5389991e-005 0.0022691346 0.0010392969 0.001394785 -0.93277246 0.041599169
622000000 -0.92974424 0.047767349 0.00081694813 0.002567407 0.00041835714 0.0010952933 -0.93288732 0.03958559
623000000 -0.92810959 0.048410792 0.00046907604 0.0015826199 -0.0009561663 0.001589985 -0.9316358 0.039821178
624000000 -0.92722452 0.047129311 0.00056323613 0.00092017418 0.00031946643 0.0013753056 -0.9337039 0.039590005
625000000 -0.92892164 0.049143717 0.00018291216 0.0014132471 1.817775e-005 0.0034518195 -0.93246603 0.038959961
626000000 -0.93006742 0.048328601 0.00043858326 0.0020496193 0.00047213232 0.0022567827 -0.93352175 0.040174771
627000000 -0.9289133 0.048479997 -8.4893065e-005 0.0018831138 -0.00047889588 0.0019418227 -0.93148351 0.039588019
628000000 -0.92730111 0.048286755 9.9134108e-005 0.0023433631 -0.00088542141 0.0014258784 -0.93244261 0.041850381
629000000 -0.92939943 0.049645636 2.1009582e-005 0.0015880008 -0.00033034576 0.0010675208 -0.93232822 0.040684689
630000000 -0.92878836 0.050377902 0.00021419759 0.0012420227 0.00010392092 0.00057338423 -0.93301171 0.04192907
631000000 -0.9266544 0.048447937 -0.00050598045 0.0012739497 0.00047287202 0.0012183898 -0.93340933 0.041028704
632000000 -0.92987829 0.046989702 -0.0011436306 0.0022506486 -5.0162234e-005 0.0027359459 -0.93165642 0.040511262
633000000 -0.92817378 0.049761213 0.00038020269 0.0016023724 0.0005410384 0.001692083 -0.93272692 0.041949034
634000000 -0.92473119 0.048242062 -0.00044380277 0.0011293521 -0.00013666709 0.0016488471 -0.93300074 0.041087069
635000000 -0.92965943 0.050123878 -0.00038674765 0.0017438234 0.00083774392 0.0016021825 -0.93168193 0.040742781
636000000 -0.92773074 0.048456211 0.00067227538 0.0013350673 0.00062272797 0.0020887342 -0.93211812 0.039461352
637000000 -0.92913228 0.051339421 -0.0010633335 0.00093046436 -0.00060484733 0.0015204229 -0.93059689 0.041181371
638000000 -0.926983 0.05049732 -0.00010113086 0.0024165448 0.0013201993 0.0010503456 -0.93211895 0.040728647
639000000 -0.92874169 0.048571832 -8.1821592e-005 0.001105177 0.0005833052 0.0018891258 -0.9321869 0.040082388
640000000 -0.92748898 0.049108677 0.00015364449 0.0018524851 -0.00028203736 0.00085876352 -0.93219018 0.041336909
641000000 -0.92868119 0.049792387 0.00076721923 0.0021598553 0.00061456073 0.0021156892 -0.93211764 0.042396396
642000000 -0.92801529 0.049350955 0.000447367 0.00087703904 -0.00014816981 0.0013273042 -0.93230015 0.042117592
643000000 -0.92742079 0.050137546 0.00073152065 0.0013461404 -5.2943855e-005 0.0016244933 -0.93156457 0.03955837
644000000 -0.92876321 0.049552143 0.00019351668 0.0021210411 0.00052325474 0.0010350792 -0.93263614 0.041988295
645000000 -0.92801982 0.051296532 0.0015564564 0.001835242 0.00073234021 0.0014531589 -0.93346369 0.041576508
646000000 -0.92755115 0.04980842 -0.0007602137 0.0022223115 0.00061027682 0.0021866807 -0.93209976 0.042093769
647000000 -0.92794281 0.050569687 -3.3807966e-005 0.0012478286 0.00079999113 0.001132261 -0.93201238 0.041902445
648000000 -0.92840117 0.051329918 -0.00041366951 0.0024094973 9.4043251e-005 0.0022467424 -0.93153727 0.042592138
649000000 -0.92746085 0.050134894 0.00032958292 0.0027845635 0.0008649173 0.0019391339 -0.9330762 0.042247303
650000000 -0.92772889 0.049730569 0.00068920333 0.0024094679 -0.0002144809 0.00096324732 -0.93263555 0.042915907
651000000 -0.92790818 0.050073277 0.00030580754 0.0018379224 -0.0010162715 0.0020620432 -0.93162137 0.042640269
652000000 -0.92628914 0.050446954 0.0011848619 0.0023846508 0.00016872444 0.0021212494 -0.93128949 0.042431451
653000000 -0.92775339 0.051440809 6.4343054e-005 0.0020528377 -0.00052479305 0.0018779234 -0.93213642 0.042979974
654000000 -0.92693484 0.050052918 -0.00021562449 0.0019683733 0.0009387277 0.0014398196 -0.93241209 0.041677594
655000000 -0.92721909 0.050593175 0.0004595897 0.0026573462 0.00033187694 0.0016754173 -0.93128401 0.043261886
656000000 -0.92603725 0.05204102 0.00066400663 0.0018935242 -0.00017634542 0.0020339896 -0.93252975 0.042818025
657000000 -0.92705542 0.049976356 0.00065789261 0.00086384529 0.00056304364 0.0025071686 -0.93162769 0.043292258
658000000 -0.92772156 0.05069368 0.00045064234 0.0029686559 -0.0004068033 0.0021669629 -0.93224663 0.042305224
659000000 -0.9266203 0.052346643 -0.00024514136 0.00094988296 -0.00029074002 0.0023653698 -0.93132627 0.043177653
660000000 -0.92751139 0.051129207 1.2151196e-005 0.0019950676 0.0003098943 0.0023125869 -0.9328298 0.042895798
661000000 -0.92866302 0.050689612 0.00029629469 0.0032199668 0.00045161817 0.0012609041 -0.93140084 0.044207711
662000000 -0.92760515 0.05187897 1.2148716e-005 0.003507592 0.00061599433 0.0017489145 -0.93175709 0.042426385
663000000 -0.92777789 0.051897906 -0.00090186106 0.0013685878 -0.00016416825 0.0021675366 -0.93213046 0.04289249
664000000 -0.92722809 0.051664129 0.00065275084 0.0026818668 0.00064117409 0.0020330886 -0.93218815 0.04253738
665000000 -0.92805994 0.050106235 0.00062947365 0.0022956298 -0.00019512525 0.0020777462 -0.93217975 0.042416058
666000000 -0.928442 0.051814519 0.00014318236 0.001882656 -3.0422387e-005 0.002382105 -0.93134892 0.042120665
667000000 -0.92860824 0.052299414 0.00010853243 0.0018235955 0.00015055273 0.0014903616 -0.93309021 0.04370033
668000000 -0.92873031 0.052817125 0.00030587622 0.0023776272 3.7705056e-005 0.0017114597 -0.9336884 0.041964676
669000000 -0.92724985 0.052339002 0.00026434168 0.0012078667 0.00050755014 0.0021465824 -0.93257058 0.042521283
670000000 -0.92742598 0.052522574 4.6632013e-005 0.0014261039 2.3394909e-005 0.0025190837 -0.93283641 0.044060055
671000000 -0.92779416 0.052665256 0.00056811009 0.0015647142 0.0010554884 0.0021717031 -0.93191803 0.043359082
672000000 -0.92784572 0.052446552 0.00035236275 0.0016021889 0.0016051363 0.0020576885 -0.93311059 0.043575771
673000000 -0.92766899 0.053655878 0.0010080435 0.00076811836 -0.00036823508 0.0013663537 -0.93218601 0.044145264
674000000 -0.92780197 0.052490905 0.00087047898 0.002054265 0.0002834943 0.0024825316 -0.9321174 0.041432459
