!Keysight Technologies,M9374A,MY55442783,A.12.55.05
!Date: Friday, May 21, 2021 09:58:18
!Correction: S11(Full 2 Port(1,2)) 
!S21(Full 2 Port(1,2)) 
!S12(Full 2 Port(1,2)) 
!S22(Full 2 Port(1,2)) 
!S2P File: Measurements: S11, S21, S12, S22:
# Hz S  RI   R 50
500000000 -0.68442881 0.10484139 0.00097553938 -0.0012014854 0.00035284131 -0.0014750245 -0.69749469 0.10029954
501000000 -0.68471199 0.1051894 0.00088739506 -0.0021152294 -0.00021705955 -0.0019076578 -0.69889873 0.10104838
502000000 -0.68540233 0.10444345 -0.0016500378 -0.00251872 -0.00031248361 -0.001928336 -0.69800621 0.10078482
503000000 -0.68596256 0.10628474 -0.00028751491 -0.0019799243 0.00071561924 -0.0008944872 -0.69707495 0.100766
504000000 -0.68501061 0.10629157 -0.00034163997 -0.0025250884 2.0977868e-005 -0.0023996173 -0.69816327 0.10313043
505000000 -0.68471628 0.10557608 4.1266823e-005 -0.0013980919 -0.00062523334 -0.0021256427 -0.69668573 0.10083424
506000000 -0.68493855 0.10791193 0.000319488 -0.0016313225 0.00018417601 -0.0017932614 -0.6965121 0.10102737
507000000 -0.68418658 0.10747409 -0.0001462338 -0.0012881333 -0.0010452803 -0.0019290628 -0.69731593 0.101877
508000000 -0.68506634 0.10640994 0.00025143786 -0.0017495948 6.9743066e-005 -0.0008717028 -0.69636804 0.10108805
509000000 -0.68550116 0.10948665 0.00059020659 -0.0011019049 0.00018122685 -0.00085192668 -0.69774985 0.10218348
510000000 -0.68602663 0.10809472 -0.00031043348 -0.0012981578 -0.00074184459 -0.0016900328 -0.69816488 0.10286472
511000000 -0.68434632 0.10846581 -0.00031407023 -0.0003840077 -0.00034756211 -0.0021467388 -0.69701385 0.10272805
512000000 -0.68507755 0.10797483 -0.0002702022 -0.0014704189 0.00066068751 -0.0015568548 -0.69733685 0.10290673
513000000 -0.68355811 0.10755176 -0.00048446262 -0.00091703143 0.00014156746 -0.0018409413 -0.69711637 0.10246846
514000000 -0.68468398 0.10852997 -0.00047930266 -0.00073929864 -0.00038598978 -0.0018668728 -0.69723219 0.10235434
515000000 -0.68447286 0.10896719 -0.00055876392 -0.0014115749 0.00073937385 -0.0012654338 -0.69671279 0.10571862
516000000 -0.68416172 0.10893574 0.00026330911 -0.0013143879 -0.00028089006 -0.0022647602 -0.69649631 0.10537801
517000000 -0.68485904 0.10938261 -0.00018103095 -0.0019697561 -0.00048679349 -0.0016151074 -0.6968593 0.10387775
518000000 -0.68467385 0.10946415 0.00020455732 -0.0013189988 -0.00072116108 -0.0012463147 -0.69694126 0.10394244
519000000 -0.68597454 0.10868083 0.00050213182 -0.00050287315 -0.00088122522 -0.002273083 -0.69616753 0.10515624
520000000 -0.68393701 0.10940681 -0.00014062233 -0.00076103915 -0.00088348595 -0.0012280613 -0.69698215 0.10552576
521000000 -0.68521559 0.1098658 -0.00035972992 -0.00073418341 -0.00033748292 -0.0011617546 -0.69612986 0.10592585
522000000 -0.68324512 0.11014081 -0.00091037212 -0.0011555931 -0.0002590192 -0.00032431236 -0.6974802 0.10601422
523000000 -0.68532199 0.10909808 -0.00042128103 -0.00032094738 0.00026220595 -0.0020447182 -0.69660544 0.10620206
524000000 -0.68539846 0.11065079 -0.001258524 -0.0024671583 -0.00098924781 -0.0014061312 -0.69758838 0.10589103
525000000 -0.68354225 0.1109731 0.00070057105 -0.0020837127 0.00081660372 -0.0012339737 -0.69647121 0.10557675
526000000 -0.68395895 0.11118871 -0.00053168449 -0.0022642969 -0.00075417157 -0.0011658451 -0.6969921 0.1077464
527000000 -0.68492562 0.11139137 -0.00066795456 -0.0020270159 -0.00090712367 -0.0015263277 -0.69962764 0.10642692
528000000 -0.68484873 0.1115469 0.00084478175 -0.00088143384 1.9041951e-005 -0.00254774 -0.69630986 0.10811827
529000000 -0.68475556 0.11261827 -0.00031661411 -0.0025565685 -0.00026224871 -0.00072900666 -0.6968435 0.10619306
530000000 -0.68407285 0.11357681 -0.00083521818 -0.0011707903 -0.00017489822 -0.0014605657 -0.69698924 0.10687695
531000000 -0.68370825 0.11177601 -6.1242041e-005 -0.002137481 -0.00084798544 -0.0028855631 -0.69610345 0.10748202
532000000 -0.68377429 0.11293757 -0.00028168046 -0.00103483 -0.00038724454 -0.0010227262 -0.69616169 0.1077747
533000000 -0.68289435 0.11158361 -0.00019535614 -0.0021751078 0.00030965687 -0.00085735467 -0.69678378 0.10736571
534000000 -0.68479055 0.11126793 -0.00037830867 -0.0014338065 -0.0002124692 -0.0024158747 -0.69765526 0.10804241
535000000 -0.68334901 0.1120713 -0.00041467312 -0.0013374876 -0.00051995955 -0.0011742923 -0.69620413 0.1069914
536000000 -0.68316102 0.11272673 -0.00012469351 -0.002376406 -0.00033149548 -0.002056642 -0.69515508 0.1090598
537000000 -0.6837793 0.11178865 -6.4297681e-005 -0.0013054676 0.0010176284 -0.0018977588 -0.69774866 0.10902948
538000000 -0.68405074 0.11339124 0.00032279847 -0.0018569418 -0.00029739545 -0.001495374 -0.69712991 0.10886142
539000000 -0.6842742 0.11232407 -0.00017903834 -0.0012398711 -0.00076125807 -0.0014679553 -0.695862 0.10877538
540000000 -0.68425411 0.11453171 6.8819565e-005 -0.0016100761 -0.00075448479 -0.001439603 -0.69650239 0.10920937
541000000 -0.68349701 0.11465079 -0.00017453125 -0.00081125525 -0.00057866034 -0.0021925627 -0.69553989 0.11051217
542000000 -0.68290645 0.11392567 -0.00014210843 -0.0010916544 0.00040815774 -0.001473007 -0.69613504 0.10844189
543000000 -0.6833266 0.11495089 -0.0011296234 -0.0017005358 -0.00024023869 -0.0026949772 -0.69626564 0.11076883
544000000 -0.68338478 0.1143038 -3.8797127e-005 -0.0022676494 -0.0014515917 -0.0019474885 -0.69688529 0.11064225
545000000 -0.68364847 0.11420327 -0.0016109543 -0.0011528861 0.00056634145 -0.0012083267 -0.69526935 0.11013131
546000000 -0.68345714 0.11488479 -0.00061120902 -0.0016755362 0.00039093397 -0.0013026498 -0.69615793 0.11046987
547000000 -0.68336105 0.11416168 -0.00033630489 -0.0012020343 -2.5565048e-005 -0.00037720051 -0.69607008 0.11027367
548000000 -0.68222141 0.11419226 0.0002988406 -0.0017060119 5.0110426e-005 -0.0014819663 -0.69698524 0.10969717
549000000 -0.68277347 0.11512281 -0.0014107315 -0.0005616491 -0.00049210229 -0.0018850329 -0.69702244 0.11249787
550000000 -0.68316454 0.11417668 0.00019099058 -0.0014176316 -0.00068107818 -0.001252346 -0.69696498 0.11135756
551000000 -0.68315047 0.1159974 0.00065280136 -0.0008791486 -0.00035422822 -0.0018019973 -0.69703454 0.11156713
552000000 -0.68492913 0.11402832 0.00059937913 -0.0018836639 -0.0005711955 -0.0020075573 -0.69565201 0.11026879
553000000 -0.68329573 0.1160532 2.904662e-005 -0.0015318668 0.00061526691 -0.00078473275 -0.69682318 0.109203
554000000 -0.68426323 0.11459791 0.0005787909 -0.0017682932 8.1392478e-005 -0.0022925343 -0.69635481 0.1115026
555000000 -0.68329483 0.11700445 0.00017339532 -0.0027523891 -0.0008568464 -0.0018208626 -0.69584608 0.11258572
556000000 -0.68475235 0.11472935 -0.00068140402 -0.001569376 -0.0011738066 -0.0012306025 -0.69707388 0.11134614
557000000 -0.68359524 0.11683961 4.5961202e-005 -0.0019475059 -0.00057017774 -0.0017046781 -0.69660968 0.11238497
558000000 -0.68390942 0.11602646 -0.00030156947 -0.0014161838 -6.4340318e-005 -0.0013127218 -0.69619375 0.11231174
559000000 -0.6826039 0.11701223 0.00063027203 -0.0015348388 -0.00084216747 -0.0020876946 -0.69623804 0.11244958
560000000 -0.6832574 0.11709639 -0.00019889053 -0.0014079377 -0.0010610424 -0.0012475903 -0.69653851 0.11257861
561000000 -0.68272609 0.11646641 8.1125705e-005 -0.0017869927 -0.00087782927 -0.0023356092 -0.69659215 0.11299742
562000000 -0.6834113 0.11859168 -0.00064498873 -0.0010226918 -0.00060106331 -0.00089864933 -0.69609118 0.11242899
563000000 -0.68412042 0.11806075 -0.00073124154 -0.00070889812 -0.00055573799 -0.0010878874 -0.69681126 0.11299305
564000000 -0.68285286 0.11744397 3.5842801e-005 -0.0014848792 0.00012185727 -0.0021333182 -0.69511974 0.11243185
565000000 -0.68314165 0.11686948 0.00012452074 -0.0020767187 -0.00085161993 -0.0019355234 -0.69710416 0.11291207
566000000 -0.68239617 0.11832088 -0.00083422399 -0.0010194553 -0.00047116139 -0.0014541111 -0.69626927 0.11480769
567000000 -0.68369639 0.11843817 7.6873821e-006 -0.00095405825 0.00021639394 -0.00065131485 -0.69673991 0.11327038
568000000 -0.68233019 0.11829793 -2.7255523e-005 -0.0021277305 -0.00035768797 -0.0018213955 -0.69553941 0.11357066
569000000 -0.68258673 0.11882897 0.00021324512 -0.0016346703 -0.00054959831 -0.00096682168 -0.6965887 0.1118986
570000000 -0.68217468 0.11877391 0.0002555653 -0.0023861013 -0.00064900384 -0.0011101753 -0.69626683 0.11451957
571000000 -0.68347788 0.11935517 0.00019811677 -0.0014113092 -0.00020194391 -0.0015001695 -0.69557351 0.11483748
572000000 -0.68209505 0.11887882 -0.00074194896 -0.001629194 -0.00038564039 -0.0013436606 -0.69608873 0.11490443
573000000 -0.68240422 0.1186149 -0.00064831995 -0.00087401189 -0.00068468769 -0.0018634769 -0.69520748 0.11536558
574000000 -0.68220085 0.11993595 -0.00030664864 -0.0017346329 -0.00083463255 -0.0015836452 -0.69723415 0.11466234
575000000 -0.68190014 0.11982346 -0.00086467073 -0.001447667 -0.00027791515 -0.0023989491 -0.69538575 0.11471877
576000000 -0.68011004 0.12009545 0.00032430721 -0.0017650098 -0.00033064696 -0.0004879623 -0.69560266 0.11570918
577000000 -0.68233782 0.11954945 -0.0013110987 -0.0023272315 -0.00042530554 -0.0021159479 -0.69653952 0.11614382
578000000 -0.68197745 0.11820896 -0.00060899538 -0.0021041443 -0.00095044251 -0.0019277097 -0.69722444 0.11568649
579000000 -0.6812551 0.12026746 -0.0011830976 -0.0016712203 -0.00045889581 0.00045535347 -0.69578952 0.1159266
580000000 -0.6815275 0.11899333 0.00037189474 -0.0017077157 -0.0011513794 -0.00044149012 -0.69556135 0.11654632
581000000 -0.68114638 0.11941982 -0.0011227645 -0.0015776027 -0.0002655327 -0.0016039948 -0.69532955 0.1157582
582000000 -0.68146384 0.1190776 0.00015856508 -0.0013983326 -0.00068327971 -0.0015412339 -0.69396788 0.11580968
583000000 -0.68135607 0.12198354 -0.00043062231 -0.0016873571 -0.00098559633 -0.0013312177 -0.69747275 0.11638153
584000000 -0.68188024 0.12010793 -0.0013622182 -0.0015175024 -5.2911884e-005 -0.0027420504 -0.69587451 0.11639126
585000000 -0.6812557 0.12000374 -0.00041431029 -0.00081160158 0.00025180302 -0.0013243834 -0.69581068 0.11663049
586000000 -0.68267816 0.12205852 0.00026873959 -0.0010341293 -0.00073029986 -0.0017490789 -0.69568563 0.11614914
587000000 -0.68113285 0.12198278 0.00031071447 -0.0019019829 -0.00023918248 -0.0013002055 -0.69570488 0.11777978
588000000 -0.68091112 0.12087128 0.00038615169 -0.0021449239 5.924463e-005 -0.0017053718 -0.69640213 0.11742644
589000000 -0.68101537 0.12279343 -0.00051282905 -0.0019972776 -0.0011820764 -0.002120347 -0.6951406 0.11741474
590000000 -0.68173563 0.12259088 7.7237375e-005 -0.0021262565 6.1375613e-005 -0.0021762229 -0.69534743 0.11907881
591000000 -0.68065965 0.12183457 1.2952232e-005 -0.0020285221 -6.0013029e-008 -0.0014253112 -0.69525617 0.11845601
592000000 -0.68050617 0.12338923 -5.3546315e-005 -0.0026006061 -0.00045171267 -0.0011300241 -0.69459099 0.1178306
593000000 -0.68099892 0.12283803 -0.00055801991 -0.0017507609 0.00018079186 -0.002036744 -0.69505727 0.11684934
594000000 -0.68086851 0.12426078 -0.00075718079 -0.0018248367 -5.640472e-006 -0.0012698626 -0.69498128 0.11900356
595000000 -0.6814335 0.12250454 -0.0013442843 -0.0017774038 -0.00063248188 -0.0010752411 -0.69301379 0.11919569
596000000 -0.68145901 0.1245692 0.00048187855 -0.002860242 0.00034302598 -0.0012444536 -0.69450468 0.11787502
597000000 -0.68050182 0.12428314 -0.00052783289 -0.0016812877 -0.00062266755 -0.0015965266 -0.69472605 0.11724342
598000000 -0.68062669 0.12455016 0.00046046995 -0.0013919895 -0.0012607429 -0.002544737 -0.69492477 0.11830426
599000000 -0.6809938 0.12418721 1.8731023e-005 -0.0013747268 -0.00056023948 -0.0010052559 -0.69444871 0.1203558
600000000 -0.68078655 0.12473556 0.00050462416 -0.0026368783 -5.3679694e-005 -0.0014654952 -0.69431937 0.11844344
601000000 -0.68052769 0.12687807 -0.00033823433 -0.0018091726 0.00017433344 -0.0010915656 -0.6945439 0.11941053
602000000 -0.68108273 0.12516955 3.6509158e-005 -0.0015820458 -4.9063765e-005 -0.0021540355 -0.69388801 0.12001131
603000000 -0.68122101 0.12610738 -0.00021753971 -0.0005757786 -0.0013172383 -0.0010207131 -0.6937837 0.12032352
604000000 -0.68126094 0.12548515 -7.0054368e-005 -0.0029169512 -0.00021086277 -0.0013681086 -0.69426978 0.12102719
605000000 -0.68031961 0.12632819 0.00073290186 -0.002281615 -0.00089608785 -0.0016381267 -0.6954664 0.12074911
606000000 -0.68069732 0.12682359 0.00080764672 -0.00076562876 2.8941322e-005 -0.0012466505 -0.6941461 0.12022745
607000000 -0.68014771 0.12572695 -0.0009029081 -0.0011735972 0.00068959547 -0.0028079748 -0.69430792 0.12097859
608000000 -0.68097907 0.12659104 -6.3148946e-005 -0.00074290531 7.0228001e-005 -0.0018456449 -0.69382465 0.12294302
609000000 -0.68023992 0.12755854 0.00014188295 -0.0022690818 -0.00059320207 -0.0013148793 -0.69401741 0.12144446
610000000 -0.68068099 0.12701063 -0.00038222389 -0.0018946026 0.00013659512 -0.0015627829 -0.69391418 0.12030032
611000000 -0.67933178 0.12838157 -0.00077204505 -0.0011912722 -1.1994041e-005 -0.00075889158 -0.69424498 0.12280088
612000000 -0.68129605 0.12844335 -0.00027903495 -0.0017144281 -0.00031903581 -0.0021674871 -0.694951 0.12146191
613000000 -0.67978853 0.12805083 -0.00054118823 -0.0017755659 -0.00018913226 -0.0017285882 -0.69473487 0.12288576
614000000 -0.6796186 0.12769629 -0.00047966419 -0.0017936197 -0.00050504121 -0.0020194254 -0.69433385 0.12139852
615000000 -0.68070966 0.12790531 -0.0011156395 -0.0012354795 0.0007028355 -0.0014538965 -0.69377476 0.12355562
616000000 -0.68063742 0.12956117 -4.3481145e-005 -0.0017382231 0.00032283788 -0.0023805129 -0.69364983 0.12198813
617000000 -0.68123436 0.12897152 -0.0007222998 -0.0022803927 7.6890909e-005 -0.0017050842 -0.69382793 0.12256892
618000000 -0.68118596 0.12948914 -0.00031766837 -0.001849878 0.00014174433 -0.0027885339 -0.69384187 0.12220894
619000000 -0.68037099 0.13020423 -0.00039733844 -0.0018504815 -0.00028322812 -0.0021503228 -0.69428176 0.12249212
620000000 -0.6806764 0.13059123 -5.0394615e-006 -0.0024322867 -5.2293577e-005 -0.0013876051 -0.69455796 0.12343944
621000000 -0.68047023 0.13159339 -0.00062331668 -0.0011259121 -0.00099676696 -0.0020990861 -0.69412297 0.12341806
622000000 -0.68027878 0.13029964 -0.00017831847 -0.0011888567 -0.001260118 -0.0019942725 -0.69339323 0.12330114
623000000 -0.68055803 0.13141762 -0.00038909624 -0.002826283 -0.00032109203 -0.001418086 -0.69341832 0.12448993
624000000 -0.67997277 0.13128372 -0.001015 -0.0011310894 -0.00092028466 -0.0020188123 -0.69290549 0.12499607
625000000 -0.68034577 0.13048774 -0.00062035647 -0.0016199581 -0.0012879894 -0.0020897549 -0.69443774 0.12409639
626000000 -0.68024153 0.1317576 0.00029643122 -0.00086846587 -0.0009144597 -0.0016437341 -0.69284064 0.12370491
627000000 -0.67983264 0.13151069 -0.00085206388 -0.0017435212 0.00034564274 -0.0014243369 -0.69361949 0.12536643
628000000 -0.68044925 0.13160732 -0.0009636847 -0.0018959473 -0.00097954366 -0.0013389387 -0.69247437 0.12563117
629000000 -0.67984354 0.13225888 -0.000380474 -0.0013813571 -0.00040304588 -0.0014949304 -0.69332224 0.12566714
630000000 -0.68091065 0.13227227 -0.0013389188 -0.0024444475 0.00015319815 -0.0015969295 -0.69285494 0.12595308
631000000 -0.67863476 0.13169345 -0.0010827325 -0.0025651101 -0.00033837382 -0.0016238306 -0.69273525 0.12735373
632000000 -0.67979872 0.13293919 2.7286793e-005 -0.0028058612 0.00046010347 -0.0016592897 -0.69425696 0.12682196
633000000 -0.68012249 0.1326528 -0.0012394101 -0.00092980318 5.0356404e-005 -0.002506054 -0.69376099 0.1257893
634000000 -0.67986029 0.1324544 -0.0005984045 -0.0011208814 -0.000588817 -0.0010385698 -0.69254816 0.12723857
635000000 -0.6779871 0.13336129 0.00065466971 -0.0018704225 0.00023624583 -0.0017751066 -0.69261998 0.12621947
636000000 -0.67911905 0.13384373 -0.00097837625 -0.00098927994 -0.00083437725 -0.00089536066 -0.69213325 0.1284381
637000000 -0.67865294 0.13402495 -0.00040967975 -0.0016065884 0.00011493349 -0.0024765043 -0.69234848 0.12639812
638000000 -0.67969441 0.13388567 -0.00037109095 -0.0021987832 -2.9143024e-005 -0.0018115127 -0.69321972 0.12773947
639000000 -0.6798799 0.13428624 -0.00052743405 -0.0027855744 -0.00040009076 -0.0015258143 -0.69290304 0.12777559
640000000 -0.67899299 0.13427451 -0.00056521391 -0.0012398632 -0.00056222727 -0.0019513069 -0.69253886 0.12876701
641000000 -0.67812091 0.13418615 0.00012763029 -0.0017320694 0.00035777615 -0.0018343747 -0.69287193 0.12977853
642000000 -0.67952865 0.13354121 0.00010863068 -0.0027740933 0.00021575121 -0.0023596908 -0.6922484 0.12866686
643000000 -0.68076599 0.13525617 -0.00026117204 -0.0019281819 -0.0012478753 -0.0019201546 -0.69330722 0.12825057
644000000 -0.6800493 0.13588536 -0.0012481966 -0.0023020708 -0.00099720433 -0.0012561404 -0.69291973 0.12817715
645000000 -0.68061298 0.13602334 -0.0001070127 -0.0021792215 -0.00048773587 -0.0012855626 -0.69235992 0.12847611
646000000 -0.67875373 0.13551205 5.3436775e-006 -0.0024273975 3.6580481e-005 -0.001529702 -0.69269168 0.12944403
647000000 -0.67979687 0.13574323 0.00020440653 -0.0010278019 0.001133651 -0.001870166 -0.69275749 0.12765343
648000000 -0.67861938 0.13629378 -9.2618218e-005 -0.0015422001 -0.00038038762 -0.001157309 -0.69113767 0.12908274
649000000 -0.67881221 0.13693075 -9.4959506e-007 -0.0020149618 -0.00013037201 -0.0014898314 -0.69201595 0.13016865
650000000 -0.67890459 0.13567965 -0.00046897601 -0.0012373312 -0.00040036259 -0.0015296207 -0.6910336 0.12997745
651000000 -0.67887563 0.13750347 -0.00022815139 -0.0034700541 0.00020520879 -0.002076888 -0.69289231 0.1300389
652000000 -0.6793223 0.1367816 -0.00070870086 -0.0012668837 -0.00029983281 -0.0026244663 -0.692653 0.12951253
653000000 -0.68061733 0.13742523 -0.00078665925 -0.0016101033 0.00071896659 -0.0015531898 -0.69185954 0.12987994
654000000 -0.67821991 0.13817336 -0.00073831069 -0.00054795149 -0.0013273091 0.00013098471 -0.69361985 0.13103811
655000000 -0.679061 0.13696428 -0.00036852318 -0.0029345343 -0.0010807628 -0.0022670052 -0.69301242 0.13110572
656000000 -0.67967033 0.13916162 -0.00036505391 -0.0016262016 -0.0010926353 -0.0018173757 -0.69205827 0.13056691
657000000 -0.67735261 0.1376265 -0.00050164794 -0.0017348005 -0.00074239512 -0.0019123786 -0.69101506 0.13096379
658000000 -0.67893833 0.1383121 0.00041553879 -0.0026539257 -3.3457094e-005 -0.0020653829 -0.6917274 0.13162351
659000000 -0.67865676 0.13842908 -0.00044300631 -0.0032958714 0.00028996673 -0.0013871117 -0.69170153 0.13069634
660000000 -0.6788488 0.13920324 -0.0010623813 -0.0012294524 -0.00053460145 -0.0010673126 -0.69243854 0.13052386
661000000 -0.67794389 0.13891675 -0.00026147944 -0.0018660242 -0.00010079639 -0.0018023112 -0.69225764 0.13151839
662000000 -0.67919952 0.13826256 -0.00059645419 -0.0023766286 -0.00076269632 -0.001842216 -0.69127727 0.13344468
663000000 -0.67967862 0.13851787 -0.0014510297 -0.0022830658 -7.1041657e-005 -0.0015313509 -0.69182032 0.13196392
664000000 -0.67872274 0.13892114 -0.00020234173 -0.0028542418 -0.00052744744 -0.0022140993 -0.69233829 0.1319142
665000000 -0.67917216 0.13923983 -0.00018906161 -0.0014339305 -0.00065910351 -0.0023648455 -0.69178599 0.13297957
666000000 -0.67998689 0.13919321 -0.00023709847 -0.0032922125 -0.00024479625 -0.002688291 -0.69277662 0.13208199
667000000 -0.67887527 0.13943222 -0.0016104662 -0.00082980283 -0.00054739072 -0.0014242831 -0.69290024 0.13258705
668000000 -0.6798048 0.13951507 -0.00032972818 -0.0017367478 -0.00036148392 -0.0025499472 -0.69283718 0.13296121
669000000 -0.6782372 0.14173749 -0.00070045568 -0.0016090679 -2.6522926e-005 -0.0014295665 -0.69096541 0.1326879
670000000 -0.67973626 0.14038482 -0.00030839318 -0.0024693019 -0.00082255644 -0.00095911406 -0.69086033 0.13361545
671000000 -0.67605221 0.13952644 9.8558383e-005 -0.0013569049 -0.00090750656 -0.0016834 -0.69158304 0.13325135
672000000 -0.67845786 0.14237209 -4.305298e-005 -0.0019873164 -0.00029120667 -0.0028137967 -0.69192475 0.1330605
673000000 -0.67898595 0.14081226 -6.055669e-006 -0.0021473467 -0.00079972623 -0.0023300739 -0.69203961 0.13336343
