!Keysight Technologies,M9374A,MY55442783,A.12.55.05
!Date: Friday, May 21, 2021 09:45:20
!Correction: S11(Full 2 Port(1,2)) 
!S21(Full 2 Port(1,2)) 
!S12(Full 2 Port(1,2)) 
!S22(Full 2 Port(1,2)) 
!S2P File: Measurements: S11, S21, S12, S22:
# Hz S  RI   R 50
500000000 -0.68430614 0.10659575 -0.00033728432 -0.0006386828 -0.00053692225 -0.0020377259 -0.69779617 0.10233444
501000000 -0.6851061 0.10556184 0.00010998226 -0.0015604526 0.00022059648 -0.0012817471 -0.6978336 0.10171601
502000000 -0.68457997 0.1074684 -0.0013726247 -0.0014660236 -0.00072777586 -0.0013200982 -0.6987018 0.10088761
503000000 -0.68456507 0.10649021 -0.00039585758 -0.0012947766 -0.00019818796 -0.0014452095 -0.69654495 0.10297175
504000000 -0.68506455 0.10801177 -0.00061575189 -0.0010684651 -6.8393238e-005 -0.0019812267 -0.69687498 0.10144163
505000000 -0.68490428 0.10774917 -0.00051883952 -0.0016365204 -0.00074716599 -0.0019329201 -0.6972 0.10206228
506000000 -0.68466628 0.10776729 -1.8609815e-005 -0.00048911059 -0.00031521232 -0.0025667266 -0.69832176 0.10312591
507000000 -0.6846537 0.10699092 0.00074566586 -0.0028147777 7.3784598e-005 -0.0023569672 -0.69644672 0.10202731
508000000 -0.68323326 0.10805711 -0.0010929607 -0.002364391 -0.00065579725 -0.0012433858 -0.69745034 0.10276382
509000000 -0.68426055 0.10764951 -0.00016153904 -0.0024299494 0.00052166043 -0.0011374581 -0.69584113 0.10387988
510000000 -0.68503988 0.10838011 -3.9500035e-005 -0.0017133033 0.00011937643 -0.00091835891 -0.69563669 0.10304461
511000000 -0.68415141 0.10915191 6.0684852e-005 -0.0013115846 -0.00022069526 -0.0013775511 -0.69748557 0.1022176
512000000 -0.68563616 0.10883799 -0.00050718739 -0.0020232846 -0.00035734347 -0.001359895 -0.69685191 0.10346341
513000000 -0.68436807 0.11020714 -0.00047603346 -0.0013225436 -0.00029818248 -0.00095018075 -0.6967501 0.10402044
514000000 -0.68340689 0.10955028 -0.00035323479 -0.0013786337 -0.00027961406 -0.0018092664 -0.6977607 0.10433049
515000000 -0.6849339 0.10962813 -1.4723326e-005 -0.0017978159 -0.0010001666 -0.0018341377 -0.6978544 0.10550462
516000000 -0.68428695 0.1109131 -0.00052954879 -0.0011630604 -0.00038882461 -0.0018246005 -0.69706035 0.10604227
517000000 -0.68343192 0.11166326 -0.00081092765 -0.0015092497 -1.778731e-006 -0.0019101104 -0.69716382 0.10553169
518000000 -0.68474913 0.11113539 -2.6883033e-006 -0.0019508767 -0.00052238675 -0.0011945446 -0.69788128 0.10632964
519000000 -0.68474978 0.11089034 -0.00022833006 -0.0010077687 -0.001056755 -0.00128725 -0.69633883 0.1047744
520000000 -0.68289727 0.11103639 0.00068644737 -0.0021314551 -0.00096887478 -0.001714761 -0.69770962 0.10690124
521000000 -0.68366134 0.1114981 0.00024833129 -0.0021212574 0.0003214154 -0.0012710594 -0.69644785 0.10762709
522000000 -0.68507177 0.11005801 -8.7533321e-005 -0.0028369636 -0.0010389425 -0.00096037146 -0.69640541 0.10529716
523000000 -0.68470675 0.11122538 -0.0003413223 -0.0015840124 -0.00067293941 -0.0012684652 -0.69615233 0.10616922
524000000 -0.68381822 0.11137746 0.00056845153 -0.0017437014 -0.00034431569 -0.0010386673 -0.69581205 0.10755946
525000000 -0.68413007 0.11286608 -0.00032586415 -0.00085133658 0.00073094369 -0.0012571568 -0.69517672 0.10896922
526000000 -0.68311101 0.11295474 -0.00045039903 -0.0015632504 -0.00034238378 -0.0010376485 -0.69657767 0.10755807
527000000 -0.68494892 0.11319783 -0.00048452476 -0.00098582346 -0.00082809129 -0.0026458548 -0.69818282 0.10705125
528000000 -0.68269312 0.11274178 -0.0001849377 -0.00021173434 -0.00045406341 -0.0013515906 -0.69554788 0.10751891
529000000 -0.68383712 0.11224698 -0.00089389761 -0.00083792483 -0.00090503518 -0.0016828277 -0.69675869 0.10806092
530000000 -0.68470848 0.11504889 -0.00074176729 -0.0011210439 -0.00029388902 -0.0015123133 -0.6974386 0.10706165
531000000 -0.68382788 0.11310385 -0.00061254849 -0.0018336867 -0.00076498784 -0.0020752102 -0.69676137 0.10885575
532000000 -0.68408656 0.11503951 -0.00066377653 -0.0024935722 -0.00010526517 -0.0020605822 -0.69734704 0.10809033
533000000 -0.68349493 0.11344882 -0.00035261246 -0.0016422864 -0.00079309643 -0.0016244955 -0.69596869 0.11003254
534000000 -0.68437827 0.11391648 -0.00086863758 -0.0013997833 -0.00051032181 -0.0014783095 -0.69661778 0.10934113
535000000 -0.68345171 0.11371557 -0.00066239672 -0.00075395574 -0.0011868688 -0.0014216026 -0.69609296 0.1083533
536000000 -0.68396205 0.11451616 2.9515168e-005 -0.00064266403 3.0680043e-005 -0.0014646724 -0.69749534 0.10963325
537000000 -0.68259043 0.11313726 -0.0013821233 -0.001469195 -0.00036900621 -0.0015627616 -0.69727647 0.11045942
538000000 -0.6844669 0.11485973 -0.00069939357 -0.0022156578 -0.0007176057 -0.0013987932 -0.6968019 0.10955263
539000000 -0.6850127 0.11370724 0.00049179804 -0.0020909589 0.00036371421 -0.0018267833 -0.69662243 0.11067152
540000000 -0.68259716 0.11511984 -9.6625132e-005 -0.002274778 4.5926048e-005 -0.0018182029 -0.69552368 0.10936557
541000000 -0.6842348 0.11564854 -0.0015571772 -0.0022736215 -0.00019903941 -0.0014520353 -0.6952939 0.11029622
542000000 -0.68295151 0.11430379 -0.0010771479 -0.00078869151 -0.00029173802 -0.00092788524 -0.69647795 0.11091434
543000000 -0.68466306 0.11430543 -0.00029169052 -0.0020806468 -0.0006699512 -0.0017235772 -0.69520795 0.11100626
544000000 -0.68314785 0.11667841 -0.00084507186 -0.00056175684 -0.00054657768 -0.0022961451 -0.69586593 0.11207822
545000000 -0.68363237 0.11445067 -0.00062947918 -0.0015835968 -0.00034865865 -0.0024475907 -0.69699037 0.11112186
546000000 -0.6832099 0.11687555 -0.00053981476 -0.0020730149 -0.00054603501 -0.0011855033 -0.69649726 0.11104144
547000000 -0.68346632 0.11614137 -0.001306347 -0.0022263033 -0.00047862847 -0.0017695881 -0.69697762 0.11123935
548000000 -0.68332142 0.11593499 -0.00031017783 -0.0018271719 -0.0010604619 -0.002143533 -0.69660342 0.11151177
549000000 -0.68239486 0.11606329 -0.00039705334 -0.0021530613 -0.00067582668 -0.0019199511 -0.69577855 0.11226257
550000000 -0.6820665 0.11707256 -0.00046179086 -0.0010564252 -0.0010303098 -0.00067388586 -0.69739521 0.11211689
551000000 -0.6829437 0.11734151 0.00046585556 -0.0020750056 -0.00046181559 -0.0013264334 -0.69611222 0.11252922
552000000 -0.68577725 0.11564352 -0.00091781397 -0.0013210786 -0.000500108 -0.00098860054 -0.69562691 0.11148824
553000000 -0.68309355 0.1174071 -0.00029570537 -0.0022100278 9.2808965e-005 -0.0019027875 -0.69548708 0.11184533
554000000 -0.68417394 0.11649338 -0.00019548455 -0.0026613132 -0.00049322139 -0.0019659498 -0.69639915 0.11280417
555000000 -0.68259877 0.11672577 -0.00021437839 -0.0015072812 0.00048241005 -0.0026310591 -0.69676852 0.11114844
556000000 -0.68415111 0.11645412 -0.0007067814 -0.002242672 -0.00035357397 -0.0015010766 -0.69717169 0.11332461
557000000 -0.68424582 0.11784045 0.000178915 -0.0011976557 0.00030799882 -0.0018380712 -0.69615871 0.11213733
558000000 -0.68365669 0.11749629 0.00051691523 -0.00064657361 -0.00019108455 -0.0021299217 -0.69613439 0.11461922
559000000 -0.68370497 0.11858281 -0.00069584296 -0.00085332902 -0.00019498124 -0.0021230243 -0.69547272 0.11394814
560000000 -0.68306506 0.11818424 -1.3398186e-005 -0.0017133488 -0.0011454836 -0.0014532495 -0.69596303 0.11405583
561000000 -0.68155092 0.11793037 -0.00033988137 -0.0020885882 -0.00011766863 -0.00085036515 -0.69634974 0.11334446
562000000 -0.68233776 0.11844841 6.6939116e-005 -0.0013008055 -0.00096507341 -0.0025651483 -0.69456095 0.11379464
563000000 -0.68288743 0.11821806 -0.0013282773 -0.001647384 -0.00061267125 -0.001434401 -0.69641989 0.11486229
564000000 -0.68362015 0.11953931 0.00073523843 -0.0017741862 0.00033359128 -0.0014370958 -0.69667071 0.11271258
565000000 -0.6826486 0.11892053 4.2951007e-005 -0.0010086842 0.00095381576 -0.0012516339 -0.69575274 0.11434925
566000000 -0.68161446 0.11861399 -0.0015754739 -0.0014316622 -0.00064555905 -0.0018684639 -0.69525385 0.11600246
567000000 -0.68191332 0.12070012 -0.00019454364 -0.0015595002 0.00023478892 -0.0016280935 -0.69578999 0.11421809
568000000 -0.68125325 0.11987172 -0.0005923456 -0.0016233951 -0.0013398633 -0.0016675441 -0.69444424 0.11431752
569000000 -0.68278503 0.11926477 0.00063679018 -0.0012502588 0.00039411115 -0.0022879604 -0.6965332 0.11277682
570000000 -0.68156403 0.11979446 -0.0005980854 -0.0014865855 -0.00034460457 -0.0014999704 -0.69645488 0.11513712
571000000 -0.68116981 0.11895795 8.6688327e-005 -0.0017257689 -0.00093076739 -0.00142202 -0.69678247 0.11574684
572000000 -0.68318594 0.12049274 0.00020654709 -0.0019045438 0.00022153468 -0.0012282231 -0.69503325 0.11437537
573000000 -0.68164068 0.1199332 -0.00092473434 -0.0012604606 -0.00062170206 -0.0022520875 -0.69607025 0.11513509
574000000 -0.68142593 0.1203756 -0.0011190914 -0.0015580829 -0.00030358892 -0.0021042775 -0.69574702 0.11631443
575000000 -0.6817528 0.12214779 -0.00079397677 -0.0015673217 -0.00084739749 -0.0014857871 -0.69654882 0.11597645
576000000 -0.68195564 0.1211063 -0.00052730733 -0.0018901509 -0.00069801905 -0.0019059952 -0.69382423 0.11627271
577000000 -0.68081164 0.1217517 -0.00026040364 -0.0016888998 -0.00050526281 -0.0023284787 -0.69522655 0.11551536
578000000 -0.68204284 0.12119142 -0.00058772031 -0.00041260055 -0.000305261 -0.0023535767 -0.69555283 0.1166727
579000000 -0.68228489 0.12150105 -0.00086659112 -0.0016464457 -0.00041629924 -0.0019041655 -0.69531912 0.11591518
580000000 -0.68122333 0.12042803 0.00030754454 -0.001753371 -0.0012389092 -0.0017410375 -0.69662815 0.11674554
581000000 -0.68183559 0.12208156 -0.0011899914 -0.0014176607 -7.709505e-005 -0.0023556557 -0.69709742 0.1151522
582000000 -0.68241221 0.12047008 -0.0002268721 -0.0021880516 2.9030629e-005 -0.0015247026 -0.69593596 0.11719301
583000000 -0.68097579 0.1226588 0.0004797554 -0.0011791154 -0.000388696 -0.0019018829 -0.69542795 0.1168339
584000000 -0.68145472 0.1224262 -0.00068220991 -0.0003699229 -0.0006780689 -0.0016924413 -0.69670063 0.1190931
585000000 -0.68060029 0.12227703 -0.00066763005 -0.0017991614 -0.0002903502 -0.0019229103 -0.69487315 0.11738484
586000000 -0.68120646 0.12192982 8.7827371e-005 -0.0022937572 0.00042357051 -0.0014407872 -0.69544965 0.11772858
587000000 -0.682365 0.12339237 0.0005283989 -0.0018844123 -0.00072244805 -0.0014600527 -0.69290179 0.11889321
588000000 -0.67932266 0.12238546 -0.00050762435 -0.00092999893 -0.00071529648 -0.0018349931 -0.69478989 0.11822583
589000000 -0.68176121 0.1227292 -0.00060767529 -0.00082645862 0.00054702262 -0.0015195342 -0.69563794 0.11990851
590000000 -0.68061715 0.12351062 -0.00082422816 -0.0019549911 -0.00023858011 -0.0023937132 -0.69551873 0.11881088
591000000 -0.68157887 0.12355579 -0.00050479977 -0.00079616613 -0.0011592098 -0.0021914358 -0.69570041 0.119975
592000000 -0.68143684 0.12325446 0.00014720128 -0.0030476484 -0.0012782532 -0.0015224823 -0.69558138 0.11931989
593000000 -0.68060821 0.1246628 -0.00056987978 -0.001502389 1.9532203e-005 -0.002050241 -0.69514233 0.11907192
594000000 -0.68019867 0.12478694 0.00023446693 -0.0015524386 0.00013915764 -0.00047888406 -0.69544446 0.11991433
595000000 -0.68059343 0.1239444 -0.00035866685 -0.0014585585 -0.00052222732 -0.0021448161 -0.69528091 0.11962459
596000000 -0.68103886 0.12564099 -0.00053655519 -0.0012531624 -0.00015631763 -0.0017161458 -0.69570392 0.11954486
597000000 -0.68191081 0.12531516 -0.0014349679 -0.00089336041 0.00032078184 -0.0018209837 -0.6972394 0.11973018
598000000 -0.68074787 0.12629007 -6.1437277e-005 -0.0015296506 0.000195901 -0.0013355663 -0.69491422 0.12046216
599000000 -0.68030155 0.12538378 0.00031657083 -0.0022029663 -0.00087117479 -0.0021359234 -0.6951378 0.11990672
600000000 -0.68129742 0.1252102 -0.00085250055 -0.0013476767 -0.00047592507 -0.001853958 -0.6951291 0.12108976
601000000 -0.68045276 0.12470508 -0.0001287839 -0.0023585102 0.00047597941 -0.0017176387 -0.69417846 0.12015254
602000000 -0.68094695 0.12672837 -0.00010149201 -0.001539437 -2.6952039e-005 -0.0016593338 -0.69458574 0.12131917
603000000 -0.68067181 0.12675963 -0.00091361016 -0.0010538506 -4.2651027e-005 -0.0016827123 -0.69610929 0.12095477
604000000 -0.68040127 0.12693824 -0.0012972769 -0.0018842369 -0.00035405613 -0.0015205331 -0.69492382 0.12073123
605000000 -0.67985672 0.12660679 0.00013427003 -0.0012011726 -0.00051679584 -0.0021267724 -0.69486892 0.12147869
606000000 -0.68049335 0.12658948 0.00077081489 -0.0019640818 -0.00071530207 -0.0016908237 -0.69453615 0.12186105
607000000 -0.68055046 0.12665802 -0.00019814896 -0.0023988348 0.00019531958 -0.0017773027 -0.69491005 0.12019421
608000000 -0.68125916 0.12967655 -0.00029360267 -0.0015241773 -0.0011701292 -0.0012724822 -0.69445908 0.12279312
609000000 -0.67863458 0.12781046 -0.0012530911 -0.0013991755 -0.0010067942 -0.0010046819 -0.6930334 0.12165009
610000000 -0.68035442 0.1287667 -0.00050625356 -0.0022754453 0.00012782255 -0.0016964868 -0.69274843 0.12242315
611000000 -0.67992306 0.12825695 -0.00027811737 -0.0014732759 -0.00034379732 -0.0015289332 -0.69396728 0.12340768
612000000 -0.68081117 0.12871861 -0.00034090073 -0.0016894221 -0.00036106224 -0.001357779 -0.69332576 0.12483156
613000000 -0.67935658 0.12898263 -0.00080908259 -0.0015294175 -0.00057051203 -0.0018613169 -0.69363433 0.12384707
614000000 -0.67948455 0.1308047 0.00025929272 -0.0024528177 -0.00086336414 -0.0019305812 -0.69543618 0.12287354
615000000 -0.68003613 0.13014241 -0.00038733616 -0.0035142852 -0.00061078375 -0.00081116293 -0.69403106 0.12331977
616000000 -0.68047512 0.1308081 -0.0013109465 -0.0021235237 0.00035216648 -0.0009815495 -0.6922332 0.1234809
617000000 -0.67996913 0.13140348 0.00011123801 -0.00082214072 -0.00038475665 -0.0015782324 -0.69230103 0.12531045
618000000 -0.67968231 0.13082603 -0.00050506642 -0.0019696828 -0.00039675788 -0.0017676591 -0.69313151 0.1251597
619000000 -0.67925131 0.13128391 -0.0013799007 -0.0013959416 0.00055766461 -0.0015613658 -0.69337481 0.12520461
620000000 -0.67833912 0.1314725 -0.00039555633 -0.0010098121 -0.00010063015 -0.0013367995 -0.69401318 0.12396271
621000000 -0.68152028 0.13108592 -0.00079712318 -0.0011863658 -0.00095133897 -0.0026562177 -0.69362348 0.12658028
622000000 -0.67979431 0.13126744 -0.00064313598 -0.0018377149 -7.0333037e-005 -0.0025360803 -0.69225472 0.12566411
623000000 -0.67992491 0.13156389 0.00025193178 -0.0021389804 -0.00053158792 -0.0013604918 -0.6922335 0.12571678
624000000 -0.67986315 0.13140829 0.00073087745 -0.0014286276 -0.00091206434 -0.0024366674 -0.69346797 0.12642573
625000000 -0.67943954 0.1332435 0.0010133263 -0.0017523654 -0.00079192856 -0.0014224409 -0.69310963 0.12583937
626000000 -0.6797182 0.13378493 -0.00057206693 -0.0015364438 0.00029955592 -0.0011176202 -0.69452131 0.1269155
627000000 -0.67903334 0.13376822 -0.00067796267 -0.0013531887 -0.00040139092 -0.0014419549 -0.6937052 0.12596086
628000000 -0.67919338 0.13357097 -0.00069404213 -0.002172353 0.00046119539 -0.0010246761 -0.69239724 0.12740889
629000000 -0.68031102 0.13277385 -0.001068683 -0.0019966641 -0.00067103363 -0.00095431763 -0.69377327 0.12696603
630000000 -0.67892957 0.13247815 -0.00047308818 -8.1432321e-005 0.00052490161 -0.0018751881 -0.69248682 0.12607716
631000000 -0.6794163 0.1334635 -0.00022120426 -0.0018262812 -0.0013141341 -0.0016056861 -0.69308662 0.12772608
632000000 -0.68064946 0.13354544 -0.00034727957 -0.0018133665 -0.00090371643 -0.0025164757 -0.69314104 0.12764707
633000000 -0.67871571 0.13449873 0.00037123775 -0.0015921149 -0.0007812797 -0.0021724594 -0.69430268 0.12614313
634000000 -0.68060285 0.13384674 -0.00016516115 -0.0026926391 -0.00030604724 -0.0015257695 -0.69360739 0.12701344
635000000 -0.67894268 0.13322131 -0.00047425926 -0.0019305571 -0.001209511 -0.0017779742 -0.69399226 0.12790284
636000000 -0.67907649 0.13327041 -0.00073699508 -0.001186627 -0.0011662218 -0.0020190328 -0.6918357 0.12948826
637000000 -0.67953336 0.13440405 -0.0010948958 -0.0016983286 -0.00062575663 -0.0021068486 -0.69294429 0.12868735
638000000 -0.67901003 0.13467199 -8.2123857e-005 -0.0019668564 -7.6516786e-005 -0.0026486441 -0.69272596 0.12822501
639000000 -0.68106365 0.13603583 -0.00099135388 -0.0013456148 0.00031331027 -0.0016216642 -0.69286519 0.12945133
640000000 -0.67856979 0.13668196 0.0006613509 -0.0017304375 0.00012115621 -0.0014901512 -0.69306636 0.12971455
641000000 -0.67905444 0.13568345 -0.00076125498 -0.0015512118 -0.00088866445 -0.0023282671 -0.69226271 0.12937416
642000000 -0.6789571 0.13578178 0.00016768093 -0.0014414049 -0.00086726027 -0.0014007222 -0.69234449 0.12932345
643000000 -0.67984349 0.13587134 -0.0015993088 -0.0022726362 0.00032406818 -0.0021134915 -0.69337851 0.13013068
644000000 -0.67840654 0.13517599 -0.00015952339 -0.0022878633 -0.00093691942 -0.0027704628 -0.69144231 0.1307629
645000000 -0.67870563 0.13648179 -0.00090172014 -0.0014819021 -0.00037030785 -0.0026229182 -0.69277871 0.12965965
646000000 -0.6793344 0.13854468 2.227098e-005 -0.0020346027 -0.0015370769 -0.0013023191 -0.69435436 0.12961176
647000000 -0.68057096 0.13766231 -9.6830627e-005 -0.0021680898 -9.9070403e-006 -0.0012465854 -0.69301111 0.13097687
648000000 -0.67925137 0.1371856 -0.0010679754 -0.0019455258 -0.0012214412 -0.0025330198 -0.69111621 0.12973121
649000000 -0.67887831 0.1383111 -4.7004643e-005 -0.0008646269 -0.00017507563 -0.0027008855 -0.69098103 0.13217182
650000000 -0.67825031 0.13768061 -0.00084954145 -0.0025604819 0.00026775559 -0.00059853302 -0.6924051 0.13049553
651000000 -0.67915636 0.13806154 -0.00058321084 -0.0027619554 0.00017474112 -0.0015378579 -0.69217873 0.13130867
652000000 -0.67957354 0.13894857 7.2413452e-005 -0.0012172858 -0.0007890772 -0.0012910176 -0.69269115 0.13203388
653000000 -0.67822307 0.13944124 0.000571977 -0.0025127563 -0.00010496034 -0.00046079021 -0.69218355 0.13123706
654000000 -0.67833269 0.13957313 -0.00058436283 -0.0025399602 -0.00071172829 -0.0026593641 -0.69274461 0.13185357
655000000 -0.6789912 0.14027427 -0.00072354637 -0.0016702604 -0.00029206058 -0.0023109831 -0.6921677 0.1305548
656000000 -0.67755699 0.1387728 -0.00065806555 -0.0021266022 -0.00050532882 -0.0020487262 -0.69158131 0.13172761
657000000 -0.67818934 0.13896705 0.00031959231 -0.0018173675 -0.00045682144 -0.0019662788 -0.6924243 0.13149229
658000000 -0.67993605 0.13884802 -0.00082058331 -0.0024793583 -0.00058867474 -0.00093584281 -0.69186616 0.13318749
659000000 -0.67935371 0.13982649 -1.9688774e-005 -0.0022610712 -0.0012028714 -0.0011076304 -0.69247234 0.13336743
660000000 -0.67803127 0.14037837 -0.0003746734 -0.0010775705 0.00053751003 -0.0019923009 -0.69206727 0.13312745
661000000 -0.67793953 0.14003821 -0.00049397926 -0.0015791724 -0.00071414158 -0.0016960423 -0.69236785 0.13334467
662000000 -0.6790849 0.13889006 0.00012875146 -0.0022410757 -0.00037425672 -0.001612296 -0.69363999 0.13292918
663000000 -0.67843664 0.13942806 0.00030232448 -0.0017560673 -0.0010443507 -0.0025172601 -0.69273424 0.13335212
664000000 -0.67796403 0.14115512 -0.0008236373 -0.0030336282 0.00041692978 -0.0014171376 -0.69430953 0.13369954
665000000 -0.67692232 0.14106478 0.00047809695 -0.0023565178 -0.0014328327 -0.0021107814 -0.68910241 0.13583672
666000000 -0.67869937 0.13978757 -0.00035363314 -0.0023738923 -0.00072333013 -0.0021080018 -0.69298899 0.13490365
667000000 -0.67757022 0.14072444 1.4288084e-005 -0.0019616329 -0.00064515625 -0.0014230327 -0.69171071 0.13412547
668000000 -0.67766464 0.14098972 5.027575e-005 -0.0016547781 -0.0004964394 -0.002032331 -0.69275981 0.13375683
669000000 -0.67728925 0.1413535 -0.00074607081 -0.0014377665 -0.0002997132 -0.00071172917 -0.6919722 0.1337897
670000000 -0.67873961 0.14084285 -0.00047054532 -0.0014626402 -0.00073034532 -0.0022113286 -0.6917184 0.13481072
671000000 -0.67825264 0.14196615 -0.00070005108 -0.0021516422 0.00028542776 -0.0017702894 -0.69214815 0.13490209
672000000 -0.67851347 0.14105983 0.00016055064 -0.0023632089 -0.00063792593 -0.0026781869 -0.69093502 0.13490289
673000000 -0.67829973 0.14294524 0.00026386441 -0.0017532526 -0.00026611213 -0.0013717108 -0.6929903 0.13501282
