!Keysight Technologies,M9374A,MY55442783,A.12.55.05
!Date: Friday, May 21, 2021 09:48:35
!Correction: S11(Full 2 Port(1,2)) 
!S21(Full 2 Port(1,2)) 
!S12(Full 2 Port(1,2)) 
!S22(Full 2 Port(1,2)) 
!S2P File: Measurements: S11, S21, S12, S22:
# Hz S  RI   R 50
500000000 -0.68519229 0.10646975 0.0006573365 -0.0013689655 -0.00040342758 -0.0017006933 -0.69785202 0.10014147
501000000 -0.68366992 0.10643522 0.00028154801 -0.00019996446 -0.00042238995 -0.0025084543 -0.69807023 0.10115907
502000000 -0.68492949 0.1064728 -0.00010237191 -0.001218782 -0.00017304368 -0.0012919959 -0.6970104 0.10388698
503000000 -0.68384349 0.10679223 0.00048575157 -0.0014534437 -0.00029498353 -0.0024842476 -0.69743061 0.10228495
504000000 -0.68426943 0.10666532 -0.00032054214 -0.00085511059 -0.00010702577 -0.0013608282 -0.69627398 0.10341014
505000000 -0.68444431 0.10680532 0.00025781812 -0.0013475594 -0.0017054857 -0.0020431883 -0.69652355 0.10164757
506000000 -0.68520516 0.10552317 0.00025566775 -0.0011930719 0.00060248311 -0.0013080793 -0.69725579 0.10395959
507000000 -0.68474555 0.10852126 -0.00047693495 -0.0029535778 -0.00037472066 -0.0010027423 -0.69732547 0.10412045
508000000 -0.68470806 0.10708752 -0.0010627916 -0.0017992618 -0.00044073281 -0.00023660461 -0.6967929 0.10366342
509000000 -0.68546605 0.10674511 -9.4483323e-005 -0.0014766323 -0.00019270844 -0.0019554163 -0.69762212 0.10360669
510000000 -0.6850279 0.10804372 2.7909142e-005 -0.0025401849 -0.00069377181 -0.0017548858 -0.69638979 0.10263119
511000000 -0.68339849 0.10927925 5.9042017e-005 -0.0023456337 -0.00051930017 -0.0014692553 -0.6971482 0.10492426
512000000 -0.68513966 0.10981702 0.00027604689 -0.0011385557 -0.00068982836 -0.001969317 -0.69606584 0.10303218
513000000 -0.68636382 0.11047301 -0.0015448667 -0.0020973834 -0.00076584279 -0.0024553461 -0.69721502 0.10365582
514000000 -0.68453848 0.10959043 0.00010202279 -0.0012228617 0.00024605668 -0.0015734234 -0.6981765 0.1044201
515000000 -0.68295813 0.10942533 -0.00034490891 -0.0019178493 7.6080505e-005 -0.0021240893 -0.69610322 0.10409477
516000000 -0.68455905 0.11178003 0.00056599325 -0.0011950957 -0.0010973199 -0.0019026204 -0.69682616 0.10578389
517000000 -0.68284851 0.10950483 -0.00062741555 -0.0008053708 0.00025641519 -0.0012179011 -0.69633818 0.10491291
518000000 -0.68275309 0.11051669 -0.00045198991 -0.0020146566 -0.0014173028 -0.0015164587 -0.69833016 0.10529207
519000000 -0.68325549 0.11027554 -0.0011293247 -0.00079573394 -1.4069235e-005 -0.0017754242 -0.69649422 0.10609347
520000000 -0.6847524 0.11053979 7.6568882e-005 -0.0010526746 -0.0011087661 -0.0015825226 -0.6976366 0.1060937
521000000 -0.68453276 0.11112045 -0.00082131661 -0.0012036714 -0.00048211202 -0.0018911909 -0.69702303 0.10591713
522000000 -0.68444067 0.11018553 -0.0011114904 -0.0010413413 0.0004095324 -0.00123436 -0.69642591 0.1069138
523000000 -0.68486524 0.1114784 0.00065628521 -0.0011700256 -0.0004824409 -0.00096264068 -0.69523323 0.10719796
524000000 -0.68495166 0.11158147 0.00099309674 -0.00081610226 0.00013325177 -0.001052166 -0.69769436 0.10784059
525000000 -0.68327582 0.1104322 0.00012295455 -0.0020435136 0.00089909392 -0.00066113548 -0.69727874 0.10551727
526000000 -0.68499333 0.11144101 -0.00087052112 -0.0017732718 5.8284139e-005 -0.0012243611 -0.69552255 0.10693394
527000000 -0.68553478 0.11255135 -0.00050546095 -0.0015437063 -0.0006941919 -0.0015435573 -0.69547385 0.10743572
528000000 -0.68447459 0.11411754 -0.00027586796 -0.0014142027 0.00042934658 -0.0011685987 -0.69564897 0.10842521
529000000 -0.68320769 0.11274784 -1.7919998e-005 -0.0018139936 -0.00026405253 -0.0011692692 -0.69633055 0.10790671
530000000 -0.6839183 0.11320357 0.00045376687 -0.0016708632 -0.00040830471 -0.00022898057 -0.69809544 0.10679401
531000000 -0.68489814 0.11169462 -0.00062148913 -0.001711917 -0.00064691983 -0.001355905 -0.69617063 0.10837765
532000000 -0.68503612 0.1135167 8.7496563e-005 -0.0016608132 -0.00024318752 -0.00032999672 -0.69577372 0.10857914
533000000 -0.68490982 0.11153837 -0.0010669201 -0.002159083 -0.00021673169 -0.00047236186 -0.69519007 0.10862069
534000000 -0.68378639 0.11318302 -0.0011049843 -0.0019401521 -0.00012431529 -0.0020081503 -0.69764113 0.10772336
535000000 -0.68458253 0.11240643 -0.0010973375 -0.00010360438 -2.9954141e-005 -0.0013773472 -0.69612783 0.10835154
536000000 -0.68393689 0.11489385 -0.0005938157 0.00038369797 -0.0004018675 -0.0014317234 -0.69570869 0.10781433
537000000 -0.68414348 0.11247311 -0.0012163909 -0.0017256277 -0.00016199413 -0.0019566098 -0.69634932 0.10841558
538000000 -0.68402588 0.11549727 -0.00037400602 -0.0018703848 0.00077366049 -0.0020980919 -0.69463432 0.1086245
539000000 -0.68397868 0.11425186 -0.00036393208 -0.0021867149 -0.00069768768 -0.00036416561 -0.6969111 0.1118019
540000000 -0.68477386 0.11528253 -0.0013432231 -0.002271099 0.00019808623 -0.0010397972 -0.6966821 0.11055769
541000000 -0.68410242 0.11390839 -0.00043619148 -0.0017104754 -0.0005694874 -0.0010281663 -0.69654268 0.11033137
542000000 -0.68420351 0.11533984 -0.00088784267 -0.0021325815 -0.00027816146 -0.0026232346 -0.69551677 0.10973113
543000000 -0.68479335 0.1150466 -5.1942763e-005 -0.0017707056 -0.00065872382 -0.00092081097 -0.6960755 0.11019999
544000000 -0.68330896 0.1157975 5.1409192e-005 -0.00064666453 -0.00019135587 -0.0014345405 -0.69607705 0.10937469
545000000 -0.6846205 0.11581085 5.1941555e-005 -0.0015110889 -0.00035989453 -0.0012994955 -0.69567263 0.11028829
546000000 -0.68390197 0.1162704 -0.00081824331 -0.0019945158 -0.00022972544 -0.0019427134 -0.69659555 0.11129548
547000000 -0.68259877 0.11660717 -0.0011503922 -0.001779853 -5.767326e-005 -0.0012016611 -0.69627512 0.11055592
548000000 -0.68255234 0.11689313 -0.00018243503 -0.00095965207 0.00038538684 -0.0019565464 -0.69737834 0.11196961
549000000 -0.68375039 0.1162915 -0.00048653726 -0.001644536 -0.0012819419 -0.0019728835 -0.69742858 0.11200339
550000000 -0.68345964 0.11614741 -0.00077522825 -0.0023984727 -0.00021536658 -0.0025669765 -0.69570208 0.11272898
551000000 -0.6827938 0.11546811 -0.00065255049 -0.00093784538 -0.00082297833 -0.0013623019 -0.69601566 0.11254901
552000000 -0.6830622 0.11546715 -0.00024998563 -0.0031550557 -0.00011092432 -0.0014086898 -0.69597942 0.11147438
553000000 -0.68279934 0.11836085 -6.7440633e-006 -0.0019633833 -0.00069556211 -0.0019803201 -0.69645202 0.11152783
554000000 -0.68379027 0.11578337 -0.000827796 -0.00080060161 0.00068634719 -0.00073113223 -0.69714409 0.11202952
555000000 -0.68245476 0.11616614 0.00086997269 -0.0029806385 9.079856e-005 -0.00089534029 -0.69748974 0.11102306
556000000 -0.68232375 0.11515792 -0.00073629001 -0.0017600537 -0.00015718397 -0.0015645459 -0.69671905 0.11292504
557000000 -0.6826964 0.11727009 -0.001640721 -0.0021513517 -3.391764e-005 -0.0029189335 -0.69567221 0.11271484
558000000 -0.68298143 0.1160864 0.00071264157 -0.00029252996 -0.00016910608 -0.00053639617 -0.6967867 0.11188517
559000000 -0.68270677 0.11884572 -0.00088924012 -0.00094463374 0.00072899839 -0.0034339584 -0.69567698 0.11319984
560000000 -0.68275595 0.11920755 -4.6390709e-005 -0.0021103788 -0.00017805022 -0.0016899705 -0.6951226 0.11406098
561000000 -0.68305165 0.11780542 0.00031422704 -0.00072415965 -7.8152509e-005 -0.001043735 -0.69530749 0.11412988
562000000 -0.68282187 0.11917117 0.00070819096 -0.0021313156 3.0431576e-005 -0.0011611726 -0.69649142 0.1132499
563000000 -0.68392169 0.11826403 -0.00042733332 -0.0012320372 -0.00043582165 -0.0018193109 -0.69680506 0.11425555
564000000 -0.68356341 0.11791996 4.1874508e-005 -0.0014610223 -5.2922129e-005 -0.0021373371 -0.69559038 0.11237731
565000000 -0.68221724 0.12008791 -0.00066807109 -0.001710761 -0.00039879678 -0.0011457448 -0.69549406 0.1141227
566000000 -0.68235695 0.11859924 0.00035025258 -0.0013119219 0.00063231954 -0.00082606508 -0.69433397 0.11394715
567000000 -0.68221718 0.11929442 0.00022461246 -0.0021702605 -0.0011893117 -0.0027300259 -0.69613045 0.11425512
568000000 -0.68221951 0.1183744 -0.00047841528 -0.0029706797 -0.00058142986 -0.00084769609 -0.69492513 0.11388538
569000000 -0.68279529 0.11790954 -0.0011582124 -0.00213605 0.00028482714 -0.0011388396 -0.6948213 0.11449862
570000000 -0.68224478 0.11939289 -0.00014938058 -0.0014608437 -0.00030926772 -0.001194343 -0.69644731 0.11534544
571000000 -0.68226916 0.11946749 -0.0002054958 -0.0019807941 0.0007139456 -0.0022222686 -0.697281 0.11517785
572000000 -0.68120813 0.1204875 -0.00059080578 -0.0020798682 7.1577606e-006 -0.0030103663 -0.69433814 0.11503176
573000000 -0.68243492 0.11964656 -0.000837481 -0.0015590969 -0.00074339972 -0.0016279746 -0.69636416 0.11597531
574000000 -0.68302375 0.11898256 -0.00080072758 -0.00065197115 -0.00038248548 -0.002367052 -0.69690806 0.11564613
575000000 -0.68218529 0.12016994 -0.00011738541 -0.0025153917 5.063332e-005 -0.001281583 -0.69511461 0.1150827
576000000 -0.68312085 0.11894389 -0.00061070372 -0.0010642062 0.00022995913 -0.0022793952 -0.69561231 0.11627024
577000000 -0.68178254 0.12021574 -0.00071445067 -0.0019669351 0.00096002547 -0.001642091 -0.69592595 0.11600762
578000000 -0.68163651 0.12079144 0.00058232871 -0.0017228117 -0.0010280882 -0.002200413 -0.69643795 0.115183
579000000 -0.68129659 0.12108392 0.00010778566 -0.0020051468 -0.00026582979 -0.0018154213 -0.69626045 0.11672377
580000000 -0.68276155 0.12058744 0.0002570932 -0.0019035693 0.00020836854 -0.00060735451 -0.69478947 0.11748453
581000000 -0.68300736 0.11978029 -6.9664769e-005 -0.0016645921 -0.00047555729 -0.0016022924 -0.69629896 0.11654188
582000000 -0.6824066 0.12188333 -0.00029817395 -0.0011945107 -0.0010620512 -0.0018839914 -0.69595289 0.11719889
583000000 -0.68272996 0.12177417 3.232493e-005 -0.0015207665 -0.00091464148 -0.0024489008 -0.69484711 0.11575753
584000000 -0.68233067 0.12223312 0.00011567875 -0.0012291815 -0.00077687419 -0.0022726327 -0.69468337 0.11684404
585000000 -0.68151778 0.1223449 -0.00021657754 -0.001497229 3.4475481e-005 -0.00081174984 -0.69595546 0.11833247
586000000 -0.68185812 0.12113035 -0.00056087848 -0.0018098914 -0.0001844528 -0.002091713 -0.69634616 0.11813031
587000000 -0.68092006 0.12329995 0.00020743479 -0.0018841677 -0.0011443364 -0.0006751935 -0.69593698 0.11856296
588000000 -0.68216169 0.12183452 -0.0017378783 -0.0015456774 -0.00077307265 -0.0020181686 -0.69602937 0.11801768
589000000 -0.68209583 0.12254111 -0.0002277829 -0.00083236396 -0.0008197776 -0.0018965161 -0.69602025 0.11868721
590000000 -0.68132329 0.12349828 -0.000137034 -0.001806394 -0.0011220942 -0.0014307246 -0.69560593 0.11760724
591000000 -0.6812222 0.12388991 -0.0014389066 -0.0019299642 0.0003366681 -0.0019320817 -0.69545072 0.11781278
592000000 -0.6807602 0.12301308 -0.00068220956 -0.0017576348 -0.00073410611 -0.0019392575 -0.6967743 0.11832609
593000000 -0.68040264 0.12387878 -0.0010015005 -0.0024649603 9.9546905e-006 -0.0015393978 -0.69604218 0.11861953
594000000 -0.68095696 0.12372757 0.00024794028 -0.0020753946 -0.00027206121 -0.0016308198 -0.69479001 0.11840659
595000000 -0.68209022 0.12323329 -0.00090525689 -0.0015504878 -0.00013010224 -0.0028910309 -0.69549382 0.11999038
596000000 -0.6819613 0.12439184 -0.00054830022 -0.00114063 -0.00067686255 -0.0019568696 -0.69454437 0.11900711
597000000 -0.68130976 0.12551953 0.00011520335 -0.0019056611 -0.00067173003 -0.0020696362 -0.69374526 0.12075793
598000000 -0.68149024 0.12481832 2.7721648e-005 -0.0020401441 0.00041071963 -0.0015262439 -0.69694012 0.12008941
599000000 -0.68032652 0.12491574 -0.00012217993 -0.0019752078 -0.00043566251 -0.0017336807 -0.69567513 0.11963943
600000000 -0.68033147 0.12528057 0.00059955724 -0.0018527351 -0.0018805325 -0.0012092391 -0.69386941 0.12057642
601000000 -0.67876601 0.12555417 -0.00022390668 -0.0012457798 -0.00038715455 -0.0022218497 -0.69541782 0.12115892
602000000 -0.6826359 0.12689635 -0.0001696715 -0.0030618305 -4.4835862e-005 -0.002019969 -0.69372886 0.12216944
603000000 -0.68213469 0.12486071 -0.00058725872 -0.0013692472 0.00014955293 -0.0022876766 -0.69416642 0.12183389
604000000 -0.67989731 0.12689285 -0.00089652784 -0.0019754991 -0.0012144181 -0.001405744 -0.69472235 0.12101601
605000000 -0.67942488 0.12797759 -0.0006719263 -0.00098398142 -0.00072327105 -0.0017300044 -0.69499624 0.12054062
606000000 -0.68107057 0.12645505 -0.00018749929 -0.0011577307 0.00039412858 -0.0014207175 -0.69490844 0.12100773
607000000 -0.68174028 0.12742142 0.0012546645 -0.00072938827 -0.00071419281 -0.0028278693 -0.69453323 0.1208687
608000000 -0.68102092 0.12846331 0.00039284793 -0.001693606 -0.00072233111 -0.0012589075 -0.69387597 0.12222157
609000000 -0.68214321 0.12894095 -0.00048630638 -0.0013147349 0.00067420671 -0.0015853986 -0.69468886 0.12318598
610000000 -0.68098021 0.12721419 -0.00051505014 -0.00088184606 -0.00054465077 -0.0018392735 -0.69418103 0.12164512
611000000 -0.68026215 0.12792659 -4.9032489e-005 -0.0014596032 -0.00046067085 -0.001993763 -0.69462889 0.12153865
612000000 -0.6804117 0.12971264 7.5016273e-005 -0.0017116311 -0.00077557412 -0.0014436654 -0.69453931 0.12198537
613000000 -0.67966169 0.12926438 0.00022495132 -0.0023667312 -0.00027320426 -0.00046532744 -0.69445866 0.12264808
614000000 -0.6783964 0.12932128 -0.00072853657 -0.001810486 0.00046874088 -0.0025060861 -0.69495642 0.12359452
615000000 -0.68008518 0.12860279 -0.0003884178 -0.0016870217 0.0011992567 -0.0017236558 -0.69273478 0.12396475
616000000 -0.68066084 0.12925774 -0.00037195982 -0.0013675265 0.00082731165 -0.0026063616 -0.69234544 0.1234983
617000000 -0.67950004 0.13104655 -9.6942647e-005 -0.0026289509 -0.00078408053 -0.002092168 -0.69289458 0.12425231
618000000 -0.68041903 0.12999508 -0.00019528989 -0.0010989479 0.00033689156 -0.0023859707 -0.69366324 0.12506202
619000000 -0.68022317 0.1301118 0.00018872117 -0.0017925358 -0.00047167853 -0.0021462555 -0.69241136 0.12396796
620000000 -0.68096888 0.13097401 -0.00079978822 -0.0030477054 -0.000170111 -0.0014313235 -0.69267005 0.12495018
621000000 -0.6819284 0.13161471 0.00014125205 -0.0015777345 -0.00028343062 -0.002044515 -0.69403642 0.12520403
622000000 -0.6798231 0.13161181 -0.00085996528 -0.0021532397 -0.00076057448 -0.0023328534 -0.69405609 0.12489001
623000000 -0.67872626 0.13147584 -0.00015669889 -0.0021469835 -0.0011309606 -0.0015387369 -0.69294614 0.12553148
624000000 -0.68060905 0.13133724 -0.00055943715 -0.0014553525 -0.00074921502 -0.0017500585 -0.69357717 0.12462306
625000000 -0.67865038 0.13155007 -0.00045702606 -0.0018914803 -0.00045370005 -0.0019014188 -0.69437551 0.12468459
626000000 -0.68134046 0.1322253 -0.0011127655 -0.001956556 -0.00045047194 -0.0015462422 -0.69243991 0.12556076
627000000 -0.680022 0.13277839 -0.00075742858 -0.0019082048 -0.00028629473 -0.0016374841 -0.69331944 0.12453195
628000000 -0.68037671 0.1328548 -0.00010606398 -0.0025441931 -0.0003210677 -0.0020486237 -0.69375789 0.12728137
629000000 -0.67900723 0.13243905 -0.00023937345 -0.0023375661 -0.0010095842 -0.0013087695 -0.69344443 0.12630564
630000000 -0.67726499 0.13371265 -0.0008152246 -0.0019224468 -0.00051671138 -0.0027122947 -0.69322908 0.12703143
631000000 -0.67976081 0.13481244 -0.00093365292 -0.0018179991 -0.00079291052 -0.0018095654 -0.69351661 0.12846202
632000000 -0.67948169 0.13380808 0.00029440926 -0.0012408436 6.1572217e-005 -0.0010639288 -0.69315839 0.12804128
633000000 -0.67924345 0.13388634 -0.00057132851 -0.0018705294 -0.00046088814 -0.001656505 -0.69398981 0.12737268
634000000 -0.67968357 0.13463619 -0.00067875994 -0.0025557729 -0.00056584703 -0.0012798228 -0.69272822 0.12730034
635000000 -0.67900866 0.13357124 -0.00090405956 -0.0020260911 -0.001126421 -0.00105567 -0.69379067 0.12843603
636000000 -0.67862147 0.13249272 -0.0007744297 -0.0022670934 -0.0010334022 -0.00075732172 -0.69385242 0.12854062
637000000 -0.67898709 0.13489839 0.00083976192 -0.0015308465 -0.00034073423 -0.0015559422 -0.69315028 0.12833701
638000000 -0.67992043 0.13520701 -0.00082327827 -0.0024941326 -0.0006549831 -0.0021766471 -0.69464892 0.1271612
639000000 -0.68021536 0.13500357 -0.00051949441 -0.0013360534 -1.1967366e-005 -0.0020540094 -0.6921972 0.12958808
640000000 -0.68032902 0.13488908 -0.00045506164 -0.0011697689 -0.00039351394 -0.002499945 -0.69264919 0.1285619
641000000 -0.68017048 0.1346228 6.3728869e-005 -0.0025382359 -0.00099400035 -0.0025623231 -0.69245845 0.12876222
642000000 -0.67956746 0.13504459 -0.00024283325 -0.0019112538 0.00026417719 -0.0024718817 -0.69156092 0.13022958
643000000 -0.68062121 0.13697977 -0.00058994553 -0.0020477523 -0.00070414168 -0.0028383033 -0.69243199 0.12917225
644000000 -0.67835778 0.1363664 -0.00093153713 -0.0015168227 -0.00056913053 -0.0011167864 -0.69344163 0.13033196
645000000 -0.67938638 0.13642569 -0.000359611 -0.0012868734 -0.00042051816 -0.002711701 -0.69365001 0.13004509
646000000 -0.67929888 0.13742621 -0.0010097536 -0.0010156067 0.00096244144 -0.0019359516 -0.69282049 0.13067237
647000000 -0.67962641 0.13760971 -2.3543264e-005 -0.0017171719 -0.00020753902 -0.002249653 -0.69296241 0.13045053
648000000 -0.67848504 0.13753261 -0.00091226312 -0.0022003779 -0.00054249604 -0.0023007423 -0.69209921 0.13031007
649000000 -0.67834198 0.13702407 -0.0005779026 -0.002000662 -0.00033532147 -0.0017356244 -0.69248372 0.13074136
650000000 -0.67821991 0.13785905 -0.00018459238 -0.0017213892 -0.00069745129 -0.0028289256 -0.69115788 0.13105655
651000000 -0.67958421 0.1380063 -0.00026678789 -0.00089036545 -0.00010131054 -0.0020347023 -0.69257319 0.12979135
652000000 -0.67938912 0.13829438 -0.00057745393 -0.0019012783 -0.0011230296 -0.0017615333 -0.69202882 0.13154371
653000000 -0.6789301 0.13828461 0.00061080803 -0.00055297167 -0.00046822263 -0.0029074822 -0.6920408 0.13088013
654000000 -0.67889351 0.13937669 -5.3879747e-005 -0.0023299193 0.00026524626 -0.001201688 -0.69345784 0.13104089
655000000 -0.67850286 0.13955598 -0.00032191601 -0.00086868386 -0.0011883667 -0.0015857567 -0.69261223 0.13121216
656000000 -0.67898613 0.13822849 0.00012031333 -0.002092473 -0.00062083168 -0.0020681799 -0.69282877 0.13172401
657000000 -0.67823738 0.13709585 0.00030069175 -0.0017674097 4.7940786e-005 -0.0018495942 -0.69293153 0.13053367
658000000 -0.67907959 0.1385653 -0.00087522995 -0.0016367408 0.00016238083 -0.0023668408 -0.69283998 0.13183433
659000000 -0.67854035 0.13965559 -0.00056821457 -0.0020052118 -0.00046113407 -0.00215033 -0.6932478 0.13289979
660000000 -0.6796158 0.14012381 -0.00062103575 -0.0016968091 0.00075598125 -0.0024255831 -0.69112778 0.13239269
661000000 -0.67810827 0.13804206 -0.0015192952 -0.0014153381 -0.00085468614 -0.0020404276 -0.6923179 0.13232256
662000000 -0.67882115 0.13952768 -0.0002129982 -0.0014279237 -0.00089561928 -0.0013971764 -0.69333833 0.13243721
663000000 -0.67840672 0.13971266 -0.00041358531 -0.001813065 -2.421405e-005 -0.0013251832 -0.69140399 0.13220847
664000000 -0.67753559 0.14045268 0.00062402879 -0.0018454219 -0.0006895769 -0.0034017395 -0.69201595 0.13398956
665000000 -0.67794251 0.14040858 -0.00095597375 -0.0015220662 -0.0010897426 -0.0022578849 -0.69163871 0.13376473
666000000 -0.67908549 0.14133818 -0.00020132041 -0.0021822043 -0.00014452043 -0.0019529751 -0.69308716 0.13401037
667000000 -0.67900944 0.14090638 0.0001363981 -0.0010804459 -0.00034483324 -0.0027519381 -0.6930427 0.13351993
668000000 -0.68017083 0.14014526 -0.00085270597 -0.0019702739 -0.00050461822 -0.0011862426 -0.69141799 0.13303667
669000000 -0.67931187 0.13942823 -0.00063963392 -0.0019873842 -0.0010753509 -0.0031662479 -0.6909129 0.13323089
670000000 -0.67727721 0.14090306 -0.00014552883 -0.0021132869 -1.441446e-005 -0.00035116979 -0.69196677 0.1345458
671000000 -0.67896652 0.14135683 -0.0010526815 -0.0012296097 0.0005418752 -0.0014656627 -0.69176263 0.13545783
672000000 -0.67820603 0.14175183 -0.00034087148 -0.0022245462 -0.00025038188 -0.0026931372 -0.69222528 0.13431412
673000000 -0.67760134 0.14166373 0.00025825246 -0.00118302 0.00044053249 -0.0014669959 -0.69181001 0.13487291
674000000 -0.67791849 0.14066561 -0.0010833479 -0.0015210597 -9.2951537e-005 -0.0017890099 -0.69226956 0.13521619
