!Keysight Technologies,M9374A,MY55442783,A.12.55.05
!Date: Friday, May 21, 2021 09:38:51
!Correction: S11(Full 2 Port(1,2)) 
!S21(Full 2 Port(1,2)) 
!S12(Full 2 Port(1,2)) 
!S22(Full 2 Port(1,2)) 
!S2P File: Measurements: S11, S21, S12, S22:
# Hz S  RI   R 50
500000000 -0.68401939 0.10658062 0.00029038676 -0.0021847743 0.000480538 -0.00072676461 -0.69674033 0.10202334
501000000 -0.68457949 0.10946469 -0.00010127299 -0.0021691362 -0.00018015185 -0.0014691087 -0.69813567 0.10114673
502000000 -0.68453956 0.10730068 -0.00039721251 -0.0020315077 -0.00040201916 -0.0016994018 -0.6958524 0.10224694
503000000 -0.68462729 0.10865816 -0.00052537158 -0.0020044982 -0.00037090594 -0.0018367572 -0.69665402 0.10439537
504000000 -0.68529749 0.10833488 7.9406433e-005 -0.001260631 -0.00020142399 -0.00087777333 -0.69642615 0.10308471
505000000 -0.68282998 0.10776671 -0.0011927541 -0.0013244761 -0.00026034776 -0.0012296353 -0.69790477 0.10333125
506000000 -0.68354416 0.10841393 -0.00065005542 -0.00050627399 -0.00037188272 -0.0014939703 -0.69773412 0.10294621
507000000 -0.6844759 0.10821883 0.00055906549 -0.0013996772 0.00026449896 -0.0020872974 -0.69680983 0.1039376
508000000 -0.68431836 0.10808314 7.1600582e-005 -0.0012730111 -0.00051999436 -0.0013178919 -0.6959222 0.10413545
509000000 -0.68380058 0.10839898 0.00053991511 0.0001105654 -0.001119633 -0.0012442041 -0.69551712 0.10410199
510000000 -0.68465638 0.11060881 -0.0009285094 -0.0018355297 0.00046887613 -0.0015628944 -0.69448602 0.10459176
511000000 -0.68477434 0.10991705 -7.4436299e-005 -0.0006861412 0.00018087737 -0.0023707419 -0.69648004 0.10546803
512000000 -0.6837585 0.10956893 -0.00094061467 -0.00057781301 -0.0010613324 -0.0017863113 -0.69619697 0.10418259
513000000 -0.68367118 0.1099868 -0.00092633435 -0.0011182168 -0.001200892 -0.0026572482 -0.69672561 0.10469821
514000000 -0.68428737 0.11068919 -0.0011615129 -0.0013055792 0.00089703558 -0.0019944594 -0.697034 0.10432634
515000000 -0.68430102 0.11170831 -9.8413097e-005 -0.00175436 -0.00073586759 -0.0018627726 -0.69628853 0.10427073
516000000 -0.68394113 0.11096112 -0.0004143944 -0.00029472972 5.553849e-005 -0.0016158723 -0.69614589 0.10498156
517000000 -0.68431294 0.11257307 -0.00085714442 -0.0014107726 -0.0013712121 -0.0015680202 -0.695032 0.10557127
518000000 -0.68484014 0.10976842 -0.00025150212 -0.0010128035 -0.00028571283 -0.0023249006 -0.69536239 0.1068015
519000000 -0.68315625 0.11076731 -0.0012200874 -0.0020820261 -0.00030251261 -0.0018220504 -0.6950115 0.10732985
520000000 -0.68406844 0.11163436 0.00011856689 -0.0010125369 -0.00031035906 -0.0013721889 -0.69626087 0.10704479
521000000 -0.68187845 0.11196184 -0.00049774774 -0.0020737674 9.1619186e-005 -0.00086064101 -0.69716984 0.10821972
522000000 -0.68449736 0.11353714 -0.0017277052 -0.0008437981 -0.00019332732 -0.0026756269 -0.69530803 0.10917588
523000000 -0.68514907 0.11268707 4.3423777e-005 -0.001130803 -0.0007990434 -0.0016790822 -0.69647586 0.10750541
524000000 -0.68270576 0.11313697 -0.00033672818 -0.0018927242 0.00044194568 -0.001173761 -0.69728446 0.10849255
525000000 -0.68310064 0.11255835 -0.001523216 -0.0014397793 -0.0015306711 -0.0013088173 -0.69773126 0.10778235
526000000 -0.6839537 0.11404534 -0.0008161884 -0.0020428121 -6.0929808e-005 -0.0014291022 -0.69559038 0.10821519
527000000 -0.68398017 0.11398645 -0.00036589109 -0.0018424786 -0.00033435511 -0.00021222056 -0.69594938 0.10929468
528000000 -0.68366706 0.11348207 -0.00075264706 -0.00048361858 0.00027878178 -0.0019421229 -0.69544309 0.10996709
529000000 -0.68319303 0.11419249 0.00057149457 -0.0010001832 -0.00036049934 -0.0009484014 -0.69646609 0.10931539
530000000 -0.68357021 0.11440513 -0.00056474179 -0.0015075632 -0.00014718621 -0.0018367395 -0.69573784 0.10849739
531000000 -0.68364972 0.11314635 -0.0011275196 -0.0018121258 -0.00050750549 -0.0013414151 -0.69654477 0.10932761
532000000 -0.684479 0.11251167 -0.00075849652 -0.0022907415 -0.00092428678 -0.0016461452 -0.69659328 0.10919476
533000000 -0.68384874 0.1137947 -0.00023564375 -0.0016031562 -0.00073434843 -0.0017728462 -0.69571579 0.10930356
534000000 -0.68363023 0.1134697 -0.00044797666 -0.0024229023 -0.0011360697 -0.0023665356 -0.69522989 0.11064591
535000000 -0.68299478 0.11387385 -0.00044948934 -0.0018803504 -0.00020489338 -0.0018185941 -0.69671834 0.10946954
536000000 -0.68180156 0.11478505 -1.2221672e-005 -0.0019231444 0.00039441761 -0.0014432552 -0.69611567 0.10897864
537000000 -0.68260986 0.11647042 -0.00023380309 -0.001145154 0.00028308967 -0.0020697897 -0.69521618 0.10999793
538000000 -0.6829623 0.11527539 -0.00030415351 -0.0012628267 -0.0012766899 -0.0020545232 -0.69572687 0.11088646
539000000 -0.68308187 0.11587934 0.00042709228 -0.001265822 6.0583106e-006 -0.0010493416 -0.6953128 0.11075141
540000000 -0.68274641 0.11771827 -0.00057675474 -0.00098680658 -1.4442227e-006 -0.0016201313 -0.69655752 0.11148893
541000000 -0.68162352 0.11583528 4.5901928e-005 -0.0020540743 -0.00091475254 -0.0013082854 -0.6946677 0.11023899
542000000 -0.68390816 0.11589925 5.2883159e-005 -0.0029713218 0.00030064399 -0.0022344524 -0.69629329 0.11215617
543000000 -0.6826604 0.11552902 -0.0010156478 -0.0019784016 0.00035407729 -0.0015237258 -0.69591177 0.11201997
544000000 -0.68384558 0.1160734 -0.00081243832 -0.0024789879 -0.00039992694 -0.001112944 -0.69544327 0.11356297
545000000 -0.68401754 0.116171 0.00026256847 -0.0015977119 -0.0007261979 -0.0022829149 -0.6960485 0.11205967
546000000 -0.68339229 0.11652119 -0.001353116 -0.0017081358 0.00050334021 -0.0011932011 -0.69575673 0.11286232
547000000 -0.68393803 0.11709733 -0.0002368338 -0.0020187884 0.00066784298 -0.0025386286 -0.69577795 0.11264069
548000000 -0.68261182 0.11795273 0.00037918583 -0.0015611533 -5.956383e-005 -0.0019106166 -0.69551688 0.11310554
549000000 -0.68300563 0.11692379 4.2776068e-005 -0.0021703946 -0.0010829017 -0.0013491773 -0.69559926 0.11390129
550000000 -0.68169671 0.11634874 3.3928216e-005 -0.00234483 -0.00016928479 -0.0021925562 -0.69527072 0.11337104
551000000 -0.68228966 0.11728361 0.00016330711 -0.001357212 0.00080509379 -0.001077789 -0.69595158 0.11330975
552000000 -0.6828053 0.11583818 0.00010963072 -0.001763964 0.00015299843 -0.0012496921 -0.69462591 0.11353701
553000000 -0.68320465 0.11867128 -0.00079915504 -0.0010218285 -0.00014259717 -0.0011984649 -0.69561583 0.11318063
554000000 -0.68268102 0.11740286 -0.00048572916 -0.0019692921 0.00035349379 -0.0012548321 -0.69597512 0.11320586
555000000 -0.68333417 0.11810786 -0.00031612866 -0.0018850281 0.0002807432 -0.0011514319 -0.69586772 0.11384326
556000000 -0.68226886 0.11842378 -0.00037254745 -0.0018642786 -0.0004635347 -0.00087202847 -0.69573748 0.11563907
557000000 -0.68187904 0.11805768 -0.00060349761 -0.00091292587 -0.00042796572 -0.0016491577 -0.69690228 0.114003
558000000 -0.68263364 0.11748175 -0.00065319391 -0.0025954267 -0.00050937309 -0.0017419198 -0.69598126 0.11484932
559000000 -0.68225092 0.11864669 8.4719359e-005 -0.0019274575 -0.00018665432 -0.0017404291 -0.69530195 0.11551521
560000000 -0.68234479 0.11925069 -4.7692662e-005 -0.001043854 -0.0010626668 -0.0017558701 -0.69502616 0.11361129
561000000 -0.68365967 0.11889541 0.00037547108 -0.0017085683 -0.0001048331 -0.00142525 -0.69586176 0.11484683
562000000 -0.68275422 0.11932481 -0.00070929574 -0.00083397026 0.00067070912 -0.0014693917 -0.69374365 0.11444163
563000000 -0.68328029 0.11888234 0.00036815545 -0.0011576402 -0.00060647103 -0.0016225852 -0.69602585 0.11611649
564000000 -0.68149954 0.11834205 -0.00068692287 -0.0018313102 0.00092371914 -0.0014228654 -0.69645786 0.11482831
565000000 -0.68194467 0.12054896 -0.0012468685 -0.0016000449 -0.00034279499 -0.0013750909 -0.69530278 0.11444449
566000000 -0.68386769 0.1194647 -0.0010819817 -0.0020079776 -0.00053937291 -0.0018164745 -0.69515878 0.11529534
567000000 -0.6815778 0.11952795 -0.0001515779 -0.0011143032 -0.00052848895 -0.0021052905 -0.69474429 0.11601181
568000000 -0.68210644 0.12047862 -0.00024026775 -0.0011781785 0.00024367684 -0.0017784619 -0.69508374 0.11610618
569000000 -0.68133926 0.12051696 -0.001350533 -0.0016183745 -0.0010002513 -0.0021346004 -0.69561315 0.11631986
570000000 -0.6822902 0.1208325 -0.00025364049 -0.0023417736 -0.00015352073 -0.0018327276 -0.69514871 0.11700295
571000000 -0.68179232 0.12117546 -0.00037936104 -0.0019177896 0.00049321802 -0.0013810406 -0.69528991 0.11593504
572000000 -0.68044412 0.12094382 -0.00059617823 -0.0014605029 -0.00085288484 -0.0015403162 -0.69523257 0.11694619
573000000 -0.68180537 0.12058868 0.00066680659 -0.0018335675 -0.0012464144 -0.0019626759 -0.69518995 0.11653475
574000000 -0.68132257 0.12081422 -0.00046236583 -0.0009391479 -0.0001303647 -0.00069914031 -0.69550508 0.11809018
575000000 -0.68029487 0.12025599 -0.0004872008 -0.0016198843 -0.00032936214 -0.0022241885 -0.69548488 0.11753648
576000000 -0.68199319 0.12158251 -0.00025828727 -0.001990916 -2.219829e-005 -0.0013124429 -0.6955992 0.11668237
577000000 -0.68280214 0.1228037 -0.00030539749 -0.0022528607 0.00042901482 -0.0018154822 -0.69481736 0.11605696
578000000 -0.6809088 0.12053853 -0.00038140916 -0.0017220041 -0.00029284129 -0.0006496337 -0.69574535 0.11669281
579000000 -0.68185472 0.12288012 1.7638013e-005 -0.0016998082 -0.00075766764 -0.0011601662 -0.69587755 0.11768205
580000000 -0.68196195 0.12402712 -0.00079673447 -0.0016205222 -0.00048846198 -0.0019349668 -0.69314075 0.11963559
581000000 -0.67997515 0.12188104 -0.00041022917 -0.0023981356 -0.00020604963 -0.0018171634 -0.69524473 0.11921507
582000000 -0.68097061 0.1216874 -0.00048684594 -0.002714335 0.00046501932 -0.0019909742 -0.69496608 0.11737544
583000000 -0.68186778 0.12287516 -0.00062561576 -0.0023463296 -0.00039784325 -0.0015194325 -0.69632971 0.11897316
584000000 -0.68113726 0.12358638 0.00050052325 -0.0023493266 -0.00050027267 -0.0023598375 -0.69389677 0.11961282
585000000 -0.6828897 0.12429371 -0.00092300889 -0.0011421368 -0.00072568387 -0.00042389784 -0.6962077 0.11892183
586000000 -0.68197435 0.12396552 -0.00031564815 -0.0022842286 -9.637262e-005 -0.0014141244 -0.69575375 0.11982846
587000000 -0.68059981 0.12406078 -0.00034520993 -0.0019857211 0.00025089883 -0.0023817029 -0.69514084 0.11978949
588000000 -0.68160254 0.12357981 -0.0011856471 -0.0006834977 -0.00035089467 -0.0015283097 -0.69564098 0.11942101
589000000 -0.68090141 0.12298934 0.00010734548 -0.0023140516 -0.0010064046 -0.0016439825 -0.69449079 0.11844419
590000000 -0.68176317 0.12427153 -8.4468709e-005 -0.0028091534 -0.00069317908 -0.0031045533 -0.69425005 0.11957074
591000000 -0.68313575 0.1247061 0.00036483406 -0.0018577686 0.00038729835 -0.0011416527 -0.6943422 0.12069859
592000000 -0.68237048 0.12445375 0.00033245655 -0.0011260253 0.00010601813 -0.001233022 -0.69414675 0.12046825
593000000 -0.6792329 0.12509349 -0.00077209243 -0.001911527 -6.8042464e-005 -0.0016052293 -0.69442374 0.12044513
594000000 -0.67986739 0.12465236 -0.00040988013 -0.00046583169 -8.1114114e-005 -0.0015895905 -0.69553012 0.12046842
595000000 -0.68203944 0.12572961 -0.00039184539 -0.002322945 -0.00028082437 -0.0020343491 -0.69340402 0.12090205
596000000 -0.68126702 0.12705486 -0.0009225487 -0.0016103226 -0.0016573661 -0.0011689112 -0.69534701 0.12014046
597000000 -0.68069071 0.12600151 -0.00037187024 -0.0012589759 -8.3882715e-006 -0.0024844655 -0.6944468 0.12268352
598000000 -0.67965978 0.12607178 -0.00057513255 -0.0028729523 -0.00046082525 -0.0021229454 -0.69451398 0.12099727
599000000 -0.68035901 0.12713461 9.4288705e-005 -0.0021960109 -0.00060776697 -0.0014935888 -0.69261336 0.12072229
600000000 -0.6811716 0.12727888 -0.00074444711 -0.0012777483 -0.00026132644 -0.00096308062 -0.69360977 0.12193543
601000000 -0.68227333 0.12705088 3.0945379e-005 -0.0013914626 0.00011449907 -0.0026263092 -0.69276983 0.12087221
602000000 -0.68163133 0.1274823 -0.0006215389 5.1176263e-005 -0.00039336408 -0.0016525306 -0.69414777 0.12177138
603000000 -0.6805281 0.12717985 0.00039161803 -0.00062440784 -0.00077067903 -0.001742046 -0.69395703 0.12186413
604000000 -0.67997885 0.12795673 -0.00057713734 -0.00057388312 -0.00033901448 -0.0010741056 -0.69329345 0.12218626
605000000 -0.67981416 0.12805389 -0.00011688595 -0.0012253242 -0.00096936285 -0.0018100757 -0.69462287 0.12313589
606000000 -0.67979622 0.12932746 -0.001622724 -0.0017800299 -0.0014937299 -0.0019098051 -0.69285941 0.12251371
607000000 -0.68046039 0.1279961 -0.00071012502 -0.0013699192 2.544495e-005 -0.00088928669 -0.69375455 0.1223767
608000000 -0.68005854 0.12916644 -0.0002826234 -0.0026662028 -0.00025755409 -0.00078722148 -0.69352573 0.12254162
609000000 -0.67925882 0.12925693 -0.00024134513 -0.0011231881 5.3886606e-007 -0.0017695898 -0.69388455 0.12287917
610000000 -0.67985278 0.12970234 -0.00021534653 -0.0013193429 -0.001027023 -0.0025826581 -0.69352013 0.12458797
611000000 -0.67906225 0.12967798 -0.0017105141 -0.0019613309 0.00055910629 -0.0013728474 -0.69395369 0.1237352
612000000 -0.68004984 0.1304414 -0.00026360803 -0.0013686627 -0.00018768602 -0.0023637379 -0.69375193 0.1246879
613000000 -0.67929214 0.13111541 0.00047684467 -0.0011838563 -0.00042462605 -0.0018882353 -0.69413102 0.12429077
614000000 -0.68036258 0.13043764 -6.7807465e-005 -0.0021345536 -0.00049155735 -0.0015358293 -0.69346768 0.1266415
615000000 -0.68013006 0.13056278 -0.00023765933 -0.001090807 -6.483162e-005 -0.00076342229 -0.69275737 0.12474195
616000000 -0.67969936 0.131203 -0.0012276246 -0.001363445 -0.00072968018 -0.0020419552 -0.69323403 0.12460726
617000000 -0.67972207 0.13149467 -0.0013446066 -0.00088195712 -0.00049762195 -0.0024808985 -0.69296914 0.12553141
618000000 -0.67884392 0.13114612 -0.00089540333 -0.0013640231 -0.00031487164 -0.0024449858 -0.69305623 0.12535053
619000000 -0.68003017 0.13132386 0.00035780013 -0.0021883731 -0.00046614409 -0.002267272 -0.69252098 0.12563498
620000000 -0.67908299 0.13242212 1.8880379e-005 -0.0019150189 0.0010667342 -0.00067977206 -0.69224143 0.12503091
621000000 -0.6804502 0.13130295 -0.00051424839 -0.0018210298 0.00082244514 -0.0012069254 -0.69257569 0.12535533
622000000 -0.67965049 0.13289297 -0.00076146051 -0.0012882536 -5.3578035e-005 -0.0018441785 -0.6928786 0.12687965
623000000 -0.67914766 0.1330594 -0.0011953684 -0.00066249579 -0.00079369469 -0.0017866193 -0.6936456 0.12822995
624000000 -0.67882615 0.13179307 -0.0010102622 -0.001840125 -0.00015523555 -0.0019154851 -0.69379079 0.12665318
625000000 -0.67829633 0.13397788 -0.00026894154 -0.0022430611 -0.0011928218 -0.0016362414 -0.6927532 0.12635298
626000000 -0.67927706 0.13468814 -0.0013719449 -0.0022431989 -0.00017829647 -0.0015277779 -0.69226462 0.12723646
627000000 -0.67913485 0.13392635 0.00048270117 -0.0017678906 0.00051591551 -0.0022389255 -0.69275934 0.12633254
628000000 -0.67875808 0.13571432 -0.0008276868 -0.0023018343 -0.00041400836 -0.0023647533 -0.69331741 0.12769975
629000000 -0.67807293 0.13551891 0.00021956253 -0.0020705578 -0.00033916504 -0.0031051743 -0.69148356 0.12708338
630000000 -0.67981261 0.13356839 -0.00036138302 -0.00083232234 -0.00040749292 -0.0017751544 -0.69245315 0.1304656
631000000 -0.67879057 0.13519369 -0.0010854729 -0.0019747496 -0.00085741602 -0.0021501344 -0.69439983 0.12803607
632000000 -0.67992121 0.13589233 -0.00039606306 -0.0011258839 -9.3407609e-005 -0.0018667922 -0.69227141 0.12764362
633000000 -0.67869323 0.13498808 -6.5365981e-005 -0.0031558678 -0.0012605122 -0.0015941226 -0.69324911 0.12948005
634000000 -0.67903185 0.13657361 -0.00031928887 -0.0016231341 -0.00063207344 -0.0024969385 -0.69282168 0.12986915
635000000 -0.67825729 0.13685061 -0.00090137293 -0.0022635304 -0.00035563254 -0.0025900265 -0.69234449 0.12807637
636000000 -0.67917657 0.13482358 -0.00068003044 -0.0011594081 -0.00017945738 -0.0019562955 -0.69259262 0.12909333
637000000 -0.6787672 0.13727809 -0.00025828261 -0.0023105603 -0.00061889115 -0.0022089237 -0.69117779 0.1292311
638000000 -0.67831457 0.13536508 -0.00024995476 -0.0008956262 0.0001168836 -0.00141671 -0.69318801 0.12881018
639000000 -0.67856699 0.13780104 -0.00027159549 -0.0015410521 -1.6535108e-005 -0.0025192441 -0.69265008 0.12881805
640000000 -0.67826074 0.13618737 6.6609042e-005 -0.0016546926 -0.00075896905 -0.0021202632 -0.69158751 0.13010672
641000000 -0.67953879 0.13808264 -0.00036566079 -0.0013630362 0.00069694163 -0.00066950254 -0.69262469 0.13065548
642000000 -0.67841846 0.13625117 -0.00044996577 -0.0010919126 -0.0021670735 -0.0017889282 -0.69135296 0.13003252
643000000 -0.67849183 0.13791515 3.3487198e-005 -0.0015436547 -8.8451823e-005 -0.0010630294 -0.69264585 0.13114771
644000000 -0.67872465 0.136822 -2.4462955e-005 -0.0020911924 -0.00060420251 -0.0010882146 -0.69332635 0.131569
645000000 -0.67889392 0.13889985 -0.00030816373 -0.0011663599 0.00035615597 -0.0019110038 -0.69184732 0.1320855
646000000 -0.67891121 0.13808343 -0.00030101344 -0.0023635826 0.0005827315 -0.0013864784 -0.69082177 0.13087298
647000000 -0.67816854 0.13766228 -0.00027716561 -0.0023875956 -0.00025812973 -0.0021138659 -0.69235575 0.13193044
648000000 -0.67773235 0.13772632 -0.0011116804 -0.0025752382 -0.0013357684 -0.0023171338 -0.69183475 0.13155243
649000000 -0.67828321 0.13951936 0.00027763576 -0.0022266635 0.0008322589 -0.0027274075 -0.69109219 0.13196142
650000000 -0.67917669 0.14016281 -0.0011172175 -0.0023192056 -0.00077503343 -0.0024555442 -0.69229233 0.13283895
651000000 -0.6780386 0.13868475 -0.00031966675 -0.0024916776 -0.0005102366 -0.0024907021 -0.69166237 0.13226168
652000000 -0.67802835 0.13901348 5.9714744e-006 -0.003046961 0.00075775239 -0.001439923 -0.69125742 0.13180959
653000000 -0.67774504 0.13949552 -0.00081350113 -0.0026336147 -0.00095242966 -0.0014818695 -0.69198334 0.13200326
654000000 -0.67795902 0.14025672 0.00044130892 -0.0020209746 -7.4023199e-005 -0.0017773921 -0.69312924 0.13217016
655000000 -0.67876554 0.14067698 -0.00044730553 -0.0018651109 -0.00037561881 -0.0023761203 -0.69261134 0.13378298
656000000 -0.67735535 0.14042015 0.00038424449 -0.0015914565 -0.00061641383 -0.0019055834 -0.69266814 0.13435663
657000000 -0.67804229 0.14102782 -0.00090828305 -0.0021908442 0.00051268318 -0.0012227549 -0.69270945 0.13312967
658000000 -0.67792648 0.1411185 -0.00089179334 -0.0022897548 -0.0011659124 -0.0030749447 -0.69178998 0.13349758
659000000 -0.67847145 0.14145829 -0.00084892986 -0.0017176762 0.00032413093 -0.0022252884 -0.69002873 0.13426784
660000000 -0.67790681 0.1411932 -0.00062531262 -0.0019591143 8.9917055e-005 -0.0013867152 -0.69286186 0.13245635
661000000 -0.67646199 0.14126685 -0.0010528004 -0.0017164665 -0.00096595811 -0.0026928801 -0.69205046 0.13426559
662000000 -0.67735809 0.14107551 -0.00051503052 -0.0013660121 -0.0014472276 -0.0020934616 -0.69158685 0.13491444
663000000 -0.67892867 0.14140196 2.7778588e-005 -0.0021138953 -0.00071808067 -0.0019686599 -0.69086307 0.13474619
664000000 -0.67832851 0.14164607 -1.9734329e-005 -0.0012853576 3.396166e-005 -0.0017681435 -0.69234419 0.13507895
665000000 -0.67786717 0.14190002 -0.0009696426 -0.0022744681 -0.0006513733 -0.0021701087 -0.69089049 0.13549057
666000000 -0.67792922 0.14107871 -0.001056914 -0.0013424314 -0.00070096954 -0.0022724525 -0.69165325 0.13605733
667000000 -0.67815036 0.14232425 -0.00044620762 -0.0021486578 -6.5160231e-005 -0.0022869743 -0.69119358 0.13473798
668000000 -0.67776871 0.14182322 -0.00070496445 -0.00278439 -0.00032981334 -0.0024767248 -0.69152069 0.13550039
669000000 -0.677953 0.14143765 8.341689e-005 -0.0023952161 -0.00011040099 -0.0027120602 -0.69028354 0.13518716
670000000 -0.67815167 0.14377864 -0.00019419231 -0.001978348 -0.0013224171 -0.0019255002 -0.69107938 0.1350293
671000000 -0.67800587 0.1406488 -0.00084716914 -0.0018897738 -0.00059377553 -0.0019661491 -0.69106477 0.13642493
672000000 -0.67800671 0.14147581 -0.0010299223 -0.0022103488 -0.00065070135 -0.0021288591 -0.69212037 0.13594656
673000000 -0.67782617 0.14371982 -0.0011785412 -0.0024502338 -0.00062884495 -0.0017302843 -0.69076437 0.13431123
