!Keysight Technologies,M9374A,MY55442783,A.12.55.05
!Date: Friday, May 21, 2021 09:55:03
!Correction: S11(Full 2 Port(1,2)) 
!S21(Full 2 Port(1,2)) 
!S12(Full 2 Port(1,2)) 
!S22(Full 2 Port(1,2)) 
!S2P File: Measurements: S11, S21, S12, S22:
# Hz S  RI   R 50
500000000 -0.68483639 0.10527312 -0.00072811212 -0.0015027372 -0.0012910418 -0.0022117535 -0.69759774 0.10072552
501000000 -0.68415457 0.10660876 0.00070277491 -0.000490801 0.00035051187 -0.0019611861 -0.69725239 0.10106812
502000000 -0.68581468 0.10615592 -0.0010604722 -0.00070098526 -5.6826844e-005 -0.00097272446 -0.69771856 0.10094906
503000000 -0.68388468 0.10659501 -0.00083670468 -0.0010938991 -0.00087712152 -0.00094348978 -0.69729638 0.10230847
504000000 -0.68622321 0.10569243 -0.00017694342 -0.00097341579 -0.00071126031 -0.0017934551 -0.69776493 0.10219652
505000000 -0.68464917 0.10634485 -0.0001912888 4.0600902e-005 -0.00035457514 -0.003569507 -0.69721973 0.10175423
506000000 -0.68386483 0.10684645 -0.00053368567 -0.0021137514 -0.00068628276 -0.0014472668 -0.69737417 0.10220429
507000000 -0.68482429 0.10799032 -0.00041518919 -0.00051050872 -0.00014038831 -0.001411677 -0.69695407 0.10286788
508000000 -0.68540186 0.10656604 0.00014814088 -0.0019379288 -0.00072397001 -0.00092816947 -0.69698989 0.10329907
509000000 -0.68507707 0.10833912 -2.0608002e-005 -0.0014790392 -0.0010653605 -0.0019112101 -0.69745076 0.10260433
510000000 -0.68471593 0.10787422 0.0003875448 -0.0012290757 -0.0007071498 -0.001631312 -0.69632238 0.10305265
511000000 -0.68468159 0.10825894 0.0009073104 -0.0017931494 -0.00064861868 -0.0024060686 -0.69617528 0.1034662
512000000 -0.68502748 0.10749492 -0.00023210264 -0.0016211035 -0.00087902736 -0.0013751076 -0.69630146 0.10224736
513000000 -0.6838907 0.10865381 -1.0795939e-005 -0.002511431 0.00056774821 -0.0012790877 -0.69620699 0.1033787
514000000 -0.68321627 0.10930916 -0.00096839847 -0.0023626084 -0.00055032532 -0.0020798764 -0.69596672 0.10399967
515000000 -0.68397421 0.10936754 -4.8700618e-005 -0.0017342045 -0.00068146427 -0.002529081 -0.69594419 0.10405379
516000000 -0.68372053 0.10926376 0.00122174 -0.0021861948 -0.00090982858 -0.0012686669 -0.69726598 0.10225198
517000000 -0.6834535 0.10992275 -0.0010429625 -0.0016713229 0.00013798452 -0.0025273254 -0.69759685 0.10440566
518000000 -0.68489093 0.10967828 0.0011830278 -0.0021180992 -0.0012778146 -0.0017242746 -0.69680279 0.10487207
519000000 -0.68369853 0.10967503 5.0752224e-005 -0.0015315599 -0.00094078685 -0.00065315241 -0.69699484 0.10511892
520000000 -0.68310159 0.10906096 -0.00024382467 -0.0016771019 -0.0015415192 -0.0017060331 -0.69870466 0.10494947
521000000 -0.68355387 0.1118051 -0.00096050563 -0.00043223149 0.00052245916 -0.0010124595 -0.69706351 0.10520548
522000000 -0.68424946 0.11113045 -0.00060132099 -0.0016784444 -0.00036413129 -0.0025949506 -0.69550246 0.10489292
523000000 -0.68329853 0.11045887 7.0365924e-005 -0.0023342231 -0.0003282945 -0.001722056 -0.69674021 0.1062195
524000000 -0.6842593 0.1106059 -0.00011125312 -0.0013867675 -0.0017424118 -0.001592781 -0.69851875 0.10638359
525000000 -0.68387061 0.11053219 -0.00036019174 -0.0021060025 -0.00070218736 -0.00022849647 -0.69731456 0.10597655
526000000 -0.68410224 0.11164958 0.00080913381 -0.00057744083 -6.8082343e-005 -0.0019048819 -0.69578934 0.10690865
527000000 -0.68436372 0.11151905 -0.00097874203 -0.0012829878 -0.0010133266 -0.0014409693 -0.69755805 0.10685024
528000000 -0.68437856 0.11206428 -0.0013679642 -0.0022415386 -0.00032678567 -0.0008632667 -0.69714594 0.10705341
529000000 -0.68464673 0.1116823 -0.00088389206 -0.0024703851 0.0004661002 -0.0015705182 -0.69627458 0.10754055
530000000 -0.6828202 0.11179812 -0.00087427441 -0.0021538625 -0.0007594733 -0.0011113356 -0.697402 0.10788194
531000000 -0.68368107 0.11233621 -0.0004171257 -0.0016204721 0.00022636387 -0.0022075276 -0.69692743 0.10773911
532000000 -0.68348521 0.11158924 -0.00070231536 -0.0013199694 -0.00125451 -0.0010883127 -0.69538558 0.10798149
533000000 -0.68477005 0.11268543 0.00026957254 -0.0016173552 -0.00083515071 -0.0017374086 -0.69583911 0.10753737
534000000 -0.68399745 0.11263294 -0.0010980237 -0.0023056336 -0.00043725772 -0.0027402418 -0.69608366 0.10712029
535000000 -0.68456143 0.11323205 0.0010285806 -0.00050653628 -0.0001748019 -0.0024865365 -0.69618672 0.10859942
536000000 -0.68449181 0.11445355 0.00085134467 -0.0021565594 -0.00011789346 -0.0022684098 -0.69680363 0.10811881
537000000 -0.68316805 0.11541864 -8.08201e-005 -0.0011228141 0.00026552685 -0.0011683787 -0.69566518 0.1080706
538000000 -0.68306631 0.11374842 -0.00082350115 -0.0011819541 -0.00047554262 -0.0020623428 -0.69680262 0.10858446
539000000 -0.68383133 0.11318885 -0.0013248783 -0.0014172217 0.00061886478 -0.0017121545 -0.69595033 0.10870709
540000000 -0.68436462 0.11379667 2.9906794e-005 -0.00036072129 0.00066051236 -0.0010070013 -0.6961109 0.10922842
541000000 -0.68431658 0.11409752 -0.00046041861 -0.0003030946 -0.00040265897 -0.0021758524 -0.69647139 0.10944014
542000000 -0.68143439 0.1148019 -0.0017577842 -0.0017048506 -0.00079333253 -0.0015434044 -0.696585 0.1106874
543000000 -0.68450612 0.11455021 -0.00074776023 -0.00095097529 -0.00065020309 -0.0015257178 -0.69650054 0.11084808
544000000 -0.68375075 0.11313878 2.7760829e-005 -0.0018903542 -0.00025850319 -0.0015586809 -0.69779259 0.11098957
545000000 -0.6821118 0.11538666 -7.2943491e-005 -0.0023142428 0.00032327703 -0.0014566466 -0.69543642 0.11140803
546000000 -0.68331224 0.11512667 -0.0006754194 -0.0016505127 7.1335344e-005 -0.0014174739 -0.69521493 0.11042394
547000000 -0.68339396 0.11590349 -0.0010095148 -0.0025614658 -0.00020983757 -0.0020556364 -0.69639111 0.11170813
548000000 -0.68418747 0.11591703 -0.0010129001 -0.00098806038 -0.00097105239 -0.0018004102 -0.6956929 0.11164729
549000000 -0.68453443 0.11568543 -0.00020988866 -0.001116954 0.00018727257 -0.00137845 -0.69572252 0.11036199
550000000 -0.68170446 0.11632709 -0.00039799046 -0.0015814027 -0.00041024401 -0.0020421364 -0.69537354 0.11243527
551000000 -0.6833176 0.11428566 -0.00015686553 -0.001912827 -0.00055306632 -0.0016858658 -0.69611973 0.1105972
552000000 -0.6841327 0.11462091 0.00067556842 -0.0019889034 -0.001532554 -0.0010902495 -0.69603783 0.1112751
553000000 -0.68348682 0.11675765 0.0002242284 -0.0010388077 0.00066001387 -0.00078501151 -0.69526452 0.11193034
554000000 -0.68357575 0.11670637 1.6925249e-005 -0.0015752873 -0.00011978436 -0.0019485485 -0.69588733 0.11317963
555000000 -0.68167174 0.11676186 0.00014445897 -0.0015469984 -1.2240721e-005 -0.001169772 -0.6963113 0.11161599
556000000 -0.68270999 0.11583866 -0.0010574579 -0.0020806966 0.00033624534 -0.0013587294 -0.69671541 0.11236576
557000000 -0.68239707 0.11597895 -0.00057061174 -0.0011514875 -0.00010423299 -0.0017365069 -0.69746822 0.11229627
558000000 -0.68359947 0.11591241 -9.1816346e-006 -0.0012388424 -0.00051562884 -0.0012995196 -0.69682753 0.11277182
559000000 -0.68273485 0.1174184 -0.00020550168 -0.00071171386 -0.00028862455 -0.00062268483 -0.69692987 0.11230019
560000000 -0.68282992 0.11662318 -0.0012033789 -0.0018348685 0.00037197716 -0.0018403579 -0.69689661 0.11201641
561000000 -0.6839096 0.11622354 -0.00035755106 -0.0016392969 -0.0004831776 -0.0015764219 -0.69691157 0.11353242
562000000 -0.68108779 0.11760302 -1.9812484e-005 -0.00096030434 -0.00022429397 -0.0025638081 -0.69672269 0.11310572
563000000 -0.6820631 0.11810734 -0.00074993429 -0.0010223156 1.2032899e-005 -0.0025448499 -0.69574046 0.11319069
564000000 -0.68234891 0.11763631 -0.00066832337 -0.0015139499 -0.0011476765 -0.0017305384 -0.69573712 0.11465384
565000000 -0.68276012 0.11808018 -0.00056415802 -0.0012734523 -9.0149288e-006 -0.002363449 -0.6953119 0.11395537
566000000 -0.68175888 0.11801638 -9.7911914e-005 -0.0020934076 -0.0010562129 -0.0006336153 -0.69683087 0.11347523
567000000 -0.68315387 0.11789664 -0.00013459235 -0.0016861152 -0.00075901265 -0.0010689378 -0.69653744 0.11432175
568000000 -0.6834715 0.11891287 -0.0014863742 -0.0019809566 0.00040711692 -0.0011193329 -0.69581813 0.11366308
569000000 -0.68303341 0.11892919 -0.00096595119 -0.001183163 -0.00082271756 -0.0016114879 -0.6953609 0.11344523
570000000 -0.68216944 0.11859811 -0.00028883002 -0.0024723129 -0.0010425246 -0.0011735752 -0.6956622 0.11537348
571000000 -0.6817686 0.11841875 -0.00058310269 -0.0018537005 -0.00017687328 -0.0010738887 -0.69663846 0.11487845
572000000 -0.6832267 0.11945241 -0.00041113538 -0.0012588765 -0.00037516729 -0.0020689077 -0.69673008 0.11401299
573000000 -0.68201083 0.11970001 -0.00032293564 -0.0028537987 -0.0012259823 -0.0010038419 -0.69519961 0.11597481
574000000 -0.68299407 0.12051014 1.850395e-005 -0.00062627916 -0.00038873998 -0.0021471556 -0.69623291 0.11427635
575000000 -0.68189621 0.11879633 -0.00016369138 -0.0016928591 -0.00054295541 -0.00069270923 -0.69669133 0.11653287
576000000 -0.68192923 0.12040944 -0.00036015638 -0.0022960242 -0.00080346415 0.00035007927 -0.69486767 0.11541726
577000000 -0.68327039 0.11965591 0.00037518152 -0.0016528033 -0.0008291282 -0.0023032802 -0.69546658 0.1151494
578000000 -0.68192023 0.12057256 0.00028825653 -0.00099940156 -0.00051815039 -0.0015149444 -0.69610435 0.11482234
579000000 -0.68256474 0.11925415 -0.00098854757 -0.0025966286 -0.00046745915 -0.002140987 -0.69582224 0.115878
580000000 -0.68339646 0.12154555 -0.00032987399 -0.00078474806 0.00026197071 -0.0017988385 -0.69592577 0.1157941
581000000 -0.68221641 0.12038152 0.00021687003 -0.0019104156 -4.2676507e-005 -0.00077875343 -0.69629234 0.1167179
582000000 -0.68032652 0.1220398 -7.2171577e-005 -0.0018811645 -0.00052996766 -0.0020293249 -0.6951369 0.11680669
583000000 -0.68138492 0.12092821 -0.00034733294 -0.0015116064 0.00044587351 -0.0020464719 -0.69748712 0.11696447
584000000 -0.68168014 0.12215758 -0.00080414361 -0.0011348224 -0.00042638808 -0.0016506938 -0.69597369 0.11803373
585000000 -0.68243217 0.12269355 8.7544002e-005 -0.0022119116 -0.00045032898 -0.0012877261 -0.69579232 0.11587777
586000000 -0.68262744 0.12148775 -0.00059268187 -0.0016189356 -0.00055043591 -0.0019064158 -0.69651777 0.11709225
587000000 -0.6796971 0.12118053 -0.0012458477 -0.0020693087 0.00085700565 -0.002550191 -0.69506735 0.11803903
588000000 -0.68131953 0.12272651 0.00034939116 -0.0026106585 6.1847655e-005 -0.0017463658 -0.69497854 0.11709508
589000000 -0.68134862 0.12312765 -0.00022532728 -0.0012941364 0.0003724439 -0.0028119511 -0.69642091 0.11835474
590000000 -0.68168849 0.12387587 -0.00060557219 -0.001269575 -0.00026508883 -0.0018753669 -0.6967966 0.11715933
591000000 -0.68211722 0.12370861 0.00070173596 -0.0016597502 -0.00051768863 -0.0020214592 -0.69446331 0.11787096
592000000 -0.68104935 0.12216832 5.8883918e-005 -0.0013812474 -0.00043019481 -0.0014839238 -0.69470435 0.11849552
593000000 -0.6809209 0.12332485 -0.0012515981 -0.0019040918 0.0015350765 -0.0019852587 -0.69622892 0.11783101
594000000 -0.68034863 0.12408993 -0.00012258343 -0.0014786005 -0.00090581691 -0.0020841029 -0.6956923 0.11882228
595000000 -0.68179351 0.12449391 -0.00044644802 -0.0019318736 -0.00049028778 -0.0017224135 -0.69538063 0.11960214
596000000 -0.68142253 0.12285561 -0.0014809611 -0.00071377872 -0.00062026858 -0.0015587434 -0.69480425 0.1188967
597000000 -0.68137032 0.12427859 -0.00026290287 -0.0022407696 0.00063650467 -0.0023488281 -0.69535983 0.11986775
598000000 -0.68108737 0.12414159 -0.000526349 -0.001462449 -0.00045976261 -0.00033436535 -0.69612414 0.11792821
599000000 -0.68147337 0.12315313 0.00043846041 -0.0022486201 -0.00056494708 -0.0010145453 -0.69489789 0.11913855
600000000 -0.68048429 0.12464226 -0.00010853854 -0.0010672219 0.0001722364 -0.0017565801 -0.69455296 0.11936335
601000000 -0.68196833 0.12558739 -0.00053105457 -0.0021832206 -0.00062705774 -0.002189972 -0.69674981 0.12044594
602000000 -0.68174279 0.12560174 -0.0010884759 -0.0013289681 -0.001750557 -0.0013193046 -0.69356179 0.12042607
603000000 -0.68021756 0.12579395 0.00049757399 -0.0011179144 -0.00022639747 -0.0018516128 -0.69425446 0.11964182
604000000 -0.68001205 0.12595046 -7.2836359e-005 -0.0026327311 -0.00029146491 -0.0020315002 -0.69522268 0.12137932
605000000 -0.68005782 0.1262475 -8.269566e-005 -0.0018393937 -5.2715186e-006 -0.0013443942 -0.6939528 0.12042256
606000000 -0.6800704 0.12625608 -0.00071941875 -0.0018112699 -0.0006939735 -0.002608639 -0.69468653 0.12131535
607000000 -0.68060094 0.1268011 -0.00053641264 -0.0023201748 -0.00038392036 -0.0014876631 -0.69429141 0.11974848
608000000 -0.67915833 0.12665607 -0.0012705979 -0.00084003276 -0.0013166178 -0.0017382405 -0.69436175 0.12266906
609000000 -0.67988271 0.12804149 -0.00032980912 -0.0018554457 -0.00085397775 -0.0011925398 -0.6949808 0.1219347
610000000 -0.68022549 0.12767294 4.4485201e-005 -0.0024694814 -0.00011712131 -0.0017027819 -0.69280338 0.12089124
611000000 -0.68022913 0.12758063 5.7824396e-005 -0.0022644941 -0.0012871911 -0.0006089728 -0.69317037 0.12231384
612000000 -0.67980385 0.12796248 0.00042134451 -0.0018156109 -0.00013387145 -0.0025227102 -0.69364446 0.12181185
613000000 -0.67970121 0.12836708 -0.00037626669 -0.0013732552 -0.0004521131 -0.002582164 -0.69473386 0.12303337
614000000 -0.67912787 0.12917605 0.00016309839 -0.0018067241 0.00032106851 -0.0021379157 -0.6937021 0.12316427
615000000 -0.67958111 0.12895934 -0.0016823644 -0.0019719882 -0.00051787216 -0.0017204733 -0.69454581 0.12317175
616000000 -0.68044263 0.128426 -0.0003126479 -0.0017153119 -0.00014520736 -0.0016413762 -0.69339544 0.12490185
617000000 -0.68048424 0.13075292 0.00025194552 -0.0019205945 -0.001270112 -0.0023608899 -0.69353765 0.12323557
618000000 -0.681301 0.12890457 -0.0016356934 -0.0017049108 -0.00025493497 -0.00063559145 -0.69374931 0.12425102
619000000 -0.68056154 0.13029096 -0.0011508429 -0.0013974968 0.00016831775 -0.0017082483 -0.69533539 0.1235653
620000000 -0.68013895 0.12998223 -0.00032596671 -0.0024836278 -0.0005348241 -0.0011753537 -0.6923787 0.12304414
621000000 -0.68064493 0.13118339 -0.00075840659 -0.0020074714 -0.00014632597 -0.0022907711 -0.69400007 0.12418123
622000000 -0.67894256 0.13010779 -0.00051504094 -0.001933135 -0.001412557 -0.0022173317 -0.69359004 0.1244355
623000000 -0.67974561 0.13156325 -0.0017175708 -0.0018929245 0.00015057213 -0.00038349532 -0.69366854 0.12450331
624000000 -0.67955279 0.13131899 -0.00046818532 -0.001350217 -8.6549435e-006 -0.0019951323 -0.69253331 0.12418754
625000000 -0.67770582 0.13124038 0.00020509788 -0.0012336457 -0.00097364082 -0.0015128942 -0.69414371 0.12511699
626000000 -0.68129885 0.13295585 -0.0012616416 -0.0014262741 0.00050552521 -0.0020054034 -0.69297177 0.12449944
627000000 -0.67822874 0.13242826 -0.00031168619 -0.0014495057 -4.8234873e-005 -0.0013147758 -0.69287938 0.1248299
628000000 -0.67941016 0.13171348 -0.0012117436 -0.003386877 -8.8517438e-005 -0.0021985734 -0.69362879 0.12576495
629000000 -0.67930299 0.13300857 7.2278664e-005 -0.0033787063 -0.00034293669 -0.0024424829 -0.69404387 0.126408
630000000 -0.67983836 0.13239861 -0.00018073589 -0.0015875606 -0.00045610784 -0.0016328833 -0.69286156 0.12658581
631000000 -0.68021059 0.13129935 -0.00085373479 -0.00052183325 0.0010406699 -0.0012233002 -0.69291675 0.12687045
632000000 -0.67925531 0.13296466 -0.0011899167 -0.0016873411 -0.00093873817 -0.0017750034 -0.69267046 0.1249533
633000000 -0.67981601 0.13359451 -8.4149935e-005 -0.0020134046 -0.0006663751 -0.0014642893 -0.69346136 0.1273641
634000000 -0.68062353 0.13345455 -0.00086851465 -0.0011659969 0.00056750636 -0.002244706 -0.69325125 0.12763384
635000000 -0.67996758 0.13143268 -0.00087104051 -0.0019028337 -0.0007976488 -0.0019757494 -0.69275284 0.12721176
636000000 -0.68023413 0.13307011 -0.00021397616 -0.0013600573 -0.00036963835 -0.0014656429 -0.69445252 0.126618
637000000 -0.67987704 0.13289475 -0.00041551291 -0.0018031562 -0.00016796884 -0.0011607588 -0.69348454 0.1269847
638000000 -0.67930758 0.13483797 -0.00044789576 -0.0025802036 -0.00025212075 -0.0022831031 -0.69395477 0.12827611
639000000 -0.67995495 0.13386074 -0.00099488487 -0.0022147759 -0.00088690617 -0.0029421388 -0.69274801 0.12720603
640000000 -0.67822933 0.13517398 0.00012784374 -0.0010758287 -7.0800299e-005 -0.001489819 -0.69388855 0.12731583
641000000 -0.67899621 0.13418007 -0.00068517448 -0.0022360063 -0.00084580935 -0.0013840791 -0.69295776 0.12866448
642000000 -0.67941707 0.13566142 -0.0005405097 -0.0014635371 -0.00010512898 -0.0015422389 -0.69313079 0.12799487
643000000 -0.67875183 0.13624221 0.00033735269 -0.0018749804 5.4465778e-005 -0.0021630302 -0.69258189 0.12853768
644000000 -0.67827308 0.1362766 -0.00061564194 -0.0021846436 -0.00044188285 -0.0012597195 -0.69210052 0.12880556
645000000 -0.67844206 0.13577883 -0.00065942801 -0.0014191812 -0.0010581064 -0.001741906 -0.69286931 0.12923384
646000000 -0.67940855 0.13523245 0.00045823 -0.0027769953 -0.00069736928 -0.0014980587 -0.69235104 0.12895909
647000000 -0.67805552 0.13489534 0.00030259101 -0.0014646165 -0.00093542319 -0.0015863081 -0.69237465 0.12865992
648000000 -0.67931622 0.13672969 -0.00063311652 -0.0012222544 -0.00074820418 -0.0016135534 -0.69156277 0.12984939
649000000 -0.67958236 0.13731909 -0.00070453098 -0.0020690169 -0.00020185782 -0.0019153024 -0.69215232 0.12858967
650000000 -0.67961395 0.13703023 -0.0013192781 -0.0019489682 -0.00068729813 -0.0022204027 -0.69314641 0.12861753
651000000 -0.67884004 0.13674863 0.00020345685 -0.0027856489 -0.0010252432 -0.0022681179 -0.69254369 0.12965049
652000000 -0.67910022 0.13713878 -1.419745e-005 -0.0016294307 -0.0006961766 -0.00097852421 -0.69266605 0.13005766
653000000 -0.67946488 0.13658227 -0.00030252419 -0.0021854788 -0.0019468382 -0.0023414721 -0.6933372 0.13075183
654000000 -0.67832386 0.13848065 -0.00048350438 -0.0029271981 -0.0003370599 -0.001400935 -0.69244033 0.1302405
655000000 -0.6798839 0.13798684 -0.00031230014 -0.0018302817 -0.0010772804 -0.0021933343 -0.6925115 0.13196896
656000000 -0.67758417 0.13707662 -8.6356318e-005 -0.0010929788 -0.0010212504 -0.0012747513 -0.69254351 0.13168314
657000000 -0.6779508 0.13970475 -0.00072406954 -0.00065256591 -0.00095433218 -0.0018193653 -0.69219297 0.1314373
658000000 -0.67829537 0.13764855 -0.00026860202 -0.0025548367 -0.001141533 -0.0019332537 -0.69224936 0.13303657
659000000 -0.67655468 0.13921051 -0.00018001892 -0.002906953 -0.00061742158 -0.0015054349 -0.69234395 0.1317858
660000000 -0.67861384 0.13801731 -0.0012093184 -0.0013903751 -0.00015729196 -0.00095425313 -0.6922214 0.13147826
661000000 -0.67738557 0.13970318 -0.0014072309 -0.0020637794 -0.00050447229 -0.0019234016 -0.69318849 0.13248973
662000000 -0.67831767 0.1388754 0.00029131057 -0.0024183134 -0.00078817806 -0.0020472365 -0.69269252 0.13276027
663000000 -0.67918599 0.13875602 -0.00078455493 -0.0022509699 -0.00055851624 -0.00078803155 -0.69168335 0.13050644
664000000 -0.6796934 0.13957903 -0.0012432447 -0.00093236065 -0.0005162966 -0.0038177914 -0.69127005 0.13182607
665000000 -0.67828518 0.14007689 -0.00055022142 -0.001855587 -0.00010009964 -0.001362906 -0.69249392 0.13412781
666000000 -0.67789155 0.13956313 -0.00051507948 -0.0026862356 -0.00049011788 -0.0019614659 -0.69236904 0.13196492
667000000 -0.67830163 0.13949215 8.5464235e-006 -0.0021427779 0.00035916342 -0.0021997059 -0.69293803 0.13259649
668000000 -0.67847657 0.14004491 -0.00031286676 -0.0019709093 -0.00038907921 -0.0015995863 -0.69228178 0.13162538
669000000 -0.67808443 0.14087653 -0.00024325881 -0.001917784 -0.0011346336 -0.0018983075 -0.69257027 0.13178757
670000000 -0.67853963 0.13961606 0.00013116388 -0.0018653901 -0.00043943376 -0.00179486 -0.69343394 0.13323128
671000000 -0.6790722 0.14095965 -0.00012150422 -0.0021452755 -0.0006210843 -0.0015498687 -0.691239 0.13377184
672000000 -0.6775834 0.14113519 -0.0003567969 -0.0017561697 0.00043033549 -0.0024180205 -0.69185668 0.13444468
673000000 -0.67924225 0.14153534 -0.00049498613 -0.0019873355 -0.00094085472 -0.0024295673 -0.69215685 0.13410534
674000000 -0.67818034 0.14091511 -0.00047563884 -0.0020295391 0.00025879007 -0.0022044333 -0.69232619 0.13399442
