!Keysight Technologies,M9374A,MY55442783,A.12.55.05
!Date: Friday, May 21, 2021 09:29:08
!Correction: S11(Full 2 Port(1,2)) 
!S21(Full 2 Port(1,2)) 
!S12(Full 2 Port(1,2)) 
!S22(Full 2 Port(1,2)) 
!S2P File: Measurements: S11, S21, S12, S22:
# Hz S  RI   R 50
500000000 -0.68203872 0.11146753 0.00032334877 -0.0019272779 0.0003167862 -0.0012396702 -0.6977185 0.10525016
501000000 -0.68377835 0.11121523 5.9643298e-005 -0.00074780989 -4.4093264e-005 -0.001624856 -0.69768423 0.10583522
502000000 -0.68430585 0.1102299 -0.00043749539 -0.0012984184 -0.00019756804 -0.0016456353 -0.69659829 0.10634962
503000000 -0.68314809 0.11126002 -0.0016713386 -0.0015746207 -0.00069318351 -0.0018796255 -0.69541734 0.10677461
504000000 -0.68331283 0.11140823 -0.00084921508 -0.0019301439 0.0010941091 -0.0019007106 -0.69539696 0.10631309
505000000 -0.68372363 0.11214639 -0.00021773083 -0.0015339518 -0.00098441308 -0.0021152918 -0.69598627 0.10668596
506000000 -0.68284994 0.1121518 3.5140885e-005 -0.0017048881 0.00033975454 -0.0014410224 -0.69593489 0.10672899
507000000 -0.68376952 0.11296105 5.1651252e-005 -0.00060007867 -0.00022019383 -0.0022685691 -0.69617099 0.10788867
508000000 -0.68451029 0.11243726 0.00018709939 -0.00059545873 0.00071528985 -0.0012289205 -0.69540185 0.1073
509000000 -0.68339705 0.11388576 -0.00011173033 -0.0013274981 -8.4870961e-005 -0.0015159597 -0.69555831 0.10851309
510000000 -0.68250507 0.11280944 9.6721429e-005 -0.0021372039 -0.0003138 -0.0016008561 -0.69592434 0.10844918
511000000 -0.68257463 0.11455883 0.00029308617 -0.0016451487 -0.00037432762 -0.00098184822 -0.69531757 0.10956375
512000000 -0.68356144 0.11415631 -0.001267174 -0.00156217 -0.0010022754 -0.0018474397 -0.69525272 0.10806136
513000000 -0.68369722 0.11439619 -0.00017534467 -0.0015086361 -0.00045720165 -0.0018315099 -0.69505644 0.10891166
514000000 -0.68327963 0.11344821 -0.00098166184 -0.001400502 -0.00035821775 -0.002023977 -0.69627208 0.10822186
515000000 -0.68209189 0.11511825 -0.00050899194 -0.0018488504 -0.00014849729 -0.0019923369 -0.69504791 0.11063877
516000000 -0.68337315 0.11630452 -5.0853428e-006 -0.00099750084 -3.909217e-005 -0.0019982711 -0.69517094 0.10988206
517000000 -0.6813134 0.11630956 0.00090532337 -0.0015524802 -0.00040533679 -7.293994e-005 -0.69512278 0.10978518
518000000 -0.68382162 0.11607586 -0.0008996618 -0.0011965843 -0.00012934297 -0.0014355523 -0.69547176 0.11033747
519000000 -0.68293679 0.11563377 -7.7122342e-005 -0.0015375111 -3.9086823e-005 -0.0013669438 -0.69476044 0.11166829
520000000 -0.68188518 0.11466359 -0.00092321535 -0.001548385 -0.0015850523 -0.0015745572 -0.69530475 0.11089385
521000000 -0.68201524 0.11568873 0.0014289207 -0.0022713933 -0.00018745878 -0.0015147816 -0.69638705 0.11116688
522000000 -0.68423724 0.11636942 -0.0014545155 -0.0013073127 -0.00081777299 -0.0018237176 -0.69504929 0.11304579
523000000 -0.68342072 0.11602838 -0.0005189717 -0.0016487482 -9.3723887e-005 -0.0011723837 -0.69484878 0.11010555
524000000 -0.68372005 0.1165485 0.0005830272 -0.0016116389 -0.00046521617 -0.0023355384 -0.69459468 0.11209721
525000000 -0.68081361 0.11725974 -5.1361098e-005 -0.0010493554 0.00021063229 -0.00081536366 -0.69375753 0.11368353
526000000 -0.68277311 0.11719931 -3.0659186e-005 -0.002045183 0.0010895869 -0.00010538352 -0.69463974 0.11212911
527000000 -0.68390328 0.11726249 0.00019079175 -0.001474511 -0.00087345968 -0.0017925997 -0.69556582 0.11154836
528000000 -0.68296587 0.11710306 -0.00015446723 -0.001975558 -0.00074574817 -0.00082600809 -0.69434756 0.11293003
529000000 -0.68285918 0.11767601 -0.0003596273 -0.0007791454 -0.00032995298 -0.0013185932 -0.69549245 0.1124315
530000000 -0.68113661 0.11653093 0.00012489611 -0.0017794438 0.00027960521 -0.0014413915 -0.69493425 0.11210821
531000000 -0.68135655 0.11614332 0.00056555436 -0.0014296947 -0.00044038839 -0.0019586571 -0.69537443 0.11312199
532000000 -0.68357521 0.11780343 -0.00056149636 -0.0015084875 -0.00021383709 -0.00032209759 -0.69499761 0.11363606
533000000 -0.68192518 0.11980129 0.00020619591 -0.0017203682 -0.00092789106 -0.0010275136 -0.69556451 0.11410133
534000000 -0.68326849 0.11869357 -0.00060913229 -0.0021675087 -0.0015917999 -0.0026330755 -0.69499451 0.11308721
535000000 -0.68167442 0.11949792 -0.00024865681 -0.0014174278 -0.00077915925 -0.0020107019 -0.69556004 0.11330035
536000000 -0.68226361 0.11917511 -0.00060540176 -0.0015988296 -0.0013133921 -0.0014804057 -0.69514883 0.11413335
537000000 -0.68093139 0.11906032 -0.00064981537 -0.0022176327 0.00043831643 -0.0015546283 -0.69503164 0.11414906
538000000 -0.68271816 0.11955825 -0.00070200948 -0.002120052 -0.00068047736 -0.0014184817 -0.69470793 0.11541243
539000000 -0.68217772 0.12012284 -0.0010313314 -0.0019123111 -0.00086362066 -0.00083491736 -0.6930573 0.1151353
540000000 -0.68227023 0.11992281 -0.0012770479 -0.0020692402 -0.00059213693 -0.0021810231 -0.69629782 0.11571894
541000000 -0.68189871 0.11925981 -0.0010026788 -0.001510311 -0.00034620671 -0.0019124992 -0.69430935 0.11546068
542000000 -0.68298697 0.11967893 -0.00046582569 -0.0020463043 -0.00023996593 -0.0019322466 -0.69400859 0.11579353
543000000 -0.68156821 0.12038933 0.00014433406 -0.0014461405 -0.00068200909 -0.001205238 -0.6950081 0.11688394
544000000 -0.68271601 0.12138318 -0.0010083843 -0.0013658792 -0.00027069138 -0.0013464682 -0.69499189 0.11766901
545000000 -0.68205851 0.12011709 0.00063810416 -0.0018766054 -0.00012114083 -0.0024970127 -0.69524187 0.11744197
546000000 -0.68167961 0.12094548 0.00025001305 -0.0016122352 -0.00085125642 -0.0016723655 -0.69538999 0.1174254
547000000 -0.68271995 0.122122 -0.00058852136 -0.0015554754 -0.00029081982 -0.0013275812 -0.69519794 0.11716565
548000000 -0.68110448 0.12200687 5.0516857e-005 -0.00054549647 -0.0010192865 -0.0013819806 -0.69451624 0.11825603
549000000 -0.68092823 0.1221746 -6.733535e-005 -0.0019395228 0.00073412398 -0.0011046042 -0.69534487 0.11718424
550000000 -0.6804111 0.12149148 -0.0017513621 -0.0015064413 0.00034451109 -0.0019983684 -0.69430459 0.11829899
551000000 -0.68146843 0.12198003 -4.334324e-005 -0.0018644838 0.00029517195 -0.0024595128 -0.69423902 0.11900795
552000000 -0.68288207 0.12215307 -0.00042958374 -0.0026034215 -0.0003997343 -0.0019315669 -0.69485575 0.11697309
553000000 -0.68147397 0.12230521 -0.00032048483 -0.00165251 -0.00014336528 -0.00095391925 -0.69535351 0.11741729
554000000 -0.6814155 0.12079269 -0.00064790627 -0.0018970985 -0.0007301541 -0.0019768276 -0.69404817 0.11775909
555000000 -0.68062854 0.12266728 1.4438979e-005 -0.0013875169 -0.0012636496 -0.0017476385 -0.6951167 0.11824856
556000000 -0.68123031 0.12299549 -0.00040322033 -0.0022643832 -0.00082950183 -0.0021169474 -0.69374591 0.11727867
557000000 -0.68245047 0.1224068 -0.00062016671 -0.0020855619 -2.8754072e-005 -0.0011662763 -0.69456768 0.11672948
558000000 -0.68125474 0.12243497 -0.00068582199 -0.0011330935 -0.00066424347 -0.0015398219 -0.69547087 0.1179379
559000000 -0.68168014 0.12415025 -0.00024776813 -0.0011821975 -0.00058066018 -0.0024792464 -0.69491869 0.11960901
560000000 -0.68081433 0.12296546 -0.00021882862 -0.0017012752 -0.00019737075 -0.0018800421 -0.69381016 0.11913285
561000000 -0.68068177 0.12277517 -0.00063795224 -0.00070394005 -0.00072735635 -0.00060575822 -0.69382674 0.11886187
562000000 -0.68204653 0.12298482 -4.7095025e-005 -0.00072178687 -0.00052590523 -0.0023794479 -0.69354361 0.12006831
563000000 -0.68022066 0.12365787 0.00012335606 -0.0014767528 -0.00066663523 -0.0020473336 -0.69520396 0.12040535
564000000 -0.68224019 0.1233855 0.0013882678 -0.0018186439 6.292219e-005 -0.0022462981 -0.69341904 0.12074837
565000000 -0.6815629 0.12376595 -0.00056064519 -0.0019463967 -5.0369772e-006 -0.0020002665 -0.69550592 0.11942823
566000000 -0.68035042 0.12490901 -1.6963057e-005 -0.0017373492 0.00022048701 -0.00097502011 -0.69531614 0.12015483
567000000 -0.67948973 0.12582248 -0.00014080266 -0.00096183899 3.9794904e-005 -0.0018272417 -0.69455433 0.1209171
568000000 -0.6799807 0.12399995 -0.0010821058 -0.0010187501 -0.00066948129 -0.0024008104 -0.6942271 0.12004997
569000000 -0.68087816 0.12560767 -0.00073383667 -0.0019884428 0.00023148464 -0.0012126176 -0.69313735 0.11825261
570000000 -0.67869365 0.12466267 -0.00016110331 -0.00095013628 -0.00019787932 -0.0022644429 -0.6946218 0.12098018
571000000 -0.68059504 0.12624373 0.00040753736 -0.0026366448 0.00021758843 -0.0019829029 -0.69422942 0.12110314
572000000 -0.68172479 0.12473642 0.00034620747 -0.0016641208 -0.00083503808 -0.0016912719 -0.69297814 0.12178449
573000000 -0.68056148 0.12823959 -0.00022164884 -0.0011615333 -0.00064260181 -0.0010581048 -0.694089 0.12115894
574000000 -0.68006706 0.12541901 0.00091682153 -0.0013561853 -0.00087271561 -0.0024079748 -0.69590789 0.12078568
575000000 -0.68173367 0.12697001 -0.00047879797 -0.0015347901 -0.0016309981 -0.0015867783 -0.69569111 0.12222148
576000000 -0.68137777 0.12674116 0.00048677874 -0.0019998788 -6.4077736e-005 -0.0021920025 -0.69519752 0.12233186
577000000 -0.68035215 0.12704147 0.00010740534 -0.0024663231 -0.00054729101 -0.0017715904 -0.69472283 0.12082879
578000000 -0.6789431 0.12679273 -0.00027579334 -0.002225168 -0.00039937338 -0.0013746612 -0.69504589 0.12181861
579000000 -0.67950952 0.12790608 -0.00018575869 -0.001684549 -0.00096380623 -0.0021410719 -0.69359988 0.1234284
580000000 -0.68001157 0.12745857 -0.00028729305 -0.0011101015 0.00059183763 -0.0023079205 -0.69458348 0.12240644
581000000 -0.68083692 0.12668961 -0.0007170887 -0.0023971947 -0.00095631561 -0.0024908283 -0.69450897 0.1227438
582000000 -0.67962313 0.12822716 -0.00039317703 -0.0014857372 -0.00018928932 -0.0012222112 -0.69327909 0.12155806
583000000 -0.67977488 0.12907144 -0.00079263526 -0.0024379792 -4.8664322e-005 -0.0015482898 -0.6944136 0.1223159
584000000 -0.67935729 0.12846017 0.00057904806 -0.0015524923 -0.00022189309 -0.0029236907 -0.69366604 0.12299088
585000000 -0.6788516 0.12850559 -0.00038470235 -0.0017315849 6.4628475e-005 -0.0013502266 -0.69393009 0.12454923
586000000 -0.68013847 0.12771156 -0.00098849938 -0.0026528123 -0.00012872383 -0.0013327409 -0.69280714 0.12251157
587000000 -0.67927969 0.12906072 -0.00093928614 -0.0012525156 0.00066688424 -0.00080007105 -0.69489443 0.1225837
588000000 -0.67908639 0.12788433 0.00014732126 -0.0020692546 -0.00020188693 -0.0013453321 -0.69438887 0.12381437
589000000 -0.68024594 0.12940729 -0.00051436696 -0.0027829825 -0.00074058719 -0.0020943726 -0.69258785 0.12376682
590000000 -0.6787653 0.12919335 -0.00032533403 -0.0018689381 -0.0011119803 -0.0010688922 -0.69293982 0.12314253
591000000 -0.68045938 0.12962259 -0.0010014151 -0.0018318195 -0.0021234548 -0.0017113648 -0.69152999 0.12496689
592000000 -0.68001223 0.1294219 -0.00016985346 -0.0017910914 -0.0001450641 -0.0011111348 -0.69280583 0.12507671
593000000 -0.67706043 0.13005771 -0.0005353599 -0.0022950079 -0.00020102286 -0.0019491409 -0.69353366 0.12644953
594000000 -0.67939085 0.13054483 -0.0014250797 -0.0024034542 -0.00012528179 -0.0023029207 -0.6916123 0.12404578
595000000 -0.68004906 0.1298746 9.8040138e-005 -0.001570549 -0.0011872521 -0.0024007042 -0.69348651 0.12546033
596000000 -0.6791026 0.13127343 0.00043782141 -0.00095577678 -0.00091410137 -0.0019420113 -0.69319904 0.12559876
597000000 -0.68001348 0.13181283 -0.0011855824 -0.0017678129 0.00046169202 -0.0016598648 -0.69351554 0.12471153
598000000 -0.67879689 0.13184944 -0.0003788209 -0.0022741535 0.00038120826 -0.0027253281 -0.69395334 0.12665038
599000000 -0.67984945 0.13229644 -0.00015789155 -0.0020903607 0.00038812874 -0.0020946253 -0.69387227 0.12599288
600000000 -0.67893076 0.13266432 -0.00031748647 -0.0015410671 0.00015221987 -0.0013611149 -0.69267648 0.12607379
601000000 -0.67881685 0.13248378 -0.00047733489 -0.0021812753 9.6067706e-005 -0.00065749983 -0.69334483 0.12539625
602000000 -0.6789127 0.13194056 -0.00030292594 -0.0014168451 -0.00055080152 -0.0015222572 -0.69269836 0.12774618
603000000 -0.67860878 0.13251841 -0.00020720306 -0.0010944525 -0.00038311013 -0.0019026679 -0.69396275 0.12647875
604000000 -0.6786418 0.13397262 -0.00030229014 -0.0032967394 2.0199882e-006 -0.00059108011 -0.69199497 0.12800093
605000000 -0.67818332 0.13397397 0.00066778203 -0.0022512528 -0.00070371397 -0.0017270612 -0.69365829 0.12796131
606000000 -0.67856729 0.13219035 -0.00032708966 -0.0019704734 -0.00010645852 -0.001417022 -0.69053435 0.12724178
607000000 -0.67736244 0.1334527 -0.00040487223 -0.0018770611 -9.7300479e-005 -0.0021032307 -0.69243395 0.12832931
608000000 -0.67915756 0.13298289 -0.0003707429 -0.0020085929 -0.0012757326 -0.0015597671 -0.69294435 0.12778649
609000000 -0.67852259 0.13535802 -0.00040426143 -0.0015814009 -0.00026219443 -0.0016700232 -0.69193059 0.1290521
610000000 -0.67682219 0.13409072 -0.00081650459 -0.0019427084 -0.00055909104 -0.0012437023 -0.69124079 0.12940094
611000000 -0.67826849 0.13464347 -0.00024468734 -0.0021461491 -0.00028675888 -0.0013778417 -0.69211769 0.12899281
612000000 -0.67702669 0.13564239 -0.001368635 -0.0024438326 -0.0003405344 -0.0022678087 -0.69196278 0.12912972
613000000 -0.67730176 0.13479093 -0.0013650082 -0.001202054 4.0424176e-005 -0.0011945758 -0.69251603 0.13057566
614000000 -0.67730397 0.13736804 -0.00033888817 -0.001417859 -9.5190917e-005 -0.0021745411 -0.69358581 0.13066034
615000000 -0.67816943 0.13527374 -0.00055627339 -0.00091169635 9.6912372e-005 -0.00072679494 -0.69129992 0.12897448
616000000 -0.678011 0.13693634 -0.00033711866 -0.0013560836 -0.00094560586 -0.002309808 -0.69186288 0.13024557
617000000 -0.67804164 0.13583748 -0.00022258358 -0.003360695 -0.00016544772 -0.00060448446 -0.69021004 0.1290157
618000000 -0.67859375 0.13748381 -0.00095146988 -0.0020109904 -0.00015070711 -0.0016661329 -0.69331241 0.13081142
619000000 -0.67855376 0.13776669 -2.0957606e-005 -0.00095890858 -0.00052485388 -0.0020147443 -0.6918292 0.12972939
620000000 -0.67801285 0.13726923 -0.0001605359 -0.0009575719 -0.002623877 -0.00087489694 -0.69194907 0.13093291
621000000 -0.67796385 0.13810702 -0.00097590289 -0.0022673872 -0.0011171073 -0.0017924671 -0.69118303 0.13212614
622000000 -0.67840654 0.13806234 -0.00018359884 -0.00040112963 -4.8633658e-005 -0.0020031866 -0.69051385 0.13167197
623000000 -0.67737371 0.13903405 -0.00051926402 -0.0013628823 0.00053257128 -0.0025481861 -0.69218701 0.13185559
624000000 -0.6778838 0.13784236 0.00017570655 -0.00092411647 -0.0018805818 -0.0015618694 -0.69185108 0.13181777
625000000 -0.67930734 0.1386798 0.00045008288 -0.00097709056 0.00016389292 -0.0011916347 -0.69180274 0.1318676
626000000 -0.67790377 0.13855073 -0.00084428187 -0.0021527165 0.00017442351 -0.0017037372 -0.69181961 0.13281906
627000000 -0.67765176 0.13887982 -0.00036075455 -0.0020106665 4.7410922e-005 -0.0014049709 -0.69063252 0.13315053
628000000 -0.67728031 0.13892424 -0.00049999694 -0.0033741966 -0.0004464497 -0.0016095057 -0.69047189 0.13476217
629000000 -0.67737985 0.13841771 -0.00052038621 -0.0020773017 -0.00065907888 -0.0020074428 -0.69175196 0.13441211
630000000 -0.67763776 0.14040512 0.00070302386 -0.0016311422 -0.00010474853 -0.0015110242 -0.69112343 0.13424706
631000000 -0.67685723 0.13985148 -0.00012643471 -0.0026023788 -0.00037386405 -0.0026444085 -0.69147229 0.13402292
632000000 -0.67751479 0.14102855 -0.00039441942 -0.0024984237 -0.00029398047 -0.0022127198 -0.69043136 0.13462597
633000000 -0.67798871 0.13966049 -0.00090903969 -0.0015659773 -0.00063518173 -0.0012007041 -0.69101989 0.13371477
634000000 -0.6763854 0.14245355 -0.0012555135 -0.0021291946 0.00022016359 -0.0016905391 -0.69019085 0.13534109
635000000 -0.67749655 0.14141449 0.00021122032 -0.0014571988 0.00010071712 -0.0017898108 -0.69014591 0.13408139
636000000 -0.67648953 0.14133856 -0.0011164848 -0.0015261952 -0.00075861841 -0.0012066336 -0.69205886 0.13517104
637000000 -0.67805618 0.14168973 0.00047051409 -0.0014920286 -0.0012607665 -0.0007290772 -0.69095713 0.13498798
638000000 -0.67678928 0.14164653 0.00021504848 -0.0014907087 -0.00037867026 -0.0022579911 -0.69106692 0.13471347
639000000 -0.67712349 0.14185216 -0.00038417519 -0.0019613311 -0.00028731461 -0.001315036 -0.68988478 0.13592245
640000000 -0.67650765 0.14257848 -0.00065544999 -0.0024459234 -0.0008466841 -0.0016602667 -0.69071609 0.13447009
641000000 -0.67496198 0.14256583 -0.00051864394 -0.00084407785 -0.00074594992 -0.0022411696 -0.6904366 0.13643974
642000000 -0.67740846 0.14265588 7.6737086e-007 -0.0014781697 0.00033494423 -0.0014133123 -0.6923486 0.13590583
643000000 -0.67747301 0.14427912 -0.00061377825 -0.0014995325 -0.00025786253 -0.0022895311 -0.69065839 0.1360409
644000000 -0.67701232 0.14277555 -0.00047381062 -0.002278283 -0.0012385306 -0.0013915288 -0.69072229 0.13621028
645000000 -0.67657918 0.14366782 -0.00089295866 -0.0014453772 -0.0012715535 -0.0020358434 -0.69049126 0.13653786
646000000 -0.67615014 0.14459044 -0.00048697329 -0.0012690215 -3.9292954e-005 -0.0025006027 -0.69120985 0.13749245
647000000 -0.67703211 0.14364795 -0.0019811578 -0.0017957544 -0.0010123482 -0.0026641067 -0.69016296 0.13663514
648000000 -0.67653441 0.14520626 -0.00025000185 -0.0018055212 0.00026105496 -0.0024655685 -0.69088471 0.13851248
649000000 -0.67585039 0.14491804 -0.00080350746 -0.0021814443 -0.00010770198 -0.0022706441 -0.69057691 0.13729414
650000000 -0.67620671 0.14307511 -0.0003399023 -0.0017108379 -0.00025403342 -0.0015938722 -0.689632 0.13745528
651000000 -0.6760264 0.14477956 -0.00027029018 -0.00061073608 -0.0003346985 -0.0011958427 -0.69031686 0.13766126
652000000 -0.67747968 0.14518407 0.00075531931 -0.001183484 -0.00042875615 -0.0017416643 -0.69070792 0.13770123
653000000 -0.67678988 0.1450142 -0.00045169084 -0.0030945106 -0.001238893 -0.0018572614 -0.69111043 0.13933589
654000000 -0.67653751 0.14557284 -0.00033676572 -0.0009188797 -0.00040249925 -0.002114736 -0.69106281 0.13826342
655000000 -0.67593592 0.14590815 0.00022651853 -0.0015510372 0.00026311819 -0.00182569 -0.68923432 0.13816421
656000000 -0.67631054 0.14578515 -0.00067979761 -0.0020434435 9.3455274e-005 -0.00063684705 -0.68917888 0.13893209
657000000 -0.67539209 0.14632197 -0.00076225115 -0.0016940053 -0.00056373287 -0.0017801335 -0.69059265 0.13927935
658000000 -0.67628878 0.14542611 -0.00087172457 -0.0022193782 -0.00063308992 -0.0022220917 -0.69020087 0.13889447
659000000 -0.67620939 0.14793019 -0.00068038818 -0.0028141963 -0.0010556068 -0.0023133301 -0.68950135 0.14031018
660000000 -0.67578071 0.14657588 0.00048392132 -0.0022948298 1.0794361e-005 -0.001861963 -0.69073313 0.13963373
661000000 -0.67625988 0.14745739 -0.00080619246 -0.0019758258 -0.00025087968 -0.0016917663 -0.69028819 0.14028461
662000000 -0.67674732 0.14597687 -0.00037458778 -0.0021589524 -0.0016138243 -0.001556895 -0.69073302 0.14097273
663000000 -0.67706549 0.14642572 -0.0010287308 -0.0023560713 -0.0014574495 -0.00085657451 -0.68985367 0.14075579
664000000 -0.67559218 0.1470966 -0.00031035268 -0.0013502238 7.1042312e-005 -0.0013742972 -0.69066966 0.14038095
665000000 -0.67568779 0.14680786 -0.0001079525 -0.0021557992 -0.0012775529 -0.0022648009 -0.6893732 0.14018551
666000000 -0.67635953 0.14826789 -0.00098719844 -0.0005240296 0.00039113153 -0.0020706998 -0.69100696 0.14153636
667000000 -0.67752433 0.14863558 0.00037889695 -0.0020824908 -1.0717808e-005 -0.002412678 -0.69015974 0.14038444
668000000 -0.67589766 0.14800358 -0.00046596862 -0.0025670812 -0.00069216272 -0.0025169549 -0.69058633 0.14204226
669000000 -0.67766309 0.14849366 -0.00045301899 -0.0018169987 0.00017434178 -0.0033985507 -0.69137865 0.13988997
670000000 -0.67626774 0.14786886 0.00016379228 -0.001485762 0.0002235193 -0.0026451491 -0.68906409 0.14233084
671000000 -0.67571354 0.14882375 -0.00062760728 -0.0019053011 0.00021693755 -0.00076291396 -0.68983954 0.14062752
672000000 -0.6757471 0.15008974 -0.0007297566 -0.0019279864 -0.0012859281 -0.0020755876 -0.69039518 0.1424491
673000000 -0.67457712 0.14983039 -0.00031582979 -0.0025306321 -0.00071024685 -0.0006972868 -0.69019234 0.14249995
