!Keysight Technologies,M9374A,MY55442783,A.12.55.05
!Date: Friday, May 21, 2021 10:20:26
!Correction: S11(Full 2 Port(1,2)) 
!S21(Full 2 Port(1,2)) 
!S12(Full 2 Port(1,2)) 
!S22(Full 2 Port(1,2)) 
!S2P File: Measurements: S11, S21, S12, S22:
# Hz S  RI   R 50
500000000 -0.68345714 0.10462771 -0.0012125592 -0.00088827853 -0.00052885647 -0.0015366948 -0.69711196 0.098643921
501000000 -0.68394893 0.10424592 -0.0003843157 -0.0016330311 -0.00068118051 -0.002115729 -0.69908631 0.099482462
502000000 -0.682208 0.10444623 -0.00020072659 -0.0016509383 0.00056262844 -0.00067516038 -0.69804525 0.1010465
503000000 -0.68280876 0.10410915 -0.00039977289 -0.0018892871 -0.00033284148 -0.00059084012 -0.69613302 0.099500753
504000000 -0.68430626 0.10554561 -0.00011436782 -0.00084154803 0.0016368415 -0.0008213906 -0.69740069 0.10127703
505000000 -0.68330425 0.10620935 -2.1923672e-005 -0.0019344136 -0.00073918619 -0.0013994505 -0.69670373 0.099815562
506000000 -0.68346536 0.10561945 -0.00093961292 -0.0011942793 0.00011238529 -0.0019774416 -0.697173 0.10038564
507000000 -0.68154067 0.10598699 -0.00061202468 -0.0016680036 -0.00034688387 -0.00022094761 -0.69746834 0.10160492
508000000 -0.68324691 0.10752089 -0.00034716201 -0.0013217153 -0.0008107613 -0.0016929649 -0.69667083 0.10089005
509000000 -0.68261528 0.10562266 -9.5532232e-005 -0.0012490025 0.00022486731 -0.0018233486 -0.69573408 0.10326546
510000000 -0.68305397 0.10700866 -0.00024191603 -0.00031191 -0.00030027301 -0.0018468041 -0.69743669 0.10165612
511000000 -0.68230134 0.10666796 -0.00061743375 -0.0011034218 -0.0013010731 -0.001109564 -0.69653207 0.10270547
512000000 -0.68214327 0.10636023 0.00011379684 -0.0014367766 7.0433518e-005 -0.00040299995 -0.69735682 0.10202159
513000000 -0.68265504 0.10671549 -6.623628e-005 -0.0011734279 -0.00020110208 -0.00071978784 -0.69762462 0.10125434
514000000 -0.68309003 0.10882063 0.00011138127 -0.0011387976 -0.00064757076 -0.0017589568 -0.69625342 0.10187937
515000000 -0.68181819 0.10752051 -0.0005564646 -0.0014419013 -0.00019516797 -0.0021225906 -0.69710636 0.10377185
516000000 -0.68188679 0.10887145 -0.00073076715 -0.0010942766 -0.0008047591 -0.00030870404 -0.69577944 0.10429601
517000000 -0.68335134 0.10848363 -0.00044765708 -0.0020341347 -0.00010216548 -0.0018735735 -0.69718397 0.10321566
518000000 -0.68413383 0.10827082 -0.00047243541 -0.0014239232 0.00015379503 -0.0015320595 -0.69455314 0.10331152
519000000 -0.68348384 0.10732479 -0.0010984688 -0.00092715462 0.00045933371 -0.0018127061 -0.69731611 0.10442344
520000000 -0.68246919 0.10814672 0.00019888984 -0.0024389483 -0.00027385782 -0.0030792097 -0.69673991 0.10431208
521000000 -0.68165827 0.10864738 -0.0010445253 -0.0024375317 0.00049690908 -0.0015738942 -0.69555157 0.1050209
522000000 -0.6825031 0.109187 0.00032146939 -0.00072971493 -0.00075537118 -0.0019575234 -0.69609839 0.1045289
523000000 -0.68253845 0.10890017 -3.3109573e-005 -0.0019564994 -0.0005304006 -0.0016627316 -0.69548112 0.10400978
524000000 -0.68270528 0.11030215 0.00019223917 -0.001303288 -0.00068783411 -0.00062622537 -0.69684196 0.10383747
525000000 -0.68355381 0.1085596 0.00018112917 -0.00025817976 -0.00052566605 -0.00071341899 -0.69602835 0.1051774
526000000 -0.68254864 0.11105837 5.4437063e-005 -0.00080602389 -0.00041250078 -0.0015253995 -0.69639617 0.10722863
527000000 -0.68315905 0.11055669 -0.00040998356 -0.0014433467 0.00050916028 -0.0013678975 -0.69732356 0.1050859
528000000 -0.68288374 0.11167438 -0.00023488437 -0.0011753007 -0.00068428996 -0.0010645065 -0.69406527 0.10652051
529000000 -0.68329537 0.1098635 0.0010108924 -0.0017955453 -0.00081047462 -0.0023108292 -0.6956057 0.1054699
530000000 -0.68315768 0.11175971 -0.0012791497 -0.0016237342 -0.0011075886 -0.00092336448 -0.69706869 0.10518957
531000000 -0.68198186 0.11111481 -0.0016378046 -0.0010384895 -0.00048431207 -0.0020174598 -0.69681948 0.10741711
532000000 -0.68260854 0.11056218 -0.00051003182 -0.00065882399 -0.00044225279 -0.00043807234 -0.69504189 0.10736588
533000000 -0.68250895 0.11184041 -0.00046731246 -0.0013591138 -0.00032604302 -0.0015935289 -0.69584179 0.10763005
534000000 -0.68287939 0.11057805 1.7261653e-005 -0.001283346 -0.00046224258 -0.0014415383 -0.69605196 0.10679359
535000000 -0.68146962 0.11135497 -0.00036473258 -0.00186169 -0.00076208991 -0.001875005 -0.69486362 0.10810396
536000000 -0.68116182 0.11054798 -0.00053724268 -0.0010056735 -0.00039550959 -0.0013922987 -0.69520211 0.10699196
537000000 -0.68179321 0.1114463 -0.00022701229 -0.0019366485 -0.0013768438 -0.0016920066 -0.6966098 0.10777648
538000000 -0.68222702 0.11202452 -0.00022477502 -0.0027239404 -0.0010515994 -0.00090863107 -0.69691104 0.10851308
539000000 -0.68332469 0.11307906 -0.00075561355 -0.001620517 -3.778435e-005 -0.0012198115 -0.6953131 0.10855359
540000000 -0.68306416 0.11247557 -0.00029494261 -0.0018862928 -0.00020771516 -0.0022004489 -0.69533986 0.10892832
541000000 -0.68220592 0.11280141 -0.00019850273 -0.0017748616 -0.00019198599 -0.0022545336 -0.69403547 0.10870924
542000000 -0.68300021 0.11277493 -0.00050397898 -0.0013100519 -0.0005476657 -0.0014049048 -0.69690633 0.11002611
543000000 -0.68316913 0.11484099 0.00038415423 -0.0023319309 0.00046387565 -0.0017522296 -0.69608986 0.10880154
544000000 -0.6825971 0.11351328 -0.00055972149 -0.0027610166 -0.00025738234 -0.0016886602 -0.69689798 0.10966583
545000000 -0.68255979 0.11340846 -0.00017072454 -0.0014749877 -0.0011752953 -0.00195955 -0.69552934 0.10968643
546000000 -0.68258744 0.11384367 0.00017814897 -0.0014634294 -1.9808698e-005 -0.0011042765 -0.6959061 0.1098071
547000000 -0.68234932 0.11368533 -0.0016774046 -0.0021343345 0.00029412209 -0.0013334916 -0.69569963 0.11045111
548000000 -0.68110335 0.11346116 -3.1281863e-005 -0.0016934149 -0.00065178971 -0.0018021186 -0.69516087 0.10889184
549000000 -0.68151873 0.113919 -0.0017837049 -0.0010959579 -0.0012444766 -0.0019178989 -0.69645691 0.11109784
550000000 -0.68023074 0.11332905 -0.00031903794 -0.0014565437 -0.0016243168 -0.0020338646 -0.69669563 0.11054415
551000000 -0.68223715 0.11385141 -0.00047109224 -0.00083040039 0.00016638867 -0.0020239062 -0.69490415 0.11154941
552000000 -0.68219686 0.11464315 -3.9433221e-006 -0.0017515285 -0.00069605035 -0.0015615033 -0.69588393 0.10826701
553000000 -0.68150854 0.11543213 -0.00080210832 -0.0019853758 -0.0004762215 -0.0021935671 -0.69652963 0.10989553
554000000 -0.68159205 0.11436756 -0.00040266133 -0.001388891 -0.00063739863 -0.0022526574 -0.69620758 0.11177223
555000000 -0.68154263 0.11556257 4.4248653e-005 -0.00070006354 -0.0001219659 -0.0014287307 -0.69499546 0.11119706
556000000 -0.68230873 0.11522947 1.1294223e-005 -0.0021765223 0.00037431857 -0.0020426207 -0.69732279 0.11107909
557000000 -0.68192583 0.11644847 -0.00022407922 -0.0016698133 -0.0010966562 -0.0017706086 -0.696109 0.11201999
558000000 -0.68316263 0.11492844 0.00032111024 -0.00067224482 0.00069605041 -0.0014519457 -0.69550419 0.11227518
559000000 -0.68046254 0.11446252 -0.00017121894 -0.0021996682 0.0002432949 -0.00110193 -0.69544435 0.11201193
560000000 -0.68150985 0.11712463 0.00033634578 -0.0018621873 -0.00093777111 -0.0019585935 -0.69493163 0.1124187
561000000 -0.6818822 0.11547782 -0.00058408256 -0.0012056837 0.00010481101 -0.0013449516 -0.69565403 0.11216943
562000000 -0.68180674 0.11594645 0.00014826734 -0.0016492627 -0.00061880256 -0.0016549431 -0.69528949 0.11190131
563000000 -0.68186313 0.11515376 0.00030985233 -0.0020591477 -0.00022227228 -0.0012726586 -0.69590831 0.11287245
564000000 -0.68136334 0.11659693 -0.00025501678 -0.0015855813 -0.00062657247 -0.0017416512 -0.69521332 0.11204834
565000000 -0.6820612 0.11563033 0.00012527367 -0.0004960511 -5.3360316e-005 -0.0015089511 -0.69606429 0.11169025
566000000 -0.68153 0.11597458 -0.00060041051 -0.0015123432 -0.00090827962 -0.001856511 -0.69644195 0.11260808
567000000 -0.68000525 0.11738553 -0.00013362132 -0.0018711063 -0.00041718228 -0.001581825 -0.69433677 0.11281827
568000000 -0.67994356 0.11686484 -0.00087704626 -0.0020629228 -0.00058714004 -0.0012979693 -0.69535202 0.11231234
569000000 -0.68226951 0.11741567 -0.00063177926 -0.0016683411 -1.0045746e-005 -0.0019723347 -0.6941759 0.11282182
570000000 -0.68103766 0.11690328 -0.00029806508 -0.0015302169 -0.0011877702 -0.0020710314 -0.69497389 0.11277402
571000000 -0.68008161 0.11681392 -0.00028546673 -0.0021354044 -0.00011472069 -0.00070240209 -0.69515473 0.11306179
572000000 -0.68196326 0.11660317 -0.00058947777 -0.0018612307 -0.00098205917 -0.0021829316 -0.6937381 0.11422946
573000000 -0.68092495 0.11684418 -0.00074703997 -0.001312147 -0.00051891268 -0.0014704914 -0.69608361 0.11471756
574000000 -0.6812709 0.11843807 -0.00072559959 -0.0012792305 -0.00016485184 -0.0011377722 -0.69641763 0.11429895
575000000 -0.67976767 0.11910984 -0.0010424956 -0.0019498207 -0.00062214013 -0.0019690732 -0.69544202 0.11479003
576000000 -0.6796428 0.11852774 -0.00027375889 -0.0013637738 -0.0014175503 -0.00062354864 -0.69659859 0.11384787
577000000 -0.68045658 0.1182569 0.00016061051 -0.0021242965 0.00036516003 -0.002226742 -0.69531667 0.11400663
578000000 -0.68089354 0.11745019 0.00077599555 -0.0022327991 -0.00047905868 -0.0010908482 -0.69527149 0.11325193
579000000 -0.68017375 0.1195499 -8.3748593e-005 -0.0017010872 -0.00073459046 -0.0021124529 -0.69574821 0.11561865
580000000 -0.67887878 0.11992356 -0.00051714043 -0.0022345877 -0.00040183761 -0.0022416892 -0.69501448 0.11422811
581000000 -0.68078154 0.11887407 -5.8001278e-005 -0.001821733 -0.0016640549 -0.0019608426 -0.69555956 0.11480366
582000000 -0.68135995 0.1196269 -0.00055833947 -0.0013983452 -0.00078428205 -0.0011833453 -0.69522506 0.11437212
583000000 -0.68027478 0.11971955 -0.00097182347 -0.0015297125 0.00069180183 -0.00089995121 -0.69472152 0.11529879
584000000 -0.67968518 0.11973102 -0.00031610669 -0.0016095829 -0.00038114618 -0.0018008538 -0.69617784 0.11566418
585000000 -0.68015063 0.12003345 -0.00036205261 -0.0022259483 -0.00063547236 -0.0020450526 -0.69462252 0.11619438
586000000 -0.68066329 0.12084723 0.00011155818 -0.0015000487 -0.00010172664 -0.0011244119 -0.69503546 0.11702434
587000000 -0.68010783 0.12090891 9.013369e-005 -0.0028641252 -0.00026670366 -0.0023875376 -0.69426823 0.11611803
588000000 -0.68099707 0.11984444 -0.00010439528 -4.764384e-005 -0.001173957 -0.0015988926 -0.69483268 0.11639401
589000000 -0.68186879 0.12097145 4.3503711e-005 -0.0015490979 -1.215322e-005 -0.001351141 -0.69550341 0.11792298
590000000 -0.67964518 0.12175482 0.00012470179 -0.0023842047 4.023498e-005 -0.0024275968 -0.69394034 0.11587982
591000000 -0.68066949 0.12219927 -0.0012030869 -0.0017479194 -0.0004879781 -0.00091477617 -0.69445813 0.11607881
592000000 -0.68075848 0.12097704 0.00099335145 -0.0010293153 -0.0004203023 -0.0017412256 -0.69537383 0.11752837
593000000 -0.68099779 0.12153224 0.00080190279 -0.00281323 -0.00024251077 -0.0012594356 -0.69513309 0.11900365
594000000 -0.67934453 0.12117669 3.7491322e-005 -0.0023417261 -0.00067446101 -0.0011662596 -0.69352126 0.11791205
595000000 -0.68064147 0.12297823 -0.00027517267 -0.00058652117 0.00039904899 -0.0022998031 -0.6950165 0.11938535
596000000 -0.67946362 0.12189785 -0.00012116716 -0.001104927 -0.00076935341 -0.0013628858 -0.69490689 0.11758056
597000000 -0.67894405 0.12463415 -0.0002292404 -0.0016463383 -0.00014395952 -0.0018827927 -0.69354022 0.11773363
598000000 -0.67963028 0.12368941 -0.00066638272 -0.0011684948 -0.00040152011 -0.0017860687 -0.69537663 0.11843368
599000000 -0.67857182 0.12220598 -9.0465473e-005 -0.0013436427 1.2581056e-005 -0.0013217824 -0.69346887 0.1179745
600000000 -0.68048686 0.12368984 -0.00049463951 -0.0021008973 0.00019926655 -0.001527689 -0.69442916 0.11968664
601000000 -0.6804359 0.12386505 -0.0003016339 -0.0018998621 -0.0008613817 -0.0018125745 -0.69584602 0.11848461
602000000 -0.67842621 0.12378626 -0.00027546918 -0.0024985725 -0.0007565447 -0.0025736941 -0.6945225 0.11918915
603000000 -0.68098563 0.12356589 -0.00030484484 -0.0024191726 -0.00018699818 -0.002211276 -0.69494659 0.12026627
604000000 -0.67891955 0.12506606 0.00051751995 -0.002437907 0.00081922696 -0.0015810867 -0.69389296 0.12058308
605000000 -0.67985958 0.12479357 -0.0003973296 -0.0018047796 -8.7846805e-005 -0.0011795707 -0.69372058 0.11955453
606000000 -0.67957872 0.12718296 0.00099892006 -0.00063755055 -0.00073676888 -0.0026024976 -0.69426382 0.11970259
607000000 -0.6793794 0.12563857 -0.00020704948 -0.0016390561 -0.0001522419 -0.001304991 -0.69524759 0.11941852
608000000 -0.67898721 0.12562913 9.9718323e-005 -0.0019647502 -0.00020885452 -0.0013781409 -0.69393617 0.12186511
609000000 -0.67924005 0.12523489 0.00034890912 -0.0014546445 -0.0010348374 -0.0021342193 -0.69444823 0.12059823
610000000 -0.67918116 0.12622757 -0.00079572713 -0.0019537527 -0.0011234657 -0.00058373931 -0.69346249 0.12123259
611000000 -0.67982841 0.12495677 -0.00095907826 -0.0023137783 -0.00085966289 -0.00081871799 -0.69313627 0.12257939
612000000 -0.67805034 0.12644169 -0.00011889771 -0.0027664022 -0.0012626967 -0.0025041036 -0.69424063 0.11963584
613000000 -0.67877793 0.12775038 -0.00087467453 -0.0017700677 0.0003040866 -0.00094534468 -0.69341362 0.12061609
614000000 -0.67853773 0.12677996 -0.00080042402 -0.0018528184 -0.00087670551 -0.0017129987 -0.69364327 0.12180606
615000000 -0.67826122 0.12675101 -0.00075772812 -0.0017807223 0.00010700357 -0.0013769161 -0.69393671 0.12165508
616000000 -0.68022084 0.12728223 0.00038112715 -0.0022573338 -0.0012029362 -0.0029568241 -0.69373101 0.12267729
617000000 -0.67928386 0.12856403 -0.0014163333 -0.0024258215 -0.00030604107 -0.00066612201 -0.694763 0.12147211
618000000 -0.67867261 0.12727419 -0.00098824617 -0.0025813086 -0.00022521186 -0.0019761422 -0.6945492 0.12418874
619000000 -0.67780173 0.12868106 -0.00039866418 -0.0012106998 -0.00077932957 -0.0012229932 -0.69345462 0.1221536
620000000 -0.67897189 0.12876722 -0.00017265083 -0.0016566451 -0.0011627611 -0.0025207333 -0.69358855 0.12314435
621000000 -0.67854232 0.1275674 -0.00044440228 -0.0010725678 -0.00064786361 -0.0022741619 -0.69227284 0.12246641
622000000 -0.67862278 0.12882826 -0.00031621664 -0.0018585139 -0.00025678793 -0.0019406992 -0.69249785 0.12388179
623000000 -0.67757583 0.12948778 -0.00066352391 -0.0015528575 0.00038757929 -0.001833512 -0.69271576 0.12452582
624000000 -0.67947698 0.12927333 -0.00047044671 -0.0025943455 0.00029625901 -0.0030002939 -0.69360524 0.12481608
625000000 -0.67813104 0.12952039 -0.00018480245 -0.0012348867 -0.00051181478 -0.0023261819 -0.6925177 0.12319159
626000000 -0.67912751 0.1303196 0.00034003804 -0.0018040704 0.00024679484 -0.0017252427 -0.69312352 0.12402077
627000000 -0.67983907 0.13082044 -0.00064959982 -0.0017774701 -0.00082532846 -0.0028750633 -0.69317925 0.12356173
628000000 -0.67913073 0.13121305 0.00033381802 -0.0027740486 -0.00035976394 -0.002333916 -0.69334561 0.12369599
629000000 -0.67734271 0.13148774 -0.00075627217 -0.0028206836 -0.00055831904 -0.0023652555 -0.69319159 0.12590285
630000000 -0.67855328 0.13102651 -0.0014745501 -0.0030380462 -0.00058949058 -0.0016985923 -0.69287062 0.12490405
631000000 -0.67728895 0.13115822 -0.00033393156 -0.0010873015 -0.00084641605 -0.002543126 -0.69353402 0.12387156
632000000 -0.67846125 0.13031988 -0.0016673538 -0.0023700281 0.00046417696 -0.0015895362 -0.69248933 0.12556401
633000000 -0.67848754 0.13158442 -0.00094297301 -0.0023283516 0.00086483557 -0.0012870618 -0.69201398 0.12642761
634000000 -0.67722726 0.13198596 0.00028171961 -0.0015137219 -7.8037156e-005 -0.0017354524 -0.69194162 0.12629305
635000000 -0.67864484 0.13150825 -0.0015592271 -0.0019608906 -0.00014048613 -0.0017173835 -0.69382107 0.12601648
636000000 -0.67756712 0.13261159 0.00012391395 -0.0016751348 -0.00094481657 -0.0015749851 -0.69150597 0.12732477
637000000 -0.67685109 0.13268536 -0.00068060384 -0.0029704827 0.00022742141 -0.0017724553 -0.69346786 0.1262348
638000000 -0.67689395 0.1321239 -0.00083630439 -0.0017919767 -0.00021428177 -0.0021822713 -0.69318742 0.12640478
639000000 -0.67765391 0.13383064 -0.00077738357 -0.0024935817 -0.00033932921 -0.00062137877 -0.69108725 0.12701748
640000000 -0.67752433 0.13351876 0.00026041229 -0.0010820259 -0.00044158427 -0.0023160321 -0.69189101 0.12700857
641000000 -0.67758846 0.13460293 -0.00018376466 -0.0017416466 -0.00055242871 -0.0018129236 -0.69207805 0.12702106
642000000 -0.67724127 0.13441403 -0.0002053917 -0.0010769146 0.0003437752 -0.0016656584 -0.6932475 0.12940235
643000000 -0.67762965 0.13411379 -0.00074578932 -0.0022487156 -0.00078047236 -0.001786508 -0.6926958 0.12786475
644000000 -0.67679322 0.13400821 -0.0010080258 -0.0021505621 -0.00041403613 -0.0016638311 -0.69361228 0.12788165
645000000 -0.67862993 0.13324469 -0.00058301853 -0.0012946149 -0.00034139166 -0.0020733108 -0.692406 0.12758696
646000000 -0.67920816 0.13458465 -0.0006879124 -0.0022857282 -0.00023441893 -0.0014921669 -0.69258261 0.12726402
647000000 -0.67741793 0.13428505 -6.0642997e-005 -0.0021495468 0.00013390018 -0.0032905049 -0.69105518 0.12881398
648000000 -0.67745042 0.13422897 -0.00014990679 -0.0016579345 -0.00050997507 -0.0016859657 -0.69270426 0.12874261
649000000 -0.67818922 0.13578719 -0.00094498741 -0.0011094091 -0.00081439468 -0.0013151984 -0.69188017 0.12830786
650000000 -0.67798537 0.13530897 -0.00073991989 -0.001895022 -0.0013576265 -0.0022812511 -0.692496 0.12950674
651000000 -0.67704707 0.13577609 -0.00054000027 -0.0018882016 -0.00096113421 -0.0020366188 -0.69237119 0.12885237
652000000 -0.67744392 0.13448738 -0.00025261796 -0.0018416315 -0.00043914834 -0.0026518598 -0.69147193 0.12909351
653000000 -0.67776501 0.13526987 -0.0013678331 -0.0014912819 -0.00081131078 -0.0028605715 -0.69174165 0.12956989
654000000 -0.67768413 0.1364466 0.00022836185 -0.0025240276 -0.00049723755 -0.0017512003 -0.69332105 0.12916763
655000000 -0.67810315 0.1364361 8.8191446e-005 -0.0020956821 -0.00061426195 -0.0013552759 -0.69391513 0.12992364
656000000 -0.6777522 0.136355 0.00051470945 -0.0014570308 -8.366711e-006 -0.0019327737 -0.69161248 0.12999865
657000000 -0.67655331 0.13672765 -0.0012831681 -0.001782572 -0.00042606751 -0.000732955 -0.69347912 0.12952885
658000000 -0.6773749 0.13727014 -0.00075196754 -0.0023410013 -0.00022086361 -0.0017187684 -0.69138646 0.13153145
659000000 -0.67651886 0.13692994 -0.00054215814 -0.0014437138 -0.0007312508 -0.002218978 -0.69132495 0.13076103
660000000 -0.67700052 0.13703988 0.00035556601 -0.0022748793 0.00016822577 -0.0015498872 -0.69136572 0.13101216
661000000 -0.67756855 0.13591646 0.00085440441 -0.0019162508 -0.00050320808 -0.0019409579 -0.69222873 0.13136064
662000000 -0.67592233 0.13734388 -0.00033511934 -0.0015955928 -7.9077108e-005 -0.0019005853 -0.69174165 0.13021941
663000000 -0.676934 0.13739726 0.00074694987 -0.00016972375 -0.00081790681 -0.0022060967 -0.69146848 0.13093042
664000000 -0.67752838 0.13817669 0.00035611342 -0.0003803182 -0.00054195739 -0.0018925688 -0.69272578 0.13223204
665000000 -0.6767031 0.13917568 -0.00059628481 -0.0013846126 -0.00079063646 -0.0015889814 -0.69151211 0.13189177
666000000 -0.67756361 0.13832094 -0.00064718304 -0.0022598736 -0.00052810018 -0.0023197788 -0.69215888 0.1331021
667000000 -0.67678142 0.13907832 -0.00097818521 -0.0012472933 -0.00026976719 -0.0012758907 -0.69221628 0.13046448
668000000 -0.67745632 0.13678829 -0.0014934301 -0.0022494227 -0.00038898824 -0.0021613198 -0.69243252 0.13234524
669000000 -0.67716634 0.13845521 -0.00039717721 -0.0013628802 -0.00018838789 -0.0023132865 -0.69141299 0.13244079
670000000 -0.6779201 0.1390498 -0.00028241894 -0.0014696742 -0.0014015638 -0.0023788004 -0.69029236 0.13184756
671000000 -0.67736953 0.13967051 -0.0015577003 -0.0014751271 1.3036232e-005 -0.0026292666 -0.69172215 0.13089472
672000000 -0.67592949 0.13952504 -4.6744688e-005 -0.0023450432 -0.00075284246 -0.0026316901 -0.69097281 0.13240337
673000000 -0.67575598 0.1395184 0.00036030822 -0.0016346289 -0.00035359649 -0.0021330665 -0.69215411 0.13270323
