!Keysight Technologies,M9374A,MY55442783,A.12.55.05
!Date: Friday, May 21, 2021 10:04:47
!Correction: S11(Full 2 Port(1,2)) 
!S21(Full 2 Port(1,2)) 
!S12(Full 2 Port(1,2)) 
!S22(Full 2 Port(1,2)) 
!S2P File: Measurements: S11, S21, S12, S22:
# Hz S  RI   R 50
500000000 -0.68478251 0.10387523 0.00034610275 -0.00092325569 -0.00060674059 -0.0021069117 -0.69745779 0.10008857
501000000 -0.68536377 0.10631594 -0.00027104071 -0.00085682585 0.00017899172 -0.00096485374 -0.69618607 0.10113126
502000000 -0.68440866 0.10540573 0.00041723921 -0.0011207374 -0.00091882318 -0.0013487805 -0.69750834 0.099265434
503000000 -0.68408716 0.10417154 -0.00074643514 -0.002150652 0.00085767685 -0.0018497214 -0.69613677 0.10053669
504000000 -0.68482882 0.10507941 -0.0010097323 -0.0019481521 0.0002452812 -0.00086425495 -0.69748861 0.10197977
505000000 -0.6855787 0.10707552 -0.00038467711 -0.0019798926 0.00021504116 -0.0017562893 -0.69772279 0.1002587
506000000 -0.68475372 0.10618278 0.00020021031 -0.0020151166 -0.00045881956 -0.0011658493 -0.69709766 0.10194103
507000000 -0.68404788 0.10566106 -0.00070511136 -0.0014508014 -0.0019198208 -0.0027987706 -0.69691581 0.10129534
508000000 -0.68419319 0.10613186 -0.0017527752 -0.0017139674 0.00034797503 -0.0014510313 -0.69713879 0.10138447
509000000 -0.68482029 0.10706741 0.00013389582 -0.0014626267 -0.00054516678 -0.0016447485 -0.69591957 0.10198465
510000000 -0.68382704 0.1070885 0.00019489911 -0.0014660617 -9.4839335e-005 -0.00093069987 -0.69744217 0.10187577
511000000 -0.68385303 0.10891615 -0.00044271973 -0.0017481121 -0.0003303712 -0.00083044823 -0.69745451 0.10325048
512000000 -0.68280697 0.10800228 -0.00030892293 -0.001084859 -0.00010735395 -0.00096609234 -0.69684517 0.10175567
513000000 -0.68447888 0.10880873 -5.7897192e-005 -0.0016730137 -0.00054655632 -0.0017496494 -0.69788671 0.10267733
514000000 -0.68440235 0.10779819 -0.0016367878 -0.0025334817 -0.0012882131 -0.00085574511 -0.69645983 0.1030123
515000000 -0.68272418 0.10855743 0.0012198113 -0.001537486 -0.00012142125 -0.0018453811 -0.69776607 0.1027452
516000000 -0.6844939 0.10904682 0.00014084856 -0.001948877 -0.0012180768 -0.00075712899 -0.69699043 0.10245371
517000000 -0.68311024 0.11020943 -0.00038959447 -0.00089125551 7.7409859e-005 -0.0017717686 -0.69674343 0.10465357
518000000 -0.68374866 0.10891447 6.5663403e-006 -0.0023421489 -0.0013909396 -0.0019625311 -0.69761914 0.10285845
519000000 -0.68405646 0.10912538 -0.0003977654 -0.0015816356 -0.00090350152 -0.0013035249 -0.69660157 0.1050584
520000000 -0.68289709 0.11010197 -0.00023682023 -0.0017599154 -0.0012658588 -0.0016338008 -0.69690609 0.10446663
521000000 -0.68329209 0.10973449 -0.00031567283 -0.0015121716 -0.00081103708 -0.0022767766 -0.69679385 0.10555422
522000000 -0.68488288 0.10950005 -0.00051019969 -0.0015537249 -0.00044627881 -0.00095717382 -0.69714987 0.10557664
523000000 -0.68428844 0.10985677 -0.0009146388 -0.0020197653 -0.00010905795 -0.0016300099 -0.69724333 0.10541067
524000000 -0.6829614 0.10971556 -0.0009756668 -0.0018937903 -0.00034628031 -0.0018048813 -0.69769061 0.10510749
525000000 -0.68366122 0.11137439 0.00033651607 -0.001989367 -0.00016308256 -0.0016323848 -0.6963712 0.10650413
526000000 -0.68429905 0.10923449 -0.0011876851 -0.0012978653 -0.00088780595 -0.0019784772 -0.69642735 0.10676906
527000000 -0.683963 0.11003915 -0.0013143405 -0.0017819632 -0.00042762392 -0.0015307524 -0.6970132 0.10606299
528000000 -0.68241149 0.11175007 -0.0004058679 -0.0014707759 -0.0001582353 -0.0017118913 -0.69537157 0.1066878
529000000 -0.68391824 0.11115002 -0.0011205067 -0.0023782181 -0.00088186894 -0.0015962735 -0.69567448 0.10620726
530000000 -0.68415403 0.11227293 0.0011016643 -0.0015977572 4.4695724e-005 -0.00081458222 -0.6963414 0.10620118
531000000 -0.68323261 0.1111054 -0.00048196837 -0.00217734 -0.00079573423 -0.0019819171 -0.6958065 0.10832184
532000000 -0.68400222 0.11104268 -0.00027595126 -0.0015135193 -0.00018366371 -0.0015493562 -0.69467986 0.10769654
533000000 -0.68236554 0.11140435 0.0001906431 -0.00083526893 -0.001785755 -0.0024375354 -0.69604772 0.10779459
534000000 -0.68283921 0.11137514 -0.00044549818 -0.0012235997 -1.7605744e-006 -0.0016227729 -0.69613272 0.10691343
535000000 -0.68446088 0.11220054 -0.0006996789 -0.0012028165 -0.00059416122 -0.0022979756 -0.69548237 0.1074105
536000000 -0.68296772 0.11091943 0.00033566679 -0.0016895874 0.00058706623 -0.0014366343 -0.69738978 0.10660854
537000000 -0.68415838 0.1129448 0.00034546349 -0.001455961 0.00048998272 -0.0013241166 -0.69603467 0.1082722
538000000 -0.68209219 0.11229242 -0.00023108006 -0.0011906022 -0.00047135918 -0.0016329776 -0.69703525 0.10950035
539000000 -0.68390048 0.11222287 -6.4286432e-005 -0.0011356204 -0.00050989963 -0.0021835226 -0.69662106 0.10836875
540000000 -0.68364263 0.11263662 -0.00026655369 -0.0032355227 -0.0010418779 -0.0024392582 -0.69680333 0.10922913
541000000 -0.68393165 0.11414167 9.9972538e-005 -0.0012868298 9.1398077e-005 -0.0018673623 -0.69668418 0.10994136
542000000 -0.68180627 0.11448392 -3.233086e-005 -0.00085517374 -0.00062735059 -0.0013043127 -0.69587719 0.10923241
543000000 -0.68476909 0.11279792 0.00066198874 -0.0018974543 -0.00031551282 -0.0018044192 -0.69638282 0.10937718
544000000 -0.68317944 0.1144485 -0.0006210719 -0.0016750284 -0.0001726865 -0.0019978918 -0.69540709 0.10958644
545000000 -0.68348956 0.11268937 0.00024974925 -0.0015844101 -0.00014170221 -0.0017248353 -0.69661319 0.10981423
546000000 -0.68324596 0.1150368 0.00053035712 -0.0014152032 0.00017457448 -0.0015878128 -0.69587779 0.1097158
547000000 -0.68366182 0.11407467 0.00086561951 -0.0020683354 -0.00013920202 -0.0014545796 -0.69503325 0.11110002
548000000 -0.68205482 0.11547819 -0.00028519874 -0.0016428507 -0.00059153157 -0.0018960204 -0.69645524 0.10957629
549000000 -0.68214625 0.11439139 -0.0014034787 -0.0022421787 0.00029686582 -0.0026989277 -0.69578671 0.11106768
550000000 -0.68225175 0.11374186 0.00043737493 -0.0022578498 0.00039136177 -0.00095409201 -0.69560426 0.11105345
551000000 -0.68285084 0.11488521 -0.00060307619 -0.0022932778 -0.00030774871 -0.0015157631 -0.6966626 0.10980258
552000000 -0.68357229 0.11552761 -0.00020873308 -0.0014953305 3.680557e-005 -0.0013803996 -0.69652456 0.11156987
553000000 -0.68320602 0.11714727 0.00048338636 -0.0010386473 -0.00086068263 -0.0016855211 -0.69614655 0.11201617
554000000 -0.68350685 0.11601245 -0.00041224188 -0.0023586 -0.00042865652 -0.0015873455 -0.69696379 0.11130325
555000000 -0.68293792 0.11546792 -0.0011807617 -0.0011168213 -0.00020535236 -0.00071865466 -0.69514841 0.1122773
556000000 -0.68299109 0.11604202 -0.001045635 -0.0012302382 -0.00038733627 -0.0014418883 -0.69644481 0.11296542
557000000 -0.68121952 0.11697814 0.00048065075 -0.0015176511 -0.00025622349 -0.0011403254 -0.69648623 0.11240925
558000000 -0.68148798 0.11569506 -0.00011617036 -0.00072994584 0.00015975104 -0.0019434581 -0.69715655 0.11278871
559000000 -0.68135291 0.11637808 0.00072178856 -0.0013871937 0.00075199833 -0.00086524588 -0.6972903 0.11176015
560000000 -0.68419755 0.11620078 6.8082168e-006 -0.0019274341 -0.00032884793 -0.0017815731 -0.69610298 0.11213079
561000000 -0.68348902 0.11540913 0.0001488384 -0.0016269182 -0.00049350283 -0.0019522198 -0.69580239 0.1118918
562000000 -0.68272382 0.11776448 -0.0012066963 -0.001745536 0.00046189834 -0.0013966433 -0.69470799 0.11307911
563000000 -0.68244904 0.11700027 0.00010628584 -0.0010314452 -0.00072133349 -0.0011879633 -0.69604474 0.11270789
564000000 -0.68268251 0.11767627 -0.00086307648 -0.0011259669 -9.4462128e-005 -0.0016238624 -0.69591969 0.11255608
565000000 -0.68312943 0.11620224 -0.00052079768 -0.00082563714 0.00056067843 -0.0033994087 -0.69578034 0.11244917
566000000 -0.68266076 0.11771818 -0.00044181402 -0.0013070294 0.00067669823 -0.0013433596 -0.69707382 0.1127024
567000000 -0.68171293 0.11873957 0.00065745955 -0.0023056231 0.00049104309 -0.0014969805 -0.69483578 0.11295542
568000000 -0.68113261 0.11677717 -0.0010306935 -0.00088618905 0.00082145736 -0.0017505251 -0.69657254 0.11286519
569000000 -0.6820783 0.11814968 -0.00091151433 -0.0011499914 3.5776116e-005 -0.001929181 -0.69568545 0.11191601
570000000 -0.6825996 0.11802976 -0.00059240713 -0.002289885 -0.00011328477 -0.001764246 -0.69649786 0.11260211
571000000 -0.68223268 0.11783349 -0.0012598865 -0.0015603194 -0.0017890388 -0.001813214 -0.6960305 0.11359044
572000000 -0.68103617 0.1182057 -0.00067535741 -0.00163305 -2.9217601e-006 -0.0020747071 -0.69683653 0.11343786
573000000 -0.68186814 0.11832128 -7.2940973e-005 -0.0017364026 0.00090800133 -0.0025384345 -0.69643521 0.11554746
574000000 -0.68058383 0.1194287 -0.00038359617 -0.0018127202 -0.00054797571 -0.0017001906 -0.69636756 0.11482455
575000000 -0.68231267 0.11901985 -0.0011396657 -0.0022627765 0.00035660222 -0.001800299 -0.69610769 0.11411732
576000000 -0.68065739 0.11922709 -6.4385946e-005 -0.00091786514 -0.0010598077 -0.00084939779 -0.69652998 0.11471389
577000000 -0.68287241 0.11935385 -0.00030945748 -0.0018187856 -3.0405081e-005 -0.0020881954 -0.69563305 0.11568137
578000000 -0.68180704 0.12021399 -0.00028295038 -0.0027118146 -0.0013138794 -0.0014667605 -0.69540769 0.11548106
579000000 -0.68185443 0.119514 0.00041956484 -0.0027566436 -1.2636591e-005 -0.0016049461 -0.69563353 0.11596391
580000000 -0.68193197 0.11876217 -0.00030117616 -0.0018678728 -0.00012307943 -0.0019855646 -0.69538039 0.11517923
581000000 -0.68164182 0.11913873 -0.00030834405 -0.0018003068 -0.00047293599 -0.0022009071 -0.69445896 0.11504322
582000000 -0.68149137 0.12035762 0.00062287733 -0.001762401 -0.00055323576 -0.0021637494 -0.69552493 0.11536175
583000000 -0.68190324 0.12127203 0.00022082635 -0.00081889081 0.00053536624 -0.00024153496 -0.69529128 0.11571186
584000000 -0.68083394 0.11987991 0.00038553053 -0.0020966942 -0.00029997155 -0.0019264951 -0.69557166 0.11677141
585000000 -0.68057591 0.11991835 0.00022803697 -0.0018049884 -0.00052283501 -0.0015240773 -0.69552726 0.11686802
586000000 -0.68191463 0.12099855 -0.00083464623 -0.0014227482 -0.00042493467 -0.001736624 -0.69507509 0.11536443
587000000 -0.68146157 0.12039782 -0.00011503134 -0.001929005 -0.00010207274 -0.0022188118 -0.6956653 0.11757829
588000000 -0.68056613 0.11944361 -0.00049329299 -0.0023358683 -0.0013930347 -0.0013047798 -0.69632524 0.11602093
589000000 -0.68214709 0.1217795 -0.00012359452 -0.0015570668 -0.00051005348 -0.00098884059 -0.6954658 0.1172605
590000000 -0.68072999 0.12155656 -0.00060662237 -0.0015563807 -0.0005854792 -0.0022932536 -0.69463921 0.11697586
591000000 -0.68238705 0.1223139 -0.00031981763 -0.0011665818 -4.0439165e-005 -0.0020102384 -0.69496256 0.11743131
592000000 -0.68060219 0.12263586 -1.4260889e-005 -0.0017185 -0.00050592463 -0.00073527562 -0.69613028 0.11625233
593000000 -0.68139315 0.12142713 -0.00026776356 -0.0026785652 0.0002344625 -0.0012395444 -0.6955294 0.11836732
594000000 -0.67991227 0.1231439 -0.0011651471 -0.0016923239 -0.00040860809 -0.0018020666 -0.69527745 0.11765989
595000000 -0.68063372 0.12234198 -0.0004449735 -0.0012744163 -0.00011188255 -0.0014520556 -0.69426131 0.1178074
596000000 -0.68108952 0.12244842 -0.0003400998 -0.002067056 -0.00044049349 -0.0029862486 -0.69542736 0.11820834
597000000 -0.68110925 0.12188955 -0.00036583462 -0.0010541582 -0.00054398738 -0.00084890181 -0.69539022 0.1168579
598000000 -0.68122059 0.12435625 0.00016771397 -0.0019967309 -0.0016670271 -0.0016200404 -0.69416821 0.11866396
599000000 -0.68051678 0.12513289 -0.00087181362 -0.0022245781 -0.00057257991 -0.0012686184 -0.69506574 0.11794749
600000000 -0.6803093 0.12552935 -0.00068154972 -0.0017085124 -0.00078294962 -0.0018144345 -0.69310397 0.11817365
601000000 -0.68010384 0.12594433 -0.00040438326 -0.0014889933 -0.00015530213 -0.0016414825 -0.69562149 0.11874346
602000000 -0.68070793 0.12452442 1.8998784e-005 -0.0015430999 0.00034350267 -0.00090000679 -0.69519097 0.11849608
603000000 -0.67976904 0.12474168 0.00042662647 -0.0026693088 -0.00061742694 -0.00093225855 -0.69585347 0.12067911
604000000 -0.68040407 0.12563963 -0.00092968607 -0.0027977531 -0.00083167088 -0.00075215677 -0.69620949 0.12162849
605000000 -0.68110991 0.12522441 -0.00078641204 -0.0018916159 -0.00072323723 -0.0013630562 -0.69418651 0.11928385
606000000 -0.68071687 0.12534428 -0.0012680059 -0.00088431436 8.168257e-005 -0.0017495444 -0.69418889 0.1199084
607000000 -0.68047994 0.12588207 -6.5731998e-005 -0.0013274481 0.00060437567 -0.0024511309 -0.69339329 0.12046793
608000000 -0.68099588 0.12486012 -5.1784587e-005 -0.0009438874 -0.00077720487 -0.0019355241 -0.6943323 0.12098554
609000000 -0.6788817 0.12748207 -0.0014017882 -0.00092668069 -0.001224582 -0.0022413025 -0.69486135 0.12147091
610000000 -0.67928052 0.12598543 -0.00084955402 -0.0011554479 -0.0010244099 -0.0017296637 -0.69370508 0.12216052
611000000 -0.67871761 0.12726922 -0.00028933439 -0.0016754038 -6.2627645e-005 -0.00049896253 -0.69400918 0.12040067
612000000 -0.68047434 0.12857352 -0.00082487997 -0.0017414442 0.00036568489 -0.0011374509 -0.69384217 0.12199512
613000000 -0.68057561 0.12737826 -0.00063729082 -0.0014496661 -0.00037267301 -0.0017061067 -0.69412923 0.12127518
614000000 -0.67928767 0.1268184 0.00044119067 -0.0014088308 -6.8712536e-005 -0.0015933062 -0.69417173 0.1218852
615000000 -0.68043107 0.12685153 0.00030228493 -0.0021566618 -0.00088966452 -0.0013569336 -0.69442707 0.1222628
616000000 -0.68081731 0.12853992 -0.00042782139 -0.0018753216 -0.00071519462 -0.00069675664 -0.69378448 0.12338705
617000000 -0.67903435 0.12889281 -0.00013241054 -0.0028146242 -0.00068315794 -0.0022872626 -0.69338048 0.12312266
618000000 -0.68059164 0.12780043 -0.0010711604 -0.0016363889 -0.00097581669 -0.002194924 -0.69365847 0.12322277
619000000 -0.68036485 0.12918489 0.00053320633 -0.001990838 0.00021916925 -0.0014701346 -0.69379365 0.12362273
620000000 -0.68015796 0.12940714 0.00060508732 -0.0016272835 0.00081360835 -0.0014056043 -0.69354349 0.12268321
621000000 -0.68085861 0.12987481 -0.0012166845 -0.0021559678 -0.00091778667 -0.0020344087 -0.69339705 0.12260596
622000000 -0.67939788 0.12845953 -0.00043556825 -0.0018289267 -0.00049957819 -0.0014992297 -0.69362926 0.12398709
623000000 -0.68074518 0.12939253 0.00062421942 -0.0028064786 -0.00025686447 -0.0011805284 -0.69306475 0.12380147
624000000 -0.67915303 0.13093291 -0.001691572 -0.0010994347 -0.00084495329 -0.0014568844 -0.69280899 0.12524208
625000000 -0.67931396 0.13006313 -0.00036025967 -0.0011119207 -0.00067902036 -0.0020755904 -0.69472051 0.1236593
626000000 -0.67915714 0.13144797 -0.00040351844 -0.0014552273 -0.00095244031 -0.0016284965 -0.69333178 0.12567034
627000000 -0.67898983 0.13197459 0.0003614219 -0.0017462553 -0.00033679471 -0.0023274233 -0.69399846 0.12559326
628000000 -0.67894626 0.13080458 -0.00027226296 -0.002191226 -0.00023378301 -0.0013898886 -0.69380605 0.12462969
629000000 -0.67878836 0.13082345 -0.00021084133 -0.0020012669 -0.0013427375 -0.0035471963 -0.6931417 0.12673412
630000000 -0.67789632 0.13084432 -0.00027833233 -0.0017951076 -0.00039217732 -0.0027316152 -0.69299793 0.12547015
631000000 -0.67909354 0.13094288 -2.1663547e-005 -0.0021602369 -0.00061229337 -0.0017785676 -0.69316542 0.12500039
632000000 -0.67912912 0.13199201 -4.6470552e-005 -0.0017230146 -0.0012581019 -0.0020865609 -0.69185776 0.1252546
633000000 -0.68061417 0.13256384 0.00033550788 -0.0024905112 -0.00053403451 -0.0010440453 -0.69372606 0.12481207
634000000 -0.67823976 0.13308111 -0.00023798559 -0.0021163218 -0.0012444764 -0.0016487929 -0.69276607 0.12694827
635000000 -0.67970461 0.13239352 -0.00058800529 -0.0026534195 -0.00055636873 -0.0014601152 -0.69461578 0.12716301
636000000 -0.67880368 0.13310139 -0.0004249287 -0.0015203974 -0.00091914705 -0.0013095583 -0.69292814 0.1270165
637000000 -0.67856014 0.13200554 -0.00023836628 -0.0017277196 -0.00067669689 -0.00088584056 -0.69269663 0.12606208
638000000 -0.67837977 0.13244516 -0.00014989654 -0.0021188834 -0.00091991934 -0.0019868936 -0.69348788 0.12701829
639000000 -0.67785203 0.13394114 0.00049990427 -0.0014398657 -0.00011021571 -0.0018073182 -0.69318438 0.12779288
640000000 -0.6776793 0.1343735 0.00014309192 -0.0021641848 -0.00093977124 -0.0021603433 -0.69153816 0.1268705
641000000 -0.67872727 0.1351651 -0.00028740501 -0.0022206965 -0.00088166981 -0.0016107538 -0.69221199 0.12698296
642000000 -0.67827046 0.13359879 4.6937032e-005 -0.0024505646 -0.00037161948 -0.0020944993 -0.69272774 0.12730272
643000000 -0.67746401 0.13376416 0.00016449214 -0.0025377339 -5.3765041e-005 -0.0011459572 -0.69289362 0.12711212
644000000 -0.67870802 0.13459563 -0.0001782038 -0.0017607445 -0.0004138567 -0.0016674899 -0.69340932 0.12813707
645000000 -0.67774945 0.13451537 -0.00059379346 -0.0022483887 -0.00074008579 -0.002398086 -0.6937198 0.12860912
646000000 -0.67733449 0.13605189 -0.0012241106 -0.00083842635 -0.00026549149 -0.0030718734 -0.69153142 0.12815031
647000000 -0.67789978 0.13609672 -6.4636159e-005 -0.0035324472 -0.00032087919 -0.00065992551 -0.69237548 0.12875617
648000000 -0.67854226 0.13604918 4.1527244e-005 -0.0022593737 -0.00032544011 -0.0026534412 -0.69178307 0.12892336
649000000 -0.67872584 0.13477628 -0.00055003131 -0.0022221643 -0.0011280974 -0.0019743314 -0.69201022 0.12835035
650000000 -0.67858863 0.13626266 -0.00047263881 -0.0027194659 -0.00047366793 -0.0014614202 -0.6924361 0.13004626
651000000 -0.67826319 0.13604049 -0.00093705708 -0.0015235062 -0.00023458802 -0.0017978529 -0.69296354 0.12965347
652000000 -0.67862529 0.13698645 -0.00059870305 -0.0017783849 -3.2013057e-005 -0.0021970838 -0.69147432 0.12966041
653000000 -0.67816705 0.136801 -0.00092590752 -0.002547147 -0.00041004963 -0.001871699 -0.69137096 0.13098621
654000000 -0.67767626 0.13648579 0.00039030329 -0.0026142495 -0.00051524775 -0.0024782422 -0.6934253 0.13046768
655000000 -0.67717582 0.1369326 -0.0015559678 -0.0019739317 0.00025393412 -0.0018726886 -0.69348931 0.12931387
656000000 -0.67780364 0.13775362 0.00031471628 -0.0019934198 -0.0012080047 -0.0020491367 -0.69351923 0.12903467
657000000 -0.67921674 0.13901165 -0.00076329673 -0.0020700914 -0.001827571 -0.0018294456 -0.69307977 0.1317298
658000000 -0.67898756 0.13615035 0.00026241329 -0.0020758053 0.00013157894 -0.0018436494 -0.69233161 0.13011216
659000000 -0.67841494 0.13809219 -0.00087949436 -0.0014628717 -0.00011142482 -0.0017070269 -0.69333422 0.12914388
660000000 -0.6787703 0.13770847 -0.0001245491 -0.0016974945 -0.00041988076 -0.0021468184 -0.69256848 0.13103622
661000000 -0.67801315 0.13887164 -0.00069440075 -0.0020538475 -0.00053776824 -0.0017064067 -0.6908381 0.13132207
662000000 -0.67805779 0.13884561 0.00021604501 -0.0021897156 0.00027888906 -0.0018455019 -0.69225645 0.13126731
663000000 -0.67933488 0.13803339 -0.00027144651 -0.0017839972 -0.0007716993 -0.0023754637 -0.69165415 0.13153145
664000000 -0.67667454 0.13909268 -0.00082514994 -0.0020467434 -0.0005544445 -0.0026675602 -0.69203269 0.1330573
665000000 -0.67784339 0.13746558 -0.0011564849 -0.0028286218 -0.0013735933 -0.0027617975 -0.69287688 0.13283239
666000000 -0.67911071 0.1392974 7.6395027e-006 -0.0022643367 8.8244793e-005 -0.0022278447 -0.69241184 0.13101162
667000000 -0.67812687 0.1387291 -0.0003075487 -0.0015103555 -0.00065355143 -0.0018581389 -0.69286841 0.13271071
668000000 -0.67833412 0.13914073 -0.00012478755 -0.001641436 -0.0006566458 -0.002703683 -0.69300801 0.13274652
669000000 -0.67654604 0.13983251 -0.0012555732 -0.0022905073 -0.00024008832 -0.0019339622 -0.69166583 0.13082761
670000000 -0.67760235 0.14093709 -0.00050085125 -0.0022989328 -0.00090203719 -0.0016131642 -0.6915769 0.13219914
671000000 -0.67819548 0.13930529 -0.00057752174 -0.0029852826 -0.00023856148 -0.001851354 -0.69242817 0.13215318
672000000 -0.67780823 0.13919635 -0.00076251983 -0.0012164598 -0.000425101 -0.001773237 -0.6914016 0.13413684
673000000 -0.6778419 0.14014928 -0.0012379705 -0.001559064 -0.00097381353 -0.0017423899 -0.69134188 0.13291034
