Frequency 	 |S21| 	 Phase(S21) 	 ExtPhase(S21) 	 CorPhase(S21)	 ExtCorPhase(S21)	 |S12| 	 Phase(S12)	 ExtPhase(S12) 	 CorPhase(S12)	 ExtCorPhase(S12)
GHz 	 dB 	 deg 	 deg 	 deg	 deg	 dB 	 deg 	 deg 	 deg	 deg
5.00000000e-001	-5.82960776e+001	8.32575267e+000	8.32575267e+000	5.79676010e+001	5.79676010e+001	-7.10822977e+001	-1.91298082e+001	-1.91298082e+001	-6.71960277e+000	-6.71960277e+000
5.01000000e-001	-5.56884309e+001	-8.04419720e+000	-8.04419720e+000	4.77339389e+001	4.77339389e+001	-5.78574863e+001	3.64083286e+001	3.64083286e+001	2.58699231e+001	2.58699231e+001
5.02000000e-001	-6.44574905e+001	-2.11776032e+001	-2.11776032e+001	-2.14366671e+001	-2.14366671e+001	-5.58031442e+001	5.57791404e+001	5.57791404e+001	4.51281117e+001	4.51281117e+001
5.03000000e-001	-6.08843733e+001	-5.08243312e-001	-5.08243312e-001	4.72957146e+001	4.72957146e+001	-6.43438557e+001	1.92197052e+001	1.92197052e+001	-3.39446713e+001	-3.39446713e+001
5.04000000e-001	-6.76730753e+001	4.53958665e+001	4.53958665e+001	1.59906929e+001	1.59906929e+001	-5.67885315e+001	8.85340731e+001	8.85340731e+001	-2.04615273e+001	-2.04615273e+001
5.05000000e-001	-6.34593592e+001	-4.15974309e+001	-4.15974309e+001	3.81654921e+001	3.81654921e+001	-7.41532122e+001	-7.37151278e+000	-7.37151278e+000	-6.80633383e+000	-6.80633383e+000
5.06000000e-001	-6.14713747e+001	-6.06744897e+001	-6.06744897e+001	2.26445455e+001	2.26445455e+001	-5.89053410e+001	5.81423401e+001	5.81423401e+001	2.05430227e+001	2.05430227e+001
5.07000000e-001	-7.44206803e+001	-4.22001626e+001	-4.22001626e+001	-1.21533444e+001	-1.21533444e+001	-6.42819981e+001	4.22302651e+001	4.22302651e+001	-2.28318358e+001	-2.28318358e+001
5.08000000e-001	-5.43648098e+001	-9.47081068e+000	-9.47081068e+000	-6.45320070e+001	-6.45320070e+001	-6.09127483e+001	-6.00458683e+001	-6.00458683e+001	-4.75121258e+001	-4.75121258e+001
5.09000000e-001	-5.30125630e+001	-2.58612170e+001	-2.58612170e+001	7.96666994e+001	-1.00333301e+002	-5.49964381e+001	-1.67318288e+001	-1.67318288e+001	-6.84954311e+001	-6.84954311e+001
5.10000000e-001	-5.78050513e+001	-3.50202868e+001	-3.50202868e+001	-7.48756864e+001	-7.48756864e+001	-6.08382333e+001	4.03515693e+001	4.03515693e+001	1.67051738e+001	1.67051738e+001
5.11000000e-001	-6.62120676e+001	-4.49062918e+001	-4.49062918e+001	-1.83761646e+001	-1.83761646e+001	-5.67036410e+001	-4.16740425e+001	-4.16740425e+001	2.45279774e+001	2.45279774e+001
5.12000000e-001	-6.26728013e+001	-7.11467530e+001	-7.11467530e+001	1.27424286e+001	1.27424286e+001	-6.00481497e+001	-2.61859474e+001	-2.61859474e+001	3.33754412e+001	3.33754412e+001
5.13000000e-001	-5.81577376e+001	-1.10508575e+001	-1.10508575e+001	-6.66192937e+001	-6.66192937e+001	-5.66651608e+001	-5.57233403e+001	-5.57233403e+001	6.20900748e+001	6.20900748e+001
5.14000000e-001	-6.02220932e+001	-1.69669349e+001	-1.69669349e+001	2.58748945e+001	2.58748945e+001	-6.14098188e+001	8.43139917e+001	-9.56860083e+001	-4.24045743e+001	-4.24045743e+001
5.15000000e-001	-5.39920187e+001	1.68312590e+001	1.68312590e+001	-6.02359422e+001	-6.02359422e+001	-6.70714098e+001	3.73918976e+001	-1.42608102e+002	-1.33017974e+001	-1.33017974e+001
5.16000000e-001	-6.51509161e+001	6.15877770e+001	6.15877770e+001	8.10157557e+000	8.10157557e+000	-6.20832570e+001	6.41107055e+001	-1.15889294e+002	7.80707340e+000	7.80707340e+000
5.17000000e-001	-7.65389603e+001	8.27425602e+001	8.27425602e+001	-1.66241433e+000	-1.66241433e+000	-5.50221429e+001	4.81878184e+001	-1.31812182e+002	7.45031926e+001	7.45031926e+001
5.18000000e-001	-6.01193729e+001	-2.93095576e+001	-2.93095576e+001	-4.54551302e+001	-4.54551302e+001	-7.00537711e+001	-5.05970865e+001	-2.30597087e+002	9.29576100e+000	9.29576100e+000
5.19000000e-001	-5.80756480e+001	-1.15513737e+001	-1.15513737e+001	8.64413952e+001	-9.35586048e+001	-6.25438236e+001	3.77586961e+001	-1.42241304e+002	-2.97312081e+001	-2.97312081e+001
5.20000000e-001	-6.77033775e+001	-6.46466344e+001	-6.46466344e+001	-1.66765306e-001	-1.80166765e+002	-7.22027864e+001	8.80613453e+001	-9.19386547e+001	-2.93992093e-001	-2.93992093e-001
5.21000000e-001	-5.35325708e+001	8.19284502e+001	-9.80715498e+001	1.92937097e+001	-1.60706290e+002	-5.91697059e+001	5.44916631e+001	-1.25508337e+002	4.25409889e+000	4.25409889e+000
5.22000000e-001	-5.36233611e+001	-7.69282688e+001	-7.69282688e+001	-1.34551862e+001	-1.93455186e+002	-8.92991426e+001	-2.57532072e+000	-1.82575321e+002	1.27171463e+000	1.27171463e+000
5.23000000e-001	-5.68232818e+001	-6.23202458e+001	-6.23202458e+001	2.49105253e+001	-1.55089475e+002	-6.84668965e+001	7.73492221e+001	-1.02650778e+002	4.00895112e+001	4.00895112e+001
5.24000000e-001	-5.76707530e+001	3.90032562e+001	3.90032562e+001	7.16663290e+001	-1.08333671e+002	-5.65206197e+001	7.16150976e+001	-1.08384902e+002	-6.54838211e+001	-6.54838211e+001
5.25000000e-001	-5.47321111e+001	-3.24440108e+001	-3.24440108e+001	-6.18709204e+001	-6.18709204e+001	-6.81787300e+001	-5.20264211e+001	-2.32026421e+002	7.28474828e+000	7.28474828e+000
5.26000000e-001	-6.25667764e+001	4.97790788e+001	4.97790788e+001	2.52907839e+001	2.52907839e+001	-5.93692571e+001	5.26219124e-002	-1.79947378e+002	-3.26382191e+001	-3.26382191e+001
5.27000000e-001	-7.15748089e+001	-1.65734280e+001	-1.65734280e+001	1.24307966e+001	1.24307966e+001	-6.12523620e+001	-7.19533584e+001	-2.51953358e+002	5.41668974e+001	5.41668974e+001
5.28000000e-001	-6.28385368e+001	2.28709092e+001	2.28709092e+001	3.05656854e+001	3.05656854e+001	-5.88201558e+001	-5.56588089e+001	-2.35658809e+002	1.89376331e+001	1.89376331e+001
5.29000000e-001	-6.73125971e+001	6.75353667e+001	6.75353667e+001	-1.95218981e+001	-1.95218981e+001	-5.36515802e+001	6.10489530e+000	-1.73895105e+002	8.91800359e+001	8.91800359e+001
5.30000000e-001	-5.46471702e+001	-2.95004305e+001	-2.95004305e+001	-7.05761167e+001	-7.05761167e+001	-6.63411224e+001	2.63499209e+001	-1.53650079e+002	2.59303693e+001	2.59303693e+001
5.31000000e-001	-5.73148011e+001	7.70311158e+001	7.70311158e+001	1.38642893e+000	1.38642893e+000	-7.48792171e+001	-2.51784818e+001	-2.05178482e+002	8.26844443e+000	8.26844443e+000
5.32000000e-001	-6.07676581e+001	1.45549445e+001	1.45549445e+001	2.72537380e+001	2.72537380e+001	-6.97506315e+001	-9.69657658e+000	-1.89696577e+002	-1.20807988e+001	-1.20807988e+001
5.33000000e-001	-5.85247371e+001	-1.45784849e+000	-1.45784849e+000	4.00481941e+001	4.00481941e+001	-5.59847685e+001	7.33477056e+001	-1.06652294e+002	8.49809744e+001	8.49809744e+001
5.34000000e-001	-6.08112102e+001	6.73712001e+001	6.73712001e+001	-1.80019809e+001	-1.80019809e+001	-5.66087741e+001	-1.99091166e+001	-1.99909117e+002	5.06997720e+001	5.06997720e+001
5.35000000e-001	-6.26110163e+001	5.60225477e+001	5.60225477e+001	-1.45086192e+001	-1.45086192e+001	-6.14800462e+001	1.15473510e+001	-1.68452649e+002	4.20393306e+001	4.20393306e+001
5.36000000e-001	-5.56753077e+001	3.66837476e+001	3.66837476e+001	5.52297305e+001	5.52297305e+001	-5.50427697e+001	-8.99089794e+000	-1.88990898e+002	-7.65756976e+001	-7.65756976e+001
5.37000000e-001	-7.26349109e+001	-5.38509036e+001	-5.38509036e+001	5.08459737e+000	5.08459737e+000	-5.55805356e+001	-8.98052120e+001	-2.69805212e+002	-3.18804645e+001	-3.18804645e+001
5.38000000e-001	-6.68650719e+001	-3.60633214e+001	-3.60633214e+001	-1.84728248e+001	-1.84728248e+001	-7.19825169e+001	7.92466750e+001	-2.80753325e+002	-1.78625115e+000	-1.78625115e+000
5.39000000e-001	-6.29141547e+001	2.96232815e+001	2.96232815e+001	1.60277709e+001	1.60277709e+001	-6.47135614e+001	7.70811527e+001	-2.82918847e+002	2.41028051e+000	2.41028051e+000
5.40000000e-001	-5.51393305e+001	5.87331630e+001	5.87331630e+001	3.41840077e+001	3.41840077e+001	-7.50209132e+001	3.21696694e+001	-3.27830331e+002	1.02990628e+001	1.02990628e+001
5.41000000e-001	-6.02013202e+001	2.16486786e+001	2.16486786e+001	-2.73729313e+001	-2.73729313e+001	-6.60725926e+001	2.93890588e+001	-3.30610941e+002	-4.03578882e+001	-4.03578882e+001
5.42000000e-001	-5.83038787e+001	-6.31247927e+001	-6.31247927e+001	6.45848833e+001	6.45848833e+001	-6.91071195e+001	1.54216286e+001	-3.44578371e+002	3.02371675e+001	3.02371675e+001
5.43000000e-001	-5.57082296e+001	2.46500309e+001	2.46500309e+001	4.41015402e+001	4.41015402e+001	-6.46221117e+001	-1.88926717e+001	-3.78892672e+002	-2.33073052e+001	-2.33073052e+001
5.44000000e-001	-6.50880415e+001	-2.03795817e+001	-2.03795817e+001	-1.98411321e+001	-1.98411321e+001	-7.16844044e+001	5.62101141e+001	-3.03789886e+002	-4.50086496e+000	-4.50086496e+000
5.45000000e-001	-5.86184122e+001	1.03748071e+001	1.03748071e+001	-5.49988770e+001	-5.49988770e+001	-6.37237732e+001	-2.97142298e+001	-3.89714230e+002	3.56049011e+001	3.56049011e+001
5.46000000e-001	-6.29081894e+001	-8.20167373e+001	-8.20167373e+001	2.03303827e+001	2.03303827e+001	-6.34899496e+001	-2.63314416e+001	-3.86331442e+002	-3.96448242e+001	-3.96448242e+001
5.47000000e-001	-5.47952548e+001	-1.34858813e+001	-1.34858813e+001	-6.60496495e+001	-6.60496495e+001	-6.21754854e+001	3.12408227e+001	-3.28759177e+002	-1.62927704e+001	-1.62927704e+001
5.48000000e-001	-6.31716983e+001	-5.91671588e+001	-5.91671588e+001	1.53917886e+001	1.53917886e+001	-6.57932476e+001	3.53446241e+001	-3.24655376e+002	-1.43780769e+001	-1.43780769e+001
5.49000000e-001	-5.93226156e+001	6.87666010e+001	6.87666010e+001	-9.61115531e+000	-9.61115531e+000	-6.28909549e+001	7.61948559e+001	-2.83805144e+002	-1.25223865e+000	-1.25223865e+000
5.50000000e-001	-6.10935571e+001	-4.91949642e+001	-4.91949642e+001	-4.15190517e+001	-4.15190517e+001	-6.09628090e+001	-4.39736860e+001	-4.03973686e+002	2.33083505e+001	2.33083505e+001
5.51000000e-001	-5.95574031e+001	7.46208609e+001	7.46208609e+001	-1.57862838e+001	-1.57862838e+001	-7.13323886e+001	4.05133391e+001	-3.19486661e+002	7.95190685e+000	7.95190685e+000
5.52000000e-001	-6.93658219e+001	7.87262637e+001	7.87262637e+001	-4.94764497e+001	-4.94764497e+001	-5.51282166e+001	3.60719223e+001	-3.23928078e+002	-2.55142619e+001	-2.55142619e+001
5.53000000e-001	-5.54342967e+001	-7.07546610e+001	1.09245339e+002	-5.77935707e+001	-5.77935707e+001	-6.02938465e+001	8.33563325e+001	-2.76643668e+002	-1.53734025e+001	-1.53734025e+001
5.54000000e-001	-5.88683469e+001	-1.01326775e+001	1.69867322e+002	4.38870966e+001	4.38870966e+001	-6.37296985e+001	2.34225705e+001	-3.36577429e+002	-6.81770067e+001	-6.81770067e+001
5.55000000e-001	-5.43858513e+001	-8.26475987e+001	9.73524013e+001	-2.64725177e+001	-2.64725177e+001	-6.16703189e+001	2.28700362e+001	-3.37129964e+002	2.01236983e+001	2.01236983e+001
5.56000000e-001	-6.46248319e+001	1.90883974e+001	1.99088397e+002	3.58023910e+001	3.58023910e+001	-7.19519030e+001	-1.52959647e+001	-3.75295965e+002	-9.48868597e+000	-9.48868597e+000
5.57000000e-001	-6.23308213e+001	-5.25743730e+001	1.27425627e+002	-7.62797415e+001	-7.62797415e+001	-6.56774570e+001	-7.65007906e+001	-4.36500791e+002	4.24559447e+000	4.24559447e+000
5.58000000e-001	-6.40094306e+001	8.35111101e+001	8.35111101e+001	4.90319146e+000	4.90319146e+000	-6.32640792e+001	-8.46169559e+001	-4.44616956e+002	1.54726141e+001	1.54726141e+001
5.59000000e-001	-5.30281731e+001	-4.63769444e+001	-4.63769444e+001	-8.29013893e+001	-8.29013893e+001	-6.05191580e+001	8.48606414e+001	-4.55139359e+002	-1.57631382e+001	-1.57631382e+001
5.60000000e-001	-6.02747802e+001	-5.36037944e+001	-5.36037944e+001	5.16095401e+001	-1.28390460e+002	-5.70515187e+001	-4.21126937e+001	-5.82112694e+002	-7.64874829e+001	-7.64874829e+001
5.61000000e-001	-5.81584746e+001	-1.01862546e+000	-1.01862546e+000	6.88942421e+001	-1.11105758e+002	-6.11183817e+001	6.84634099e+001	-4.71536590e+002	6.04149946e+000	6.04149946e+000
5.62000000e-001	-5.68397096e+001	-4.30667457e+001	-4.30667457e+001	7.78452615e+001	-1.02154738e+002	-5.56145917e+001	6.88227088e+001	-4.71177291e+002	2.45285949e+001	2.45285949e+001
5.63000000e-001	-5.48416353e+001	-4.23529425e+001	-4.23529425e+001	8.39088969e+001	-9.60911031e+001	-5.79763580e+001	-4.06674876e-001	-5.40406675e+002	3.59325941e+001	3.59325941e+001
5.64000000e-001	-6.43599622e+001	1.56419589e+001	1.56419589e+001	-2.37985944e+001	-2.03798594e+002	-5.81100156e+001	-3.38045162e+001	-5.73804516e+002	-3.54063643e+001	-3.54063643e+001
5.65000000e-001	-6.02848066e+001	4.96283781e+001	4.96283781e+001	-1.21464478e+001	-1.92146448e+002	-6.38105433e+001	7.70848253e+001	-4.62915175e+002	-1.32860441e+000	-1.32860441e+000
5.66000000e-001	-6.18856856e+001	6.71137464e+000	6.71137464e+000	2.06302034e+001	-1.59369797e+002	-6.08912556e+001	-3.14283671e+001	-5.71428367e+002	4.86859502e+001	4.86859502e+001
5.67000000e-001	-6.44327425e+001	-1.63532390e+001	-1.63532390e+001	1.94843986e+001	-1.60515601e+002	-6.13184963e+001	6.86920917e+000	-5.33130791e+002	4.59691254e+001	4.59691254e+001
5.68000000e-001	-5.75057832e+001	4.06001203e+001	4.06001203e+001	4.76313988e+001	-1.32368601e+002	-6.01975875e+001	4.46688441e+000	-5.35533116e+002	4.62720876e+001	4.62720876e+001
5.69000000e-001	-6.58819720e+001	3.73581563e+001	3.73581563e+001	2.71647227e+001	-1.52835277e+002	-6.27681684e+001	-2.70273629e+001	-5.67027363e+002	3.19467282e+001	3.19467282e+001
5.70000000e-001	-5.55888563e+001	-6.00176898e+001	-6.00176898e+001	4.17259586e+001	-1.38274041e+002	-6.62006238e+001	8.47490597e+001	-4.55250940e+002	2.56013597e+000	2.56013597e+000
5.71000000e-001	-7.24256751e+001	8.12418541e+001	-9.87581459e+001	-3.78570603e+000	-1.83785706e+002	-7.15043952e+001	-8.93007872e+001	-4.49300787e+002	-4.04024905e+000	-4.04024905e+000
5.72000000e-001	-6.36944337e+001	-9.34510342e-001	-1.80934510e+002	2.28800013e+001	-1.57119999e+002	-6.56624656e+001	8.44682655e+001	-4.55531735e+002	4.68362907e+000	4.68362907e+000
5.73000000e-001	-5.68209874e+001	3.65586465e+001	-1.43441354e+002	-8.91854524e+001	-2.69185452e+002	-7.11298539e+001	-4.51072667e+001	-5.85107267e+002	6.97349923e+000	6.97349923e+000
5.74000000e-001	-8.33145933e+001	1.12893128e+001	-1.68710687e+002	-2.11248946e+000	-1.82112489e+002	-5.70157637e+001	5.69060555e+001	-4.83093945e+002	4.47881556e+001	4.47881556e+001
5.75000000e-001	-5.68670185e+001	7.58223311e+001	-1.04177669e+002	5.35613084e+001	-1.26438692e+002	-5.81584551e+001	1.39889403e+001	-5.26011060e+002	3.05599655e+001	3.05599655e+001
5.76000000e-001	-5.85338684e+001	-2.68310484e+001	-2.06831048e+002	4.15757411e+001	-1.38424259e+002	-6.04614419e+001	8.10308590e+001	-4.58969141e+002	1.47095591e+000	1.47095591e+000
5.77000000e-001	-6.59480673e+001	-4.20644974e+001	-2.22064497e+002	-1.52398850e+001	-1.95239885e+002	-8.54094403e+001	-8.46689202e+001	-4.44668920e+002	-7.66993928e-001	-7.66993928e-001
5.78000000e-001	-5.50506110e+001	8.58538430e+001	-9.41461570e+001	2.08960667e+001	-1.59103933e+002	-5.77348398e+001	-1.44500620e+001	-3.74450062e+002	5.25380312e+001	5.25380312e+001
5.79000000e-001	-6.16303524e+001	1.01349257e+000	-1.78986507e+002	3.97219288e+001	-1.40278071e+002	-6.02408912e+001	2.93110663e+001	-3.30688934e+002	2.33013306e+001	2.33013306e+001
5.80000000e-001	-6.79570407e+001	-7.03636196e+001	-2.50363620e+002	-1.30534870e+001	-1.93053487e+002	-5.94311437e+001	9.93683879e+000	-3.50063161e+002	-3.25246089e+001	-3.25246089e+001
5.81000000e-001	-5.43331925e+001	3.25127694e+001	-1.47487231e+002	2.35599217e+001	-1.56440078e+002	-5.78827568e+001	-1.48665431e+001	-3.74866543e+002	-4.16126834e+001	-4.16126834e+001
5.82000000e-001	-6.58831347e+001	7.02857437e+001	-1.09714256e+002	-4.30265455e+000	-1.84302655e+002	-5.85748859e+001	-8.34602140e+001	-4.43460214e+002	-4.32104473e+001	-4.32104473e+001
5.83000000e-001	-6.03302483e+001	4.68549286e+001	-1.33145071e+002	5.37651313e+001	-1.26234869e+002	-6.72966043e+001	-6.13337347e+001	-4.21333735e+002	-1.21908236e+001	-1.21908236e+001
5.84000000e-001	-5.62510193e+001	-5.64565269e+001	-2.36456527e+002	-5.99226031e+001	-2.39922603e+002	-5.91343181e+001	-7.17881045e+000	-3.67178810e+002	5.92993384e+001	5.92993384e+001
5.85000000e-001	-6.89549947e+001	8.93135072e+001	-2.70686493e+002	-1.13033680e+001	-1.91303368e+002	-5.61612821e+001	-2.86592680e+001	-3.88659268e+002	5.08402077e+001	5.08402077e+001
5.86000000e-001	-5.62850971e+001	-5.81278905e+001	-2.38127891e+002	-3.94922165e+001	-2.19492217e+002	-5.70781540e+001	2.34915231e+001	-3.36508477e+002	6.98607150e+001	6.98607150e+001
5.87000000e-001	-5.79740770e+001	7.00056432e+001	-1.09994357e+002	3.77287967e+001	-1.42271203e+002	-6.01333689e+001	-2.10529366e+001	-3.81052937e+002	-4.04602559e+001	-4.04602559e+001
5.88000000e-001	-5.46742230e+001	-6.51858219e+001	-6.51858219e+001	4.63904944e+001	-1.33609506e+002	-5.66680197e+001	-2.41275765e+001	-3.84127577e+002	-4.33387597e+001	-4.33387597e+001
5.89000000e-001	-5.75485937e+001	-1.85255644e+001	-1.85255644e+001	-6.66540070e+001	-2.46654007e+002	-6.23336591e+001	1.71291094e+001	-3.42870891e+002	3.97802829e+001	3.97802829e+001
5.90000000e-001	-6.16833196e+001	9.19595364e+000	9.19595364e+000	-4.05642971e+001	-2.20564297e+002	-6.26940909e+001	2.66061386e+001	-3.33393861e+002	-3.13364142e+001	-3.13364142e+001
5.91000000e-001	-6.19539342e+001	-4.06284814e+001	-4.06284814e+001	-3.06360160e+001	-2.10636016e+002	-5.97859297e+001	7.69873072e+001	-2.83012693e+002	-1.41425589e+001	-1.41425589e+001
5.92000000e-001	-6.00488001e+001	-1.14491622e+001	-1.14491622e+001	5.19164548e+001	-1.28083545e+002	-5.59010438e+001	-2.99102940e+001	-3.89910294e+002	5.25039650e+001	5.25039650e+001
5.93000000e-001	-5.41142361e+001	-8.33560106e+001	-8.33560106e+001	3.88502205e+001	-1.41149780e+002	-5.67839620e+001	6.48048619e+000	-3.53519514e+002	-3.93482076e+001	-3.93482076e+001
5.94000000e-001	-5.83502848e+001	8.15354982e+001	-9.84645018e+001	-1.12142875e+001	-1.91214287e+002	-5.54476151e+001	8.45548808e+001	-2.75445119e+002	-2.57436573e+001	-2.57436573e+001
5.95000000e-001	-5.99624791e+001	1.21851781e+001	-1.67814822e+002	7.61448518e+001	-1.03855148e+002	-6.16208293e+001	-1.57040203e+001	-3.75704020e+002	3.72259967e+001	3.72259967e+001
5.96000000e-001	-6.76783594e+001	-3.41880463e+001	-2.14188046e+002	1.20142869e+001	-1.67985713e+002	-5.70102883e+001	1.67722093e+001	-3.43227791e+002	-4.38242259e+001	-4.38242259e+001
5.97000000e-001	-5.55763087e+001	2.75514120e+000	-1.77244859e+002	4.88419573e+001	-1.31158043e+002	-6.31362663e+001	4.84665891e+000	-3.55153341e+002	2.54328439e+001	2.54328439e+001
5.98000000e-001	-6.43610640e+001	4.47426392e+000	-1.75525736e+002	2.85907478e+001	-1.51409252e+002	-6.18343855e+001	5.76830267e+001	-3.02316973e+002	-1.62607742e+001	-1.62607742e+001
5.99000000e-001	-6.05937485e+001	1.78554932e+000	-1.78214451e+002	-2.68038753e+001	-2.06803875e+002	-7.40628673e+001	5.26404550e-001	-3.59473595e+002	8.46644463e+000	8.46644463e+000
6.00000000e-001	-5.91807914e+001	-1.84355633e+001	-1.98435563e+002	4.65054539e+001	-1.33494546e+002	-5.87470354e+001	9.97463450e+000	-3.50025365e+002	-7.40521363e+001	-7.40521363e+001
6.01000000e-001	-5.71373549e+001	4.99729770e+001	-1.30027023e+002	4.92445054e+001	-1.30755495e+002	-6.27030306e+001	-8.06227960e+001	-4.40622796e+002	-1.21563800e+001	-1.21563800e+001
6.02000000e-001	-5.62877651e+001	7.54298099e+000	-1.72457019e+002	-5.08912685e+001	-2.30891268e+002	-6.18537816e+001	-6.83627385e+001	-4.28362738e+002	2.42615485e+001	2.42615485e+001
6.03000000e-001	-5.77325566e+001	-1.29630652e+001	-1.92963065e+002	-6.41931649e+001	-2.44193165e+002	-5.70995577e+001	-6.40781301e+001	-4.24078130e+002	1.31609168e+001	1.31609168e+001
6.04000000e-001	-7.81443141e+001	2.58797441e+000	-1.77412026e+002	4.11177911e+000	-1.75888221e+002	-6.06496156e+001	5.26311200e+001	-3.07368880e+002	-1.90207273e+001	-1.90207273e+001
6.05000000e-001	-6.00985941e+001	-4.53774513e+001	-2.25377451e+002	3.92307807e+001	-1.40769219e+002	-5.82653933e+001	1.79167661e+001	-3.42083234e+002	3.50251465e+001	3.50251465e+001
6.06000000e-001	-5.91492904e+001	4.14301994e+001	-1.38569801e+002	1.37585361e+001	-1.66241464e+002	-6.98112174e+001	-8.20219468e+001	-4.42021947e+002	-5.28470908e+000	-5.28470908e+000
6.07000000e-001	-6.06577384e+001	-5.35233769e+000	-1.85352338e+002	-3.39779463e+001	-2.13977946e+002	-5.97006686e+001	-5.61910897e+001	-4.16191090e+002	2.10974215e+001	2.10974215e+001
