Frequency 	 |S21| 	 Phase(S21) 	 ExtPhase(S21) 	 CorPhase(S21)	 ExtCorPhase(S21)	 |S12| 	 Phase(S12)	 ExtPhase(S12) 	 CorPhase(S12)	 ExtCorPhase(S12)
GHz 	 dB 	 deg 	 deg 	 deg	 deg	 dB 	 deg 	 deg 	 deg	 deg
5.00000000e-001	-6.12894561e+001	-1.37310371e+001	-1.37310371e+001	3.67388362e+001	3.67388362e+001	-5.20584332e+001	-4.47782948e+001	-4.47782948e+001	4.56308812e+001	4.56308812e+001
5.01000000e-001	-5.67089080e+001	-8.72587245e+001	-8.72587245e+001	-4.68222548e+001	-4.68222548e+001	-5.72073062e+001	8.47159698e+000	8.47159698e+000	3.98532529e+001	3.98532529e+001
5.02000000e-001	-7.06000412e+001	-4.96105985e+001	-4.96105985e+001	-1.04073709e+001	-1.04073709e+001	-6.12175099e+001	2.55741009e+001	2.55741009e+001	-1.65248680e+001	-1.65248680e+001
5.03000000e-001	-6.67113166e+001	2.22489615e+001	2.22489615e+001	1.70189332e+001	1.70189332e+001	-5.56765474e+001	2.50501057e+001	2.50501057e+001	-6.60750797e+001	-6.60750797e+001
5.04000000e-001	-6.65898977e+001	8.29108265e+001	8.29108265e+001	-2.17878115e+000	-2.17878115e+000	-5.45619952e+001	2.18961329e+001	2.18961329e+001	5.22328327e+001	5.22328327e+001
5.05000000e-001	-6.23904248e+001	2.38607943e+001	2.38607943e+001	6.51238962e+001	6.51238962e+001	-6.62732255e+001	-4.61289017e+001	-4.61289017e+001	2.22353580e+001	2.22353580e+001
5.06000000e-001	-6.46147724e+001	-2.53139998e+000	-2.53139998e+000	3.20139084e+001	3.20139084e+001	-5.79884666e+001	8.00147866e+001	8.00147866e+001	9.74821191e+000	9.74821191e+000
5.07000000e-001	-6.78351080e+001	-9.42237096e+000	-9.42237096e+000	-2.21111648e+001	-2.21111648e+001	-6.43093429e+001	-6.04774476e+001	1.19522552e+002	3.13457333e+000	3.13457333e+000
5.08000000e-001	-5.77627421e+001	-6.07313523e+000	-6.07313523e+000	-3.58434331e+001	-3.58434331e+001	-6.55130188e+001	-6.41868475e+001	1.15813152e+002	9.28596515e+000	9.28596515e+000
5.09000000e-001	-6.51534862e+001	-8.75317978e+000	-8.75317978e+000	-1.94078773e+001	-1.94078773e+001	-5.95254851e+001	3.67920155e+000	1.83679202e+002	4.95735234e+001	4.95735234e+001
5.10000000e-001	-5.98823068e+001	-2.32790661e+001	-2.32790661e+001	-5.02195938e+001	-5.02195938e+001	-5.68705559e+001	3.69209394e+001	2.16920939e+002	5.17696411e+001	5.17696411e+001
5.11000000e-001	-6.06510831e+001	1.84645399e+001	1.84645399e+001	3.76161444e+001	3.76161444e+001	-6.22314045e+001	-7.39570208e+001	1.06042979e+002	-1.90703806e+001	-1.90703806e+001
5.12000000e-001	-6.51426894e+001	-8.74197560e+000	-8.74197560e+000	3.29390960e+001	3.29390960e+001	-6.02856672e+001	-5.51640530e-001	1.79448359e+002	4.07380429e+001	4.07380429e+001
5.13000000e-001	-6.01362709e+001	4.61810691e+000	4.61810691e+000	6.01043195e+001	6.01043195e+001	-6.41979572e+001	-8.03090238e+001	9.96909762e+001	2.54326121e+001	2.54326121e+001
5.14000000e-001	-6.43784357e+001	3.48189390e+001	3.48189390e+001	-1.42626757e+001	-1.42626757e+001	-5.16181368e+001	6.61210793e+001	6.61210793e+001	-8.48397193e+001	-8.48397193e+001
5.15000000e-001	-6.35581163e+001	-2.29673289e+001	-2.29673289e+001	2.70328968e+001	2.70328968e+001	-6.34063575e+001	-3.74633635e+001	-3.74633635e+001	-2.38573579e+001	-2.38573579e+001
5.16000000e-001	-5.96961036e+001	3.16490832e+001	3.16490832e+001	3.32967742e+001	3.32967742e+001	-6.24279440e+001	-8.19352104e+001	-8.19352104e+001	2.60701805e+001	2.60701805e+001
5.17000000e-001	-5.93419739e+001	8.29375686e+001	8.29375686e+001	-2.15265677e+001	-2.15265677e+001	-5.96861566e+001	8.30938959e+001	-9.69061041e+001	1.45986887e+001	1.45986887e+001
5.18000000e-001	-6.29831422e+001	-4.13348541e+001	-4.13348541e+001	2.18252420e+001	2.18252420e+001	-6.32350252e+001	5.02121937e+000	-1.74978781e+002	2.49643785e+001	2.49643785e+001
5.19000000e-001	-6.15123918e+001	-4.48753359e+000	-4.48753359e+000	2.73515670e+001	2.73515670e+001	-6.60513364e+001	6.93974335e+001	-1.10602567e+002	-1.28713337e+001	-1.28713337e+001
5.20000000e-001	-5.82237755e+001	7.42657550e+001	7.42657550e+001	4.14258748e+001	4.14258748e+001	-6.56308738e+001	-3.18823119e+001	-2.11882312e+002	-2.21238494e+001	-2.21238494e+001
5.21000000e-001	-6.17007346e+001	-3.66091434e+001	-3.66091434e+001	6.22787060e+001	6.22787060e+001	-5.67513186e+001	-3.72178419e+001	-2.17217842e+002	5.43335516e+001	5.43335516e+001
5.22000000e-001	-5.74582244e+001	-3.01439901e+001	-3.01439901e+001	4.24093215e+001	4.24093215e+001	-5.94251199e+001	-3.72393850e+001	-2.17239385e+002	4.02697933e+001	4.02697933e+001
5.23000000e-001	-7.12880118e+001	-4.25428049e+001	-4.25428049e+001	1.68814366e+001	1.68814366e+001	-5.31300208e+001	-6.41627059e+001	-2.44162706e+002	-6.66904312e+001	-6.66904312e+001
5.24000000e-001	-6.34582063e+001	6.81787439e+001	6.81787439e+001	8.62336954e+000	8.62336954e+000	-5.55479152e+001	7.79187380e+001	-2.82081262e+002	-6.16180236e+001	-6.16180236e+001
5.25000000e-001	-5.45307810e+001	8.54407472e+001	8.54407472e+001	5.69334546e+001	5.69334546e+001	-6.23250334e+001	5.45737621e+001	-3.05426238e+002	2.29335459e+001	2.29335459e+001
5.26000000e-001	-5.74562926e+001	-4.36897040e+001	-4.36897040e+001	-5.48686002e+001	-5.48686002e+001	-6.45290158e+001	4.00593864e+001	-3.19940614e+002	-1.15975022e+001	-1.15975022e+001
5.27000000e-001	-5.78491478e+001	1.69511190e+001	1.69511190e+001	6.94072164e+001	6.94072164e+001	-5.53652329e+001	-6.07054992e+001	-4.20705499e+002	7.37484954e+001	7.37484954e+001
5.28000000e-001	-5.84107371e+001	7.92734885e+001	7.92734885e+001	4.96004570e+001	4.96004570e+001	-6.05509857e+001	4.39654043e+001	-3.16034596e+002	-3.09948061e+001	-3.09948061e+001
5.29000000e-001	-5.38105908e+001	1.35711797e+001	1.35711797e+001	8.93229767e+001	8.93229767e+001	-5.54990817e+001	2.90791397e+001	-3.30920860e+002	-6.23199788e+001	-6.23199788e+001
5.30000000e-001	-8.49815632e+001	1.58475773e+001	1.58475773e+001	-2.14400239e+000	-2.14400239e+000	-6.54161312e+001	5.00233031e+001	-3.09976697e+002	1.16047835e+001	1.16047835e+001
5.31000000e-001	-8.34243510e+001	1.35937472e+001	1.35937472e+001	2.53446254e+000	2.53446254e+000	-6.06941720e+001	-7.95425344e+001	-4.39542534e+002	-4.83906760e+001	-4.83906760e+001
5.32000000e-001	-5.51526834e+001	7.26145858e+001	7.26145858e+001	-4.68741712e+000	-4.68741712e+000	-6.99537717e+001	-8.67567501e+001	-4.46756750e+002	6.37392744e+000	6.37392744e+000
5.33000000e-001	-5.91526605e+001	3.67890806e+001	3.67890806e+001	2.68210893e+001	2.68210893e+001	-5.76208327e+001	-4.76902670e+001	-4.07690267e+002	-6.12835072e+001	-6.12835072e+001
5.34000000e-001	-6.92175479e+001	7.29648097e+001	7.29648097e+001	-9.05212072e+000	-9.05212072e+000	-5.51430191e+001	-1.14393696e+001	-3.71439370e+002	6.22527833e+001	6.22527833e+001
5.35000000e-001	-5.98953556e+001	5.29542083e+000	5.29542083e+000	-4.59550185e+001	-4.59550185e+001	-6.57725047e+001	-1.68905070e+001	-3.76890507e+002	2.62094022e+001	2.62094022e+001
5.36000000e-001	-6.02950337e+001	7.71927249e+001	7.71927249e+001	-7.98090151e+000	-7.98090151e+000	-6.80787283e+001	7.53200931e+001	-2.84679907e+002	1.16687814e+001	1.16687814e+001
5.37000000e-001	-9.42427379e+001	-8.81112019e+001	9.18887981e+001	-3.25495000e-004	-3.25495000e-004	-6.13958578e+001	9.13120859e+000	-3.50868791e+002	-8.47253719e+001	-8.47253719e+001
5.38000000e-001	-6.06914469e+001	-2.76866271e+001	1.52313373e+002	-4.26307096e+001	-4.26307096e+001	-5.97991655e+001	5.62493869e+000	-3.54375061e+002	4.71172965e+001	-1.32882703e+002
5.39000000e-001	-6.38836176e+001	3.92980927e+001	2.19298093e+002	8.24545135e+000	8.24545135e+000	-5.86459459e+001	6.74340174e+001	-2.92565983e+002	2.00990922e+001	-1.59900908e+002
5.40000000e-001	-5.83363825e+001	7.03874007e+001	2.50387401e+002	-1.16970633e+000	-1.16970633e+000	-6.18666837e+001	-2.16638801e+001	-3.81663880e+002	-5.69643604e+001	-2.36964360e+002
5.41000000e-001	-5.91222467e+001	-7.02160740e+001	2.89783926e+002	2.18189902e+001	2.18189902e+001	-6.92790237e+001	-8.46772718e+001	-4.44677272e+002	-6.78974769e+000	-1.86789748e+002
5.42000000e-001	-6.45488399e+001	-7.28420047e+001	2.87157995e+002	3.61889948e+001	3.61889948e+001	-6.47081763e+001	1.57564918e+001	-3.44243508e+002	-4.20998880e+001	-2.22099888e+002
5.43000000e-001	-5.99031646e+001	8.54115916e-001	3.60854116e+002	2.60737217e+001	2.60737217e+001	-6.34674997e+001	8.70631843e+001	-2.72936816e+002	-3.89487588e+000	-1.83894876e+002
5.44000000e-001	-6.43737568e+001	-4.84072728e+001	3.11592727e+002	-1.61438982e+001	-1.61438982e+001	-6.06406388e+001	-1.93355381e+001	-3.79335538e+002	-3.92642260e+001	-2.19264226e+002
5.45000000e-001	-6.24923520e+001	2.90506745e+001	3.89050675e+002	-3.34854825e+001	-3.34854825e+001	-6.05394132e+001	-7.91666454e+001	-4.39166645e+002	2.46068549e+001	-1.55393145e+002
5.46000000e-001	-5.81277648e+001	-2.16578037e+001	3.38342196e+002	6.51809926e+001	6.51809926e+001	-6.69965998e+001	2.00820916e+001	-3.39917908e+002	-1.90158423e+001	-1.99015842e+002
5.47000000e-001	-6.89335962e+001	-6.49103323e+001	2.95089668e+002	-1.87763141e+000	-1.87763141e+000	-7.49777895e+001	-4.58493238e+001	-4.05849324e+002	-7.73767945e+000	-1.87737679e+002
5.48000000e-001	-6.93027716e+001	5.83031990e+001	4.18303199e+002	8.27528382e+000	8.27528382e+000	-6.28601249e+001	5.80116101e+001	-3.01988390e+002	3.13213882e+001	-1.48678612e+002
5.49000000e-001	-6.86233783e+001	5.41360752e+001	4.14136075e+002	2.77328648e+000	2.77328648e+000	-5.88032443e+001	8.62214012e+001	-2.73778599e+002	4.04526851e+000	-1.75954731e+002
5.50000000e-001	-6.11136973e+001	8.61555135e+001	4.46155513e+002	-2.40949964e+001	-2.40949964e+001	-6.18868675e+001	8.17936784e+000	-3.51820632e+002	-3.45737254e+001	-2.14573725e+002
5.51000000e-001	-6.98216479e+001	-7.35607485e-001	3.59264393e+002	2.77425892e+001	2.77425892e+001	-6.23113067e+001	-4.42673393e+001	-4.04267339e+002	3.75457659e+001	-1.42454234e+002
5.52000000e-001	-5.38654362e+001	-7.10560584e+001	2.88943942e+002	-5.08942800e+001	-5.08942800e+001	-6.00435416e+001	4.29432855e+001	-3.17056714e+002	6.07526962e+001	-1.19247304e+002
5.53000000e-001	-5.46448937e+001	-8.03937932e+001	2.79606207e+002	-6.85009431e+001	-6.85009431e+001	-5.66828383e+001	-7.39853833e+001	-4.33985383e+002	-6.00413389e+001	-2.40041339e+002
5.54000000e-001	-6.14458158e+001	6.03574454e+001	2.40357445e+002	7.35991448e+000	7.35991448e+000	-5.65224605e+001	3.73241135e+001	-3.22675887e+002	-6.86044807e+001	-2.48604481e+002
5.55000000e-001	-5.38455113e+001	-8.53893590e+001	2.74610641e+002	-2.60939406e+001	-2.60939406e+001	-6.13242765e+001	3.60660456e+001	-3.23933954e+002	1.62789624e+001	-1.63721038e+002
5.56000000e-001	-6.08367681e+001	-1.86769726e+000	3.58132303e+002	3.85863244e+001	3.85863244e+001	-6.34554449e+001	1.88998300e+001	-3.41100170e+002	2.60319410e+001	-1.53968059e+002
5.57000000e-001	-5.69052693e+001	3.37344591e+001	3.93734459e+002	-5.73485583e+001	-5.73485583e+001	-7.05563226e+001	4.49756875e+001	-3.15024312e+002	-7.94621228e+000	-1.87946212e+002
5.58000000e-001	-5.42800802e+001	-5.47658547e+001	3.05234145e+002	-5.86996158e+001	-5.86996158e+001	-5.91294234e+001	-3.23955692e+001	-3.92395569e+002	4.46108561e+001	-1.35389144e+002
5.59000000e-001	-5.43427594e+001	2.60623464e+000	3.62606235e+002	-5.14182110e+001	-5.14182110e+001	-6.50890613e+001	6.41587318e+001	-2.95841268e+002	-1.84721360e+001	-1.98472136e+002
5.60000000e-001	-6.14788765e+001	-2.04191358e+001	3.39580864e+002	6.70615381e+001	6.70615381e+001	-6.34431520e+001	-6.99534725e+001	-2.49953473e+002	6.85022121e+000	-1.73149779e+002
5.61000000e-001	-6.15406044e+001	5.77555481e+001	4.17755548e+002	-1.66483559e+000	-1.66483559e+000	-5.83358160e+001	3.51998893e+001	-1.44800111e+002	4.78448474e+001	-1.32155153e+002
5.62000000e-001	-6.26597065e+001	4.77350925e+001	4.07735093e+002	1.00508598e+001	1.00508598e+001	-5.77021362e+001	6.04051484e+001	-1.19594852e+002	1.07441983e+001	-1.69255802e+002
5.63000000e-001	-5.60526591e+001	-1.75015709e+001	3.42498429e+002	-7.97312774e+001	-7.97312774e+001	-5.87221865e+001	1.93968005e+001	-1.60603199e+002	2.38032227e+001	-1.56196777e+002
5.64000000e-001	-6.36377739e+001	8.27763724e+001	4.42776372e+002	2.45393826e-001	2.45393826e-001	-5.68522351e+001	-4.58146271e+001	-2.25814627e+002	-4.11066909e+001	-2.21106691e+002
5.65000000e-001	-5.88095159e+001	5.05551484e+001	4.10555148e+002	8.92823152e+001	8.92823152e+001	-5.63174996e+001	5.62386644e+001	-1.23761336e+002	-1.56089754e+001	-1.95608975e+002
5.66000000e-001	-5.47209125e+001	8.40738007e+001	4.44073801e+002	-3.98185014e+001	-3.98185014e+001	-6.42755238e+001	8.51608491e+001	-9.48391509e+001	2.88085971e+000	-1.77119140e+002
5.67000000e-001	-6.98915642e+001	-6.91233908e+001	4.70876609e+002	5.77945407e+000	5.77945407e+000	-6.91839596e+001	3.18880313e+001	-1.48111969e+002	1.21434715e+001	-1.67856529e+002
5.68000000e-001	-5.81227887e+001	5.30772500e+001	5.93077250e+002	1.18061164e+001	1.18061164e+001	-6.55658297e+001	1.24715574e+001	-1.67528443e+002	2.41088125e+001	-1.55891188e+002
5.69000000e-001	-5.78334287e+001	-4.35086530e+000	5.35649135e+002	-5.03040942e+001	-5.03040942e+001	-6.01607048e+001	-2.09651634e+000	-1.82096516e+002	4.74534374e+001	-1.32546563e+002
5.70000000e-001	-5.85750014e+001	-3.60000366e+001	5.03999963e+002	5.85676283e+001	5.85676283e+001	-6.28848788e+001	-6.74407460e+001	-2.47440746e+002	1.29538349e+001	-1.67046165e+002
5.71000000e-001	-6.03673895e+001	-5.71797391e+000	5.34282026e+002	5.26738984e+001	5.26738984e+001	-6.51808095e+001	6.19352514e+001	-1.18064749e+002	-1.58058386e+001	-1.95805839e+002
5.72000000e-001	-6.12452725e+001	-4.23271122e+001	4.97672888e+002	2.09047586e+001	2.09047586e+001	-6.45864051e+001	7.23989182e+001	-1.07601082e+002	-5.87946261e+000	-1.85879463e+002
5.73000000e-001	-6.07247249e+001	-1.32605819e+001	5.26739418e+002	4.22699833e+001	4.22699833e+001	-6.24795702e+001	7.58329124e+001	-1.04167088e+002	-1.14453029e+001	-1.91445303e+002
5.74000000e-001	-6.28980649e+001	-3.19906490e+001	5.08009351e+002	2.66504477e+001	2.66504477e+001	-7.25385954e+001	8.92808194e+001	-9.07191806e+001	1.93387074e+000	-1.78066129e+002
5.75000000e-001	-6.22056850e+001	-4.18532385e+001	4.98146761e+002	-2.65085788e+001	-2.65085788e+001	-5.66076913e+001	4.58090435e+001	-1.34190957e+002	9.98184133e+000	-1.70018159e+002
5.76000000e-001	-5.47013212e+001	1.30309483e+001	5.53030948e+002	8.47745044e+001	8.47745044e+001	-5.89091611e+001	-8.72202789e+001	-8.72202789e+001	-1.47757941e+001	-1.94775794e+002
5.77000000e-001	-5.87960495e+001	3.83974851e+001	5.78397485e+002	-2.82035757e+001	-2.82035757e+001	-6.58317039e+001	8.57930759e+001	-9.42069241e+001	-5.40237850e+000	-1.85402379e+002
5.78000000e-001	-5.77977731e+001	1.87943740e+001	5.58794374e+002	-7.81468219e+001	-7.81468219e+001	-6.65154803e+001	-7.39842160e+001	-7.39842160e+001	-1.93673814e+001	-1.99367381e+002
5.79000000e-001	-5.57301595e+001	-1.06194413e+001	5.29380559e+002	6.69356398e+001	-1.13064360e+002	-7.95491623e+001	-1.56297891e+001	-1.56297891e+001	2.83560454e+000	-1.77164395e+002
5.80000000e-001	-6.33003590e+001	4.84480658e+001	5.88448066e+002	2.48272493e+001	-1.55172751e+002	-5.65418796e+001	-4.22785220e+001	-4.22785220e+001	-4.67964498e+001	-2.26796450e+002
5.81000000e-001	-5.19724461e+001	-2.19926933e+001	5.18007307e+002	6.70629274e+001	-1.12937073e+002	-6.10189879e+001	2.95775479e+001	2.95775479e+001	-2.15836480e+001	-2.01583648e+002
5.82000000e-001	-6.26217055e+001	3.08397124e+001	5.70839712e+002	-1.71186177e+001	-1.97118618e+002	-6.47601429e+001	-5.70629883e+001	-5.70629883e+001	1.42991261e+001	-1.65700874e+002
5.83000000e-001	-6.85542932e+001	1.33753256e-001	5.40133753e+002	1.76257633e+001	-1.62374237e+002	-7.16605005e+001	2.29746487e+001	2.29746487e+001	7.68571695e+000	-1.72314283e+002
5.84000000e-001	-6.21598642e+001	-5.29164110e+001	4.87083589e+002	-1.45762937e+001	-1.94576294e+002	-6.68951407e+001	7.62266755e+001	7.62266755e+001	5.83974798e+000	-1.74160252e+002
5.85000000e-001	-6.65890163e+001	6.70340201e+001	6.07034020e+002	-2.35589766e+001	-2.03558977e+002	-6.05436647e+001	7.87126232e+001	7.87126232e+001	-6.11048405e+000	-1.86110484e+002
5.86000000e-001	-6.00626256e+001	-4.89868892e+001	4.91013111e+002	-2.23002020e+001	-2.02300202e+002	-6.20533044e+001	4.55013598e+001	4.55013598e+001	-6.99690890e+001	-2.49969089e+002
5.87000000e-001	-7.10155053e+001	-8.22768092e+001	4.57723191e+002	-3.57125705e+000	-1.83571257e+002	-6.16408656e+001	5.45717996e+001	5.45717996e+001	-2.30401102e+001	-2.03040110e+002
5.88000000e-001	-5.64660980e+001	1.78273127e+001	5.57827313e+002	-7.82789878e+001	-2.58278988e+002	-6.19306951e+001	-1.10890173e+001	-1.10890173e+001	-2.31474097e+001	-2.03147410e+002
5.89000000e-001	-5.97666525e+001	7.02338071e+000	5.47023381e+002	-4.46868443e+001	-2.24686844e+002	-6.40842312e+001	5.53481568e+001	5.53481568e+001	2.48839946e+001	-1.55116005e+002
5.90000000e-001	-6.82215917e+001	-3.59108016e+001	5.04089198e+002	8.46745557e+000	-1.71532544e+002	-5.81912774e+001	6.12693203e+000	6.12693203e+000	-5.75679585e+001	-2.37567959e+002
5.91000000e-001	-5.80142627e+001	-1.48114002e+001	5.25188600e+002	-4.88326633e+001	-2.28832663e+002	-6.44028517e+001	2.11707608e+001	2.11707608e+001	-1.11928735e+001	-1.91192873e+002
5.92000000e-001	-6.75543566e+001	-6.81417466e+001	4.71858253e+002	1.27565928e+001	-1.67243407e+002	-5.19912069e+001	-1.51061859e+001	-1.51061859e+001	8.32013550e+001	-9.67986450e+001
5.93000000e-001	-7.01171271e+001	7.20885319e+001	4.32088532e+002	9.13025436e+000	-1.70869746e+002	-5.89067819e+001	1.61350928e+001	1.61350928e+001	-2.97510621e+001	-2.09751062e+002
5.94000000e-001	-6.09696648e+001	-5.18883410e+001	3.08111659e+002	-5.36003705e+001	-2.33600370e+002	-5.55197780e+001	7.17073543e+001	7.17073543e+001	1.36742081e+001	-1.66325792e+002
5.95000000e-001	-5.78981970e+001	5.85196730e+001	4.18519673e+002	-6.78009182e+001	-2.47800918e+002	-5.60583948e+001	-7.15711471e+001	1.08428853e+002	3.23165313e+001	-1.47683469e+002
5.96000000e-001	-5.40482409e+001	5.54205267e+001	4.15420527e+002	-7.58893119e+001	-2.55889312e+002	-6.31031803e+001	-2.23932303e+001	1.57606770e+002	-3.16614532e+001	-2.11661453e+002
5.97000000e-001	-5.56208009e+001	3.44713450e+001	3.94471345e+002	4.64589909e+001	-1.33541009e+002	-6.42841395e+001	2.42407540e+001	2.04240754e+002	2.05962748e+001	-1.59403725e+002
5.98000000e-001	-8.34879020e+001	2.43987821e+001	3.84398782e+002	1.54509650e+000	-1.78454904e+002	-5.79303725e+001	-7.75785324e+001	1.02421468e+002	7.83552853e+000	-1.72164471e+002
5.99000000e-001	-6.17181993e+001	-5.55146674e+001	3.04485333e+002	-3.11741636e+001	-2.11174164e+002	-6.61435728e+001	3.10690785e+001	2.11069079e+002	-1.70943056e+001	-1.97094306e+002
6.00000000e-001	-5.44704485e+001	-4.07463487e+001	3.19253651e+002	6.44831969e+001	-1.15516803e+002	-5.85088889e+001	-3.71501350e+001	1.42849865e+002	6.53254665e+001	-1.14674534e+002
6.01000000e-001	-5.91961991e+001	5.56002278e+001	4.15600228e+002	2.99819509e+001	-1.50018049e+002	-6.60733028e+001	1.15304201e+001	1.91530420e+002	1.68805671e+001	-1.63119433e+002
6.02000000e-001	-6.82739321e+001	-8.00382332e+000	3.51996177e+002	-1.62207355e+001	-1.96220735e+002	-5.77446743e+001	-4.93874255e+001	1.30612575e+002	4.23090741e+001	-1.37690926e+002
6.03000000e-001	-6.04107755e+001	-2.09690578e+001	3.39030942e+002	-4.09636277e+001	-2.20963628e+002	-5.56688323e+001	-8.68780162e+001	9.31219838e+001	-2.17017152e-001	-1.80217017e+002
6.04000000e-001	-5.77533260e+001	3.80733584e+000	3.63807336e+002	5.33423628e+001	-1.26657637e+002	-6.29313569e+001	-7.53292208e+001	1.04670779e+002	9.92481868e+000	-1.70075181e+002
6.05000000e-001	-5.93650208e+001	-1.98828684e+001	3.40117132e+002	5.22581384e+001	-1.27741862e+002	-5.94075651e+001	6.64056837e+001	6.64056837e+001	-1.33161748e+001	-1.93316175e+002
6.06000000e-001	-5.60029599e+001	-2.50028812e+001	3.34997119e+002	4.21177375e+001	-1.37882263e+002	-6.51842344e+001	8.81301698e+001	8.81301698e+001	-6.25391441e+000	-1.86253914e+002
6.07000000e-001	-6.58629084e+001	-5.47678476e+000	3.54523215e+002	2.27662729e+001	-1.57233727e+002	-5.96935819e+001	5.06624737e+001	5.06624737e+001	5.01776076e+001	-1.29822392e+002
