Frequency 	 |S21| 	 Phase(S21) 	 ExtPhase(S21) 	 CorPhase(S21)	 ExtCorPhase(S21)	 |S12| 	 Phase(S12)	 ExtPhase(S12) 	 CorPhase(S12)	 ExtCorPhase(S12)
GHz 	 dB 	 deg 	 deg 	 deg	 deg	 dB 	 deg 	 deg 	 deg	 deg
5.00000000e-001	-6.20404724e+001	5.31425419e+001	5.31425419e+001	3.43944085e+000	3.43944085e+000	-5.80860258e+001	-6.98460178e+001	-6.98460178e+001	2.15987622e+001	2.15987622e+001
5.01000000e-001	-5.38341928e+001	7.51137867e+001	7.51137867e+001	8.52000241e+001	8.52000241e+001	-5.46226203e+001	5.36224375e+001	5.36224375e+001	2.39875072e+001	2.39875072e+001
5.02000000e-001	-6.88051582e+001	7.82200384e+001	7.82200384e+001	-2.41793664e+000	-2.41793664e+000	-5.47028625e+001	-7.50691634e+001	-7.50691634e+001	-4.64451523e+001	-4.64451523e+001
5.03000000e-001	-6.17328646e+001	6.67118042e+001	6.67118042e+001	-2.31068139e+001	-2.31068139e+001	-5.76804257e+001	6.65426870e+001	-1.13457313e+002	-3.36810909e+001	-3.36810909e+001
5.04000000e-001	-5.80326271e+001	-5.65065928e+001	-5.65065928e+001	1.56762471e+001	1.56762471e+001	-5.34209612e+001	7.85167782e+001	-1.01483222e+002	-3.62701690e+001	-3.62701690e+001
5.05000000e-001	-7.96826636e+001	3.99564424e+001	3.99564424e+001	1.39179281e+000	1.39179281e+000	-5.54197399e+001	-1.85661014e+000	-1.81856610e+002	8.91529840e+001	8.91529840e+001
5.06000000e-001	-6.79988804e+001	-4.07105516e+001	-4.07105516e+001	1.74404086e+001	1.74404086e+001	-5.46205639e+001	-4.60739559e+001	-2.26073956e+002	-4.60661488e+001	1.33933851e+002
5.07000000e-001	-6.32586960e+001	5.07134491e+001	5.07134491e+001	4.14770669e+001	4.14770669e+001	-6.01359260e+001	-4.67495029e+001	-2.26749503e+002	-2.47938461e+001	1.55206154e+002
5.08000000e-001	-5.49621597e+001	-2.14403546e+001	-2.14403546e+001	-5.57469142e+001	-5.57469142e+001	-6.16255488e+001	5.95797347e+001	-1.20420265e+002	3.75835048e+001	2.17583505e+002
5.09000000e-001	-5.68222127e+001	4.99572275e+000	4.99572275e+000	-5.27468176e+001	-5.27468176e+001	-7.34272647e+001	9.83454100e+000	-1.70165459e+002	-1.05808039e+001	1.69419196e+002
5.10000000e-001	-5.67683565e+001	-1.78423766e+001	-1.78423766e+001	-7.65111865e+001	-7.65111865e+001	-5.49381719e+001	6.20475122e+001	-1.17952488e+002	7.25622843e+001	2.52562284e+002
5.11000000e-001	-6.09900109e+001	2.63400887e+001	2.63400887e+001	3.60153744e+001	3.60153744e+001	-6.01939336e+001	-5.43723288e+001	-2.34372329e+002	-4.97306507e+001	1.30269349e+002
5.12000000e-001	-6.76840501e+001	1.57492008e+001	1.57492008e+001	2.88301617e+001	2.88301617e+001	-6.04659038e+001	6.77332026e+001	-1.12266797e+002	7.53431281e+000	1.87534313e+002
5.13000000e-001	-6.56576949e+001	-5.90475670e+001	-5.90475670e+001	-4.78784624e+001	-4.78784624e+001	-5.65383396e+001	-2.43326810e+001	-2.04332681e+002	8.53055089e+001	2.65305509e+002
5.14000000e-001	-5.80297011e+001	-8.80568335e+001	-8.80568335e+001	-4.75592058e+000	-4.75592058e+000	-5.37398292e+001	6.05957174e+001	-1.19404283e+002	-8.47413389e+001	2.75258661e+002
5.15000000e-001	-5.63294273e+001	-6.97914949e+001	-6.97914949e+001	3.71931407e+001	3.71931407e+001	-5.52396172e+001	-6.59495866e+001	-2.45949587e+002	6.23790475e+001	2.42379047e+002
5.16000000e-001	-6.29144597e+001	1.63993861e+001	1.63993861e+001	2.24006241e+001	2.24006241e+001	-5.96552104e+001	5.92195464e+000	-1.74078045e+002	-8.20143848e+001	2.77985615e+002
5.17000000e-001	-5.44753913e+001	3.56694066e+001	3.56694066e+001	6.95263114e+001	6.95263114e+001	-6.68601156e+001	2.68107216e+000	-1.77318928e+002	-1.55457404e+001	3.44454260e+002
5.18000000e-001	-5.86631392e+001	7.48593081e+001	7.48593081e+001	-1.22755187e+000	-1.22755187e+000	-6.74371610e+001	1.45778420e+001	-1.65422158e+002	1.34242289e+001	3.73424229e+002
5.19000000e-001	-5.92834282e+001	1.73034561e+001	1.73034561e+001	-6.33072524e+001	-6.33072524e+001	-6.21786803e+001	-8.09046325e+001	-2.60904632e+002	3.00685616e+001	3.90068562e+002
5.20000000e-001	-6.19611864e+001	-2.97618490e+001	-2.97618490e+001	-2.13191302e+001	-2.13191302e+001	-6.00905809e+001	-2.49236563e+001	-2.04923656e+002	-4.21876257e+001	3.17812374e+002
5.21000000e-001	-6.58658841e+001	7.35816719e+001	7.35816719e+001	8.39829370e+000	8.39829370e+000	-6.86252028e+001	1.63974633e+001	-1.63602537e+002	1.13935896e+001	3.71393590e+002
5.22000000e-001	-5.35377963e+001	-6.83228957e+001	1.11677104e+002	-3.65030750e+000	-3.65030750e+000	-6.78716195e+001	3.52959577e+001	-1.44704042e+002	7.39895882e+000	3.67398959e+002
5.23000000e-001	-6.13280931e+001	-3.39348855e+001	1.46065114e+002	3.84709341e+001	3.84709341e+001	-5.80517477e+001	-7.31386706e+001	-2.53138671e+002	-8.49137763e+001	2.75086224e+002
5.24000000e-001	-6.96696702e+001	-3.34579218e+001	1.46542078e+002	1.23265560e+001	1.23265560e+001	-5.64621466e+001	-8.44774414e+001	-2.64477441e+002	-4.55361545e+001	3.14463846e+002
5.25000000e-001	-5.67015369e+001	-8.87029920e+001	9.12970080e+001	5.90230525e+001	5.90230525e+001	-6.62978380e+001	2.80581623e+001	-1.51941838e+002	-1.26055670e+001	3.47394433e+002
5.26000000e-001	-5.75656357e+001	-6.53499125e+001	1.14650087e+002	-5.10729814e+001	-5.10729814e+001	-6.74702466e+001	-6.00229953e+001	-2.40022995e+002	7.76582901e+000	3.67765829e+002
5.27000000e-001	-6.66780996e+001	-6.93147206e+001	1.10685279e+002	1.23066113e+001	1.23066113e+001	-5.91745660e+001	-8.94846578e+001	-2.69484658e+002	4.35708651e+001	4.03570865e+002
5.28000000e-001	-6.01360827e+001	8.76825776e+001	8.76825776e+001	1.03167889e+001	1.03167889e+001	-5.97855954e+001	6.95182358e+000	-1.73048176e+002	5.97941547e+001	4.19794155e+002
5.29000000e-001	-6.38032651e+001	3.79153701e+001	3.79153701e+001	-3.71208115e+001	-3.71208115e+001	-6.24961416e+001	3.70142516e+001	-1.42985748e+002	-3.00280650e+001	3.29971935e+002
5.30000000e-001	-6.58608292e+001	2.58110251e+001	2.58110251e+001	-1.50794373e+001	-1.50794373e+001	-6.75812990e+001	1.18635083e+001	-1.68136492e+002	-1.40571699e+001	3.45942830e+002
5.31000000e-001	-6.45658594e+001	-2.49424416e+001	-2.49424416e+001	-2.47415482e+001	-2.47415482e+001	-6.54576646e+001	5.40033950e+001	-1.25996605e+002	-7.70973226e+000	3.52290268e+002
5.32000000e-001	-6.32212661e+001	-8.77128239e+001	-8.77128239e+001	-1.01196788e+001	-1.01196788e+001	-6.58358761e+001	8.64879883e+001	-9.35120117e+001	-1.51181766e+001	3.44881823e+002
5.33000000e-001	-5.78360085e+001	1.81094675e+001	1.81094675e+001	4.46711062e+001	4.46711062e+001	-6.08880534e+001	-5.87943897e+001	-5.87943897e+001	-2.76065967e+001	3.32393403e+002
5.34000000e-001	-6.17064092e+001	8.20547775e+001	8.20547775e+001	-8.12754881e+000	-8.12754881e+000	-5.38508441e+001	-2.82379421e+001	-2.82379421e+001	5.81099056e+001	4.18109906e+002
5.35000000e-001	-6.19103772e+001	3.71924024e+001	3.71924024e+001	-2.44872983e+001	-2.44872983e+001	-5.76412715e+001	2.14232458e+001	2.14232458e+001	-6.23307277e+001	2.97669272e+002
5.36000000e-001	-7.11313276e+001	8.78263449e+001	8.78263449e+001	-3.02899177e+000	-3.02899177e+000	-5.46036857e+001	-4.29331390e+001	-4.29331390e+001	7.32344614e+001	2.53234461e+002
5.37000000e-001	-7.64729531e+001	4.48150702e+001	4.48150702e+001	-4.52764000e+000	-4.52764000e+000	-5.68475811e+001	8.36448602e+001	8.36448602e+001	-3.57202732e+001	1.44279727e+002
5.38000000e-001	-5.99264867e+001	-3.76184021e+001	-3.76184021e+001	-4.84586950e+001	-4.84586950e+001	-6.62792971e+001	-8.63464753e+001	9.36535247e+001	-1.22125002e+001	1.67787500e+002
5.39000000e-001	-6.00686443e+001	2.44717925e+001	2.44717925e+001	3.19184004e+001	3.19184004e+001	-6.71786952e+001	-7.04426369e+001	1.09557363e+002	-7.05229983e+000	1.72947700e+002
5.40000000e-001	-5.50686809e+001	7.77594498e+001	7.77594498e+001	-2.94587755e+001	-2.94587755e+001	-6.24432464e+001	5.77152948e+001	2.37715295e+002	-2.94759767e+001	1.50524023e+002
5.41000000e-001	-7.46195059e+001	-6.84590648e+001	1.11540935e+002	-9.86287835e+000	-9.86287835e+000	-5.75481996e+001	6.05498833e+001	2.40549883e+002	-3.79224829e+001	1.42077517e+002
5.42000000e-001	-6.42167863e+001	-7.58866822e+001	1.04113318e+002	3.62635007e+001	3.62635007e+001	-6.26225036e+001	-8.40944433e+001	2.75905557e+002	-3.89328162e+000	1.76106718e+002
5.43000000e-001	-5.75572136e+001	1.08033913e+001	1.90803391e+002	3.50242600e+001	3.50242600e+001	-6.39408829e+001	6.84550655e+001	2.48455065e+002	-9.21949436e+000	1.70780506e+002
5.44000000e-001	-6.19705305e+001	8.55678393e+001	2.65567839e+002	1.31284252e+001	1.31284252e+001	-6.32229204e+001	-2.65660858e+001	1.53433914e+002	2.23889159e+001	2.02388916e+002
5.45000000e-001	-6.10917761e+001	1.59521538e+001	1.95952154e+002	-4.31967355e+001	-4.31967355e+001	-6.85325604e+001	6.58089341e+001	2.45808934e+002	4.37710783e+000	1.84377108e+002
5.46000000e-001	-5.75505560e+001	3.91178114e+001	2.19117811e+002	-7.31272956e+000	-7.31272956e+000	-7.24663316e+001	-4.04886024e+000	1.75951140e+002	-1.33777704e+001	1.66622230e+002
5.47000000e-001	-6.41616487e+001	-5.07873489e+001	1.29212651e+002	-1.17016578e+001	-1.17016578e+001	-6.15696581e+001	4.58769281e+001	2.25876928e+002	3.85322914e+001	2.18532291e+002
5.48000000e-001	-6.27888888e+001	6.34621745e+001	2.43462175e+002	-6.02807550e+000	-6.02807550e+000	-5.87968134e+001	4.14184486e+001	2.21418449e+002	-2.11491298e+001	1.58850870e+002
5.49000000e-001	-5.59032831e+001	5.80858739e+001	2.38085874e+002	7.44412789e+001	7.44412789e+001	-6.85076289e+001	4.00862076e+001	2.20086208e+002	-1.12203047e+001	1.68779695e+002
5.50000000e-001	-6.50695126e+001	-5.75909114e+001	1.22409089e+002	-2.41008117e+001	-2.41008117e+001	-6.45202623e+001	8.27173693e+001	2.62717369e+002	-1.55387943e+000	1.78446121e+002
5.51000000e-001	-6.34888259e+001	-5.37229062e+001	1.26277094e+002	8.27045583e+001	8.27045583e+001	-6.45142154e+001	-7.86686805e+001	2.81331320e+002	1.82776556e+001	1.98277656e+002
5.52000000e-001	-6.03337792e+001	7.64339319e+001	7.64339319e+001	-7.36005449e+001	1.06399455e+002	-6.28545380e+001	-7.88406279e+001	2.81159372e+002	9.03654111e+000	1.89036541e+002
5.53000000e-001	-5.94953822e+001	8.60849940e+001	8.60849940e+001	4.54074013e+000	1.84540740e+002	-6.39763136e+001	1.82787454e+001	3.78278745e+002	2.11689161e+001	2.01168916e+002
5.54000000e-001	-5.88186542e+001	5.34514580e+001	5.34514580e+001	3.76747442e+001	2.17674744e+002	-5.86215305e+001	8.21538847e+001	4.42153885e+002	-2.76792394e+001	1.52320761e+002
5.55000000e-001	-5.75812844e+001	4.25093062e+001	4.25093062e+001	2.91144807e+001	2.09114481e+002	-5.30591107e+001	2.60304604e+001	3.86030460e+002	7.84138347e+001	2.58413835e+002
5.56000000e-001	-6.77086415e+001	-2.44249559e+001	-2.44249559e+001	-2.76537865e+001	1.52346214e+002	-6.33817531e+001	8.75683782e+001	4.47568378e+002	1.97086663e+000	1.81970867e+002
5.57000000e-001	-5.97379187e+001	-2.17543088e+001	-2.17543088e+001	8.91586594e+001	2.69158659e+002	-6.91922396e+001	-1.63621433e+001	3.43637857e+002	1.39042910e+001	1.93904291e+002
5.58000000e-001	-5.96232295e+001	-4.77143810e+001	-4.77143810e+001	-2.34114659e+001	1.56588534e+002	-7.07088050e+001	1.63050673e+001	3.76305067e+002	-6.44260573e+000	1.73557394e+002
5.59000000e-001	-5.46832301e+001	-3.04555567e+001	-3.04555567e+001	-5.54833573e+001	1.24516643e+002	-5.48607218e+001	8.88810259e+001	4.48881026e+002	-5.58968317e+001	1.24103168e+002
5.60000000e-001	-5.84418941e+001	-8.20445022e+001	-8.20445022e+001	3.79222467e+001	2.17922247e+002	-6.02984317e+001	-3.25429379e+000	3.56745706e+002	3.71134086e+001	2.17113409e+002
5.61000000e-001	-5.96270557e+001	-4.00733788e+001	-4.00733788e+001	4.03796525e+001	2.20379653e+002	-6.97210783e+001	1.44531906e+001	3.74453191e+002	1.08534030e+001	1.90853403e+002
5.62000000e-001	-6.01785859e+001	-4.08949910e+001	-4.08949910e+001	6.55235392e+001	2.45523539e+002	-5.32572836e+001	-8.89623941e+001	2.71037606e+002	5.26138326e+001	2.32613833e+002
5.63000000e-001	-5.21843986e+001	-4.33351354e+001	-4.33351354e+001	-8.34970205e+001	2.76502980e+002	-5.41721695e+001	-1.10832602e+001	3.48916740e+002	5.85924969e+001	2.38592497e+002
5.64000000e-001	-5.90502483e+001	7.41576425e+001	7.41576425e+001	-6.06712877e+001	2.99328712e+002	-5.53532328e+001	-6.07266485e+001	2.99273351e+002	-4.89084531e+001	1.31091547e+002
5.65000000e-001	-6.51728526e+001	3.65067942e+000	3.65067942e+000	-2.30595300e+001	3.36940470e+002	-6.04790831e+001	4.17901824e+001	4.01790182e+002	8.30432945e+001	8.30432945e+001
5.66000000e-001	-5.84221105e+001	-6.70863010e+001	-6.70863010e+001	-2.99793614e+001	3.30020639e+002	-6.56877236e+001	-1.58947117e+001	3.44105288e+002	-5.63227737e+001	1.23677226e+002
5.67000000e-001	-7.07533370e+001	-7.81346075e+001	-7.81346075e+001	-5.56311849e+000	3.54436882e+002	-5.91657170e+001	2.89137966e+001	3.88913797e+002	6.74288744e+001	2.47428874e+002
5.68000000e-001	-6.09890885e+001	3.64886710e+001	3.64886710e+001	2.15834321e+001	3.81583432e+002	-6.08383714e+001	-3.15846977e+001	3.28415302e+002	3.20924366e+001	2.12092437e+002
5.69000000e-001	-6.73672641e+001	-5.26220204e+001	-5.26220204e+001	-2.03678229e+001	3.39632177e+002	-6.05096299e+001	-1.87097122e+001	3.41290288e+002	4.26704453e+001	2.22670445e+002
5.70000000e-001	-7.01464225e+001	4.67416240e+001	4.67416240e+001	5.28704463e+001	4.12870446e+002	-5.76549507e+001	-2.18378863e+001	3.38162114e+002	-4.83618278e+001	1.31638172e+002
5.71000000e-001	-6.70779945e+001	-1.94018603e+001	-1.94018603e+001	-4.65704385e+001	3.13429562e+002	-7.11605104e+001	2.46819744e+001	3.84681974e+002	-1.33576661e+001	1.66642334e+002
5.72000000e-001	-5.79733254e+001	5.98292332e+001	5.98292332e+001	3.39403023e+001	3.93940302e+002	-6.26644271e+001	-8.91727280e+000	3.51082727e+002	-2.81556837e+001	1.51844316e+002
5.73000000e-001	-6.31060725e+001	-6.64141210e+001	-6.64141210e+001	-1.93675289e+001	3.40632471e+002	-6.32037502e+001	6.58974600e+001	4.25897460e+002	4.36969950e+001	2.23696995e+002
5.74000000e-001	-6.47535335e+001	4.99142896e+000	4.99142896e+000	2.44616000e+001	3.84461600e+002	-6.95231470e+001	4.95139066e+001	4.09513907e+002	5.25924091e+000	1.85259241e+002
5.75000000e-001	-6.00783585e+001	-2.01024280e+001	-2.01024280e+001	-3.52961075e+001	3.24703892e+002	-5.73012844e+001	1.36907308e+001	3.73690731e+002	3.54229510e+001	2.15422951e+002
5.76000000e-001	-5.48693161e+001	2.16734615e+000	2.16734615e+000	7.49149907e+001	4.34914991e+002	-5.85521819e+001	-6.17467477e+001	2.98253252e+002	-3.67321415e+001	1.43267858e+002
5.77000000e-001	-5.93924478e+001	1.52602564e+001	1.52602564e+001	-3.56771229e+001	3.24322877e+002	-6.12531862e+001	7.57485579e+001	2.55748558e+002	-8.22498676e-001	1.79177501e+002
5.78000000e-001	-6.73716995e+001	-4.95417131e+001	-4.95417131e+001	2.27216427e+001	3.82721643e+002	-7.18940313e+001	-7.86905041e+001	2.81309496e+002	-8.53342815e+000	1.71466572e+002
5.79000000e-001	-6.95485505e+001	-3.85167727e+001	-3.85167727e+001	1.41470421e+001	3.74147042e+002	-5.50103907e+001	2.99702655e+001	3.89970265e+002	5.69531303e+001	2.36953130e+002
5.80000000e-001	-6.12453193e+001	8.64603172e+000	8.64603172e+000	-2.62157863e+001	3.33784214e+002	-6.46814913e+001	8.40174892e+001	4.44017489e+002	1.23316718e+001	1.92331672e+002
5.81000000e-001	-5.47463681e+001	-7.04019304e+000	-7.04019304e+000	5.45548204e+001	4.14554820e+002	-5.31545153e+001	-1.77815962e+001	3.42218404e+002	-6.77449801e+001	1.12255020e+002
5.82000000e-001	-6.88290463e+001	6.90611714e+001	6.90611714e+001	-3.49815388e+000	3.56501846e+002	-6.41213696e+001	8.37214446e+001	4.43721445e+002	-1.14191334e+001	1.68580867e+002
5.83000000e-001	-6.55702191e+001	4.27846665e+001	4.27846665e+001	2.45225572e+001	3.84522557e+002	-6.37816063e+001	6.18772548e+001	4.21877255e+002	7.98145885e+000	1.87981459e+002
5.84000000e-001	-5.41372283e+001	-7.04992898e+001	-7.04992898e+001	1.31366861e+001	3.73136686e+002	-5.98908457e+001	-2.87514326e+001	3.31248567e+002	4.54537109e+001	2.25453711e+002
5.85000000e-001	-6.43744050e+001	-2.07032519e+001	-2.07032519e+001	2.21924988e+001	3.82192499e+002	-6.08566994e+001	-1.42544118e+001	3.45745588e+002	-7.38655769e+001	1.06134423e+002
5.86000000e-001	-5.81212302e+001	-6.71487246e+001	-6.71487246e+001	-1.88239048e+001	3.41176095e+002	-6.31094323e+001	3.42702639e+001	3.94270264e+002	-7.36869128e+001	1.06313087e+002
5.87000000e-001	-5.91191496e+001	4.77969389e+001	4.77969389e+001	4.40011589e+001	4.04001159e+002	-5.69317300e+001	-2.93966611e+001	3.30603339e+002	-7.13029356e+001	1.08697064e+002
5.88000000e-001	-6.23371921e+001	4.60367693e+001	4.60367693e+001	-1.15378899e+001	3.48462110e+002	-5.66997334e+001	2.91758686e+001	3.89175869e+002	4.73427464e+001	2.27342746e+002
5.89000000e-001	-5.65475627e+001	-1.55562584e+001	-1.55562584e+001	-7.63436263e+001	2.83656374e+002	-6.23364546e+001	-2.48159198e+001	3.35184080e+002	-3.79183679e+001	1.42081632e+002
5.90000000e-001	-6.34776993e+001	2.19745330e+001	2.19745330e+001	-3.08357195e+001	3.29164281e+002	-5.57325741e+001	-8.32620790e+000	3.51673792e+002	-8.46654265e+001	9.53345735e+001
5.91000000e-001	-5.83998960e+001	5.30644778e+001	5.30644778e+001	-1.96991475e+001	3.40300853e+002	-5.80484789e+001	8.80215010e+001	4.48021501e+002	-3.83452523e+001	1.41654748e+002
5.92000000e-001	-6.76292039e+001	6.48844627e+001	6.48844627e+001	-1.70308716e+000	3.58296913e+002	-5.92487857e+001	1.03610419e+001	3.70361042e+002	3.36449009e+001	2.13644901e+002
5.93000000e-001	-6.35939531e+001	5.71477733e+001	5.71477733e+001	2.55341453e+001	3.85534145e+002	-5.85328659e+001	-5.91655480e+001	3.00834452e+002	-2.51026038e+001	1.54897396e+002
5.94000000e-001	-6.32848176e+001	7.52032224e+001	7.52032224e+001	-1.06092138e+001	3.49390786e+002	-5.31744124e+001	4.53332576e+001	4.05333258e+002	7.48802818e+001	2.54880282e+002
5.95000000e-001	-5.47818744e+001	1.46158450e+001	1.46158450e+001	5.80821881e+001	4.18082188e+002	-6.99012601e+001	5.92006988e+001	4.19200699e+002	1.95783642e+000	1.81957836e+002
5.96000000e-001	-6.28700399e+001	5.84658230e+001	5.84658230e+001	1.35924394e+001	3.73592439e+002	-5.76053527e+001	-4.78818751e+001	3.12118125e+002	-7.35129768e+001	1.06487023e+002
5.97000000e-001	-5.11571389e+001	3.03035261e+001	3.03035261e+001	-7.64861491e+001	2.83513851e+002	-5.75047231e+001	8.44641047e+001	2.64464105e+002	-4.09002096e+001	1.39099790e+002
5.98000000e-001	-6.62331371e+001	6.70354907e+001	6.70354907e+001	4.08938808e+000	3.64089388e+002	-6.12902014e+001	8.02714900e+001	2.60271490e+002	-4.94843625e+000	1.75051564e+002
5.99000000e-001	-6.05038178e+001	-8.01854936e+001	9.98145064e+001	-2.80302080e+001	3.31969792e+002	-6.06824779e+001	-7.25861398e+001	2.87413860e+002	-2.08365422e+001	1.59163458e+002
6.00000000e-001	-5.72704272e+001	2.91923323e+001	2.09192332e+002	-6.07882241e+000	3.53921178e+002	-5.60807079e+001	-5.04619527e+001	3.09538047e+002	6.63986537e+001	2.46398654e+002
6.01000000e-001	-6.62747485e+001	3.69363134e+001	2.16936313e+002	1.30428208e+001	3.73042821e+002	-6.56585209e+001	6.30764421e+001	4.23076442e+002	7.94666046e+000	1.87946660e+002
6.02000000e-001	-6.54882835e+001	-1.12245702e+001	1.68775430e+002	-2.27068445e+001	3.37293156e+002	-6.68553415e+001	-2.72701076e+001	3.32729892e+002	2.18581343e+001	2.01858134e+002
6.03000000e-001	-5.77286072e+001	-3.77977814e+001	1.42202219e+002	-6.76581682e+001	2.92341832e+002	-6.57328589e+001	3.18454617e+001	3.91845462e+002	-2.02012501e+001	1.59798750e+002
6.04000000e-001	-6.69002739e+001	-2.98121795e+001	1.50187820e+002	1.65568309e+001	3.76556831e+002	-6.29163112e+001	5.16372825e+000	3.65163728e+002	-4.14847392e+001	1.38515261e+002
6.05000000e-001	-6.16465984e+001	4.52723558e+001	2.25272356e+002	4.95719376e-001	3.60495719e+002	-7.16316384e+001	4.88273815e+001	4.08827382e+002	7.80162249e-001	1.80780162e+002
6.06000000e-001	-5.63297662e+001	5.13440855e+000	1.85134409e+002	4.82748406e+001	4.08274841e+002	-5.88801567e+001	-6.53996108e+001	2.94600389e+002	-4.37524904e+001	1.36247510e+002
6.07000000e-001	-5.79898963e+001	-8.28121362e+001	9.71878638e+001	-8.02504448e+001	2.79749555e+002	-6.06127432e+001	-6.35371046e+001	2.96462895e+002	1.68256510e+001	1.96825651e+002
6.08000000e-001	-6.46236233e+001	1.41680612e+001	1.94168061e+002	8.33245470e+000	3.68332455e+002	-6.52237982e+001	8.77055672e+001	2.67705567e+002	-6.35314488e+000	1.73646855e+002
