!Keysight Technologies,M9374A,MY55442783,A.12.55.05
!Date: Friday, May 21, 2021 09:35:37
!Correction: S11(Full 2 Port(1,2)) 
!S21(Full 2 Port(1,2)) 
!S12(Full 2 Port(1,2)) 
!S22(Full 2 Port(1,2)) 
!S2P File: Measurements: S11, S21, S12, S22:
# Hz S  RI   R 50
500000000 -0.68498176 0.10831904 -0.00029007922 -0.002040962 -0.00055370218 -0.0012749118 -0.69717729 0.10181535
501000000 -0.6850608 0.10830388 0.00069156976 -0.0017557739 -7.1377908e-005 -0.001390258 -0.6959666 0.10290988
502000000 -0.6847862 0.10768158 0.00066064356 -0.0013766764 -0.0011213821 -0.002306395 -0.69741333 0.10352058
503000000 -0.68381083 0.10765394 -0.00059320848 -0.0025330649 0.00052336598 -0.0022651232 -0.69723243 0.10463387
504000000 -0.68364829 0.10908466 -0.0010524776 -0.0013688321 -0.00012136107 -0.0017353594 -0.69653428 0.1039554
505000000 -0.68405133 0.11033951 -0.00040088972 -0.001415348 -0.00024653843 -0.0011059557 -0.69821477 0.10509071
506000000 -0.6824733 0.11042158 0.00034503819 -0.00091982679 -0.00043527744 -0.0022333108 -0.69761479 0.10452142
507000000 -0.68300486 0.11111085 0.00068112183 -0.002036138 -0.00017150573 -0.0022365157 -0.69544476 0.10473322
508000000 -0.6847313 0.11059894 8.7770321e-005 -0.0017699669 -0.00026484943 -0.0010106215 -0.69748992 0.10399604
509000000 -0.68484926 0.11120079 -0.00057095248 -0.00094903255 -0.0013821999 -0.0017312233 -0.69596153 0.10467593
510000000 -0.68314642 0.11108396 -0.00033071468 -0.0022700231 -0.00046593556 -0.0014338238 -0.6964941 0.10447534
511000000 -0.68326914 0.1112893 -0.00063626497 -0.0022201904 -0.00017912693 -0.0017582707 -0.69718391 0.10594235
512000000 -0.68396062 0.11083259 -0.00057123072 -0.0015324773 7.6561257e-005 -0.0019649342 -0.69744539 0.10559575
513000000 -0.68315196 0.11086041 -0.00016641492 -0.00093962491 6.5211585e-005 -0.0018137475 -0.69620258 0.10371156
514000000 -0.68395936 0.11179509 -0.00044127295 -0.00163137 0.00055516744 -0.0018743215 -0.69628322 0.10676152
515000000 -0.68300593 0.11215926 0.00013773765 -0.0017828271 -0.00054385513 -0.0011862839 -0.69669878 0.10628021
516000000 -0.6828984 0.11211868 -0.00050321192 -0.00073688151 0.00028897234 -0.0014967686 -0.69520766 0.10660782
517000000 -0.68468821 0.11243131 -0.00066739571 -0.0016576425 0.00056729838 -0.0011819047 -0.69722694 0.10673843
518000000 -0.68297106 0.11103905 -0.0011812813 -0.0022737698 -0.00085972622 -0.0014991788 -0.6974147 0.10544913
519000000 -0.68383282 0.11148954 -0.0010975485 -0.0019763573 -0.0010089568 -0.0016913568 -0.69633102 0.10747499
520000000 -0.68355256 0.11210607 0.00026534626 -0.0017651542 0.00026359275 -0.001302697 -0.6953367 0.10732675
521000000 -0.68436509 0.11334224 0.00053079816 -0.0024185081 -0.00099860074 -0.00099696196 -0.69685924 0.10732444
522000000 -0.68374652 0.11392852 -0.00050636008 -0.0026078175 0.00050612004 -0.0021921631 -0.69680446 0.10755626
523000000 -0.68392229 0.11213278 0.00085840269 -0.0014196268 -0.00079262798 -0.0024510515 -0.69632834 0.10673174
524000000 -0.68329519 0.11274185 -0.00082552986 -0.0022632182 0.00020904288 -0.0013750804 -0.69639176 0.10887256
525000000 -0.68233049 0.11267832 -0.00022215043 -0.0014263828 -0.00078624464 -0.0025171852 -0.69729537 0.10807569
526000000 -0.68297184 0.11434849 -0.00016616427 -0.0010257727 -0.00094825134 -0.0018661127 -0.69583976 0.10828152
527000000 -0.68230975 0.11443637 -0.00034396769 -0.0011913675 -0.00036752917 -0.0014582835 -0.69645858 0.10939148
528000000 -0.6842913 0.11344996 0.00026513633 -0.001470792 -0.00067317585 -0.0014478695 -0.69636387 0.10998236
529000000 -0.68455654 0.11485694 0.00029738914 -0.00117217 3.5222718e-005 -0.00051210122 -0.69617093 0.1096758
530000000 -0.68333709 0.11591536 -0.00015792256 -0.0019807289 -6.9119624e-006 -0.0015113823 -0.69656372 0.11154734
531000000 -0.68435937 0.11453933 -0.00051793526 -0.0021415839 -0.00055405643 -0.0010875027 -0.69622844 0.11103083
532000000 -0.68253404 0.11476424 0.0003286789 -0.0014863326 -0.00040230673 -0.0011243277 -0.69547075 0.11076456
533000000 -0.68396246 0.11493426 -0.00086112326 -0.0012491029 0.00029911267 -0.0021759421 -0.69635564 0.10929879
534000000 -0.68347269 0.11564174 -0.00057001645 -0.0021555256 -0.00029964623 -0.0014523154 -0.69548285 0.11046445
535000000 -0.68368423 0.11587378 0.00022541516 -0.0013995589 0.0005109827 -0.0019314162 -0.69508129 0.11040641
536000000 -0.68331778 0.11576688 0.00022452054 -0.0021916181 -0.00026624798 -0.00056191691 -0.69591659 0.11022375
537000000 -0.68307602 0.11455456 -0.001660093 -0.0020156077 1.4422452e-006 -0.0012453698 -0.69520503 0.11059751
538000000 -0.68283665 0.11490459 -0.00047078519 -0.0016485897 -0.00075653655 -0.0018440036 -0.69445068 0.11141611
539000000 -0.68291003 0.11696654 -0.00019493968 -0.0021623797 0.00011028435 -0.00091435562 -0.69543666 0.11240749
540000000 -0.68232572 0.11601311 0.00034154 -0.002103392 -0.00029113257 -0.001662251 -0.69624871 0.11158331
541000000 -0.68233335 0.11736564 0.00071988971 -0.0010445244 -0.00019025189 -0.0014828835 -0.69590575 0.11189669
542000000 -0.68357182 0.11622173 -0.001301941 -0.00020807494 -0.00071434089 -0.0021509994 -0.69540501 0.11292794
543000000 -0.68393546 0.11709654 -0.00057377183 -0.0020116109 -0.00051455176 -0.0021975788 -0.69618195 0.11208361
544000000 -0.68242484 0.11704092 -0.00082634733 -0.0017513693 -0.00099121407 -0.0011626733 -0.69692498 0.11323798
545000000 -0.68323123 0.11679589 0.00020645483 -0.0017979172 1.1470152e-005 -0.00084214483 -0.69644159 0.11334217
546000000 -0.68287307 0.11839119 -0.0012132342 -0.0010451395 0.00030731902 -0.001905479 -0.69488305 0.11404684
547000000 -0.6815753 0.11811527 -0.001317755 -0.0026155792 -0.00046185305 -0.0022226742 -0.69671267 0.11222494
548000000 -0.68222797 0.11747056 0.00042725354 -0.00081535464 -0.00060720753 -0.0020929936 -0.69612575 0.11201588
549000000 -0.68358684 0.11826187 -0.0010317629 -0.0011180828 -0.00078690163 -0.0011937215 -0.69562113 0.11458507
550000000 -0.68284398 0.11798269 -0.00026844419 -0.0012053269 0.00045233002 -0.0019340903 -0.6964342 0.11511701
551000000 -0.68224692 0.1182217 -0.00057047268 -0.0014093488 -0.00021593871 -0.0017332747 -0.69375074 0.1141568
552000000 -0.68181646 0.11731822 -9.2786919e-005 -0.0013071615 -4.2483905e-005 -0.0018136648 -0.69535083 0.11287878
553000000 -0.68184108 0.1185618 -0.00081991323 -0.0010141744 -0.0016794415 -0.0017954637 -0.69668561 0.11426988
554000000 -0.68185085 0.119109 -0.0015194818 -0.0019291916 0.00090835372 -0.0011461888 -0.69689602 0.11319092
555000000 -0.68260998 0.1203609 -0.00063366129 -0.0019291384 -0.00042968267 -0.0009008919 -0.69466835 0.11415173
556000000 -0.6820876 0.11841493 -0.00048637894 -0.00062780682 -0.00012626335 -0.0018455366 -0.69583797 0.11519305
557000000 -0.68348801 0.12086814 -0.001373059 -0.0023043861 -0.00055809377 -0.002005382 -0.69523269 0.11328711
558000000 -0.68219429 0.11966672 -0.0001732345 -0.0020479455 -0.00074263697 -0.0017685798 -0.69579476 0.11543807
559000000 -0.68150586 0.11899402 -8.4063959e-006 -0.0026049819 -0.00039866223 -0.0021090896 -0.69525898 0.11552816
560000000 -0.68148327 0.12092225 -0.00049861427 -0.001545464 0.00056467508 -0.0011360863 -0.69698024 0.11506584
561000000 -0.68242079 0.11903873 -0.00074202707 -0.00079137814 -0.00013885136 -0.0014278432 -0.69569266 0.11427274
562000000 -0.68242836 0.11950826 0.00038873253 -0.001699845 -0.0009996125 -0.0017046868 -0.69451481 0.11521258
563000000 -0.68236482 0.11953126 -0.00065534818 -0.00091264554 -0.0019610461 -0.001432406 -0.69541198 0.11620665
564000000 -0.68183416 0.12040778 -0.00069337484 -0.0011377665 -0.0012238169 -0.0020245761 -0.69582498 0.11554217
565000000 -0.6831972 0.12140657 0.00097327208 -0.0018138143 -0.00039027072 -0.0014299785 -0.69523686 0.11576343
566000000 -0.68273836 0.12003934 -0.0007296094 -0.0018925435 0.00029678122 -0.001668143 -0.69568509 0.11644422
567000000 -0.68337792 0.12045985 -0.00047756621 -0.0017342964 -0.00032272976 -0.0016721166 -0.69725984 0.11444627
568000000 -0.68171322 0.12061197 -0.00013237384 -0.0016648548 -0.00028726074 -0.0012334982 -0.69602823 0.11708658
569000000 -0.68141854 0.12137464 -0.0005056191 -0.0010007346 -0.00091207982 -0.0014849113 -0.69468439 0.11656669
570000000 -0.68194467 0.12090425 -5.5779938e-006 -0.0010668074 -0.0010430188 -0.0019358601 -0.69541675 0.11640194
571000000 -0.6819374 0.12195886 0.00023134235 -0.0025690929 -0.00060192897 -0.0021138352 -0.69619811 0.11757603
572000000 -0.68185037 0.12219227 -0.0013027798 -0.0013739325 -0.00029965633 -0.0014073679 -0.69481188 0.11767008
573000000 -0.68108124 0.12251765 0.00050482916 -0.00077129423 -0.0012046953 -0.0013631518 -0.69629055 0.11720939
574000000 -0.68218738 0.12240115 -0.00043221563 -0.001533802 -0.00023547764 -0.0015327552 -0.69591421 0.11905342
575000000 -0.68174398 0.12308893 -0.0001746818 -0.001403773 -0.00081116747 -0.001888114 -0.69456971 0.11789006
576000000 -0.68156034 0.12232826 -1.9363612e-005 -0.0016696814 -0.0012062947 -0.0013264209 -0.69478333 0.11737644
577000000 -0.68122816 0.12139771 -0.0010991812 -0.0019348193 -0.00017491341 -0.0010584476 -0.69429356 0.11710981
578000000 -0.68292964 0.12335771 0.00046001011 -0.0011194006 -0.00091806869 -0.0021623843 -0.69619626 0.11766749
579000000 -0.68013793 0.12254041 0.00039479823 -0.00045107826 -0.00083019736 -0.0017498746 -0.6952917 0.11704448
580000000 -0.68031812 0.12397156 -0.00062343187 -0.0019041436 0.00067930541 -0.0019262456 -0.69487876 0.1184569
581000000 -0.68067294 0.1230451 0.00027268869 -0.0018023448 0.00012923835 -0.0016031845 -0.69638896 0.11966918
582000000 -0.68168491 0.1233656 -0.0007825761 -0.002559219 -0.00010644145 -0.00076628034 -0.69415802 0.11883618
583000000 -0.68099064 0.12410156 -0.00052831677 -0.0010635826 -0.0013644974 -0.00060710317 -0.69481117 0.11854052
584000000 -0.6808539 0.12262431 -0.00022196946 -0.0014220873 -0.00056349271 -0.0018669566 -0.69467664 0.12062833
585000000 -0.68141627 0.12324539 0.00057677343 -0.0013007114 -0.00081994408 -0.0014080262 -0.694978 0.11918466
586000000 -0.6811201 0.12492405 -0.00041499571 -0.0013958577 0.00067892531 -0.0020273537 -0.69536245 0.11994764
587000000 -0.68190086 0.12458123 0.00039910438 -0.0017827885 -0.00071788573 -0.002689057 -0.69418782 0.12011643
588000000 -0.68044913 0.12536521 -0.00092248752 -0.0019022191 0.00065939454 -0.0014465427 -0.69297343 0.12057997
589000000 -0.68056989 0.12630093 -0.00046468692 -0.0013959755 -0.00037766364 -0.0028219426 -0.69357365 0.12064934
590000000 -0.68088776 0.12436687 0.00034879765 -0.0018351342 -0.00043601141 -0.0012553611 -0.69404864 0.12150143
591000000 -0.6822778 0.12563105 -0.0008813985 -0.0028932823 -0.00041152822 -0.0015432354 -0.69566858 0.12174861
592000000 -0.67964232 0.12543008 0.00049977511 -0.0017871523 0.00050970295 -0.001885635 -0.69487137 0.12161343
593000000 -0.68036264 0.1254099 -0.0009781766 -0.0018240941 2.6410627e-005 -0.001037445 -0.69369167 0.12050008
594000000 -0.68084276 0.12624271 -0.00024794019 -0.0026302189 0.00050459657 -0.0012903305 -0.69388336 0.12144347
595000000 -0.68225455 0.12553801 -0.00057885644 -0.0025726075 -1.5598273e-005 -0.0017746981 -0.69480318 0.12173795
596000000 -0.68032086 0.12633865 -0.0011941696 -0.001580055 -0.0004179363 -0.0017310109 -0.69457412 0.12206126
597000000 -0.68107677 0.1280331 0.00066408853 -0.0011242279 -0.0001746136 -0.0016709227 -0.69404864 0.12174087
598000000 -0.68092024 0.12824263 0.00037724667 -0.002174889 -0.0011315133 -0.0019673279 -0.69429958 0.12264526
599000000 -0.68049389 0.12691639 -0.00095375848 -0.0021092475 0.00058743637 -0.001924192 -0.69369459 0.12412225
600000000 -0.67939168 0.12740968 -9.8060787e-005 -0.0016335434 -0.00062834134 -0.0015356942 -0.69305503 0.12265269
601000000 -0.67932016 0.12938669 -5.0072944e-005 -0.0028482904 -7.5861572e-005 -0.0017373135 -0.69504791 0.12234011
602000000 -0.67944109 0.12685165 -0.0013988415 -0.0023867572 0.00011731974 -0.0015944849 -0.69364822 0.12363517
603000000 -0.68004239 0.12854597 0.00052539608 -0.0013962759 3.0041325e-005 -0.0020734128 -0.69418609 0.12274691
604000000 -0.67928702 0.12717371 -0.00024479159 -0.0020554082 -6.926975e-005 -0.00067397451 -0.69472498 0.1254636
605000000 -0.68144989 0.12764698 -0.00066079316 -0.0016102702 -8.5925632e-005 -0.0017664453 -0.69336188 0.12411155
606000000 -0.68161082 0.12849298 -0.00075672677 -0.0010689845 -0.00014798624 -0.0013145665 -0.69260627 0.12338201
607000000 -0.68016386 0.1290278 -9.7379518e-005 -0.0022081223 -0.00027556764 -0.0014159648 -0.69412225 0.12355422
608000000 -0.68061626 0.13066655 0.00010685408 -0.0013870563 -0.00025534775 -0.0013852508 -0.69396478 0.12296593
609000000 -0.67762089 0.12944625 -0.00023866411 -0.0020002073 -0.0013084277 -0.0022432744 -0.69376051 0.125673
610000000 -0.67969853 0.13021773 0.00037810419 -0.00089337328 0.0011054849 -0.0017220528 -0.69395661 0.12426582
611000000 -0.68024462 0.13014738 -0.0014313234 -0.0016719433 -0.00046406817 -0.0018082967 -0.69336087 0.12537989
612000000 -0.67914766 0.13067336 -0.00033989843 -0.0023226633 -0.00088784762 -0.0015554959 -0.69298834 0.1255416
613000000 -0.68015462 0.13123551 -0.00016093993 -0.0028898965 0.00035443547 -0.0015518337 -0.69243348 0.12456784
614000000 -0.67935658 0.13006094 -0.00064709934 -0.002761957 0.00046947188 -0.0014280929 -0.69385654 0.12586284
615000000 -0.67901701 0.13027833 0.00047897425 -0.0023778975 -0.0013971344 -0.0022644692 -0.69351912 0.12487169
616000000 -0.67926198 0.13058409 -0.00029566462 -0.0025825913 5.116462e-006 -0.00243391 -0.69371247 0.12759332
617000000 -0.67876536 0.13275297 -0.00064210332 -0.0018873228 -0.00072859728 -0.0013978784 -0.69332081 0.12693119
618000000 -0.67789173 0.13275826 -0.00022948056 -0.0015950984 0.00013870197 -0.0015127365 -0.69206107 0.12764701
619000000 -0.67883962 0.13367929 -0.00079233415 -0.002270384 -0.00011075732 -0.0016556886 -0.69240665 0.12756801
620000000 -0.67965084 0.1316551 -0.00016261361 -0.00082434557 -0.00086818117 -0.0014969519 -0.6929341 0.12728363
621000000 -0.67946911 0.13368271 -0.00066934916 -0.0011650738 -0.00038037112 -0.0010237113 -0.69129193 0.127184
622000000 -0.67851835 0.1333247 -0.00052739528 -0.0017580503 -0.0002595433 -0.001826098 -0.69361824 0.12658659
623000000 -0.67959273 0.13471864 0.00021487749 -0.001395736 -0.0002019899 -0.0023109538 -0.6917963 0.12810248
624000000 -0.67926908 0.1339107 -0.0008918086 -0.0017538313 -8.4729683e-005 -0.0015125836 -0.69276279 0.12649365
625000000 -0.67970121 0.13455303 -0.0013731185 -0.0017557816 -0.0010613396 -0.0023931591 -0.69417304 0.12631641
626000000 -0.67915595 0.13496849 -0.00048397813 -0.0019190044 0.00011422092 -0.0023422844 -0.6923486 0.12682822
627000000 -0.67848247 0.1358642 0.00030360545 -0.0017172329 -0.00099137216 -0.0028865892 -0.69151294 0.12801087
628000000 -0.67919248 0.13433963 -0.0005755052 -0.0016530252 2.3067103e-006 -0.0014034824 -0.69344413 0.12916294
629000000 -0.6787132 0.13517494 5.6228539e-005 -0.0012916608 0.00023412329 -0.0013379155 -0.69158638 0.12968518
630000000 -0.67858386 0.13542338 -0.00044185677 -0.0018130781 -0.00060134183 -0.0018342328 -0.692092 0.12948275
631000000 -0.67852837 0.13606122 -0.00036000725 -0.0024191178 -0.00050891953 -0.0023117112 -0.69388103 0.13028318
632000000 -0.67952991 0.13643764 -0.00090180413 -0.0017015707 -0.0013571999 -0.0023746295 -0.69298542 0.12901416
633000000 -0.67813975 0.13634431 -0.0010166625 -0.0031719278 -0.00011435234 -0.0018406034 -0.69312429 0.12945028
634000000 -0.67943025 0.13646501 -0.00080355449 -0.0014618603 -0.0012423204 -0.0025178653 -0.69217294 0.12959804
635000000 -0.67800933 0.13731451 -0.00054217945 -0.0015557031 -0.0012982613 -0.0022690184 -0.6929723 0.13031729
636000000 -0.67903847 0.13629569 -0.00054765947 -0.00186186 -0.00094550516 -0.00084155722 -0.69394988 0.13055445
637000000 -0.67843014 0.13639292 -0.0004735477 -0.0018574746 -0.0008436995 -0.0014085248 -0.69230932 0.13010584
638000000 -0.67788988 0.1383274 -0.00048994337 -0.002062846 -0.00028959179 -0.002261037 -0.69264829 0.13065656
639000000 -0.67952132 0.13847388 -0.00047578756 -0.0019700897 5.3490247e-005 -0.0019116253 -0.69282085 0.12973532
640000000 -0.67849964 0.13803279 0.00026443662 -0.0010103674 0.00017645165 -0.0011386996 -0.692182 0.13123921
641000000 -0.67753154 0.13682023 -0.0012738334 -0.00194239 -0.00096052646 -0.001805573 -0.69319874 0.13181591
642000000 -0.67809689 0.13843302 0.00046646502 -0.002673286 -0.00072939351 -0.0023547108 -0.69314212 0.13149624
643000000 -0.67755103 0.13720371 -0.001014547 -0.0025388531 5.8309382e-005 -0.0025731621 -0.69231844 0.13144615
644000000 -0.67864126 0.13850735 -0.00047201474 -0.0023147976 -0.00047942522 -0.0016237625 -0.6921646 0.13221104
645000000 -0.6787526 0.13809672 -0.0010137787 -0.0019416304 -0.00044390844 -0.0020086367 -0.69249517 0.13264297
646000000 -0.67882347 0.13978517 -0.00016658612 -0.0017096148 -0.00018167357 -0.0014273467 -0.69177347 0.13196984
647000000 -0.67943883 0.13894047 -0.00064001331 -0.0024447234 -0.00021134139 -0.0024815451 -0.6919871 0.13164851
648000000 -0.67775249 0.13931239 0.00090530049 -0.0013237887 -0.00036902554 -0.00064999284 -0.69233471 0.13174675
649000000 -0.67847919 0.13936585 9.9846788e-005 -0.0018717304 -0.00077996007 -0.0032674344 -0.69169897 0.13288787
650000000 -0.67715913 0.13965788 -0.0012535303 -0.00080856466 8.7418441e-005 -0.0017823679 -0.69178009 0.13369934
651000000 -0.67671436 0.14151616 -0.00048952876 -0.0019612128 -0.00014596102 -0.0028278776 -0.69275093 0.13425073
652000000 -0.67793036 0.13989621 -0.00011346176 -0.0018462627 -0.0011584203 -0.0014417282 -0.69046444 0.13478179
653000000 -0.68093628 0.14058749 -0.00082282315 -0.0024079194 -0.00034357116 -0.0013228611 -0.69130319 0.13334224
654000000 -0.67778945 0.14147972 -0.00053424103 -0.0010639688 -0.00087052037 -0.002044573 -0.6925841 0.13369814
655000000 -0.67848676 0.14085805 -0.00042994009 -0.002048573 0.00055539038 -0.0024203677 -0.69229645 0.1338235
656000000 -0.6779387 0.1416916 -0.00066872692 -0.002457907 0.00048870366 -0.0017425936 -0.6915468 0.13452429
657000000 -0.67853886 0.14043586 -0.00082014082 -0.0023627302 -8.6511769e-005 -0.001886073 -0.69218457 0.13493651
658000000 -0.67888629 0.14165255 -0.00075285992 -0.0020140428 -0.00040167975 -0.00072830816 -0.6900152 0.13624768
659000000 -0.67695421 0.14153542 -0.00078653207 -0.0025129812 -0.0012089009 -0.0014261645 -0.69039297 0.13435659
660000000 -0.67737395 0.14251333 -0.00070158992 -0.0019299914 -0.00024530437 -0.0019982764 -0.69062269 0.13581501
661000000 -0.67826563 0.14226454 -0.0008853036 -0.0018971167 -0.001148854 -0.0020491621 -0.6932165 0.13537502
662000000 -0.67573184 0.14160264 -0.0010900025 -0.0024459451 -0.00022659106 -0.0012683863 -0.69191402 0.13543212
663000000 -0.67867798 0.14266601 -0.00075536477 -0.0026661367 -0.00026846299 -0.0023188724 -0.69284564 0.13481504
664000000 -0.67872715 0.14183132 -0.0010192672 -0.0020844562 -0.00016978814 -0.0016330563 -0.690247 0.13408792
665000000 -0.6782918 0.1425592 0.00024021715 -0.0014846694 -0.00012775946 -0.0013570841 -0.69005936 0.13567421
666000000 -0.67798483 0.14276257 -0.00094003277 -0.0016622233 -0.00016680225 -0.00133485 -0.69169039 0.13577111
667000000 -0.67738086 0.14273073 -0.0014349172 -0.003119773 -0.00033276278 -0.0018205721 -0.69099826 0.13542445
668000000 -0.67657065 0.14363474 -0.00074444973 -0.0012943518 1.0183776e-006 -0.0023267153 -0.69086701 0.13681599
669000000 -0.67683107 0.14404935 -0.00058773527 -0.0020152822 0.00018950309 -0.0024058281 -0.69205868 0.13568968
670000000 -0.6775521 0.14406332 -0.0011884699 -0.0021123814 -0.00058014051 -0.0013361424 -0.69166362 0.13705322
671000000 -0.67736405 0.14303558 -0.00022181071 -0.0018438868 0.00011036069 -0.0022799869 -0.6917181 0.13672087
672000000 -0.67779022 0.14463165 -0.00013310522 -0.002682277 -0.00070228201 -0.0023726174 -0.69010925 0.13556033
673000000 -0.67745697 0.14558627 -0.00095118105 -0.0017526579 -0.00052347803 -0.0018485629 -0.68980467 0.13747616
674000000 -0.67711163 0.1436767 0.00069858652 -0.001388786 -0.00015461237 -0.0018273889 -0.68978202 0.13563322
