!Keysight Technologies,M9374A,MY55442783,A.12.55.05
!Date: Friday, May 21, 2021 09:51:49
!Correction: S11(Full 2 Port(1,2)) 
!S21(Full 2 Port(1,2)) 
!S12(Full 2 Port(1,2)) 
!S22(Full 2 Port(1,2)) 
!S2P File: Measurements: S11, S21, S12, S22:
# Hz S  RI   R 50
500000000 -0.68427515 0.10653996 -0.00091117772 -0.0025344763 -0.00019355089 -0.0015461969 -0.69756377 0.099507973
501000000 -0.68505096 0.10627766 -0.00025937881 -0.0023274405 -0.00021144275 -0.0019590161 -0.69707668 0.10049901
502000000 -0.68608063 0.10598274 0.00072015286 -0.0026612403 0.00016288811 -0.0017550936 -0.69857335 0.10173222
503000000 -0.68520826 0.10648675 -4.1590254e-005 -0.0016981632 -0.0012326945 -0.0013293186 -0.69679648 0.10121819
504000000 -0.68452513 0.10584944 -0.00026435647 -0.0013170597 -7.9810648e-005 -0.00058587972 -0.69809937 0.10127606
505000000 -0.68413281 0.10648765 -0.00099909713 -0.0012821358 0.00045445931 -0.0014243928 -0.69709867 0.10225724
506000000 -0.68641853 0.10647476 -0.00033745906 -0.0014762175 0.00021059874 -0.0016301248 -0.69734043 0.10248485
507000000 -0.68595749 0.10674346 -0.00024270716 -0.0015704801 0.00013062698 -0.00050451246 -0.69691461 0.10252549
508000000 -0.68416882 0.10895712 0.00024902308 -0.0017294839 -0.00040091784 -0.0017300713 -0.69799358 0.10184712
509000000 -0.68587136 0.10831603 -8.5915635e-005 -0.001841013 -0.00012912953 -0.0017783503 -0.6970011 0.1034043
510000000 -0.68459332 0.10750679 -0.00018167892 -0.0020011941 -5.6734112e-005 -0.00098254078 -0.69653302 0.10291179
511000000 -0.68540239 0.1101066 -0.00088950631 -0.0023121468 -3.3317447e-005 -0.0012524982 -0.69772011 0.10399765
512000000 -0.68427646 0.10768708 -5.3096755e-005 -0.0020874292 -0.00042149067 -0.00059214747 -0.69634563 0.10267042
513000000 -0.68368685 0.10860457 -9.23072e-005 -0.0016479894 0.00034741845 -0.00018893775 -0.69687116 0.10260555
514000000 -0.68420833 0.10810949 -0.00067821483 -0.0016041863 -0.00099082571 -0.0027688441 -0.69647205 0.10300857
515000000 -0.68418467 0.1089606 -0.00013684903 -0.00064821995 0.00019726058 -0.0018957752 -0.69738376 0.10418717
516000000 -0.68538392 0.10977228 0.001106365 -0.0025068345 0.0001942774 -0.0024198031 -0.69818026 0.10342298
517000000 -0.68378842 0.10894665 -0.00074670423 -0.0010219689 -0.00034225971 -0.0023300296 -0.69699597 0.10424678
518000000 -0.68387002 0.10935462 0.00038991804 -0.0019311734 -0.0012786249 -0.0015830746 -0.69735527 0.10285138
519000000 -0.68275666 0.10924831 0.00050176657 -0.00071870635 -0.0011361615 -0.001319433 -0.69696963 0.10536041
520000000 -0.68363041 0.11044584 -0.0013615162 -0.0022614871 -7.7042612e-005 -0.00069271476 -0.69561273 0.10501372
521000000 -0.68479979 0.1109461 0.0003131819 -0.0010829055 -0.00013598558 -0.0021535498 -0.69643235 0.10579685
522000000 -0.68471307 0.11173022 0.0002219352 -0.00079962268 3.5730653e-005 -0.0019082617 -0.69705176 0.1069439
523000000 -0.68557262 0.1091883 -0.0012810031 -0.0016980807 -0.00082048489 -0.00216483 -0.69586736 0.10744094
524000000 -0.68394548 0.11006372 0.00013725361 -0.0011243431 -0.00064616272 -0.0017733295 -0.69561124 0.10652507
525000000 -0.68319947 0.11175979 0.00029374196 -0.0013634019 -0.0005208028 -0.0017053306 -0.69718522 0.10672006
526000000 -0.68482053 0.1118082 0.00031853624 -0.0018367404 -0.00050861016 -0.0016058121 -0.69655341 0.10619754
527000000 -0.68345481 0.11132785 -0.00098464871 -0.0020272315 -0.00018799627 -0.0010028285 -0.69552529 0.1075968
528000000 -0.68478537 0.11342274 -6.9066155e-005 -0.0027352043 6.1954044e-005 -0.0017703641 -0.696536 0.10748487
529000000 -0.68481302 0.11187354 8.2541983e-006 -0.0021702056 3.133505e-005 -0.00087114074 -0.69517481 0.1074987
530000000 -0.68516719 0.11281162 -0.0005302463 -0.0016499538 -0.00084580388 -0.0013291148 -0.69612867 0.10694323
531000000 -0.68449891 0.11360892 -0.00072987279 -0.00099718373 -0.001385936 -0.0014165669 -0.69717276 0.107741
532000000 -0.68392718 0.11192261 0.00028543221 -0.00099984696 9.1332353e-005 -0.0030016042 -0.69685906 0.1087225
533000000 -0.68387628 0.11335101 -0.0012394245 -0.0014799755 -0.00077559805 -0.00071087416 -0.69624335 0.10966976
534000000 -0.6848346 0.1123077 -0.00021827422 -0.0016296832 -0.00071390346 -0.0019516554 -0.69633788 0.10709269
535000000 -0.68386573 0.11427379 -6.0805938e-005 -0.0016054794 0.00021316146 -0.0013741208 -0.69530267 0.1098254
536000000 -0.68268025 0.11274192 -0.00057734887 -0.0012192812 -0.00032263971 -0.0014477812 -0.69664246 0.10873338
537000000 -0.68438369 0.11381397 -0.00091319694 -0.0019743193 -0.00043353226 -0.0028099399 -0.69764572 0.10814495
538000000 -0.6833654 0.11352084 -0.00045632818 -0.0005272117 0.00012733602 -0.001523171 -0.69727463 0.10773151
539000000 -0.68325114 0.11423611 0.00023926816 -0.00073386321 -0.00072855421 -0.0013239282 -0.69722772 0.10885587
540000000 -0.68461436 0.11267325 -0.00093657919 -0.0018873741 -0.00094619615 -0.0022493606 -0.69614172 0.10884102
541000000 -0.68252766 0.11432394 -0.00052621739 -0.0013969161 -0.0011018655 -0.00059822784 -0.69721174 0.10945546
542000000 -0.68342471 0.11272711 -0.00073417975 -0.0018934484 -0.00015364616 -0.0028336318 -0.69598305 0.11078859
543000000 -0.68389308 0.11392643 1.5981175e-005 -0.00084945385 -0.00027083146 -0.00054938544 -0.69670939 0.11131463
544000000 -0.68325329 0.11425922 -0.0002143301 -0.0015050292 -0.0012908431 -0.0017738314 -0.69748718 0.11032048
545000000 -0.68261606 0.11489636 -0.00022630749 -0.0017258822 0.00019623085 -0.0016532517 -0.69727397 0.11031891
546000000 -0.68451649 0.11527526 -0.00017756798 -0.0017376381 8.5049163e-005 -0.0011743652 -0.69616288 0.1108259
547000000 -0.68347365 0.1159998 -0.00097380608 -0.001644999 -0.00023890923 -0.0020818033 -0.6968146 0.11006473
548000000 -0.68488729 0.11617953 -0.00062077056 -0.0016869914 -0.0010748032 -0.0021587755 -0.69597232 0.11088528
549000000 -0.68380094 0.11566975 -0.001321141 -0.0026810637 -0.00091001281 -0.0022108275 -0.69535637 0.11066312
550000000 -0.68242472 0.11541088 0.00033711412 -0.0020483376 -0.00035658482 -0.0021246085 -0.69688249 0.1115723
551000000 -0.68362767 0.11533178 -0.00024562361 -0.0010717975 -0.00029669251 -0.0019144998 -0.69645488 0.11046248
552000000 -0.68281263 0.11521713 -0.0012602322 -0.001457519 0.00010081445 -0.0011637521 -0.69730771 0.11015755
553000000 -0.68243688 0.11611395 -0.00040569613 -0.0015811363 -0.0010869616 -0.0021232646 -0.69528621 0.11196192
554000000 -0.68353564 0.11604451 -0.00068964652 -0.0010428503 9.6992633e-005 -0.0015928483 -0.69686323 0.11190625
555000000 -0.68382078 0.11751337 -0.0011566537 -0.0012763686 -0.00047073411 -0.0013989772 -0.69648373 0.11165973
556000000 -0.68240589 0.11611725 -0.00029062407 -0.0017826057 -0.00046330338 -0.00097989675 -0.69483191 0.11203872
557000000 -0.68307322 0.11760152 0.00057280326 -0.0019129163 -2.5587493e-005 -0.0025333522 -0.69688183 0.11353942
558000000 -0.6832782 0.11774763 -0.0011150785 -0.00068089651 -0.00066034251 -0.0016955313 -0.69521248 0.11228547
559000000 -0.68305439 0.1183375 -0.00088998704 -0.0024967075 -0.00064343674 -0.0014478704 -0.69519609 0.11479773
560000000 -0.68198347 0.11816011 0.00047918069 -0.0016609364 -0.00054840976 -0.0016376736 -0.69704539 0.11301284
561000000 -0.68306184 0.11729256 0.00038159586 -0.0024108095 0.00039066354 -0.0012456166 -0.69658214 0.11312052
562000000 -0.68318582 0.11756074 -0.00088489807 -0.0015010922 -0.00012768716 -0.0013659577 -0.6964491 0.11445667
563000000 -0.68219316 0.11854968 -0.00013806594 -0.0013004153 -0.00069652073 -0.0010761534 -0.69630206 0.11404536
564000000 -0.68238932 0.11936768 0.00015028765 -0.0014447408 0.0002761244 -0.001697421 -0.69623423 0.11299467
565000000 -0.68363303 0.11895843 -0.0011927238 -0.0012946218 -0.00032968615 -0.0018266347 -0.6956439 0.1127374
566000000 -0.68254733 0.11680246 0.00011867545 -0.0020606648 -0.00062196469 -0.0013780015 -0.69539988 0.1125283
567000000 -0.6826818 0.11849373 -7.1867398e-005 -0.0023075629 -2.602795e-005 -0.0018541558 -0.69635415 0.11396615
568000000 -0.68461937 0.1177083 0.00026942184 -0.0022098063 -0.00035322824 -0.0018960506 -0.69589108 0.11483891
569000000 -0.68327355 0.11924443 7.9155208e-005 -0.0022734832 0.00040483908 -0.0016405062 -0.69643056 0.11297932
570000000 -0.68049228 0.11934184 -0.0016396043 -0.0015133206 -0.00025512732 -0.0016910117 -0.69518727 0.1164021
571000000 -0.68205982 0.11928046 -0.00041450825 -0.00087707472 -0.00049607985 -0.0013320067 -0.69672459 0.11460501
572000000 -0.68253899 0.12004205 0.00044064343 -0.001688564 -0.0015519123 -0.0010205242 -0.69599009 0.11559207
573000000 -0.68329853 0.11998511 -0.00040502354 -0.00084580638 -0.00030195058 -0.0033468995 -0.69463855 0.11457132
574000000 -0.68219924 0.12085278 -0.00035210131 -0.0016373176 -0.0014218399 -0.0019609837 -0.69634509 0.11491176
575000000 -0.68258411 0.12094687 -0.00029255921 -0.0021880767 -0.00047877949 -0.00045094511 -0.69696867 0.1155593
576000000 -0.68180054 0.11951765 7.6232798e-005 -0.0018317306 -0.00085468101 -0.0013825324 -0.69658524 0.11569769
577000000 -0.68328834 0.12053035 -0.00064504956 -0.0022776444 -0.00033380435 -0.0023097605 -0.69458508 0.11552725
578000000 -0.68037069 0.11983965 -0.00056431012 -0.0019024914 -0.00047030381 -0.0019187831 -0.69521546 0.11606227
579000000 -0.68163341 0.12008033 0.00029109867 -0.0011512977 0.00021665011 -0.0004680604 -0.69735211 0.1160906
580000000 -0.68303061 0.12074806 0.0011455899 -0.0021488294 -0.00026219292 -0.0014634005 -0.69444579 0.11582088
581000000 -0.68160594 0.12197173 0.00019676483 -0.001237232 -0.00014583029 -0.00093232602 -0.69622689 0.11697853
582000000 -0.68177021 0.12167879 0.00013042064 -0.0025701027 -0.0010838859 -0.0026119477 -0.69510806 0.11659569
583000000 -0.68285978 0.12204465 0.0011373081 -0.001164384 -0.00019897505 -0.0018949731 -0.69652218 0.1166078
584000000 -0.68277806 0.12181487 -0.0005381747 -0.0013781714 0.000173822 -0.0019818034 -0.69502515 0.11790276
585000000 -0.68073696 0.1204564 0.00098906376 -0.0018291088 0.00012736906 -0.0014207672 -0.6957134 0.11842203
586000000 -0.68184984 0.12441514 -0.00073298719 -0.0014186847 -0.000231154 -0.001792477 -0.69524235 0.11596663
587000000 -0.68168646 0.12276041 0.00018966061 -0.0011671458 0.0001074719 -0.0010983304 -0.69430757 0.11800411
588000000 -0.6826126 0.12203202 -4.5254539e-005 -0.00053818856 0.00038139583 -0.0016768249 -0.69468075 0.11928515
589000000 -0.68284726 0.12219119 -0.00063173944 -0.0019957342 0.00068176375 -0.00045664317 -0.69578916 0.11735017
590000000 -0.68142468 0.12300808 -0.001356255 -0.0020358446 7.7400218e-005 -0.001167238 -0.69446474 0.11918462
591000000 -0.68161607 0.12438665 -0.00024225167 -0.00094325788 -0.00053349131 -0.002188477 -0.69460487 0.11870002
592000000 -0.68186963 0.1231344 -0.00116813 -0.0019567171 -0.00077157567 -0.0015409071 -0.69539469 0.11880682
593000000 -0.6819526 0.12423279 -0.0011516016 -0.0017265372 -0.00038354687 -0.0019094056 -0.69492888 0.1191421
594000000 -0.6816144 0.12362975 -0.0014110031 -0.0012155037 -0.00080546935 -0.0011095343 -0.69564116 0.11917821
595000000 -0.68040299 0.1227489 0.00044070141 -0.0017948373 0.00026727797 -0.0022862945 -0.69533187 0.11776142
596000000 -0.68051809 0.12421882 0.00028073826 -0.0017119661 -0.00028114018 -0.0013562456 -0.69479531 0.11782781
597000000 -0.68092346 0.12478653 -0.00049327128 -0.00098552404 8.8039924e-006 -0.0022103135 -0.69480348 0.1192732
598000000 -0.68056405 0.12592418 0.00027692062 -0.0021652333 -0.00093395007 -0.0027324774 -0.69466478 0.11974297
599000000 -0.68183476 0.12482107 7.3267489e-005 -0.0027181611 0.00050482136 -0.0019582326 -0.69462699 0.1193492
600000000 -0.68153942 0.12508105 -0.00058481196 -0.0017275276 -0.00016747041 -0.0020954229 -0.69481212 0.11843395
601000000 -0.68157589 0.12599356 -0.00056068727 -0.0027888743 -0.00024689909 -0.0015378091 -0.69660997 0.11991145
602000000 -0.67975187 0.1262826 -0.00027786187 -0.0024126987 0.0003441046 -0.0019830076 -0.69435734 0.12114356
603000000 -0.6803835 0.12601607 -8.0587051e-005 -0.0023043188 -0.00040270571 -0.0016509027 -0.69511664 0.12230355
604000000 -0.68028438 0.12692776 -0.0010362291 -0.0013013723 0.00031454171 -0.0021105625 -0.69342279 0.1221718
605000000 -0.67953473 0.12772141 -5.7974306e-005 -0.0013451588 0.00053979887 -0.0018637584 -0.69342196 0.12094146
606000000 -0.68196082 0.12566045 -0.00055737089 -0.00084467651 -0.00033818861 -0.0020590823 -0.69444919 0.11984948
607000000 -0.68123692 0.12693727 -0.0007821676 -0.0029086354 -0.00092579523 -0.0018626328 -0.69499606 0.12052266
608000000 -0.67964083 0.12698478 -0.0013235282 -0.0024162843 -0.0010289971 -0.0023731641 -0.69372815 0.12156238
609000000 -0.68047321 0.12672275 -0.00030960291 -0.0021303627 -0.00085537328 -0.0014137308 -0.69482905 0.12258626
610000000 -0.68035287 0.12732194 0.0001318679 -0.0015826551 -0.0011470204 -0.0013466543 -0.6937204 0.12275787
611000000 -0.68055385 0.12671046 -0.00062850903 -0.0016198558 -0.00028379171 -0.0013690665 -0.69399089 0.12258658
612000000 -0.6789782 0.12970728 0.00014492696 -0.001978108 -0.00043407537 -0.0018632915 -0.69388396 0.12247378
613000000 -0.67962289 0.12887837 0.00025069286 -0.0017701832 0.00041969234 -0.0014600683 -0.69435585 0.12227981
614000000 -0.67944252 0.12959214 -6.3600339e-005 -0.0026484129 0.00011433157 -0.0019692495 -0.69495422 0.12402412
615000000 -0.68009889 0.12892619 0.00026057012 -0.00075833173 -0.00036300515 -0.0024206575 -0.69441468 0.12378091
616000000 -0.68118012 0.13035016 -0.00061385223 -0.0017026423 0.00046426692 -0.0024137616 -0.69279021 0.12392142
617000000 -0.68125206 0.12836026 0.00024146173 -0.0012589056 -0.0002400451 -0.002399548 -0.69553792 0.12394471
618000000 -0.67937285 0.12932225 0.00018517116 -0.0016551691 -0.00028874457 -0.0010368292 -0.69330847 0.12380119
619000000 -0.68163031 0.1299274 -0.00065697118 -0.0026813638 -0.00085935171 -0.0016760145 -0.69440639 0.12400232
620000000 -0.67914051 0.13091296 0.00020889673 -0.0022697037 -0.00027681512 -0.0018375888 -0.6943785 0.123601
621000000 -0.67982668 0.13065596 -0.00087433145 -0.0016596934 0.0007908452 -0.0013767425 -0.69226635 0.12515365
622000000 -0.67926478 0.1323674 -0.00094058312 -0.00053803128 -0.0001273564 -0.0016433772 -0.69418037 0.12455244
623000000 -0.67875999 0.13119435 -0.0009546887 -0.0025196541 0.00046986082 -0.0011444363 -0.69265097 0.1249725
624000000 -0.6818431 0.13074051 -6.9215967e-005 -0.0020833288 0.00065225427 -0.0024588958 -0.69343203 0.12573414
625000000 -0.68070436 0.13232358 -0.0011429803 -0.0019976492 -6.0388393e-005 -0.0023944043 -0.69338906 0.12405334
626000000 -0.68022674 0.13260309 -0.0014097352 -0.0022491293 -0.00085353758 -0.00083519868 -0.69298202 0.12717301
627000000 -0.68018156 0.13197075 -0.00011047232 -0.0014311547 -0.00012607931 -0.0016058267 -0.69275922 0.12445502
628000000 -0.68076521 0.1315304 -0.0014990782 -0.0032198662 -0.00084252603 -0.0030661447 -0.69317424 0.12523699
629000000 -0.67906606 0.13249262 -0.0010469193 -0.00066770695 -0.00011775584 -0.0015435637 -0.69355094 0.1259013
630000000 -0.67926002 0.13177548 -0.0010148165 -0.0018089298 0.0002854185 -0.0022753878 -0.69308543 0.12692671
631000000 -0.67976546 0.13395999 -0.0013175226 -0.0023115741 3.9383489e-005 -0.0022035937 -0.69369781 0.12668864
632000000 -0.68047762 0.13248186 -0.00094766589 -0.0016887486 -0.0012677303 -0.0017914298 -0.69225901 0.1261552
633000000 -0.67991436 0.13466074 0.00015406492 -0.0033035153 -0.00017835823 -0.0019622813 -0.69373786 0.12653382
634000000 -0.67896742 0.13380449 -0.00018361911 -0.0020542864 -0.00056435488 -0.0015498371 -0.69306159 0.12647283
635000000 -0.67897135 0.13336547 -0.00085809117 -0.0019872566 0.00085122942 -0.0018849671 -0.69303977 0.12704341
636000000 -0.67989719 0.13380586 -0.00089107367 -0.00048879388 5.1965875e-005 -0.0026478602 -0.6943385 0.12753613
637000000 -0.67894155 0.13464305 -0.0006442772 -0.0023168067 -0.00064263568 -0.0029776127 -0.69376838 0.12682778
638000000 -0.67998224 0.13598044 -0.00020379791 -0.00280825 -0.0019345076 -0.001254755 -0.69234127 0.12765241
639000000 -0.67996842 0.13517772 -0.00029265357 -0.002033347 0.00055970944 -0.0028288641 -0.69367844 0.12902611
640000000 -0.67826146 0.1354429 -0.0011167435 -0.0029009762 -0.00025075927 -0.0016199172 -0.69165975 0.12827875
641000000 -0.68053764 0.13574126 -0.0010186133 -0.0018637315 -0.0005034908 -0.0011837223 -0.69381422 0.12834027
642000000 -0.67952067 0.13474765 -0.00016934614 -0.0017941229 0.00029602001 -0.0013880363 -0.69255751 0.12937622
643000000 -0.68020844 0.13508584 -0.00048744463 -0.0026736448 -0.00058892305 -0.0017281354 -0.69125521 0.12951183
644000000 -0.67840743 0.13663922 -0.00048748794 -0.001949109 -0.00095987075 -0.0016984323 -0.69277328 0.12824002
645000000 -0.67997736 0.13639492 -0.0020472212 -0.002010999 -0.00016487662 -0.0016417213 -0.69390774 0.12878303
646000000 -0.67844939 0.1371343 -0.0007643163 -0.0032597503 -0.00024260754 -0.0017054604 -0.69273633 0.12997879
647000000 -0.68012357 0.13657585 -0.00067472458 -0.0018241733 8.0498003e-006 -0.0023811855 -0.69272119 0.13141173
648000000 -0.67966074 0.13645568 -0.00065818481 -0.001421974 0.000865468 -0.0013017952 -0.69384098 0.13115799
649000000 -0.67800939 0.13688354 -0.0011591562 -0.0022740036 -0.0003298673 -0.0013182196 -0.69128984 0.13051727
650000000 -0.67946404 0.13678557 -0.00052545551 -0.0017983062 5.2350781e-005 -0.0019881779 -0.69299376 0.13132115
651000000 -0.6793744 0.13865139 -0.00094639359 -0.0018588064 -0.001030594 -0.0012616742 -0.69196182 0.1306051
652000000 -0.67964357 0.13642235 -4.7879323e-005 -0.0021852551 0.00046536824 -0.0020361897 -0.69243228 0.12949017
653000000 -0.67939466 0.13815334 -0.00011486908 -0.0027925703 0.00062364119 -0.0016956913 -0.69168597 0.13096038
654000000 -0.67954171 0.13812649 -0.0011753738 -0.0023655035 -0.0014140967 -0.0022710031 -0.69170326 0.1308686
655000000 -0.6788913 0.1375992 -0.0001111055 -0.0020573579 -0.00064612977 -0.0019148063 -0.69358301 0.13115583
656000000 -0.67791271 0.13775076 -9.3090894e-005 -0.001569556 0.00027387569 -0.0028769337 -0.69280243 0.13073929
657000000 -0.67795861 0.13806868 -0.00071502442 -0.0019712194 0.0010287364 -0.0016228758 -0.69353509 0.13198172
658000000 -0.67967981 0.13977174 -0.00017638569 -0.0027789918 -0.00078214449 -0.0030077435 -0.69075507 0.13181919
659000000 -0.6775012 0.13907537 -0.0015285809 -0.0013659343 6.4956774e-005 -0.0019059251 -0.6920265 0.13291679
660000000 -0.67852253 0.13842607 -0.00093387213 -0.0019332261 -0.0015828469 -0.0013032975 -0.69295454 0.1305079
661000000 -0.6789856 0.14094967 -0.00071389152 -0.0031067419 -0.00015271599 -0.0013623097 -0.69176799 0.13296328
662000000 -0.67915124 0.13996974 -0.000541054 -0.0026835776 4.0168281e-005 -0.0025469253 -0.6935671 0.13312988
663000000 -0.67833674 0.14005169 -0.00040062418 -0.0014650368 -0.00029771487 -0.0014427158 -0.6910277 0.13207224
664000000 -0.67890358 0.14074562 -0.0006914871 -0.0016155929 -0.0010022551 -0.0022956699 -0.69243044 0.13309389
665000000 -0.67892486 0.14081219 6.812752e-005 -0.0015003487 0.00050367624 -0.0022961397 -0.69227904 0.13258123
666000000 -0.67851156 0.1395296 -0.00059698749 -0.0010329693 0.00030512497 -0.0028489658 -0.69315338 0.13219726
667000000 -0.67822093 0.14002167 0.00065946329 -0.0014942695 -0.00033347358 -0.0012747478 -0.69209307 0.13390535
668000000 -0.67878097 0.14048864 0.00068770058 -0.0018334034 0.00030331127 -0.0013166649 -0.69236225 0.13337411
669000000 -0.67876017 0.14041395 -0.00023821961 -0.0012268717 -0.0010657843 -0.0014755238 -0.69250906 0.13316321
670000000 -0.6782701 0.14053634 -0.00074152183 -0.0017814465 -0.0013986635 -0.0012188826 -0.68996841 0.13353275
671000000 -0.67788768 0.14200248 -3.2698856e-005 -0.0016453923 -0.00030669928 -0.00095948158 -0.69310868 0.13321573
672000000 -0.67884558 0.14078918 -0.00033242386 -0.0015012987 0.00041967057 -0.0015803808 -0.69203258 0.13346128
673000000 -0.67843908 0.14293903 -0.00096400682 -0.0022056438 1.1493911e-005 -0.001170525 -0.69197237 0.13526325
674000000 -0.67849982 0.14281577 -0.00027072069 -0.0019518682 -0.00094525918 -0.0011531697 -0.69160932 0.13344936
