!Keysight Technologies,M9374A,MY55442783,A.12.55.05
!Date: Friday, May 21, 2021 09:42:06
!Correction: S11(Full 2 Port(1,2)) 
!S21(Full 2 Port(1,2)) 
!S12(Full 2 Port(1,2)) 
!S22(Full 2 Port(1,2)) 
!S2P File: Measurements: S11, S21, S12, S22:
# Hz S  RI   R 50
500000000 -0.68438137 0.10629574 -0.00023448173 -0.0017895629 -0.00093760283 -0.001055215 -0.69705617 0.10102248
501000000 -0.68563873 0.10693844 0.00070755498 -0.0010298524 -0.00053216337 -0.0017933559 -0.69791216 0.10171086
502000000 -0.68522173 0.10748751 0.00030198976 -0.0016287555 4.1855179e-005 -0.00055179436 -0.69690472 0.10268927
503000000 -0.68557024 0.10654972 -0.00060191797 -0.001222769 -0.00072117394 -0.0008819428 -0.69787437 0.10145081
504000000 -0.68414831 0.1076775 -0.00039691108 -0.0018194843 -0.00062998442 -0.0021059604 -0.69683641 0.10207148
505000000 -0.68434566 0.10631198 -0.00091997103 -0.0018392025 -0.00043270609 -0.00089153158 -0.69711608 0.10228369
506000000 -0.68399328 0.10896984 -0.00068514753 -0.0016284493 -0.00021652385 -0.001680261 -0.69642419 0.10253318
507000000 -0.6840201 0.10832369 0.0013333888 -0.0022473589 -0.00048920431 -0.00096188509 -0.69686508 0.10268927
508000000 -0.68339676 0.10782728 -6.3458938e-005 -0.0019122036 -0.0012141799 -0.002045389 -0.69657409 0.10384318
509000000 -0.68529528 0.10832944 -1.829546e-006 -0.0011583562 -3.0838743e-005 -0.00070837152 -0.69658488 0.10405694
510000000 -0.68521154 0.10926528 -0.00075904292 -0.001490059 0.00036880208 -0.0011173529 -0.69619298 0.10363176
511000000 -0.68359149 0.1101456 -0.00083415484 -0.0017103949 0.00030283249 -0.0010673911 -0.69541597 0.10422868
512000000 -0.68487602 0.10957562 0.00050272798 -0.00071758981 0.00059908489 -0.0014537686 -0.69681048 0.1052708
513000000 -0.68433374 0.10944638 -0.00079689152 -0.00070540572 -4.5735756e-005 -0.0019389938 -0.69796675 0.10275976
514000000 -0.68455434 0.11058689 -0.00012456464 -0.002435897 -0.00060279173 -0.0018001456 -0.69786757 0.10452591
515000000 -0.68398923 0.11052778 0.00049529283 -0.00074581633 0.00074721366 -0.0022762578 -0.69596887 0.10474835
516000000 -0.68286324 0.11144795 -0.00026458819 -0.0017392511 -0.00030952544 -0.0014187874 -0.6972419 0.10431638
517000000 -0.68367475 0.11202922 0.00014641772 -0.0019688383 -0.00050273637 -0.0022944594 -0.69674689 0.10563327
518000000 -0.68422669 0.11096803 0.00017153422 -0.0007949401 -0.00030277192 -0.0022828397 -0.69582462 0.10553399
519000000 -0.68398732 0.11089822 0.00050336885 -0.00078917586 -0.00027278753 -0.0020120814 -0.69597018 0.10719179
520000000 -0.6842702 0.11059127 -0.00083029084 -0.0019088421 -0.00030579802 -0.00089290447 -0.69592071 0.10691781
521000000 -0.68311191 0.11151174 -0.00041307064 -0.0015231865 -0.001316259 -0.0012000453 -0.69716793 0.10863256
522000000 -0.68460768 0.11183929 0.0011118532 -0.0015338004 -0.00029943389 -0.0014613685 -0.69580173 0.10629606
523000000 -0.68417835 0.11139043 0.00075386581 -0.0019172909 -0.00038064373 -0.0019979505 -0.69670278 0.10735722
524000000 -0.68317193 0.11294531 -0.00045866298 -0.0013986592 -0.0004176457 -0.0018630626 -0.6945439 0.10666242
525000000 -0.68363607 0.1109978 -0.0011303938 -0.0017942121 -0.00058985176 -0.00039893188 -0.69758332 0.10728325
526000000 -0.68367594 0.11241761 -0.00057103625 -0.0020849749 -0.00028249033 -0.001860933 -0.69529653 0.10694947
527000000 -0.68289649 0.11335495 -0.00045300217 -0.0012440948 -0.00044801913 -0.0018963867 -0.69578558 0.10756062
528000000 -0.68429732 0.11338785 -0.0004217581 -0.0016993863 -0.00024373292 -0.0019772749 -0.69661003 0.10803428
529000000 -0.68193406 0.11205018 -0.00072098267 -0.001642657 -0.00052214402 -0.0002577983 -0.69783115 0.10918193
530000000 -0.68323958 0.11282793 -0.00032840352 -0.0020278997 -0.00049778266 -0.001205234 -0.69676161 0.10842879
531000000 -0.68408924 0.1123204 -0.0023801515 0.00011666433 0.00055724382 -0.0010929229 -0.69604671 0.10859031
532000000 -0.68302345 0.11340325 -0.00031061305 -0.0010029883 -8.9803209e-005 -0.0012164451 -0.69605517 0.10848784
533000000 -0.68228614 0.11369977 -0.00031892056 -0.0010038653 -0.0012584229 -0.0014711362 -0.69524163 0.10946954
534000000 -0.68350768 0.11339372 -0.00067321258 -0.0013688807 -0.0017387705 -0.0011039817 -0.69653314 0.10973836
535000000 -0.68356383 0.11590941 6.5426138e-005 -0.0025462701 -0.00048649096 -0.0015925736 -0.6954419 0.10983529
536000000 -0.68338048 0.11372866 0.00049877301 -0.0017868724 -0.00036191643 -0.00087284128 -0.69627005 0.10935054
537000000 -0.68415231 0.11381523 -0.0014361144 -0.0013999242 -0.00027111449 -0.0017014268 -0.69619685 0.10882375
538000000 -0.68347859 0.11488853 -0.0010557726 -0.0006842789 0.0014008841 -0.0021335126 -0.69649452 0.1087817
539000000 -0.68218499 0.11533705 -0.00099048694 -0.0021983238 -0.00062680774 -0.0012066797 -0.69548869 0.11093149
540000000 -0.68363285 0.11597364 -0.00037476356 -0.0013682466 -0.0011051092 -0.00099692005 -0.69668621 0.11151295
541000000 -0.682962 0.11565209 -0.0001550718 -0.0017216469 0.00021866952 -0.0027022217 -0.69668484 0.10980999
542000000 -0.68279839 0.11554673 -0.0012690205 -0.0019777841 -0.00077225041 -0.0018874137 -0.69599527 0.1104583
543000000 -0.68461603 0.11513442 -0.00054658961 -0.0012841643 1.3536566e-005 -0.0013058385 -0.696392 0.11062023
544000000 -0.68321383 0.11548869 -0.00072544732 -0.0015466528 -0.00040570938 -0.00086654274 -0.6954751 0.11200977
545000000 -0.684461 0.11687422 -0.00089285185 -0.0013397555 -0.00028071858 -0.0026506928 -0.6956163 0.11252964
546000000 -0.68306124 0.11511812 -0.00075958099 -0.0018530894 -0.0011478191 -0.0019606848 -0.69627774 0.10971364
547000000 -0.68368697 0.11553612 -0.00057317357 -0.0024823635 0.00010534407 -0.0025372808 -0.69651353 0.11200897
548000000 -0.68378615 0.11632945 -0.0011631674 -0.0015629088 -3.9003076e-005 -0.0016983808 -0.69629109 0.11266967
549000000 -0.68351507 0.11696055 -0.0009420992 -0.0012808561 0.00010941899 -0.0021194955 -0.69558418 0.11273842
550000000 -0.68246537 0.11652765 -0.00014570467 -0.0014365726 -0.00074984058 -0.0022805822 -0.69562942 0.11345304
551000000 -0.68299788 0.11748987 0.00017119109 -0.002232783 -0.00099246937 -0.0011858135 -0.69631052 0.11304103
552000000 -0.6837849 0.11814703 -0.00057916803 -0.0018799076 0.00037543604 -0.0012020797 -0.69676101 0.11344713
553000000 -0.6823495 0.11670943 0.00023168515 -0.002369876 -0.00092505547 -0.0018768643 -0.69539142 0.11250902
554000000 -0.68334448 0.11650092 -0.0011800043 -0.00224748 -0.00052871415 -0.0016320476 -0.69553 0.11294167
555000000 -0.68185854 0.11728909 -0.00019851654 -0.0017728186 -0.00052452623 -0.0019376458 -0.69717771 0.1138694
556000000 -0.68335843 0.11813481 -0.00031207563 0.00024740899 -0.00011877486 -0.0025486844 -0.69640785 0.11251548
557000000 -0.68362427 0.1168191 0.00035235329 -0.0021072309 -0.00075061026 -0.0016835805 -0.69635743 0.11320981
558000000 -0.68269205 0.11911684 0.00025991656 -0.0024139453 1.3583734e-005 -0.0021819025 -0.69669139 0.1144824
559000000 -0.68130457 0.11726961 -0.00062190008 -0.0018616572 -1.234825e-005 -0.0010515427 -0.69494224 0.11497676
560000000 -0.68093663 0.11842206 -0.00089838839 -0.0021206811 -0.0011491288 -0.00070340629 -0.69644487 0.1142754
561000000 -0.68356645 0.11782198 -0.00052383845 -0.00057596987 -0.00085261086 -0.0015431442 -0.69635868 0.1139558
562000000 -0.68266171 0.11987348 -0.00057540671 -0.00083114195 -0.00060243416 -0.0017326185 -0.69652098 0.11507764
563000000 -0.68312091 0.11713923 -0.00093515019 -0.0021627941 0.00013951564 -0.0015191126 -0.69573218 0.11452724
564000000 -0.68148392 0.11867236 0.00025887095 -0.0014174593 -0.00058260973 -0.0014123607 -0.6944747 0.11338811
565000000 -0.68210351 0.11898104 3.3241446e-005 -0.0018207813 -0.00049731461 -0.0015654578 -0.69669652 0.11447455
566000000 -0.68297404 0.11979988 -0.00052581303 -0.0013836161 -0.00086594088 -0.0016930681 -0.69550377 0.11411297
567000000 -0.68282837 0.11785362 0.00029849575 -0.0012032072 -0.00075451971 -0.0026895895 -0.69642633 0.11471464
568000000 -0.68340832 0.12014444 0.00014593202 -0.0011798795 -0.0003984572 -0.00096758222 -0.69650596 0.11591464
569000000 -0.68201208 0.11927655 -0.00013506986 -0.0024280066 0.00094452593 -0.0018997886 -0.69575018 0.11592619
570000000 -0.68358552 0.11982991 -0.00062727777 -0.0019083516 0.00048491242 -0.0019756237 -0.69545919 0.11724624
571000000 -0.68239313 0.11936843 -0.00082474778 -0.0016125742 -0.0010456117 -0.0025260581 -0.69698608 0.11614212
572000000 -0.6810599 0.12042504 -0.001151543 -0.0012991067 0.00093293691 -0.0010459579 -0.6950925 0.11589335
573000000 -0.68273073 0.12049142 -0.00058715208 -0.0019444065 -0.00021765646 -0.00046579022 -0.6963163 0.11638145
574000000 -0.68130654 0.12118825 -0.00067444786 -0.0026932778 -7.8090517e-005 -0.00094000757 -0.69570059 0.11649571
575000000 -0.68195331 0.12050758 -0.0011849437 -0.002481651 -0.00057595107 -0.0022253329 -0.69724268 0.11677181
576000000 -0.68146664 0.12252836 0.00019341022 -0.0015212222 -0.00069094729 -0.0025925718 -0.6957677 0.11761259
577000000 -0.68317837 0.12299928 0.00087400299 -0.00074813986 -0.00043529118 -0.001711458 -0.69561994 0.11710982
578000000 -0.68161803 0.12283646 -0.00061258872 -0.0013171411 4.1282819e-005 -0.0019095354 -0.69566733 0.11674992
579000000 -0.68057334 0.12268469 -0.00055888062 -0.0014763534 -0.00026097341 -0.00077784498 -0.69521612 0.11710835
580000000 -0.68134928 0.12093289 -0.00087991555 -0.0017927558 -9.7429562e-005 -0.00099528814 -0.69702607 0.11869396
581000000 -0.68159711 0.12237644 -0.00093274663 -0.0015221644 -6.0264581e-005 -0.0012239626 -0.69456434 0.11802612
582000000 -0.68047386 0.12385324 -0.00075219182 -0.0019441763 -0.0006907878 -0.00097344711 -0.69440794 0.11788307
583000000 -0.68039995 0.12261803 8.8609748e-005 -0.0010647619 -4.711841e-005 -0.0014866568 -0.69673914 0.11731616
584000000 -0.68171942 0.12362709 0.00022311618 -0.0010672715 8.4624589e-005 -0.0013831302 -0.69522756 0.11751112
585000000 -0.68221527 0.12336437 0.0002364035 -0.0018939539 -0.0017646721 -0.0011799673 -0.69511336 0.11734247
586000000 -0.68218869 0.12323552 -0.00053902232 -0.0020765767 -0.00059640774 -0.0025397246 -0.69589072 0.11826419
587000000 -0.68049079 0.12186197 -0.00086961698 -0.0010821773 -0.00056849053 -0.0017858776 -0.693169 0.11880758
588000000 -0.68168294 0.12367064 0.0001089678 -0.0020167541 2.6018834e-005 -0.0018285656 -0.6949724 0.1186992
589000000 -0.68118972 0.12321594 -0.00026705087 -0.0016565177 -0.00044761086 -0.002778982 -0.69531733 0.11855026
590000000 -0.67981315 0.12610839 -2.2556986e-005 -0.0015017043 0.00047665747 -0.0016528958 -0.69425941 0.11898915
591000000 -0.68079901 0.12460464 -0.0013343226 -0.0023831942 -0.0004990786 -0.0012524795 -0.69514096 0.12040658
592000000 -0.68065292 0.1244502 -1.6139649e-006 -0.00031748615 -0.00015719878 -0.0014144584 -0.69604504 0.11885603
593000000 -0.68065059 0.12653425 -0.00030292096 -0.0018968901 -0.0011466393 -0.0017553465 -0.69485444 0.118682
594000000 -0.68049443 0.12490923 -4.3715132e-005 -0.0012668043 -0.00049573119 -0.0019918915 -0.69578636 0.12104575
595000000 -0.68008035 0.12457921 7.4049007e-005 -0.0016571669 0.00032762886 -0.0016477703 -0.69631726 0.12112186
596000000 -0.68161917 0.12435414 0.00022591272 -0.0019940946 -0.00062835764 -0.0010761257 -0.69425017 0.11851764
597000000 -0.68133903 0.1256915 0.00022735624 -0.0011366842 -0.0018553769 -0.0023235977 -0.69435275 0.12079187
598000000 -0.6821655 0.1271489 0.0010229216 -0.0017383442 0.0010345981 -0.0029949483 -0.6950357 0.12137852
599000000 -0.67938167 0.12552859 -0.000394656 -0.00082921528 -0.00076359086 -0.0028149656 -0.69469482 0.12176316
600000000 -0.68088514 0.12695745 3.774885e-005 -0.0017153195 -0.00033027324 -0.001762719 -0.69443721 0.12020229
601000000 -0.67962015 0.12684351 -0.00041672151 -0.0023779364 -0.00052416889 -0.0020075208 -0.69442117 0.12245229
602000000 -0.67957515 0.12725382 -4.9421642e-006 -0.0016456784 0.00011742846 -0.0016241849 -0.69345063 0.11990523
603000000 -0.68128872 0.12679519 -0.00091852271 -0.0027561914 -0.00069758872 -0.0014983775 -0.69505543 0.12221192
604000000 -0.67958331 0.1270313 -0.00073161419 -0.0023137778 -0.00023483437 -0.0029628761 -0.6931808 0.11985021
605000000 -0.68038428 0.12830588 -0.00030244168 -0.0018143411 -0.00072381221 -0.0022363479 -0.69364601 0.12179328
606000000 -0.68071336 0.12779738 -3.1869185e-005 -0.0019015368 -0.0015490466 -0.0016489556 -0.69351447 0.12363113
607000000 -0.67995816 0.12773621 -0.0010522137 -0.00099425425 -0.00071198866 -0.002895759 -0.6944505 0.12239783
608000000 -0.68011588 0.12773226 -0.0003958373 -0.0022236428 -0.00034342048 -0.001345792 -0.69411522 0.12229482
609000000 -0.68023324 0.12768933 0.00045673901 -0.0013892392 -0.00023431555 -0.0020308068 -0.69373512 0.12308086
610000000 -0.68004191 0.12913564 -0.00035410037 -0.000474406 -0.00063239096 -0.0016768838 -0.69283205 0.12339937
611000000 -0.67939335 0.1291309 -0.0014065945 -0.0015882942 -0.00050144887 -0.00070120621 -0.69276047 0.12341398
612000000 -0.67993236 0.13013484 -9.8021323e-005 -0.0022818779 4.7115649e-005 -0.0022050065 -0.69402105 0.12382129
613000000 -0.67914081 0.13049895 6.0207636e-005 -0.00078784226 -0.00017698796 -0.00091636338 -0.69433731 0.12410347
614000000 -0.67894977 0.12956648 0.00085900549 -0.0015803109 -0.00067290326 -0.00072133361 -0.69436085 0.12469955
615000000 -0.68030328 0.12938923 0.0011402678 -0.002242906 -0.00015790248 -0.0014939636 -0.69413358 0.12449717
616000000 -0.67846924 0.13107325 -0.00030861478 -0.0012953324 -0.00095330208 -0.0035033184 -0.69365209 0.12457785
617000000 -0.68105447 0.13021904 -4.3081154e-006 -0.0027146072 -0.00049192196 -0.0019880179 -0.69547194 0.12470655
618000000 -0.68046737 0.12976298 -0.0011024667 -0.0024132226 -0.00095980364 -0.0024499681 -0.69284374 0.12511866
619000000 -0.67969793 0.1314851 -0.00017590486 -0.0010349604 -8.2537132e-005 -0.00087743375 -0.69300276 0.1249331
620000000 -0.68027788 0.13178501 -0.001961407 -0.0013953636 -0.00096033316 -0.0020813777 -0.69388741 0.12541601
621000000 -0.67930984 0.13034379 0.00050593371 -0.0019729433 0.00047073606 -0.0018573521 -0.69380403 0.12491266
622000000 -0.67979503 0.13300392 -0.0014401149 -0.0017660731 -0.00061171688 -0.0022484593 -0.69295847 0.12464756
623000000 -0.68005145 0.13235055 0.0010946403 -0.0010770072 -0.00018474454 -0.0017522621 -0.69383025 0.12570247
624000000 -0.68006831 0.13272201 -0.00040226924 -0.0017527705 -0.0001388439 -0.0014180741 -0.69150794 0.12728976
625000000 -0.67966515 0.13358919 0.0002680546 -0.00056530157 -0.00021110548 -0.0032697076 -0.69336522 0.12528096
626000000 -0.67996615 0.1334414 -0.00033224531 -0.0018549452 -0.00022230214 -0.0022658233 -0.69229019 0.12657347
627000000 -0.68061697 0.13225865 -0.00025046908 -0.0021403315 -0.00078745291 -0.0024939009 -0.69291425 0.12704164
628000000 -0.67880666 0.13378826 -0.00010020275 -0.001275642 -0.00089918752 -0.0018072638 -0.69297588 0.12704013
629000000 -0.67967463 0.1331822 -0.00040458739 -0.0018878176 -0.00054052286 -0.0013825676 -0.69266653 0.12773259
630000000 -0.67809188 0.13422014 -0.00064143154 -0.00085693778 -0.00020613329 -0.0012997553 -0.69299859 0.12861744
631000000 -0.678617 0.13375492 -0.00085414824 -0.0023133177 3.5658661e-005 -0.002006382 -0.69371027 0.12660629
632000000 -0.67800599 0.1346878 -0.00077810907 -0.0024415548 -0.00045668246 -0.0012077842 -0.69416982 0.12755418
633000000 -0.6798324 0.13457841 -0.00048947352 -0.0023032643 -0.0017980782 -0.0017955115 -0.69259161 0.12886326
634000000 -0.678855 0.13561735 -0.00029303011 -0.0017565688 -0.00088947115 -0.0015866829 -0.69281703 0.12820816
635000000 -0.67955345 0.13367569 0.00095639325 -0.0018625702 0.00016444712 -0.0014741925 -0.69323397 0.1286355
636000000 -0.67814791 0.13509481 -2.8348219e-005 -0.0027274413 -0.00067303446 -0.0023631069 -0.69386107 0.12835431
637000000 -0.67845201 0.13484506 -0.00040268086 -0.0011966188 -0.00079403073 -0.00099189125 -0.69289082 0.12781219
638000000 -0.67902106 0.13519728 -0.00011793667 -0.0030385156 -0.00031170514 -0.0013788709 -0.69366705 0.12858504
639000000 -0.67790169 0.13546605 -1.446818e-006 -0.002399144 -0.00070677639 -0.0020380493 -0.69225943 0.1298862
640000000 -0.67822832 0.13596252 -0.00063464593 -0.0011257952 -0.000796618 -0.00077645638 -0.69167972 0.12949766
641000000 -0.67847544 0.13632958 0.00045746198 -0.0010697976 -0.0015107028 -0.0010602573 -0.69184703 0.12827854
642000000 -0.67799973 0.1355363 -0.00021969338 -0.0027311493 -0.0014303226 -0.0016121698 -0.69298393 0.13115966
643000000 -0.67751628 0.13810223 0.00081628736 -0.0029705365 -0.00062741007 -0.0015499088 -0.69252962 0.12978385
644000000 -0.67888314 0.13698357 -0.00037943778 -0.0024306704 -0.0014294366 -0.0017265932 -0.69292349 0.13100065
645000000 -0.67736411 0.13762221 -0.00049115595 -0.0021356088 -0.00048390462 -0.0012411949 -0.69171649 0.13010797
646000000 -0.6793285 0.13773008 -0.00034974443 -0.0018507973 -0.0018216415 -0.0011010191 -0.6924178 0.13026188
647000000 -0.67952228 0.13726193 -0.0006118936 -0.0013706017 -0.0012641948 -0.002104467 -0.69393301 0.13062282
648000000 -0.67774332 0.13764067 0.00024463615 -0.002159599 -0.0015129442 -0.0018981239 -0.69294184 0.13208336
649000000 -0.6781069 0.138347 0.00039505344 -0.0014317336 -2.4381354e-005 -0.0018423944 -0.69229609 0.13069259
650000000 -0.67848617 0.13867152 -0.0016357879 -0.00098857516 -8.0598831e-005 -0.0018202695 -0.69090754 0.13127147
651000000 -0.67975938 0.13800342 -0.0013586768 -0.0018164458 -0.00066248234 -0.0024172172 -0.69077885 0.13162011
652000000 -0.67850626 0.13817185 -0.00028981522 -0.002197189 -0.0004384944 -0.0013321477 -0.6909073 0.131547
653000000 -0.67812526 0.13880797 -0.00018792241 -0.0017542636 -0.00045001975 -0.0016908011 -0.69271129 0.13158141
654000000 -0.67805558 0.13899896 0.00021711922 -0.0013841962 -0.00038786509 -0.0017776315 -0.69228595 0.13218769
655000000 -0.67962152 0.13852419 0.00078338367 -0.0016963035 -0.00032887378 -0.001630557 -0.69174677 0.1329709
656000000 -0.67783111 0.14173506 -0.00045610929 -0.0038609689 0.0001818875 -0.0023643463 -0.69295239 0.13320428
657000000 -0.67811006 0.14015423 -0.0007495188 -0.001771786 -0.0012971624 -0.0021444904 -0.69323748 0.13260946
658000000 -0.67871386 0.14063534 -0.0008304473 -0.0019301624 2.4796322e-005 -0.0032662025 -0.69239551 0.13419686
659000000 -0.6785593 0.13994162 -0.00037081787 -0.0023738078 -0.00096678542 -0.0018223994 -0.69170177 0.1334676
660000000 -0.67819571 0.14096569 -0.0002183202 -0.00086674222 -0.00075567566 -0.00098859973 -0.69210237 0.13325223
661000000 -0.67850691 0.13965341 -0.00034499014 -0.0011855189 -0.00062444439 -0.0017864867 -0.69269729 0.13346577
662000000 -0.67751604 0.14072672 -0.00025062237 -0.001998991 -0.0012399558 -0.002889619 -0.69103187 0.13477932
663000000 -0.67863262 0.14108841 -0.00047285724 -0.0013680103 -0.000675435 -0.0021153286 -0.69129413 0.13276802
664000000 -0.67775714 0.1399992 -0.00013675293 -0.0019491108 -0.00019068721 -0.0012323947 -0.69257408 0.13405602
665000000 -0.67765629 0.14097486 -0.00058499863 -0.0011379708 -0.0017964116 -0.0021116375 -0.69179147 0.13362058
666000000 -0.67823756 0.14118634 -0.001433757 -0.0019102314 -0.00085013954 -0.0018736018 -0.69197226 0.13530181
667000000 -0.67802328 0.14183684 0.00028791852 -0.0016642143 -0.00072679733 -0.0025908095 -0.69145393 0.1349815
668000000 -0.67791265 0.14224975 9.6155418e-005 -0.0020707743 0.00054220739 -0.0020994789 -0.6904844 0.13464981
669000000 -0.67759341 0.14266638 0.00011095777 -0.0022515818 -0.00097195606 -0.0020242934 -0.69113898 0.13411549
670000000 -0.67802685 0.14192113 -0.00017130475 -0.0017698501 0.00012373029 -0.002284138 -0.69101453 0.13497521
671000000 -0.67681986 0.14253408 -0.00027064318 -0.0024606495 -0.00060329662 -0.00073823251 -0.69199419 0.13591734
672000000 -0.67678392 0.14157405 -0.00074070366 -0.0023978553 -0.00066223711 -0.0016239628 -0.69252509 0.13513041
673000000 -0.67798436 0.14283137 0.00018620935 -0.0020406479 0.00071452011 -0.0016619777 -0.69079441 0.13665032
