!Keysight Technologies,M9374A,MY55442783,A.12.55.05
!Date: Friday, May 21, 2021 10:01:32
!Correction: S11(Full 2 Port(1,2)) 
!S21(Full 2 Port(1,2)) 
!S12(Full 2 Port(1,2)) 
!S22(Full 2 Port(1,2)) 
!S2P File: Measurements: S11, S21, S12, S22:
# Hz S  RI   R 50
500000000 -0.68498683 0.10763551 -0.00068067748 -0.001718201 -0.00018536154 -0.0019106084 -0.69763052 0.098672368
501000000 -0.6840896 0.10696757 -0.0013123766 -0.0019288057 7.3306823e-005 -0.00147664 -0.69749856 0.10067441
502000000 -0.68465698 0.10568669 -0.00049771316 -0.0019267327 0.00025136542 -0.0019684203 -0.69929171 0.1012262
503000000 -0.68267661 0.10576496 -0.00031668777 -0.0011150426 -0.0015316203 -0.0019003727 -0.69756913 0.10091843
504000000 -0.6853984 0.10492135 -0.00096826034 -0.0011322093 -0.00076889084 -0.0017180823 -0.69795054 0.10079774
505000000 -0.68523526 0.10496882 -0.00044584327 -0.0020598744 -0.00068658887 -0.00059160404 -0.69693625 0.10036476
506000000 -0.68439931 0.10677395 -0.00010034712 -0.0011140046 0.00031906995 -0.0011172186 -0.69768363 0.10040368
507000000 -0.68405336 0.10569236 -0.00023032195 -0.0019551183 -0.00020301831 -0.0014486299 -0.6968115 0.10171293
508000000 -0.68514735 0.10635746 0.00031429416 -0.0016340916 -0.00029701917 -0.0013111134 -0.69825029 0.10162463
509000000 -0.68441117 0.10666501 0.00023342037 -0.001551014 -0.0012261912 -0.00052352372 -0.69671977 0.10182974
510000000 -0.68447435 0.10761888 -0.00031832187 -0.0019283345 0.00014519428 -0.00073672779 -0.69713819 0.10297342
511000000 -0.68416589 0.10852139 -0.00050873077 -0.0014114894 -0.00095966452 -0.0021895589 -0.69731069 0.10279055
512000000 -0.68416345 0.10720977 -0.00026515085 -0.0008592073 -0.00038486722 -0.0024182699 -0.69789094 0.10350966
513000000 -0.68533516 0.10765548 -0.00036990433 -0.001761675 -0.00031045958 -0.0015478937 -0.69692171 0.1029098
514000000 -0.68450183 0.10723291 -0.00024765762 -0.0021932146 -0.00094013114 -0.0015151027 -0.69643927 0.10312259
515000000 -0.6849618 0.10971726 -0.00020965017 -0.002763625 0.00014145015 -0.0017523818 -0.69563687 0.10321888
516000000 -0.68297797 0.10941038 -0.00019855458 -0.0015481362 0.00027556519 -0.0022870884 -0.696545 0.10543007
517000000 -0.68359363 0.10901663 -0.0012655397 -0.00096296542 -0.00086223718 -0.0013065962 -0.69807243 0.10365762
518000000 -0.6840536 0.10786157 0.00048490622 -0.0011800359 -0.00094157661 -0.0025808939 -0.697402 0.1030172
519000000 -0.68400764 0.10883649 -0.00048243388 -0.0012129631 0.00027105902 -0.0015393564 -0.69592643 0.10483361
520000000 -0.68289822 0.10860283 0.00058607809 3.3240078e-005 -0.00063290185 -0.00036946428 -0.69604832 0.10411017
521000000 -0.68334115 0.11008542 5.7421137e-005 -0.0020464275 -0.00058695482 -0.0022187829 -0.69708651 0.10525572
522000000 -0.68470442 0.10958686 8.4165062e-005 -0.0018389125 -0.00022893549 -0.0021684663 -0.69673032 0.10605397
523000000 -0.68602908 0.10910997 -0.00058157614 -0.002345257 0.00023321944 -0.0014921423 -0.6975131 0.10692994
524000000 -0.68490112 0.1107015 0.00083964126 -0.0016991139 -0.0013751739 -0.0020193339 -0.69661534 0.10514508
525000000 -0.68359548 0.11027806 0.00031145703 -0.0020698525 0.00018926983 -0.0023145524 -0.69688958 0.10556338
526000000 -0.68415511 0.11065359 0.00033762571 -0.0017651493 -0.00066265324 -0.0007966386 -0.69599932 0.1065239
527000000 -0.68461365 0.11185517 -0.00093457109 -0.00095486629 -0.00033428019 -0.0019828614 -0.69654918 0.10562697
528000000 -0.68487114 0.11149158 0.00058051461 -0.00026983471 -0.00046774145 -0.0022036673 -0.69592202 0.1074111
529000000 -0.68457198 0.11231982 -0.00035717568 -0.0014569258 0.00013687403 -0.00076800148 -0.69734567 0.10591037
530000000 -0.68483365 0.11199999 -3.3457536e-006 -0.0020976325 0.00016145497 -0.0017965143 -0.69659299 0.10692413
531000000 -0.68400735 0.110192 -0.00012652761 -0.0018075373 -0.00024468685 -0.00065058377 -0.69691235 0.10602494
532000000 -0.68381494 0.11061876 -0.0011140263 -0.0014564635 -0.000692209 -0.001576463 -0.69638568 0.10675158
533000000 -0.68269318 0.11179291 -0.00047332962 -0.0016258161 -0.00029665467 -0.002567322 -0.6980055 0.10787271
534000000 -0.68331927 0.11142793 -0.0016589517 -0.0011080276 -6.1449224e-005 -0.0020585579 -0.69737107 0.10750809
535000000 -0.68377483 0.11345714 0.00035217585 -0.0019075432 -0.00076078129 -0.0010962764 -0.69598317 0.10769317
536000000 -0.6835348 0.11238406 -0.0012914231 -0.0012788083 -9.1909089e-005 -0.0022316987 -0.69591278 0.10838625
537000000 -0.68524283 0.1128434 -0.0014310043 -0.00069172337 9.6174321e-005 -0.0013139633 -0.69638842 0.10973593
538000000 -0.68459326 0.11298018 -0.00073382125 -0.0021705641 -0.00045912672 -0.001496974 -0.69747567 0.10821059
539000000 -0.68523943 0.11308614 -0.00044511413 -0.0016361568 0.00034630139 -0.0018792598 -0.69691873 0.10944419
540000000 -0.6829496 0.114179 -0.0002914205 -0.00053860346 -0.0010981448 -0.0033520625 -0.69562334 0.10937218
541000000 -0.68137604 0.11403994 0.00015955645 -0.0016734933 -0.00016730516 -0.0014587166 -0.69719148 0.10891396
542000000 -0.68280882 0.11337706 -0.00075552281 -0.0022671577 -8.7476665e-006 -0.0018266289 -0.69663686 0.1095688
543000000 -0.68324071 0.11371233 -0.0003456673 -0.0013209898 -0.00077826739 -0.00098300562 -0.69385713 0.10936797
544000000 -0.68363291 0.11331656 0.00019795922 -0.0013711728 -0.00093787984 -0.0021473973 -0.69482356 0.11003128
545000000 -0.68339211 0.1146291 -0.00075102953 -0.0015315771 -0.00034040218 -0.0015537961 -0.69645327 0.110401
546000000 -0.6839239 0.11425808 -0.00036204743 -0.0022262172 -0.00099159649 -0.00046433083 -0.69580418 0.11065002
547000000 -0.68261546 0.11528027 -0.00027209311 -0.0021041001 -0.00018259912 -0.0013593653 -0.69828618 0.10963701
548000000 -0.68257499 0.11612144 -0.0001511942 -0.0012229965 -0.0014206696 -0.001579982 -0.69528049 0.11101031
549000000 -0.68336999 0.11445475 -0.00051542703 -0.0010916144 -0.00056448963 -0.0011959336 -0.69605821 0.11015631
550000000 -0.68417019 0.11609007 -0.00049659674 -0.0019489542 -0.00091459742 -0.0017097163 -0.69717258 0.11193675
551000000 -0.68208611 0.11468228 0.00030658516 -0.0017364783 -0.00080869155 -0.00078189682 -0.69565994 0.11175621
552000000 -0.68228269 0.1155783 8.893296e-005 -0.0011084045 -0.00017344633 -0.0019363667 -0.69618231 0.111591
553000000 -0.68303758 0.11519543 -0.0011393029 -0.0023970199 -0.00086154818 -0.0017337117 -0.69631618 0.11049685
554000000 -0.68215162 0.11756491 -0.00074331643 -0.002605072 -9.7166318e-005 -0.0011682095 -0.6967836 0.11141603
555000000 -0.68317467 0.11633088 -0.00089046388 -0.0012221514 -0.00026884509 -0.0023943805 -0.69568551 0.11118491
556000000 -0.68437541 0.11735192 0.00083893974 -0.0016929512 -0.001092268 -0.0016345838 -0.69645143 0.11155332
557000000 -0.6826371 0.11618077 -0.00050795381 -0.0016568134 -0.00025300559 -0.0013681257 -0.69565189 0.11182547
558000000 -0.68228656 0.11461282 0.00024322067 -0.0014201312 -0.00060766685 -0.00092579122 -0.69785649 0.11198644
559000000 -0.68383527 0.1175229 -0.00050473091 -0.0013048743 -0.00065433304 -0.00050539267 -0.69519573 0.11165313
560000000 -0.68398994 0.11699589 -0.00050012849 -0.0012074844 -0.001563355 -0.001743421 -0.69526607 0.11246949
561000000 -0.68312645 0.11672317 -0.0012042939 -0.0013285865 -0.00019904367 -0.0023246645 -0.69572973 0.11267096
562000000 -0.68166906 0.11624285 0.00015051669 -0.0013752586 2.3266037e-005 -0.001704372 -0.69605654 0.11368722
563000000 -0.68380988 0.1176362 0.00086994813 -0.0020565006 -0.00060273946 -0.0016622175 -0.69616002 0.114688
564000000 -0.68248641 0.11645743 0.00033796925 -0.0022598151 0.0001206998 -0.0016492632 -0.69691324 0.11301416
565000000 -0.6833303 0.1163101 -0.00027057255 -0.0022121309 2.1696944e-007 -0.001789905 -0.69602418 0.11506845
566000000 -0.68283093 0.11679428 -2.1387961e-005 -0.0020742174 -0.00063524034 -0.0018476894 -0.69619495 0.11327539
567000000 -0.68362176 0.11650936 -0.00076780055 -0.0024035759 -0.0003551491 -0.0026231308 -0.69630802 0.1131217
568000000 -0.68274957 0.11704504 -1.2107695e-005 -0.0019155703 -0.00027249646 -0.0010950733 -0.69758588 0.11309984
569000000 -0.68210882 0.1176941 -0.00075233984 -0.0021647585 4.7840324e-005 -0.0014246767 -0.69590282 0.11384283
570000000 -0.68323213 0.116808 0.00026102012 -0.0018128876 -0.00066315895 -0.0015419446 -0.695647 0.11423408
571000000 -0.68389237 0.12006646 -6.3136074e-005 -0.0021832897 0.0001667019 -0.00095395534 -0.69676286 0.11432061
572000000 -0.68170786 0.11763857 -0.0013078593 -0.0014274777 -0.00052162801 -0.0016962738 -0.69551659 0.11592906
573000000 -0.6818949 0.1185509 0.00039681394 -0.0019801138 -0.0012204148 -0.0009551702 -0.69584566 0.11459602
574000000 -0.68160141 0.1179304 -0.00039187286 -0.0028902988 0.00089466257 -0.0015917653 -0.69838339 0.11452135
575000000 -0.68221813 0.11884276 -0.00090902776 -0.0013330119 -0.00052446563 -0.0024291913 -0.69637406 0.11536063
576000000 -0.68325627 0.11936978 -0.0012150001 -0.0022386163 -0.00069505878 -0.0013491266 -0.69651574 0.1153648
577000000 -0.68140417 0.11975423 -0.00090333715 -0.0019633202 -0.000209701 -0.00191126 -0.69454455 0.11456018
578000000 -0.68068182 0.12000249 -0.0008488262 -0.0029116361 0.0010170053 -0.0026734401 -0.69644904 0.11469208
579000000 -0.68249083 0.12051994 -0.00012757196 -0.001580309 -8.6680666e-005 -0.0023960914 -0.69681638 0.1147477
580000000 -0.6813646 0.12067752 0.00058159424 -0.0014626503 -0.0001818204 -0.0017039845 -0.69506001 0.11688583
581000000 -0.68209171 0.11986046 -0.00011369203 -0.0016089262 0.00020357658 -0.00070221181 -0.69676042 0.11491819
582000000 -0.68226475 0.12057054 0.00012594348 -0.0018916886 -0.0001303326 -0.0014490752 -0.69455379 0.115282
583000000 -0.68035954 0.12099984 -0.00069866679 -0.0014832796 -0.00040070512 -0.0010653327 -0.69637692 0.11503305
584000000 -0.68289554 0.12015134 0.00032512186 -0.002410342 1.0898467e-005 -0.0013504941 -0.69556206 0.11632784
585000000 -0.68247008 0.12095374 0.00046616126 -0.0018756285 0.00029392928 -0.0032701509 -0.69531721 0.11638492
586000000 -0.68136984 0.12149113 -0.00045433719 -0.0018008288 -0.0012209847 -0.0021338812 -0.69462216 0.11625033
587000000 -0.68151051 0.12075531 -3.9330651e-005 -0.001761312 -0.00015944771 -0.002240086 -0.69539857 0.11601567
588000000 -0.68222052 0.121286 -0.0010392857 -0.00230469 -0.00022275012 -0.0025003748 -0.69486195 0.1173948
589000000 -0.68163651 0.12122744 3.838438e-005 -0.0019460025 -0.00078003475 -0.0016108949 -0.69440645 0.11657563
590000000 -0.68145478 0.12198073 -0.0010248511 -0.0018933333 -0.00048396882 -0.0028193016 -0.69517362 0.117424
591000000 -0.68154365 0.12365869 0.00038241703 -0.0019561211 -0.00035203915 -0.0018654916 -0.6959008 0.1176151
592000000 -0.68124211 0.12434233 -0.00058222533 -0.0019493492 -0.00072674017 -0.0022419023 -0.69485551 0.1174715
593000000 -0.67988855 0.12271232 -0.00020084454 -0.0018903799 0.00012614638 -0.0021811835 -0.69730526 0.11798492
594000000 -0.68008024 0.12378127 -3.3792759e-005 -0.0020194068 -0.0013894556 -0.0010086012 -0.69450003 0.11764542
595000000 -0.68093067 0.12220287 0.00078254077 -0.0015181141 -0.00097745273 -0.0014267379 -0.69515771 0.11935324
596000000 -0.68270361 0.12391116 -0.00027014498 -0.0016316016 -0.00020445618 -0.00088909257 -0.69432366 0.11920887
597000000 -0.68137312 0.12288615 -0.00075066392 -0.0021870357 2.0289073e-005 -0.0016867112 -0.69442135 0.11953045
598000000 -0.6807425 0.1238786 0.00053311541 -0.0016909327 -0.00035311063 -0.0017774573 -0.69545698 0.12058446
599000000 -0.68114769 0.12418579 -0.0005277723 0.00033663446 -7.7502918e-005 -0.0014501424 -0.69633049 0.11907916
600000000 -0.68067229 0.12501124 -0.00039582851 -0.001224117 -0.00079136301 -0.0019625833 -0.69598061 0.12107751
601000000 -0.6799252 0.12459431 -0.00041684011 -0.0013272202 -0.00083632348 -0.00079627312 -0.69453365 0.11988024
602000000 -0.67984712 0.12557167 -0.00076724146 -0.0024618765 -0.00013282731 -0.0024779467 -0.69500971 0.12020872
603000000 -0.68006694 0.12564544 -0.00060118845 -0.0012156048 -0.0004389559 -0.00091111474 -0.69500649 0.12076996
604000000 -0.68048948 0.12607579 -0.00038052609 -0.0020823393 -0.00087166758 -0.0018894537 -0.69459617 0.12080089
605000000 -0.68055511 0.12523024 -0.00098231528 -0.0014941351 -0.001080783 -0.0015242847 -0.69507682 0.12060153
606000000 -0.6807099 0.12700425 -0.0010389575 -0.0020326162 -0.00035708834 -0.0013221726 -0.69512385 0.12054483
607000000 -0.6808604 0.12538348 0.00024959943 -0.0007438499 -3.7135764e-005 -0.0017045116 -0.69368738 0.12168718
608000000 -0.68013871 0.12618561 -0.00082782359 -0.0017532348 -0.0013268373 -0.0017233983 -0.69493407 0.12074309
609000000 -0.68135822 0.12644352 -0.0010403651 -0.0024969776 -9.7208525e-005 -0.0010690525 -0.69421744 0.12116683
610000000 -0.68106121 0.12575085 0.00019695425 -0.0014029597 -0.00060742826 -0.0026433328 -0.69268686 0.12024554
611000000 -0.6790536 0.12833707 -0.00087972975 -0.0013329119 -1.8488488e-005 -0.0020032576 -0.69390035 0.12119474
612000000 -0.67978358 0.1276858 -0.00065461278 -0.00215114 -0.00082341174 -0.0019594627 -0.69429654 0.12204888
613000000 -0.68080521 0.1272251 -0.00012635399 -0.00088234612 -0.0005985988 -0.0021968067 -0.6947031 0.12148345
614000000 -0.67897308 0.12786563 -0.00067396805 -0.0019436018 -0.00058830826 -0.0016086386 -0.69484228 0.12220723
615000000 -0.68052709 0.12904364 -0.00046438098 -0.0024157101 -0.00055238791 -0.0024036781 -0.69503272 0.12224755
616000000 -0.68081951 0.1299292 -0.0014740308 -0.0024043119 -0.0013203241 -0.0011180885 -0.69465709 0.12253241
617000000 -0.67992288 0.12841448 9.6461292e-005 -0.0017803124 -0.00037710596 -0.0014063927 -0.69489771 0.1221211
618000000 -0.68091166 0.12905879 0.00033306287 -0.001023388 -0.0010226639 -0.001545981 -0.69434166 0.12356002
619000000 -0.67987281 0.12911354 0.00022586505 -0.0026461743 -0.00070274639 -0.0013751835 -0.69311053 0.12406684
620000000 -0.68006444 0.12985142 0.00074558257 -0.0018909862 -0.00081018871 -0.0017667376 -0.69482434 0.12348499
621000000 -0.67982757 0.13059413 -0.00041793805 -0.0022916051 -0.00040040186 -0.0018728276 -0.69424629 0.12432074
622000000 -0.67945224 0.12936802 0.00081029709 -0.0018619032 0.0010502058 -0.0021277117 -0.69373363 0.1229384
623000000 -0.68024915 0.12954994 0.00042483991 -0.0011017229 -0.0007099678 -0.0013227075 -0.69437212 0.12412883
624000000 -0.68071324 0.1303488 -0.0005385892 -0.00079621701 -0.0012554739 -0.0018491589 -0.6937604 0.12347852
625000000 -0.67823547 0.13191107 0.00018746388 -0.001505424 0.00054611883 -0.00084061211 -0.69284725 0.12484875
626000000 -0.67911512 0.13170257 -4.3339453e-005 -0.0023182684 0.00011619532 -0.0019447528 -0.69327193 0.12425827
627000000 -0.67956227 0.13140747 -0.0004671691 -0.00097422459 -0.00018823918 -0.0012858839 -0.69443512 0.12459576
628000000 -0.67974252 0.13116132 0.0001478816 -0.0030221564 -0.00050991104 -0.0025925175 -0.69273746 0.12429113
629000000 -0.67919356 0.13330488 -0.0011496645 -0.0020441331 7.873166e-005 -0.0013614707 -0.69359487 0.12645318
630000000 -0.68073201 0.13221416 -0.00072878442 -0.0018283125 -9.3559211e-005 -0.0018827006 -0.69434422 0.1257118
631000000 -0.68049997 0.13331923 -6.7935798e-005 -0.0016819973 -0.00036777093 -0.0011110299 -0.69251823 0.12596174
632000000 -0.67904258 0.13226402 0.00011408675 -0.002383031 -0.00024036861 -0.0014200083 -0.6925081 0.12607019
633000000 -0.67898953 0.13307099 0.00050402462 -0.0005421667 -0.00026058877 -0.0022723298 -0.69421196 0.12599255
634000000 -0.67926371 0.13474749 -0.0007395132 -0.0017750497 -0.00037788611 -0.0024434354 -0.69322354 0.12573108
635000000 -0.67867166 0.13321814 -0.00038526603 -0.00097616733 -0.0014930895 -0.0021598376 -0.69310689 0.12543166
636000000 -0.67807341 0.13372205 0.00012832657 -0.00089579838 -0.0007843065 -0.0026465794 -0.69344914 0.12703376
637000000 -0.67879498 0.13255535 -0.00023079167 -0.0021842776 0.00034305901 -0.0027271551 -0.69395202 0.12668793
638000000 -0.67884153 0.13291799 -0.0017149732 -0.0016462884 -0.00054479792 -0.0015704185 -0.69204426 0.12685141
639000000 -0.67926127 0.13482521 0.00059975986 -0.0026095051 -0.0006726124 -0.0022266146 -0.69242668 0.12848173
640000000 -0.67889684 0.13383636 -0.00099251152 -0.0020180957 0.0010694697 -0.0029659499 -0.69238365 0.12835801
641000000 -0.67845774 0.13510133 7.0308538e-006 -0.00091957353 -0.00053828198 -0.0020002718 -0.69169909 0.12780687
642000000 -0.67916107 0.13355343 -0.0016909117 -0.0017729595 -0.00042917288 -0.001716219 -0.69311672 0.12837186
643000000 -0.67891061 0.13538218 -0.00042136307 -0.0015734527 -0.00040839319 -0.0014889591 -0.69331121 0.12820125
644000000 -0.67927927 0.13580696 -0.00087236031 -0.0012244282 0.00033540532 -0.002689033 -0.69328135 0.1286169
645000000 -0.67937624 0.13409974 -0.00021486566 -0.0017750545 -0.00063011411 -0.0010682849 -0.69271678 0.12731387
646000000 -0.67936718 0.13585296 -0.0010521312 -0.0021583175 0.00054434955 -0.0010868596 -0.69343871 0.12907104
647000000 -0.67963547 0.13617434 -2.6857499e-005 -0.0021594428 2.173262e-005 -0.0021615003 -0.69203305 0.12903176
648000000 -0.67857945 0.13479643 -0.00059596414 -0.0013676281 -0.0003745624 -0.0014759356 -0.69225395 0.12931968
649000000 -0.67922503 0.13563904 -0.00087794458 -0.0021413481 0.00011503282 -0.0020656984 -0.69371039 0.13027807
650000000 -0.67840475 0.13464649 -0.00027412747 -0.0010513099 -0.00099801121 -0.0029995872 -0.6921649 0.12947643
651000000 -0.67939103 0.13557485 -8.5184416e-005 -0.0029144061 0.00043776087 -0.0025132631 -0.69235086 0.12997811
652000000 -0.67792618 0.1375633 0.00022411006 -0.001711918 -0.00064182183 -0.0013463844 -0.69222194 0.13040753
653000000 -0.67820936 0.13705304 -0.00090682873 -0.0019714043 -0.00012306399 -0.0009474805 -0.69333655 0.12907346
654000000 -0.67857909 0.13763489 -7.2977418e-005 -0.0011687481 -0.00092826108 -0.0035244925 -0.6928038 0.12967852
655000000 -0.6795581 0.13632205 0.00045301556 -0.0025180664 -0.00057479576 -0.0011707485 -0.69300169 0.13187577
656000000 -0.67862642 0.1377601 -0.0014975287 -0.0020061119 -0.00048717079 -0.0025271405 -0.69261289 0.1308247
657000000 -0.67933923 0.13815618 -0.00052185886 -0.0018363565 -0.0015192592 -0.0019006791 -0.69240862 0.13065018
658000000 -0.67889494 0.13786149 -0.00039018533 -0.0013520104 -0.00074405078 -0.0023618371 -0.69181228 0.13086201
659000000 -0.67866522 0.13907085 -0.00014154377 -0.0023542596 -0.00068410696 -0.0019121462 -0.69252509 0.12929913
660000000 -0.67908365 0.13804501 -0.0002279146 -0.0017359096 -0.0002512153 -0.0027734118 -0.69256103 0.1323767
661000000 -0.67950869 0.13738495 -0.0002322506 -0.002517066 -0.00072875834 -0.0018458443 -0.69244742 0.13222542
662000000 -0.67869228 0.13994038 -6.5739572e-005 -0.0018828263 -0.00056430878 -0.0018936543 -0.69303441 0.13304237
663000000 -0.67922771 0.13846016 0.00039353705 -0.0032834364 -0.00036538852 -0.0021028498 -0.69238073 0.13124606
664000000 -0.67824525 0.13809299 -0.00010694477 -0.0025408731 -0.001001282 -0.0011847562 -0.69235182 0.1318122
665000000 -0.6783669 0.14091268 0.00011472769 -0.0015734734 -0.00012704109 -0.0033102471 -0.69131774 0.13263141
666000000 -0.67890328 0.13897163 -0.00044732331 -0.0026544812 -0.0016440996 -0.0018209763 -0.69185102 0.13158479
667000000 -0.67881918 0.139395 -0.00079842925 -0.0022278049 0.00051561935 -0.000803823 -0.69441247 0.13314983
668000000 -0.67803806 0.13944833 -0.00025046407 -0.0017618493 -0.00091233378 -0.0012982424 -0.69231403 0.13279052
669000000 -0.67919952 0.13962494 -0.00038763351 -0.0020986728 -0.00097033265 -0.0021781938 -0.69157392 0.13294758
670000000 -0.67943907 0.14037454 -0.0005586092 -0.0021706098 -0.00040585158 -0.0021549631 -0.69104564 0.13372663
671000000 -0.67878711 0.14040892 -0.0012610538 -0.0018799927 -0.00071404147 -0.0020342839 -0.69267082 0.13378024
672000000 -0.67986029 0.14062099 -0.00075941754 -0.0017378657 8.5425214e-005 -0.0013329299 -0.6919145 0.13414989
673000000 -0.67827648 0.14055645 -0.0004590709 -0.0028051827 -0.00086025032 -0.0013155909 -0.69185001 0.13311152
674000000 -0.67852765 0.14011487 -0.00016590687 -0.002141295 -0.00042251986 -0.0015880378 -0.69280839 0.13184166
