!Keysight Technologies,M9374A,MY55442783,A.12.55.05
!Date: Thursday, May 20, 2021 11:23:11
!Correction: S11(Full 2 Port(1,2)) 
!S21(Full 2 Port(1,2)) 
!S12(Full 2 Port(1,2)) 
!S22(Full 2 Port(1,2)) 
!S2P File: Measurements: S11, S21, S12, S22:
# Hz S  RI   R 50
500000000 -0.97306484 0.034495723 -3.0628566e-005 -0.00050006574 -0.0006020196 -9.5291776e-005 -0.97855568 0.027310347
501000000 -0.97199583 0.035482954 -0.00026948191 -0.00080137554 0.00023310608 0.00025567858 -0.97948253 0.028802548
502000000 -0.97263891 0.035194166 -0.00077614532 -0.00046873221 0.00011985337 -0.0011123897 -0.97969508 0.02878019
503000000 -0.97251558 0.033401221 0.00010556858 -0.00074423046 0.0009841529 -0.00028169758 -0.97899389 0.027566789
504000000 -0.97241122 0.035487529 0.00065373135 -0.00073668564 -0.00010083312 -0.00036830129 -0.97874314 0.028200272
505000000 -0.971371 0.035699788 -0.00044557126 -0.00023824624 0.00021182808 0.00012269247 -0.97961712 0.027620004
506000000 -0.97245818 0.035229072 0.00041835621 -0.00020754695 0.00015692996 -0.00015932989 -0.97962886 0.028930619
507000000 -0.9715454 0.035741284 -0.00064420124 -0.00075762178 0.00027613959 -0.0016831546 -0.97956532 0.029649407
508000000 -0.97223848 0.035979103 0.00024036165 -0.00024916287 -0.00024032223 -0.00056670816 -0.97905231 0.030121669
509000000 -0.97176677 0.035774924 0.00039827998 -0.00061999157 6.4237218e-005 -0.00023091611 -0.9784621 0.029754898
510000000 -0.97237468 0.036510125 -0.00018280113 -0.00036259854 0.00021718402 -0.00017557752 -0.97921795 0.029183069
511000000 -0.97206569 0.036544185 0.00048310918 -0.0008007224 -0.00029180149 -0.00085267471 -0.97834742 0.029851396
512000000 -0.97224134 0.034805775 0.00019822356 0.00038461987 0.00060239411 -0.00056292408 -0.97945368 0.029579621
513000000 -0.97184694 0.03491265 0.00016032692 -0.00098575349 0.00011151246 -4.8704616e-005 -0.97914332 0.028607542
514000000 -0.97107935 0.037345883 0.00038237838 -0.0013801507 -0.00038096498 -0.00075733906 -0.97978908 0.029447207
515000000 -0.97136509 0.035906941 0.0001861426 -0.00057888834 0.00022602282 -0.00026661702 -0.9799974 0.030345814
516000000 -0.96993858 0.036932945 -0.00015058911 -0.00086252287 0.00025342443 -3.5555011e-005 -0.97941756 0.029438112
517000000 -0.97157347 0.036008209 -0.00019081957 -0.00053453899 -0.00037268217 7.5065756e-005 -0.97941297 0.029027609
518000000 -0.97250485 0.035569489 0.00035040936 -0.00029001085 -0.00012513032 -0.00019372163 -0.97916782 0.029134646
519000000 -0.97151828 0.035840649 5.7292767e-005 0.00055158685 -7.3256466e-005 -0.00047411199 -0.97895986 0.030449046
520000000 -0.97075045 0.036281567 0.00026521308 9.4040857e-005 -1.6086755e-005 -0.00096451008 -0.97771937 0.030630903
521000000 -0.97196746 0.036699332 -0.00047185554 -0.00048494618 0.00010190831 0.00012416005 -0.98017168 0.030028289
522000000 -0.97380191 0.036857128 0.00030404597 -0.00048506766 -0.00042998575 0.00013106666 -0.9787513 0.030619089
523000000 -0.97252333 0.037020959 -0.00038282532 -0.00073941302 -0.00040684475 -0.0010030408 -0.97960711 0.031092022
524000000 -0.97154188 0.037019733 -0.00043968359 -0.00029112588 0.00024734257 -0.00060653844 -0.97932559 0.031392712
525000000 -0.97070748 0.036835816 -0.00026823644 -0.00047147612 0.00056717475 -0.00055120833 -0.97892594 0.031601358
526000000 -0.97176123 0.035821948 -0.00078986119 -0.00045918097 -0.00050945644 -0.00088544353 -0.9790771 0.031472679
527000000 -0.97180521 0.037308693 -0.00029679004 0.00017251725 0.00033229176 -7.0251059e-005 -0.97893333 0.031021696
528000000 -0.97251755 0.037320811 1.956254e-005 -0.0004542747 -0.00023179007 -0.00091522268 -0.97753036 0.031488806
529000000 -0.97299784 0.036505893 0.0002642374 0.00038822135 0.00038341698 -0.00063249236 -0.97867513 0.031720094
530000000 -0.97159863 0.037498847 -0.00041423214 -0.00030290851 0.00021279648 -0.00097699161 -0.98050785 0.030929238
531000000 -0.9727577 0.037649751 0.0011472228 -0.00042000238 -0.00013520644 -0.00098518131 -0.97931343 0.031196976
532000000 -0.97213006 0.03754323 1.0968302e-005 -0.00063555152 -0.00011345123 -0.00056593091 -0.97901022 0.031399582
533000000 -0.97265983 0.036496282 0.00028259453 -0.00045425989 -5.6208381e-005 -9.8607552e-006 -0.97832286 0.032175381
534000000 -0.97248334 0.035637617 0.00060964003 -0.00040918856 -0.00012558678 -0.00098436617 -0.97972798 0.031906821
535000000 -0.97213131 0.036784101 -0.00032717534 -0.0005608669 5.3756557e-005 1.2659274e-005 -0.97821033 0.032681394
536000000 -0.97115928 0.036386978 -0.00066377199 -0.00030792793 -0.00033059713 -0.00065887353 -0.9786033 0.032045815
537000000 -0.97247463 0.038587075 0.00049281679 -0.00098156533 3.2241016e-005 -0.00034117306 -0.97802269 0.032353546
538000000 -0.97098732 0.03664875 -8.997511e-005 0.00026329895 3.7458722e-006 -0.00012536284 -0.97844803 0.031221414
539000000 -0.97182941 0.036446691 -0.00024336233 -0.00067813945 -2.7183021e-005 -0.00050310063 -0.97997826 0.032536156
540000000 -0.97217005 0.037865657 0.00069727493 -0.00079353113 -3.6309299e-005 -0.00075947773 -0.97812885 0.031867396
541000000 -0.97181684 0.036642786 -0.00054724602 -0.00080919516 0.00023391834 -0.00069443532 -0.97928572 0.03229
542000000 -0.97175562 0.037496064 5.1485542e-005 -0.00093423051 0.00028823633 -0.00015439838 -0.97765809 0.032162182
543000000 -0.97129899 0.03812921 3.7644677e-005 -0.00071627204 -0.00061101327 2.0678952e-005 -0.97931999 0.031538293
544000000 -0.97253174 0.038544301 -0.00030401675 -0.00033869167 0.00011848038 -0.00045354501 -0.97878075 0.032447759
545000000 -0.97327399 0.038055364 0.00050983118 0.00044151908 0.00033486032 -0.00053191651 -0.97913182 0.031234551
546000000 -0.97155666 0.038331587 -0.00035400203 5.0792705e-006 0.00012192126 -0.0004255611 -0.97858959 0.032613501
547000000 -0.97147071 0.037640322 -0.0010650014 -4.7082016e-005 -0.00045142119 -0.00056729448 -0.97857559 0.031882524
548000000 -0.97075182 0.038627986 -5.9715796e-005 -0.00080960413 -0.00027977428 -0.00037083344 -0.97816694 0.032991655
549000000 -0.9710322 0.037589189 -0.00041810909 -0.00063102791 9.0446847e-005 -0.00043290356 -0.97844058 0.032421909
550000000 -0.97045338 0.037074342 -0.00022344322 8.3811145e-005 -0.00036219446 -0.00045912596 -0.97907972 0.033384815
551000000 -0.96976984 0.038180996 -0.00013733223 -0.0011451043 -7.8627607e-005 -0.0006407866 -0.97826922 0.032533754
552000000 -0.97232801 0.036933511 -0.00064010476 -0.00077290315 -0.00026829747 -0.0006781476 -0.97785771 0.031886153
553000000 -0.97163278 0.037384104 0.00060551049 0.00017785083 0.00047592018 -0.00035535969 -0.97857809 0.03285148
554000000 -0.97013515 0.036902178 -0.00013090787 -0.00057155488 1.6504455e-005 -0.00077814457 -0.979123 0.031253301
555000000 -0.97118622 0.037598271 -0.00024588837 -0.00062109495 -0.00023976162 -0.00033133721 -0.97944802 0.033146858
556000000 -0.9714191 0.037313022 -3.5174402e-005 -0.00023273437 -0.00020194621 -0.00019308244 -0.97916263 0.03346597
557000000 -0.9716562 0.038581386 0.00015336426 -0.00012130629 0.00096327957 0.00027987879 -0.97863901 0.03134951
558000000 -0.97154492 0.038505636 -0.00047147556 0.00022671916 -1.1780314e-005 -0.00026942586 -0.97859663 0.031623922
559000000 -0.96968228 0.037114915 -0.00057894981 -3.5734221e-005 -0.00066830625 -0.00065339403 -0.97879165 0.033159997
560000000 -0.97209668 0.037493497 0.00022410403 -0.00034570758 2.2498532e-005 -0.00082325464 -0.97942746 0.032150581
561000000 -0.97145903 0.03694623 -9.5642717e-005 -0.00046534103 -0.00048271928 -0.00067702716 -0.97878116 0.032867543
562000000 -0.97070253 0.036723033 0.00043247198 -0.0006828552 0.0003493281 0.00038351942 -0.97942531 0.033077195
563000000 -0.97188765 0.038596965 -0.00078510534 -0.00055600057 6.1823768e-005 -0.00057126989 -0.97855937 0.033954553
564000000 -0.97059709 0.038565855 -0.00071002496 -0.00014289252 -0.00011032549 -1.4449469e-005 -0.97894245 0.031573907
565000000 -0.97039503 0.038506977 -5.0209943e-005 -0.00011903915 -0.00030851582 -0.00018505292 -0.97983879 0.032106891
566000000 -0.97136629 0.036724169 0.00013333016 -0.00089889235 -0.00078600773 -0.00099739572 -0.97931862 0.032262288
567000000 -0.97162443 0.038946655 -0.00016696351 -0.00041074125 -0.00032450981 -0.001359941 -0.97999841 0.032270268
568000000 -0.9710654 0.03758039 0.00026129722 -0.00056922302 -0.00053921732 0.00022521272 -0.9794333 0.03184092
569000000 -0.97155941 0.038958196 -7.5511656e-005 -0.00039535732 0.00014814951 -0.00020241163 -0.97908485 0.032021344
570000000 -0.97098243 0.038240198 -0.00012930666 0.00019590576 -0.000545641 -0.00046317672 -0.97836715 0.030967195
571000000 -0.9702462 0.038776852 -8.9101799e-005 -0.00088920514 -0.00019936176 0.00021950361 -0.97941917 0.031853929
572000000 -0.97025937 0.037600119 -5.4602286e-005 -0.0011098031 0.00026535091 -0.00026713047 -0.97808671 0.033051383
573000000 -0.97203314 0.038006376 -0.00012583163 0.00052568392 -0.00026482204 -0.00037886208 -0.97878247 0.033088729
574000000 -0.97109604 0.038229976 8.6003074e-006 -0.00039878621 7.6470795e-005 -0.00039743588 -0.97963804 0.033073407
575000000 -0.97139746 0.037554216 0.00010332215 -0.0004285803 1.2102011e-005 -0.00069566217 -0.97912961 0.034193244
576000000 -0.97088653 0.038494151 -0.00073631154 -0.00075361889 0.00015167297 -0.00089633808 -0.97924227 0.032849561
577000000 -0.97111231 0.038639672 -0.00025061422 -0.00047641774 -0.00031059925 -0.00078184356 -0.97948873 0.03251683
578000000 -0.97055602 0.038856041 -0.0001259027 -0.00023033102 -4.2190426e-005 -0.00040522072 -0.97781497 0.031914223
579000000 -0.96999019 0.038528353 0.00067485945 -7.3060117e-005 -0.00029782217 0.00069508771 -0.97948849 0.032323159
580000000 -0.97075725 0.03741698 -0.00017625163 -0.00047522027 -0.00016833137 -0.0010890134 -0.97858173 0.032843344
581000000 -0.97132683 0.038546551 0.00020367383 -0.00071231433 0.00033001968 -0.00029848836 -0.98083234 0.033000391
582000000 -0.9697001 0.039199185 -1.9563635e-005 -0.00064511364 0.00010624347 -0.00053519697 -0.97941124 0.032785226
583000000 -0.97099304 0.038871963 -0.00060550106 -0.00083271659 -0.00055653387 -0.0003439493 -0.97884655 0.032173775
584000000 -0.97248667 0.040086597 -0.00066561677 0.0005878075 -0.00011036389 -0.00029272589 -0.97952288 0.03306805
585000000 -0.97161412 0.037907008 0.00050586148 -0.00051292329 -0.00060456496 -0.00049658032 -0.97829163 0.032983206
586000000 -0.97134471 0.037955806 -0.0002257476 1.3357697e-005 0.00021292969 -3.8167975e-005 -0.97872043 0.032670282
587000000 -0.97061586 0.037827518 -0.00024593313 -7.4543903e-005 -0.00048165492 -0.00084215082 -0.97914284 0.033423904
588000000 -0.97080106 0.038978197 0.00042080166 -0.00048295083 0.00018324109 0.00032781038 -0.97924602 0.032852985
589000000 -0.97012389 0.038875233 0.00012384636 -0.00015200538 -0.00016930209 -0.00086007419 -0.97939461 0.033315696
590000000 -0.97059679 0.038696688 -0.00053263607 -3.2830711e-005 -0.00033766864 -0.00082913117 -0.97984719 0.033625677
591000000 -0.9708578 0.039321087 0.0004372031 -0.00042280921 -0.00045342633 -0.0001150497 -0.97817057 0.032957293
592000000 -0.97063822 0.038074512 -8.2174258e-005 -0.0003068246 -0.00042588028 -0.00056313508 -0.97862905 0.033597507
593000000 -0.97123933 0.039289877 0.00029947318 -0.00031970977 0.00018413347 -0.00029302324 -0.979487 0.032909892
594000000 -0.96992624 0.039348271 -0.00033434073 -0.00039005291 0.00026013961 -0.00013823522 -0.97920144 0.033083037
595000000 -0.97227204 0.038524531 -0.00016235618 0.00040809769 -4.3176744e-005 -0.00014246849 -0.97925287 0.0336008
596000000 -0.9700464 0.040024135 -0.00015697251 0.00012695239 -3.5600883e-006 -0.00028474675 -0.97964269 0.032908387
597000000 -0.97059691 0.038384076 0.00053812779 -0.00061705639 -0.00046241118 0.00012430346 -0.97911811 0.033234242
598000000 -0.97119522 0.040252954 -4.3067841e-005 -0.00060114509 -0.00024172202 -0.00075786188 -0.9791469 0.033506926
599000000 -0.97037846 0.039559465 0.00047688131 -0.00048326986 0.00018880938 -0.00029248995 -0.97872978 0.034441553
600000000 -0.97250611 0.03941416 -0.0011250286 -0.00068360637 -0.00053992326 0.00048104499 -0.97975188 0.032164458
601000000 -0.97088069 0.040775768 0.00048389888 -0.00066929014 0.00016812205 3.3703553e-005 -0.97917783 0.033390414
602000000 -0.97111708 0.039475013 -0.00083823496 -0.0001064093 6.0242503e-005 -2.0889413e-005 -0.97828025 0.033380166
603000000 -0.97142506 0.041002255 -0.00022913715 -0.00061971426 -0.00035295347 -0.00018560643 -0.97996187 0.034301557
604000000 -0.97095203 0.04062286 -0.00078475894 -0.0010169523 -0.00012681211 -0.00052591774 -0.97797287 0.03408229
605000000 -0.9715097 0.041455083 -0.00034378163 0.00012290898 -0.0008764895 -0.00046552892 -0.97820807 0.034683309
606000000 -0.9716512 0.04090111 -0.00046030927 -0.00091453549 -0.00064996176 0.00032048562 -0.97825295 0.033598535
607000000 -0.9729811 0.040557299 -0.00033436148 -0.00017218018 -0.000423016 -0.00050810515 -0.97774804 0.032970797
608000000 -0.97271854 0.040301681 0.00034364159 -0.00036905974 7.6116448e-005 -0.00014082412 -0.9784537 0.03350725
609000000 -0.96936798 0.041262787 0.00062596315 -0.0010237758 0.0003152822 -0.00039939917 -0.97726184 0.03183677
610000000 -0.97003925 0.040939916 -0.00012356351 -0.0008606427 -0.00083329831 -0.00068376283 -0.97881913 0.034231566
611000000 -0.96952641 0.041362599 0.0001712693 0.00011755061 -2.001129e-005 -0.00031282631 -0.97747779 0.033729896
612000000 -0.97040659 0.04126364 -9.5435316e-005 -7.4874632e-005 0.00031693763 -0.00061909732 -0.97853899 0.03450615
613000000 -0.97011709 0.04174206 0.00063614553 -0.00052912848 -0.00026188453 -0.00040135969 -0.97741562 0.033990365
614000000 -0.97151595 0.04285679 -0.00096102018 -0.0006408568 -5.5142573e-005 -0.00061672227 -0.98076117 0.03471221
615000000 -0.97028852 0.04140598 -4.2301392e-005 0.00028040307 0.00038581085 0.00014482717 -0.97977769 0.035196479
616000000 -0.97104901 0.041315783 9.6910917e-005 -3.9728795e-005 -0.00041233926 -0.00097788742 -0.97872674 0.035075128
617000000 -0.97137928 0.041997451 0.00043665129 -0.00066665094 0.0010322386 -0.00037356178 -0.97856444 0.034625188
618000000 -0.97100675 0.041537058 -7.0629038e-005 -0.00066439615 -0.00028499388 -0.00047893077 -0.97801864 0.03564344
619000000 -0.97107935 0.041086361 0.00048528111 -0.00052107638 2.0029889e-005 -0.00056005939 -0.97831702 0.03510084
620000000 -0.96985137 0.04231637 0.00037104898 -0.00056356523 -8.2551851e-005 -0.00012008518 -0.97787791 0.034531254
621000000 -0.97096956 0.042186979 0.0010936857 -0.00059832912 -5.1530164e-006 -0.0011427484 -0.97736591 0.035122409
622000000 -0.97021216 0.042398095 0.00040003657 -0.00072685134 4.4983513e-005 -0.00060052931 -0.97921079 0.035571378
623000000 -0.97083455 0.042360891 0.00023024422 7.1794035e-005 0.00059673534 -0.00079906412 -0.97840798 0.035249807
624000000 -0.97015363 0.042551134 -0.00020072915 -0.00072488782 -0.00014981029 -0.00027174712 -0.97792649 0.035040587
625000000 -0.97161001 0.042624526 3.1022555e-005 -0.00063839462 -0.00067179091 -0.00089311914 -0.97886425 0.034620743
626000000 -0.97226721 0.043163735 0.00080940186 -0.00057156419 -0.00040552122 -0.00087936968 -0.97762752 0.035322897
627000000 -0.97101879 0.043157134 4.2441137e-005 -0.00063601544 0.00055088697 0.0002195048 -0.97722346 0.03557726
628000000 -0.97082299 0.043567464 -0.00052375096 -0.00054920267 1.6088483e-005 -0.0011776892 -0.97801459 0.035997171
629000000 -0.97114611 0.044147376 -0.0006216988 -0.00068376854 0.0004575424 -0.00066890253 -0.97971803 0.035332635
630000000 -0.97038728 0.043304935 0.00012017135 0.00010002231 -0.00035552218 2.9073261e-005 -0.97861713 0.036527328
631000000 -0.97086954 0.043648943 0.000207597 -0.0010234638 -0.00029219378 -0.00048782711 -0.97836065 0.0363499
632000000 -0.97163206 0.043662395 -0.00046907467 -0.00010121914 0.00036542324 -0.00049401569 -0.97779888 0.035989501
633000000 -0.97056043 0.042968642 -0.0005478189 -0.00019756534 0.00014379078 -0.00015717644 -0.97865748 0.035455823
634000000 -0.97140557 0.043214887 -3.5315392e-005 -3.3640004e-005 -1.5724423e-005 -0.00061462534 -0.97749782 0.035286531
635000000 -0.97113854 0.043854903 -7.282108e-005 0.00028386232 -0.00010420737 -0.00038886865 -0.97763425 0.035242643
636000000 -0.97116399 0.043822356 -0.00042057075 0.00020987281 -0.00015124257 -0.00024790692 -0.97829479 0.035182036
637000000 -0.97011971 0.044043768 -9.3634611e-005 -0.00056037697 0.00042292129 2.4208561e-005 -0.97775596 0.036303937
638000000 -0.97100729 0.043865927 -0.00070527033 -8.8289074e-005 -0.00055087713 8.033013e-005 -0.97838056 0.036778513
639000000 -0.97024983 0.043974582 -9.2718379e-005 -0.00053478684 5.2982123e-005 -0.00023908119 -0.97824115 0.036250606
640000000 -0.96999061 0.045110103 -0.00054200628 -0.00043792903 -0.0002678335 -0.0002826342 -0.97928065 0.035214588
641000000 -0.97026175 0.045078728 -0.00048607177 -0.00021192941 3.9998406e-005 -9.8863864e-005 -0.97764319 0.036975998
642000000 -0.9712742 0.044207577 -0.00011013528 -0.0003518234 -0.000501209 -4.6136363e-005 -0.97763658 0.036732309
643000000 -0.97011828 0.045587201 -1.9248357e-005 -0.0011278169 -0.00023208879 -0.00054945092 -0.97804034 0.036779072
644000000 -0.97098386 0.045038182 -0.00040894802 -0.00032808655 3.5212808e-005 -0.00025657736 -0.97898316 0.036817316
645000000 -0.97112483 0.045874823 -0.00047673791 -0.00049664866 0.00032372485 -0.00030129123 -0.97835898 0.03718308
646000000 -0.97086054 0.045003723 0.00021425683 -0.00034315599 -0.00018037362 -0.00070721604 -0.97752512 0.035657573
647000000 -0.971044 0.045016687 -0.00013706344 2.8604012e-005 -0.00031981664 -0.00025611924 -0.97784698 0.03592718
648000000 -0.97017384 0.044184208 -0.00045931837 -0.0010281795 -0.00025400001 -0.00017949574 -0.97694999 0.037325874
649000000 -0.97063905 0.044490807 -0.00023207416 -0.00021107383 0.00053127907 -0.00073126459 -0.97698909 0.038379036
650000000 -0.96961349 0.045381695 0.00020883445 -0.00048846379 0.00027780069 -0.00029670965 -0.9775461 0.03610434
651000000 -0.97077549 0.044844404 0.00048977416 -0.00080960215 1.703917e-005 -0.0011247488 -0.97766143 0.036614858
652000000 -0.9692955 0.044524897 -0.000180231 -0.0013746626 0.00010958967 -0.00013487565 -0.9782275 0.036266204
653000000 -0.97140259 0.045726012 -0.00013565006 -0.00033190692 -0.00093234237 0.00037341841 -0.9774093 0.036737323
654000000 -0.96918029 0.045405131 -0.0001620492 -0.00031418304 -0.00065628334 -0.00015777523 -0.97796541 0.036479078
655000000 -0.9693616 0.045109302 -1.1859195e-005 -0.0002281912 0.00093784655 -0.00015617687 -0.97836244 0.036667552
656000000 -0.9699378 0.046629027 -0.00015982694 -0.00037236049 -0.00036324307 5.5828423e-005 -0.9778167 0.037078682
657000000 -0.96954733 0.045893002 -0.0003555103 -0.00078698859 -3.7293714e-005 -0.00054067251 -0.97823954 0.037758227
658000000 -0.97101629 0.044860788 7.0118724e-005 -0.00071891799 5.5461584e-005 -0.00096256589 -0.9776516 0.036615618
659000000 -0.97018212 0.045897324 -0.00034657834 -0.00097754598 -0.00037291792 -5.7905479e-005 -0.97764444 0.037564103
660000000 -0.97115958 0.046085756 5.2410607e-005 -0.00047981346 -8.1884158e-005 -0.00057325297 -0.97845489 0.038195986
661000000 -0.97115415 0.045931704 -8.4206513e-005 -0.00071073603 -0.00043603918 -0.00014121961 -0.97763556 0.037247688
662000000 -0.97007847 0.046848778 -0.00017997836 -0.00057945744 -0.00049307902 -0.0004546727 -0.978679 0.037952889
663000000 -0.9712162 0.045844603 -0.0005312243 -1.1758481e-005 -0.00031391892 -0.0011927087 -0.97804177 0.03778917
664000000 -0.97028631 0.045600642 0.0010473023 -0.00069801538 -0.00018441843 -0.00063754868 -0.97920543 0.038368493
665000000 -0.97026408 0.045922209 -0.00052067731 -0.00070221216 -0.00031390868 -0.00027455745 -0.97736901 0.037575509
666000000 -0.9708274 0.045026496 -0.00013393775 -0.0001267731 -0.00022548102 -0.00019370163 -0.97887701 0.036955535
667000000 -0.96977782 0.047066789 0.00021517568 0.00013646494 -0.00066645362 -0.00016839389 -0.97936255 0.037444599
668000000 -0.96986556 0.046037152 6.3818909e-005 -3.5400084e-005 -8.6519125e-005 -0.00055635802 -0.97956729 0.037454944
