!Keysight Technologies,M9374A,MY55442783,A.12.55.05
!Date: Thursday, May 20, 2021 11:55:07
!Correction: S11(Full 2 Port(1,2)) 
!S21(Full 2 Port(1,2)) 
!S12(Full 2 Port(1,2)) 
!S22(Full 2 Port(1,2)) 
!S2P File: Measurements: S11, S21, S12, S22:
# Hz S  RI   R 50
500000000 -0.97381467 0.033269204 -0.00038687824 -0.00027602812 -0.0001877687 -0.00014998787 -0.97962111 0.027075924
501000000 -0.97220963 0.033676364 -8.1211459e-005 5.6740071e-005 0.00062011613 -0.00044828359 -0.9803713 0.028194059
502000000 -0.97419268 0.032716971 -4.6441652e-005 -0.00071312487 0.00068177108 -0.0006493621 -0.97954798 0.026739961
503000000 -0.97131306 0.033369604 -3.2762171e-006 -0.00098073576 0.00067465607 -0.00016470687 -0.98009223 0.02777281
504000000 -0.97276706 0.033929773 -0.00014773714 -0.00077679672 -0.00054503354 -0.00057543773 -0.98032463 0.025940707
505000000 -0.97389543 0.033896226 -0.00026993826 -0.00026769427 0.00042669952 0.00015853695 -0.97945756 0.027894832
506000000 -0.97243279 0.033527225 0.00047929268 -0.00059030158 0.00011867936 -6.5654385e-005 -0.98012501 0.028418601
507000000 -0.97216815 0.03397027 9.3925177e-005 -0.00038193862 0.00031986492 0.00011058195 -0.97970796 0.0283227
508000000 -0.97201455 0.034908745 -9.7749151e-005 -1.4511157e-005 -0.00027924168 0.00044084559 -0.97970885 0.02729647
509000000 -0.97440463 0.034118015 1.1796135e-005 -0.00034319496 -0.00084881752 -0.00011416157 -0.97888249 0.027460994
510000000 -0.97387266 0.034093257 0.00013794153 -0.00047504503 -0.00013167156 -0.0001161473 -0.97972906 0.027872015
511000000 -0.97353846 0.033705991 9.1764043e-005 -0.00071410474 0.000168812 -0.00067116524 -0.97893637 0.028478136
512000000 -0.97359836 0.034443513 4.8322156e-005 -0.00039275369 0.00030120686 -0.00028047958 -0.97836888 0.028520668
513000000 -0.97257823 0.033653986 -0.00042594518 -9.6943506e-005 -0.00064102502 -4.1475669e-005 -0.98053455 0.02832499
514000000 -0.97391295 0.035492647 -0.00083926 3.4459539e-005 0.00043910893 -7.5993274e-005 -0.97996831 0.028356619
515000000 -0.97386068 0.034614768 -0.00018547612 -0.0001710909 -0.00042259929 -0.00021466814 -0.97949284 0.029763555
516000000 -0.9729085 0.035574496 -0.00022362421 -0.00015726569 -0.00020105502 0.00012040725 -0.98006225 0.028569886
517000000 -0.97314787 0.035133634 -0.00020686182 -0.0010322628 0.00021437618 -0.00097362656 -0.97898209 0.028342977
518000000 -0.97322643 0.033646982 -0.00054274726 -0.00068071007 -0.00050810294 0.00020314333 -0.980358 0.028562553
519000000 -0.97315013 0.035365395 1.1033453e-005 -0.00059164217 -0.001030217 -0.00016756088 -0.98017353 0.02854738
520000000 -0.97314018 0.035994984 -0.0008088614 -0.00089470536 -4.9770075e-005 0.00039051997 -0.97940755 0.029101836
521000000 -0.973979 0.036013655 -0.00040013168 -0.00041765106 -0.00010985059 -0.0010480606 -0.98083609 0.030022064
522000000 -0.97396499 0.034071561 4.8704005e-005 -0.00061784033 -0.00026605721 -0.00087020203 -0.98026395 0.029210679
523000000 -0.97473305 0.03484343 0.0007395327 -0.00011123167 0.00016609702 -0.00013411875 -0.97939241 0.029490221
524000000 -0.97283888 0.034111317 6.8936213e-005 -0.00054946129 -5.8343157e-005 -0.00063586101 -0.97995549 0.029335786
525000000 -0.97237265 0.035710607 -9.1641727e-005 -0.00012595522 -9.4956767e-006 -0.00072643923 -0.97974437 0.031170364
526000000 -0.97320586 0.035515394 -7.1630995e-005 -7.554987e-005 -0.00028965552 -0.00045239303 -0.98016793 0.029929634
527000000 -0.97359926 0.035150584 0.00070138427 -3.4799865e-005 -6.6391149e-005 -0.00055516412 -0.9791711 0.02939795
528000000 -0.97312659 0.036154598 -0.00030054976 -0.0002333771 6.4478882e-006 -0.00043001189 -0.97908831 0.02903958
529000000 -0.97419745 0.03555489 -0.00031673379 0.00038804446 0.00012571026 -0.00049274281 -0.97995102 0.030713344
530000000 -0.97372687 0.035701528 0.00052967464 -0.00093767879 0.00082641281 -0.00056183664 -0.98052722 0.030433556
531000000 -0.97254902 0.035062876 -0.00064789364 0.00011087271 -0.00017292866 -0.00049735932 -0.97904897 0.030493762
532000000 -0.97401094 0.035726458 -0.00027604893 5.0367093e-005 -0.00037794252 0.00068591989 -0.97979462 0.03067275
533000000 -0.97299916 0.036573749 0.00028273783 -0.00032464709 -0.00011238181 -0.00049033068 -0.97770166 0.031104028
534000000 -0.973535 0.035578966 -0.00097160914 -0.0005003835 -0.0003703424 8.9736805e-006 -0.98055691 0.029746048
535000000 -0.97325623 0.035424504 0.00042632042 -0.00038073619 -0.00029069063 -0.0001868559 -0.97829652 0.031203248
536000000 -0.97291261 0.036917381 0.00021362786 -0.0012915262 -0.00014356783 2.9339399e-005 -0.97865915 0.030206366
537000000 -0.97223043 0.036810651 0.00012547735 -0.00043692847 -0.00053182436 -0.00071718084 -0.97963333 0.030820211
538000000 -0.97200692 0.037175667 0.00056044658 -0.00080952689 -0.00020865092 -0.00033978475 -0.97983557 0.030535584
539000000 -0.97318977 0.036109708 4.508649e-005 -0.00048362825 -0.00011306852 -0.00031370192 -0.97986233 0.029931951
540000000 -0.97288972 0.037049092 6.7583504e-005 -0.00092692662 0.0010188585 -1.7902656e-005 -0.98035234 0.031593654
541000000 -0.97302592 0.037450001 -0.00020188588 -0.00093365909 -0.00081860163 -0.00045056661 -0.97931099 0.030546226
542000000 -0.97284019 0.036432032 5.6191471e-005 -0.00027702915 0.0001545557 2.4638033e-005 -0.97876573 0.03102321
543000000 -0.9724912 0.036619805 -7.5824886e-005 -4.3443724e-005 0.00014248349 -0.0005167264 -0.9793334 0.031954914
544000000 -0.97243118 0.036049023 8.527383e-005 -0.00056713517 0.00018700965 -0.00060012675 -0.97957361 0.031327158
545000000 -0.97398138 0.035562526 -1.5122645e-005 -0.00085411558 -0.00040144601 -0.00072096509 -0.9773742 0.031863738
546000000 -0.97239155 0.036905617 -0.00075896585 -0.00037411725 7.6132572e-005 -0.00093918847 -0.97802079 0.03063328
547000000 -0.97350162 0.037148587 0.00019610087 -0.00036569941 0.00022827965 0.0003362282 -0.97963351 0.030893052
548000000 -0.97187835 0.03712992 9.9046983e-006 -0.00037522797 5.2104351e-005 -5.2225419e-005 -0.97894186 0.031466722
549000000 -0.97158307 0.037186597 -0.00036382177 -0.00021158493 -0.00017752578 -0.00033125826 -0.97960806 0.031172747
550000000 -0.97270936 0.036601692 -0.00053607486 -0.00091270066 0.00044945499 0.00070778752 -0.97987974 0.031685036
551000000 -0.97251827 0.036727734 -0.00046535151 -0.00072151632 2.6480382e-005 -0.0011576981 -0.98018551 0.030678328
552000000 -0.97263598 0.03523298 -0.00012608363 -0.00048231243 -0.00020202626 -0.00058531458 -0.97871959 0.03098559
553000000 -0.97270864 0.037195135 -0.00011187846 -0.00053832791 -0.00029147405 -0.00075963244 -0.97921693 0.030627007
554000000 -0.97280157 0.036658525 -0.00035154971 -0.00048598275 0.00052876107 -0.00070114806 -0.97978365 0.031295013
555000000 -0.97214055 0.037737254 -0.00026134384 -0.0006424606 -0.00035309134 -0.00054197031 -0.97992808 0.031912182
556000000 -0.97157264 0.035200149 -0.00067232782 -0.00061593461 -0.00077302702 -0.00074819295 -0.97862166 0.031311978
557000000 -0.97236902 0.036007058 0.00071875419 -0.00064058986 -1.7345168e-005 -0.00090038351 -0.97948194 0.031594463
558000000 -0.97203892 0.036333952 -0.00033455653 0.00031760175 0.00063963718 -0.00019192163 -0.97955734 0.031288337
559000000 -0.97367561 0.036559176 -0.00014645766 -0.00041205206 -0.00039585092 3.6575519e-005 -0.98046774 0.032036435
560000000 -0.97182995 0.037079155 0.00010211117 0.00021815226 0.00014929309 -0.00031722081 -0.97940433 0.031475678
561000000 -0.97318017 0.035452511 0.0004175106 -0.00015628866 -0.0006196149 -0.0010372775 -0.97897506 0.031521015
562000000 -0.97274619 0.03704796 -0.00016840846 -0.00058132008 -0.00091664493 -0.00045861964 -0.97969109 0.032585558
563000000 -0.97213948 0.037427895 -0.00014154027 -0.00027480113 -1.1518928e-007 -0.00023602047 -0.97971308 0.031302787
564000000 -0.97169662 0.035991438 -5.9973761e-005 -0.0011121881 -9.8689352e-006 0.00019487385 -0.97979635 0.030750768
565000000 -0.97281998 0.035085388 0.00022191598 -8.2457584e-005 -0.00047432282 -2.9490357e-006 -0.97943783 0.030912394
566000000 -0.97316641 0.035590552 -0.00066528469 -0.00026185144 0.00022896948 -0.00018390913 -0.9790979 0.031496558
567000000 -0.97271484 0.035962395 -0.00012453085 -0.00080755452 -6.0801603e-006 0.00015519564 -0.97979075 0.030466557
568000000 -0.97179502 0.03687771 -0.00014303417 -0.00034786717 -0.00029771219 -0.0002193516 -0.97982496 0.031132279
569000000 -0.97231591 0.036953777 0.00093695882 -0.00025141262 6.0305611e-005 0.00045831403 -0.97899055 0.031446654
570000000 -0.97252512 0.035942823 2.0828031e-005 -0.0010117845 7.0333532e-005 -0.00023316496 -0.97938633 0.031918239
571000000 -0.97257924 0.036786914 -0.00054041576 -0.00045632385 -0.00023567019 -0.00037755823 -0.97889501 0.031730812
572000000 -0.97160482 0.036265481 0.00017067521 -0.00046937514 -6.7846842e-005 -0.00060700026 -0.97840798 0.032622937
573000000 -0.97205621 0.037355263 -9.8132456e-005 -0.00090004498 -0.0002403094 1.7818053e-005 -0.97982979 0.032255284
574000000 -0.97167671 0.036411438 -0.0010385424 -0.00045798827 -0.00020742194 3.7484886e-005 -0.98057187 0.031048778
575000000 -0.97182143 0.037117165 0.00055498164 -0.0008238072 -0.00017567392 -6.108747e-005 -0.98015773 0.031304877
576000000 -0.97265548 0.03629306 -0.0003319252 -0.00052025804 0.00036244583 5.6431527e-005 -0.97920549 0.031148205
577000000 -0.97202444 0.036332417 -0.00020523118 -0.00031005914 -0.00014500057 -0.00095524016 -0.9797321 0.031309776
578000000 -0.97347713 0.036741715 -4.4881712e-005 -0.00075347256 -0.00023186232 -0.00054683216 -0.97898579 0.030687848
579000000 -0.97161591 0.036565199 -0.00048190399 -0.00023042763 2.6197864e-005 2.3831924e-005 -0.98012161 0.031922512
580000000 -0.97305989 0.036814574 -0.00012929339 -0.00026214132 0.00051812251 -0.0012337206 -0.97983795 0.03235846
581000000 -0.97222871 0.036523998 6.8892718e-005 0.00014216009 -0.00054355047 -0.0010166591 -0.9810043 0.03053377
582000000 -0.97076619 0.038270149 -0.00033998161 -0.0011395767 9.9570003e-005 -0.0009493074 -0.98011714 0.03200886
583000000 -0.97124475 0.037118956 4.2038311e-005 -0.00019097218 6.7267167e-005 0.00037764388 -0.98016691 0.032092463
584000000 -0.97220325 0.037227351 0.00028501323 -0.0013563052 -0.0002101439 -0.00038780659 -0.98114622 0.032355066
585000000 -0.97200668 0.037167285 0.00031603858 -0.00041524277 -0.00037088469 -0.0002102085 -0.97922933 0.030806029
586000000 -0.97231293 0.037539106 -0.00036157711 -0.00043017318 0.00059339299 5.7827943e-005 -0.97896391 0.032383151
587000000 -0.97108519 0.037027974 0.00035229838 -0.00038852831 -0.00054399029 -0.0004940441 -0.9781372 0.032998171
588000000 -0.97082591 0.037024267 -0.00014349078 -0.00029083993 -0.00026965298 -0.00038126385 -0.97985512 0.032774065
589000000 -0.97177541 0.036479719 -0.00074842648 -0.00014378848 -0.00022414344 -0.00074406288 -0.97950488 0.03267391
590000000 -0.97198063 0.037340362 -0.00096049311 -0.00021820453 -0.00011794342 -0.0010823123 -0.97910708 0.031424318
591000000 -0.97136873 0.038399596 0.0002344462 -0.00022974539 -0.00011551649 -0.00085191202 -0.97932053 0.03243655
592000000 -0.9711957 0.036126427 -0.00024132279 -0.0013671733 -0.00057110208 -0.00012264845 -0.97971547 0.03163562
593000000 -0.97264743 0.037835445 0.00055788102 0.00018404685 -0.00021182248 -0.00052552286 -0.97945082 0.031900533
594000000 -0.97098714 0.037662696 -0.00067824533 -0.00037399027 0.00011947001 -0.00087136397 -0.97966021 0.03145982
595000000 -0.97405481 0.037835941 -0.00047961401 -0.00020329343 3.4318644e-005 -0.00051746098 -0.97899657 0.032512013
596000000 -0.97261477 0.037495393 -4.6341338e-005 -0.00050262141 -0.00066423323 -0.0004784078 -0.97899157 0.031655814
597000000 -0.9726851 0.037483554 -0.00043536493 -0.00074251229 -1.9603596e-005 -0.00022958356 -0.98001772 0.032110337
598000000 -0.9722926 0.038585458 0.00015436171 -0.00070142414 0.00046244636 -0.00082370825 -0.97831565 0.032788593
599000000 -0.97172278 0.038175404 0.00012148721 -0.00078977534 0.00058358657 -0.00072210579 -0.98054653 0.032577414
600000000 -0.97266078 0.038555067 0.00023501362 -0.00063237519 6.7097346e-005 0.00052120705 -0.97964823 0.031789303
601000000 -0.97211581 0.039597578 -0.000237514 -0.00057484419 0.00066169305 -0.00059892796 -0.97948533 0.03098074
602000000 -0.97195172 0.039298397 -0.00078853033 -0.00024370062 0.00096269092 -0.0002260828 -0.97921675 0.033590931
603000000 -0.97163421 0.038997017 -0.00024359849 0.00014140671 -0.00061617675 -2.6935988e-005 -0.97851288 0.032878153
604000000 -0.97157824 0.03935799 0.00052133051 -0.00086044503 -5.3616277e-006 -0.00071610441 -0.98015893 0.033046056
605000000 -0.97222668 0.03867672 -6.6054832e-005 -0.0006257568 -0.00023825555 -0.00083469582 -0.97814208 0.033371072
606000000 -0.97244477 0.039806016 -0.0011521728 8.6709377e-007 -0.00086649356 -0.00056339923 -0.97765517 0.032517437
607000000 -0.97219229 0.039256208 -0.00034027576 -0.00077532837 -0.00027945163 -0.00030390962 -0.97925985 0.032505825
608000000 -0.97192544 0.039596662 -0.00023002672 8.6978005e-005 0.00026376327 0.0008433435 -0.97940874 0.033609211
609000000 -0.97235239 0.039348029 0.00046387463 -0.00040183173 -2.8800105e-005 5.8608803e-005 -0.97844154 0.032436255
610000000 -0.97288996 0.040142 -1.7554616e-005 -0.00018307612 0.00014227633 0.00061840552 -0.97813433 0.033786636
611000000 -0.97078806 0.039960951 0.00020553182 -3.7903977e-005 -0.00043008541 -0.00055546762 -0.97925848 0.032602478
612000000 -0.97188038 0.041169766 -0.00021282303 -0.00092639273 -0.00010511779 -0.00086998253 -0.97801775 0.033398245
613000000 -0.97193307 0.040265519 -0.00067536405 -3.2021155e-005 6.1367842e-005 -7.1361363e-005 -0.97818017 0.032736152
614000000 -0.97074205 0.039823305 0.00037895879 -0.00099981413 -0.0002133969 -0.0002193087 -0.97886276 0.034966629
615000000 -0.97230232 0.040572293 9.536952e-005 2.0217224e-006 0.00058427942 -0.00034380038 -0.97877556 0.033103958
616000000 -0.97110391 0.040443186 -0.00058406871 -0.00091920502 0.00050459197 -0.00030874307 -0.97863203 0.0338967
617000000 -0.97266203 0.041475073 -0.00012060848 -0.00096882443 0.00029867623 -0.00075992517 -0.97869027 0.03504055
618000000 -0.97224784 0.039099511 0.00031490487 -0.00058387074 0.00018581389 -0.00073469983 -0.97914851 0.033533853
619000000 -0.97289449 0.04071698 -0.00084054767 -0.00030404047 -8.6219399e-005 -0.0013144898 -0.97856975 0.033731773
620000000 -0.97204101 0.040687274 0.00029587306 -0.0013399067 0.00021003878 -0.0011860617 -0.97838414 0.03391948
621000000 -0.97294694 0.0410011 -1.4326358e-005 -0.00037393381 -0.00015215208 -0.0010399773 -0.97912657 0.034986611
622000000 -0.97279018 0.040995292 0.00082109158 -0.00064690091 0.00017423552 -0.00073004985 -0.97905022 0.033278525
623000000 -0.9706803 0.041729506 5.7401994e-005 -0.00049584382 0.00061335665 -0.00065538549 -0.97869951 0.035230733
624000000 -0.97141343 0.040746354 -3.8935777e-005 -0.00023664386 -0.00046128791 -0.00043261491 -0.9795754 0.035017081
625000000 -0.97231334 0.041502248 0.00012947418 -0.00078868249 0.00036308286 -0.001217089 -0.97840923 0.032992058
626000000 -0.97158206 0.042369485 0.00015953431 -0.00070760312 -0.00017032049 -0.0001823012 -0.97802949 0.033739951
627000000 -0.9710896 0.041793082 -0.00030642905 -0.00069723336 -0.00014865478 0.00050644757 -0.97923577 0.034320995
628000000 -0.97058874 0.041752964 0.00012758857 -0.00050676614 -0.00020380528 0.00032490669 -0.97746181 0.03533303
629000000 -0.97200143 0.041772909 -4.290713e-005 -0.00084660272 -0.00012340842 -0.00047249006 -0.97958767 0.034537792
630000000 -0.97222269 0.04228111 -0.00055418402 -1.3259866e-005 -0.00067523425 -0.00035177643 -0.97903162 0.035298996
631000000 -0.97190386 0.043032713 -0.00067336112 -0.00041644971 -0.00019156621 -0.0010072816 -0.97924834 0.035121422
632000000 -0.9726336 0.043558221 -9.4003015e-005 -6.7515204e-005 -0.00056827394 -0.00035959858 -0.97864401 0.035209101
633000000 -0.97213721 0.041736737 -0.00020364612 -0.00084356987 -0.00046979575 -8.4221268e-005 -0.97909421 0.0355772
634000000 -0.97188079 0.042736929 0.00039738344 -0.00039365215 0.00027384129 -0.00025959147 -0.97970992 0.03491839
635000000 -0.97281861 0.042146649 0.00018301817 -0.00067304907 -4.5432505e-005 -0.00019163299 -0.97935069 0.035195649
636000000 -0.9729743 0.042862721 -0.00076151907 -0.00063653744 0.00037198782 -0.00056969561 -0.97922009 0.034904744
637000000 -0.97178918 0.042620327 7.5134826e-006 -0.00048545664 -1.5100652e-005 -0.00030930605 -0.97767264 0.03511174
638000000 -0.97123581 0.042436577 -0.00035536627 -0.00089825271 0.0002956122 0.00030576959 -0.97880429 0.034238592
639000000 -0.97325659 0.042824265 -8.6526416e-005 0.0006364772 -0.00040957305 -0.00098015647 -0.97853088 0.034831684
640000000 -0.97215271 0.042411465 1.6581036e-005 -0.0006765264 -0.00029974699 -0.0010949399 -0.97873819 0.034681782
641000000 -0.97159189 0.042719655 3.6745143e-005 0.000269054 -0.00035543766 0.00010409098 -0.97810394 0.036011931
642000000 -0.97170365 0.04340357 0.00076036289 -0.00028580701 -7.9568763e-006 -0.00058986602 -0.97998714 0.035021391
643000000 -0.97062278 0.043987766 -0.00036736781 -0.00088739407 -2.3348024e-005 0.0001184315 -0.9787069 0.03520371
644000000 -0.97195339 0.043273553 -0.0004519028 -0.00068910542 0.00018071305 0.00023678193 -0.97949499 0.036061928
645000000 -0.97216588 0.044244815 -0.00039262313 -0.00090755726 -2.1823878e-006 -0.00047183139 -0.97880441 0.035169262
646000000 -0.97156632 0.042879764 -0.0001986289 -0.00039381688 -0.00024516336 -0.00080894964 -0.97809106 0.036188029
647000000 -0.97198009 0.04352529 -8.786362e-005 -0.00030929671 -0.00059477135 -0.0003162965 -0.97875983 0.036016982
648000000 -0.9715364 0.043971397 -1.5635433e-005 2.6635911e-005 -4.8548041e-005 1.7687212e-006 -0.97770888 0.036381353
649000000 -0.97099328 0.043367118 -0.00056119758 -0.00054519752 -6.9110232e-005 -0.0011623995 -0.97895265 0.036290001
650000000 -0.97067302 0.043734942 -0.00012759936 -0.00096646405 3.7909194e-005 0.00020606171 -0.97813272 0.036643829
651000000 -0.97160596 0.044773955 -0.00069042254 -0.00048775977 0.00038536417 -8.1657148e-005 -0.97829676 0.036684677
652000000 -0.9716711 0.043301642 -0.00036712416 -0.00081341231 -0.00016824332 -0.00041991202 -0.97781014 0.036537003
653000000 -0.97247756 0.043934215 9.8875054e-005 -0.00013927597 -9.5919175e-005 -0.00075178669 -0.97793978 0.035596494
654000000 -0.97092563 0.045441329 -0.00044700564 -0.00060660025 -0.00036855965 -0.00010308133 -0.97876084 0.036238458
655000000 -0.97116584 0.045118123 0.00036825801 -0.0010905737 -0.00019667995 0.00014233863 -0.978127 0.034728207
656000000 -0.97160578 0.044035312 -7.6355325e-005 -0.00067617191 -0.00049578841 -0.00024120731 -0.97771764 0.035473164
657000000 -0.97156918 0.044845719 -0.00024773684 -0.00088419486 -0.00027212137 0.0001329488 -0.97884458 0.036257595
658000000 -0.97203243 0.044479314 0.00077887229 -0.00077423913 3.3643781e-005 -0.0009395238 -0.97765899 0.036094196
659000000 -0.97141534 0.044423304 0.00030196112 -0.00052254938 -0.00064387696 -0.001002324 -0.97804868 0.035911385
660000000 -0.9713943 0.045190852 -0.00045571485 -0.00071190443 -0.00027843236 -0.00032370459 -0.9793182 0.036679745
661000000 -0.97128826 0.044789191 -0.00017564523 -2.2233826e-005 -0.00058361463 0.00010004978 -0.97815979 0.036633313
662000000 -0.97109485 0.04496887 -0.00028680041 -0.00043467947 0.0001875703 -0.00042244708 -0.97995436 0.036598668
663000000 -0.97146183 0.045155358 -0.00017373849 -0.00036959676 -0.00010949611 0.00017716814 -0.97796297 0.036086638
664000000 -0.97203243 0.043495778 -9.3124749e-005 -0.0011275677 8.8551293e-005 -0.00040212341 -0.97916037 0.036237553
665000000 -0.97057778 0.044858094 -0.0004784615 3.5982928e-005 -0.00040189648 -0.00041146739 -0.97852325 0.037284665
666000000 -0.97068208 0.043455925 -8.0291233e-005 -0.0003898461 0.00024127039 -0.00081276085 -0.97871882 0.036222085
667000000 -0.97087657 0.045885377 -0.00020176377 -0.00058667205 0.00025803293 -0.00027586456 -0.97847068 0.036477007
668000000 -0.97190422 0.044731963 -0.000165864 -0.00040549992 7.5700817e-005 -0.00081644213 -0.97893673 0.035761084
