!Keysight Technologies,M9374A,MY55442783,A.12.55.05
!Date: Thursday, May 20, 2021 12:27:03
!Correction: S11(Full 2 Port(1,2)) 
!S21(Full 2 Port(1,2)) 
!S12(Full 2 Port(1,2)) 
!S22(Full 2 Port(1,2)) 
!S2P File: Measurements: S11, S21, S12, S22:
# Hz S  RI   R 50
500000000 -0.96888208 0.033495858 0.00012960623 -0.00049707043 0.00023773343 -0.00017639027 -0.97934437 0.025974892
501000000 -0.97010183 0.032681823 8.6354186e-005 -0.00038800357 -0.00088060967 -7.8530786e-005 -0.97904241 0.027300524
502000000 -0.96951526 0.032889441 -0.00045402657 -0.00046025522 -0.00056677643 0.00032013012 -0.97922981 0.027150758
503000000 -0.97046089 0.031831194 0.00045260982 -0.00069958629 4.8018639e-005 0.00019019433 -0.98021257 0.027802229
504000000 -0.96955508 0.033404071 3.8189319e-005 -0.00058515609 0.00039585272 0.00028603192 -0.98033917 0.027783342
505000000 -0.96950334 0.032604072 -0.00049432449 -0.00046037161 0.00010996706 -5.7634617e-005 -0.98008603 0.026973853
506000000 -0.97001523 0.034030922 0.000138177 -0.00018766327 -0.00059175194 -0.00098410377 -0.97921264 0.027757451
507000000 -0.96883833 0.0337204 0.00047477605 -0.000376927 0.00054478709 -0.0010821978 -0.97988504 0.028369797
508000000 -0.9701373 0.034029271 -0.00018570913 -0.00012977218 0.00016574038 -7.8549318e-005 -0.98008388 0.028506834
509000000 -0.96988881 0.033642184 0.00017818534 -0.00037698908 0.00031313539 -0.00035456585 -0.97944093 0.028350865
510000000 -0.96948934 0.035045456 -7.2626011e-005 -0.0006373084 -7.9896054e-005 -0.00071310723 -0.97920507 0.028619675
511000000 -0.96975005 0.034604251 -0.0003195912 -8.6952801e-005 -0.00042641733 -0.00073841267 -0.97965372 0.028305661
512000000 -0.97099823 0.032879923 -0.00065791741 -0.00099209091 0.00049528835 0.00018020916 -0.97967315 0.028831331
513000000 -0.96997482 0.034143686 2.3755698e-005 -0.00072651717 -0.00059577823 0.0001659249 -0.97947544 0.027859911
514000000 -0.97030312 0.032869719 0.00039670704 -0.00066524895 -9.2416238e-005 -5.9268845e-005 -0.98026037 0.029168822
515000000 -0.96992898 0.034192603 -2.7861068e-005 -0.0005357067 0.00038301648 0.00020750109 -0.98011905 0.029086636
516000000 -0.97117084 0.034076747 0.00010108361 -0.0010185484 8.3135375e-005 -0.00093341031 -0.97976124 0.029392665
517000000 -0.96825045 0.034367286 0.00029192978 -0.00011988972 -0.00063237787 0.00028090627 -0.97841668 0.027626455
518000000 -0.97032875 0.034049954 -0.0001098041 -0.0010964801 -0.00030713819 -0.00023836378 -0.98059738 0.028018709
519000000 -0.97013462 0.033497158 -0.00023030666 -0.00016299404 -0.00025921923 -0.00055955909 -0.98032236 0.029830666
520000000 -0.9683311 0.035182033 -8.1462567e-005 -7.2225892e-005 0.00029826147 -6.5017211e-006 -0.98004138 0.028417269
521000000 -0.96936291 0.033647139 -0.00040410439 -0.00037723311 0.00018192809 -0.0011120324 -0.97983545 0.029320091
522000000 -0.96883088 0.035175066 0.00020711232 -0.00052503165 -8.6396431e-006 -0.00075578596 -0.98014057 0.030426733
523000000 -0.9691397 0.034911901 0.00029073461 -0.00043727164 -0.00010901794 -0.00063537713 -0.97979516 0.030186908
524000000 -0.96984577 0.034194957 -0.00020382449 -2.6264834e-005 -0.00017231019 -0.00063047238 -0.98103034 0.029041057
525000000 -0.96916622 0.03468759 -0.00043523847 -0.00059630733 -4.2836346e-005 0.00053320214 -0.97911459 0.030575914
526000000 -0.96893573 0.034622859 -0.00027673744 -0.00014416515 0.00037508123 -0.00017069012 -0.97888863 0.030631628
527000000 -0.96932596 0.034241166 0.00032273986 5.8902257e-005 -0.00053348677 -0.00033731805 -0.9801653 0.02998534
528000000 -0.96836168 0.03612119 -0.00048074767 2.682392e-005 -0.00011103183 -0.00031989103 -0.9780789 0.031165123
529000000 -0.96979368 0.034860414 0.00064435683 -0.00026794948 -6.3804619e-005 -9.6276497e-005 -0.97788036 0.030169841
530000000 -0.96912795 0.035703979 0.00066606287 -0.00022424778 0.00024211555 -0.00050490827 -0.9797008 0.029461568
531000000 -0.96927911 0.034600347 -0.00017436917 -0.00083820196 7.4590985e-006 3.5731468e-005 -0.97976613 0.030722449
532000000 -0.96903872 0.03594761 -0.0001562112 0.00023566284 -0.000434368 -0.00045541881 -0.98074931 0.029972747
533000000 -0.96993315 0.035112515 0.0002121311 -0.00056435942 -0.00027877995 -0.0007509063 -0.98032755 0.031206464
534000000 -0.96811247 0.034099657 -0.0003463084 -0.00073559344 0.00021022699 -0.00070861354 -0.97926831 0.030961404
535000000 -0.9685877 0.0362317 -0.00054783246 -6.9958842e-005 -0.00061651762 -0.00020692269 -0.98014927 0.031130176
536000000 -0.96979517 0.034599114 -0.00023324868 -0.00043711768 -9.1475522e-005 -0.0003806772 -0.97926062 0.031047503
537000000 -0.96959126 0.035413526 -0.00027333008 -0.00076456484 -0.00043429766 -0.00088352081 -0.97926402 0.02997319
538000000 -0.96956062 0.035609804 -0.00044623256 -7.4982367e-005 -0.00033719107 -0.00028431122 -0.9795348 0.030702215
539000000 -0.97116166 0.035598252 0.00023080024 0.00021142841 0.00011823296 -0.00080620963 -0.97982508 0.032092188
540000000 -0.96912152 0.034677092 0.00022637048 6.1164712e-005 0.00061512599 0.00022471946 -0.98025495 0.03142678
541000000 -0.96947569 0.035244137 -0.00038944394 -0.00090664235 0.00035749571 -0.00026725404 -0.98012829 0.030970482
542000000 -0.9697088 0.036491413 0.00051172555 -0.00034018463 0.00033389201 -0.00069257221 -0.98000616 0.030559218
543000000 -0.96860403 0.035231814 -0.00027073492 -0.00067836611 2.2096223e-005 -0.00063093286 -0.97958237 0.030985478
544000000 -0.9695279 0.036152244 0.00021743582 -3.7975307e-005 -0.00048671471 -0.00016848935 -0.98049587 0.031056656
545000000 -0.96959472 0.03557821 -0.00037923254 -0.00026274315 0.00052197976 -1.9184611e-006 -0.97875196 0.03123902
546000000 -0.96949118 0.036210008 -0.0001941727 -0.0013401909 0.00027138632 -0.00058502506 -0.97898412 0.030874586
547000000 -0.9690575 0.036005355 -0.00029554177 -0.00075523509 -0.00053873105 -0.0005715898 -0.97857952 0.0303121
548000000 -0.96824962 0.037437942 -0.00048399283 0.00012222998 -0.00035811836 0.00025329003 -0.97979879 0.031025495
549000000 -0.96903515 0.034744538 -0.00025622727 -0.00065396837 -0.00024369977 7.9752346e-005 -0.97979152 0.030856071
550000000 -0.96908677 0.035174418 0.00084307493 -6.551158e-005 2.6905618e-006 -0.00043552121 -0.97927362 0.03137337
551000000 -0.9690451 0.035325002 0.00024750107 -0.00046749512 -0.00061713561 0.00040868559 -0.97950989 0.030378353
552000000 -0.96980941 0.034734517 0.00058392884 6.9340691e-005 0.00032701765 0.00018941247 -0.97935009 0.031702563
553000000 -0.96934205 0.035468638 0.00040714577 -0.00039791508 0.00013415268 -0.00090009876 -0.97980136 0.031049408
554000000 -0.9691484 0.035709206 0.00013720157 -0.00046503308 -0.00028444701 -0.00058895076 -0.98027027 0.031081006
555000000 -0.96884811 0.034334868 -0.0004979666 0.00047893182 -0.00026280942 -0.00097203651 -0.97917414 0.030907206
556000000 -0.96805382 0.035252124 -0.00018291043 -0.00062268559 -0.00020367729 -0.00051367108 -0.97958767 0.031411614
557000000 -0.96907938 0.035666984 -0.00018522418 -0.0012407139 -0.00072649051 -0.00070212682 -0.97983527 0.031420272
558000000 -0.96881688 0.03621234 -0.00035518548 -0.00012093012 -0.00039598238 -0.000703889 -0.98043042 0.031170072
559000000 -0.96749967 0.035300102 -0.00016669191 -0.00020860649 -0.00064991071 -0.00089335645 -0.98031968 0.031860657
560000000 -0.96895224 0.035115894 -0.00057858496 -0.00022962203 0.00020478031 -0.00049022341 -0.97923821 0.031700864
561000000 -0.96917635 0.036909122 -0.00081486558 -0.00030312425 0.00017170816 -0.0006272312 -0.97917044 0.030501567
562000000 -0.96838963 0.035817329 0.00041458223 -0.0003050254 -7.8779274e-005 -0.00035671869 -0.97953218 0.031509168
563000000 -0.96854639 0.036577325 0.00033645716 -0.0002136292 0.00012776078 0.00019648056 -0.97938311 0.033405788
564000000 -0.96898085 0.035335273 -0.00033901728 0.0001131605 0.00066756975 -0.00023370241 -0.98035783 0.030969059
565000000 -0.96835208 0.035176184 -0.00038181391 -0.00042874037 -0.0004470516 -0.00082029356 -0.97890085 0.030622102
566000000 -0.96928966 0.034555353 -0.00021359615 0.00012212507 -2.3235577e-006 -0.00026885085 -0.979626 0.031370468
567000000 -0.96829897 0.036732145 0.00035999494 0.00010688554 -0.00028024538 -0.0012019617 -0.9804045 0.029860627
568000000 -0.96813196 0.036393199 -0.00041900031 -0.00015428306 0.00023101967 -0.00083143881 -0.97904158 0.031612553
569000000 -0.9690004 0.035447896 -0.00018563408 -0.00042665709 0.00030917139 -0.00010442039 -0.97968972 0.03038129
570000000 -0.96830362 0.035380553 -0.0001870288 -0.00056393695 1.8679752e-005 -0.00068483228 -0.97942239 0.031935085
571000000 -0.97055387 0.035524283 0.00045670001 -0.00030527066 -0.0006016196 -0.00066971459 -0.98024374 0.031665452
572000000 -0.96817762 0.036301602 0.00023157256 -0.00056759821 -0.00068063062 -0.0011553243 -0.9784162 0.031828947
573000000 -0.96958202 0.035366893 -6.9741043e-005 -0.000377169 -0.00061121426 4.3300399e-005 -0.9795472 0.03096544
574000000 -0.96716237 0.035737067 0.00048674661 -0.00043879866 3.8911341e-005 -0.00010129798 -0.98003805 0.031167898
575000000 -0.96784925 0.036159914 -0.00050619338 -0.00050715776 0.00023318359 -0.00010354739 -0.98087865 0.030671626
576000000 -0.96819431 0.034821607 2.7227043e-005 -0.00055817701 -0.00045942151 -0.00016032047 -0.97898221 0.030126613
577000000 -0.96816385 0.035442024 -0.00021574639 -0.00043989165 -0.00012993625 -0.00038163792 -0.97968817 0.031400509
578000000 -0.96875274 0.036219802 -0.00020607583 1.9618163e-005 -0.00018545966 -0.00034718556 -0.98000306 0.030719774
579000000 -0.9677695 0.036159441 -0.00028374506 2.1379163e-005 -0.00034304406 0.00011995595 -0.97968841 0.030855328
580000000 -0.96828324 0.035852902 -0.00030348287 -0.00093363744 -0.00074646226 -0.00045745994 -0.98009402 0.031814508
581000000 -0.9680984 0.036384284 8.8346125e-005 -0.00060462288 -0.00056258164 -0.00046152817 -0.98058492 0.031142412
582000000 -0.96852708 0.035704762 -0.00035901598 -0.00027320592 -3.1120002e-005 -0.00016587142 -0.97983748 0.032492138
583000000 -0.96763843 0.036729347 5.9115988e-005 -0.00047903109 0.00018430452 -0.00085460983 -0.97962171 0.030341286
584000000 -0.96808779 0.035941701 -0.0001535011 -0.0014119616 -0.0005366964 -0.00062354386 -0.97988892 0.031011024
585000000 -0.96951884 0.035381205 0.0004719611 0.00020605954 -6.8010573e-005 -0.00049167871 -0.97953254 0.032414909
586000000 -0.96846557 0.035904191 0.0001535866 -0.00031054235 -0.00065930613 -0.00071418262 -0.97969443 0.031326089
587000000 -0.96836334 0.03622191 -0.00037886985 -0.00063367817 0.0001700115 -0.00012634846 -0.97930986 0.032265645
588000000 -0.96840972 0.036108434 0.00033991027 -0.00043175407 -0.00026735061 -7.996615e-005 -0.98035818 0.03153662
589000000 -0.96818602 0.036730047 -0.00034152315 -0.00058956369 -0.00010486455 -2.9993458e-005 -0.97990733 0.030363983
590000000 -0.9692446 0.036568645 -1.5673111e-005 -0.00025521181 -0.00021830424 -0.001205818 -0.98010391 0.031369813
591000000 -0.96960211 0.036370505 -0.0006123347 -0.00092633802 -0.00021707985 -0.0006121042 -0.97974366 0.031770606
592000000 -0.96848512 0.036040157 -0.00065456575 -0.00040088486 -0.00042622231 -0.000773001 -0.9795621 0.031352971
593000000 -0.96807885 0.036351059 -0.00017579969 -0.0002183336 -0.00031496325 -0.00013037954 -0.97991151 0.03144034
594000000 -0.96726704 0.037752904 1.9433084e-005 2.6748145e-005 0.00010836715 -0.00040053093 -0.97872573 0.031503137
595000000 -0.96867341 0.036462191 -0.00046446791 -0.00042383175 -0.00072193769 -0.0015746796 -0.97943079 0.030394727
596000000 -0.96772611 0.037585091 -3.894861e-006 -0.00064227678 0.00042842195 -0.00020913268 -0.97880507 0.031531669
597000000 -0.96860898 0.036673635 -0.0008396639 -0.00045117445 -0.00036109128 -0.00060213351 -0.97943652 0.033209968
598000000 -0.9685626 0.03718837 0.00012942764 -0.00013269772 0.00035397409 -0.00057696865 -0.97996348 0.033289578
599000000 -0.96882427 0.03625514 -0.00023930313 -0.00034725663 -0.00018900575 -0.0001870542 -0.98013121 0.031721566
600000000 -0.96845478 0.037814517 -0.00018159072 0.00065612822 -4.0135652e-005 -0.00095391733 -0.97915196 0.030935749
601000000 -0.96823454 0.037838783 -0.00014832449 -0.00033127255 0.00078540243 -0.00036991827 -0.97924072 0.033793066
602000000 -0.96782148 0.03770975 0.0007317384 -0.00092579424 -0.00038023537 -0.00052792579 -0.9800176 0.033200935
603000000 -0.9690634 0.03850418 -0.00086281326 -0.00035716061 -0.00036967688 -0.00046060811 -0.98011106 0.032178834
604000000 -0.96943837 0.039400883 0.00024621611 -0.00042767663 -3.5594065e-005 -0.0002513529 -0.9793579 0.03291453
605000000 -0.96833813 0.037744652 -0.00026039497 -0.00082556444 0.00040354225 0.00056485471 -0.98043931 0.033225399
606000000 -0.9691236 0.03889415 0.00075702788 3.3109092e-005 -0.00011328892 -0.00048723514 -0.97882897 0.032077067
607000000 -0.96955848 0.038810872 -0.00057201268 0.00016602797 -9.5387222e-005 -0.00023656141 -0.97953004 0.032964852
608000000 -0.96942788 0.038454011 -0.00015947309 0.00046564176 0.00014471199 0.00023151914 -0.98089069 0.032505851
609000000 -0.96895623 0.037062008 -0.0003674636 -0.00047992723 0.00030236578 -0.00041393351 -0.97953594 0.032404665
610000000 -0.96830428 0.039157689 -0.00021902143 0.00042188106 0.00037204541 -0.00078445254 -0.97913939 0.033562854
611000000 -0.96887976 0.038292784 -0.0003865539 -0.00077139889 0.0002013686 -0.00082669273 -0.98045099 0.032625716
612000000 -0.9669404 0.038343072 0.00011999307 -0.00084769999 0.00032244396 0.00018841441 -0.97923177 0.032364976
613000000 -0.96790689 0.038335484 0.00023703618 -0.00025982672 -0.00043703569 4.2824802e-005 -0.97937244 0.032743484
614000000 -0.96914744 0.039900947 -0.00021687627 -0.00010642397 0.00046493381 -0.00049289741 -0.97919095 0.033602811
615000000 -0.96811444 0.038933776 0.00024534159 -0.00088167464 0.00018744597 -0.00023457182 -0.97927511 0.033945367
616000000 -0.96847099 0.039194576 0.00091746094 -0.00086583855 -3.0712628e-005 -0.00038791238 -0.97742385 0.035056747
617000000 -0.96766591 0.040226612 0.00013526044 -0.00048510116 0.00020674897 -0.00068745017 -0.97982019 0.034236189
618000000 -0.96808851 0.04009404 -0.00054882403 -0.00037707872 0.00029745523 -0.00063648552 -0.98002756 0.032146923
619000000 -0.96704644 0.040427249 0.00027037042 -0.00028284595 -0.00020416763 -0.00036575299 -0.97952479 0.034057766
620000000 -0.9683423 0.040127724 0.00053919398 -0.00035575 -0.00063095975 -0.00066009542 -0.98031932 0.033232875
621000000 -0.96880287 0.040195618 -0.00049116492 -0.001174664 -0.00052994472 -0.00078704546 -0.97912556 0.03369645
622000000 -0.96782535 0.039794512 0.00021176825 -0.00078028732 0.0005597244 -0.00080554705 -0.97950971 0.034083676
623000000 -0.96840745 0.040249508 0.00051693182 -0.0012269493 -0.00010655946 -0.00089588715 -0.98014528 0.034320612
624000000 -0.96741158 0.040178664 0.00055484852 -0.00032784863 -0.00028405656 -0.0011925581 -0.97965717 0.033925522
625000000 -0.96791184 0.041472439 -0.00011396447 -0.00050425966 -0.00040783215 -0.00031540557 -0.97943085 0.033156663
626000000 -0.96872908 0.040085327 0.00033581356 0.00020802887 -0.00071958418 -0.00024846965 -0.97920817 0.034069534
627000000 -0.96702057 0.040448986 -0.00038821777 -0.00022315438 -0.00055146444 -0.0007757874 -0.97952992 0.033135977
628000000 -0.9673664 0.040204022 -0.00061216066 -0.0010328351 -0.00026137341 -0.00024970912 -0.97905022 0.03453213
629000000 -0.96793956 0.04070472 0.00071433553 -0.00022850146 0.00025633452 -1.7000773e-005 -0.98073828 0.033491019
630000000 -0.9679752 0.040954307 -0.00092893012 -0.00060339418 -0.00015506029 -6.9686575e-005 -0.97950262 0.035907
631000000 -0.96712947 0.042218331 -1.5885827e-005 -4.0505256e-005 0.00022611736 -0.0011779432 -0.98036349 0.03559272
632000000 -0.96789891 0.042262919 -0.00015968298 -0.00012738994 6.8494424e-005 -0.0004805857 -0.97977835 0.034781758
633000000 -0.96858609 0.040781077 0.00021952708 -0.00032787392 0.00072301895 -0.00080916722 -0.97983027 0.034164973
634000000 -0.9696334 0.042357802 0.00059714774 -0.00083625986 0.00057450245 -7.4144278e-005 -0.97942162 0.035315707
635000000 -0.96791965 0.041401066 0.00040481749 0.00055360363 -5.7923637e-005 -0.0011897008 -0.97856164 0.034186609
636000000 -0.96913975 0.041899398 -0.00031153741 -7.6299999e-005 -0.00062405091 -0.00036277543 -0.9800247 0.034484845
637000000 -0.96626568 0.042356327 0.00022901733 -0.00057009124 -0.0003757735 -0.00049934915 -0.97942674 0.034312524
638000000 -0.96709919 0.042101663 3.4627199e-005 -0.00048879237 -0.0011253953 -0.0001692607 -0.98008978 0.034425288
639000000 -0.96815598 0.042250253 -0.00075258204 -0.00061660906 -5.7624886e-005 -0.00057960773 -0.97902894 0.03583226
640000000 -0.96752679 0.043733995 -0.00012090207 -0.00058274012 -9.3476461e-005 -3.6591144e-005 -0.9783355 0.034692828
641000000 -0.96854252 0.041674633 -0.00012265705 -0.00027610906 -0.00033901728 -0.00095897057 -0.97818363 0.035089791
642000000 -0.96729773 0.042780183 -0.00012174598 -0.00064676517 -0.00072181097 -0.0009353999 -0.97920549 0.036193941
643000000 -0.96805942 0.0427991 0.00042137527 -0.0010877093 -0.00035509406 -0.00038590588 -0.97949064 0.035291359
644000000 -0.9680382 0.042709157 0.00028422041 0.00029949917 -0.00034740838 -0.00047566721 -0.98036337 0.036147751
645000000 -0.96656942 0.043385793 -0.00012724973 0.00011639855 -0.0011217126 -0.00029474628 -0.9799633 0.034583542
646000000 -0.96844804 0.04257033 0.00060777378 -0.00012640348 -4.2909105e-005 9.8643432e-005 -0.97900021 0.03566543
647000000 -0.96756977 0.043184668 -0.00055097364 -9.0524125e-005 -0.00027016338 -0.00021611227 -0.97866595 0.03469076
648000000 -0.9672001 0.042565014 -0.00010787508 -9.0125531e-007 -3.7140746e-006 -0.00040105454 -0.97842366 0.035766196
649000000 -0.96808338 0.043493718 2.3114935e-005 -0.00070126291 -0.00039567435 -0.00018698254 -0.97881365 0.035583269
650000000 -0.96724999 0.041856933 -9.9181903e-005 -0.00038955364 0.00050039624 0.00017729061 -0.97867525 0.0353969
651000000 -0.96787846 0.043589752 0.00020693742 -0.00107384 0.00032601727 -9.4343079e-005 -0.9788484 0.035494015
652000000 -0.96680051 0.043297291 0.00034871534 -0.00038586045 0.00011920199 -0.00030680117 -0.97783333 0.034549713
653000000 -0.96775198 0.042701334 -2.9114435e-005 -0.00065150351 -9.0579379e-006 -0.00014483933 -0.97826606 0.035205252
654000000 -0.96830869 0.043525223 0.00040708514 -0.00068448926 -0.0002507125 -0.00052480848 -0.97867733 0.03526612
655000000 -0.96746093 0.043056723 -0.00053887715 -0.0005465431 -0.0002869055 -0.00066340982 -0.97794235 0.035720605
656000000 -0.96776879 0.044056788 0.00012500587 -0.00032932468 -8.3974759e-005 -0.00032562454 -0.97923833 0.035743549
657000000 -0.96729094 0.043553378 -0.00023594042 -0.00055914244 0.0002218788 -0.00054763607 -0.97940242 0.035194233
658000000 -0.96709484 0.043120109 -0.00043773983 -0.00098149874 0.00038532997 -0.00026568558 -0.97848862 0.035689775
659000000 -0.96715838 0.042745199 0.00030976287 7.3571122e-005 -0.00027249014 -0.00012288927 -0.97883767 0.03645201
660000000 -0.96775025 0.043951225 -0.00030353779 -0.00063556875 0.00012716564 -0.00050421682 -0.97749567 0.036137763
661000000 -0.96881551 0.044410031 -0.00021484956 4.364147e-005 -0.00038461431 -0.00037828303 -0.9776299 0.036590666
662000000 -0.96773326 0.043040797 -0.00033060051 -0.00045219471 -0.00035718083 -0.00074215326 -0.97869498 0.035735689
663000000 -0.96846908 0.042523079 -0.00055597897 -0.0012290056 5.9193131e-005 -0.00062129134 -0.97948045 0.034705937
664000000 -0.96839952 0.0426642 -0.00044597092 -0.00090617326 3.2655662e-005 -0.00019094349 -0.97905004 0.035802305
665000000 -0.96671253 0.043573007 -0.0004788198 6.2230611e-005 -0.00022576266 -0.00037691343 -0.97894078 0.035918958
666000000 -0.96689504 0.042875066 6.540506e-005 -0.00076350919 -5.7945756e-005 -0.00046976848 -0.97869146 0.035262592
667000000 -0.9679116 0.043986257 -0.00029001685 -0.00064741384 -0.00034959862 -0.0008890907 -0.9782694 0.035522673
668000000 -0.96694034 0.043988526 0.00015775641 -7.5428645e-005 -0.00055207696 -0.00067420921 -0.97891361 0.034917846
