!Keysight Technologies,M9374A,MY55442783,A.12.55.05
!Date: Thursday, May 20, 2021 12:11:05
!Correction: S11(Full 2 Port(1,2)) 
!S21(Full 2 Port(1,2)) 
!S12(Full 2 Port(1,2)) 
!S22(Full 2 Port(1,2)) 
!S2P File: Measurements: S11, S21, S12, S22:
# Hz S  RI   R 50
500000000 -0.97407663 0.033163454 -4.6276731e-005 -3.4060115e-005 -9.3410425e-005 -0.00082049629 -0.97974366 0.027201343
501000000 -0.97240275 0.032528933 -0.00068722497 -0.00037312289 -0.00038658659 -0.00048471947 -0.97921342 0.027488096
502000000 -0.97354102 0.032759957 7.0902199e-005 0.00010314293 -0.00019842946 -0.00017017496 -0.97928178 0.027161309
503000000 -0.9721328 0.03364262 -0.00032884837 -0.00018484516 -2.2590222e-005 -0.00046476789 -0.9795776 0.027163113
504000000 -0.97254497 0.032440953 -0.0001281929 -0.00018925584 -0.00042302342 0.00024603523 -0.98001891 0.027649149
505000000 -0.97259408 0.033660784 -0.00016390903 -0.00047555921 0.00031602153 -0.00033296947 -0.98024374 0.02653867
506000000 -0.9740001 0.033836432 -4.3978922e-005 -0.001477121 -0.00060089328 -0.00041074364 -0.97892058 0.026852893
507000000 -0.9723115 0.033505827 -9.8870893e-005 0.00017777707 9.5573894e-005 -0.00089692103 -0.9797622 0.028235281
508000000 -0.97320008 0.032475099 -0.00024154376 -0.00024245893 -0.00033447903 -0.00077560858 -0.97962958 0.028587015
509000000 -0.97344655 0.033636972 0.00054451858 -0.00069429592 -9.2137212e-005 0.00041003447 -0.97989428 0.027754374
510000000 -0.97225612 0.033274669 1.6874015e-005 -0.0006884514 -0.00043870846 -0.00059961877 -0.97859484 0.02788697
511000000 -0.97164387 0.034017242 0.00067687558 -0.0021052482 0.00015505818 -0.00077282154 -0.97990447 0.028782023
512000000 -0.97269595 0.034690112 0.00036445379 -0.0001593629 9.9836121e-005 -0.00015804847 -0.97914344 0.027604302
513000000 -0.97270334 0.033969801 -0.00034082361 0.00016025059 2.5861449e-005 -0.00036633926 -0.97974104 0.027315581
514000000 -0.97234774 0.033989303 -0.00026973052 -0.00043337719 0.0004627551 -0.00032705397 -0.98073858 0.027975818
515000000 -0.97338015 0.033962358 -0.00046335647 -0.00025135925 0.00020829323 -0.00099522539 -0.98099512 0.028630422
516000000 -0.97208548 0.034598377 -0.00024644673 -0.00065619033 -0.00020155095 0.00017096197 -0.97977573 0.027891543
517000000 -0.97254306 0.034872949 0.00061229966 0.00018013544 -0.0005682155 -0.0010345902 -0.97900206 0.027611773
518000000 -0.97271407 0.034982864 -0.00079588726 -0.0008221544 -0.00019843434 -0.00036349249 -0.97949481 0.028977962
519000000 -0.97250235 0.034088336 -0.00060209254 -0.00029371036 0.0008977119 1.0221303e-005 -0.9797383 0.029667025
520000000 -0.97273082 0.033951722 0.00032367482 0.0002233733 0.00037029173 -0.00016349686 -0.97951877 0.028505484
521000000 -0.97183198 0.035189655 8.6912849e-005 9.4122886e-005 -6.498125e-005 0.00023165862 -0.97954887 0.030722151
522000000 -0.97301054 0.035052899 -0.00024469814 -0.00051733479 -7.0497212e-005 -5.7032441e-005 -0.98059636 0.030108431
523000000 -0.97240996 0.034484688 -5.9037917e-005 -0.00091268419 -0.00067123142 -0.00095850206 -0.98036271 0.028606996
524000000 -0.97217876 0.03635025 0.00035947174 0.00059370941 -4.9889546e-005 -0.00012432787 -0.98086101 0.029660618
525000000 -0.97174996 0.035659846 -0.00040799275 -0.0004270655 -0.00049032323 -1.7806575e-005 -0.97972506 0.031365678
526000000 -0.97352815 0.035677936 -1.5021825e-006 4.6599125e-005 0.0004073891 -0.00049920235 -0.9800806 0.030032584
527000000 -0.97300076 0.035103921 -0.0011662454 -0.00019565049 0.00030686628 -0.00016051703 -0.98005217 0.030408852
528000000 -0.97119516 0.03647406 -0.00065497984 -0.00068864092 8.6482047e-005 -0.00024888825 -0.97911072 0.030281624
529000000 -0.97214162 0.035972875 -0.00040298165 -0.00033802254 0.00043524511 -0.00025246068 -0.97974306 0.030800395
530000000 -0.97217065 0.035347071 0.00011859756 -0.00084175752 0.00028891047 -0.00092352269 -0.97982991 0.030440519
531000000 -0.9724915 0.035635408 -0.00018934693 -0.00077014836 0.00022086743 -9.9323755e-005 -0.97962856 0.031172836
532000000 -0.97344351 0.034721896 0.00048695697 -0.00048320522 0.00032104875 -0.00020818066 -0.97888511 0.030629724
533000000 -0.97195435 0.036440711 0.00046573987 2.6433894e-005 -0.00019311064 8.0166217e-005 -0.97924018 0.030280126
534000000 -0.97369003 0.034928329 0.00065456494 -0.00056565308 -0.00069706672 -0.00089065486 -0.97965646 0.030237343
535000000 -0.97203165 0.035033401 0.0011542357 -0.00054853322 -0.00038831573 -0.00048349987 -0.97979349 0.03068492
536000000 -0.97182029 0.034739744 -0.0010090594 -7.7681201e-005 -2.0868518e-005 -0.00065984984 -0.97921318 0.02860474
537000000 -0.97172374 0.035384379 -0.00059723848 -0.0003923726 -0.00010548323 -0.00048258255 -0.97920763 0.030055109
538000000 -0.97162265 0.035704311 0.00029570801 9.2472481e-005 -0.00021137201 -0.00056249148 -0.97916991 0.030149732
539000000 -0.97280955 0.03643994 0.00024712892 -0.00047608028 -0.00010391 -0.00042058181 -0.97811902 0.030785169
540000000 -0.97289109 0.036098696 0.00030978466 -0.00033483005 0.00024917108 0.00019815676 -0.97918892 0.031075807
541000000 -0.97331667 0.035624024 0.00033304541 0.00031795687 3.7825364e-005 -0.00081794756 -0.98005748 0.030205848
542000000 -0.97205436 0.035999779 2.7937416e-005 0.00018129726 0.00063336809 -0.00066325261 -0.97906435 0.03055281
543000000 -0.97191989 0.035240509 0.0002970598 -0.00050414226 -0.00026648564 -0.00071754411 -0.97845954 0.03128529
544000000 -0.97252744 0.036227673 0.00018985402 -0.00054469676 -1.7201965e-005 0.00029286573 -0.97986013 0.032671187
545000000 -0.97263592 0.035945904 -0.00022727446 -0.00019610506 0.00030440406 -0.00027127698 -0.97847253 0.02968787
546000000 -0.97269571 0.036022842 -0.00046908995 -0.0007048808 -0.00012684819 -0.00030380549 -0.98036307 0.030875865
547000000 -0.97209364 0.035498213 -0.0003438718 0.00023164447 -8.8079563e-005 -0.00058617286 -0.98030698 0.029994307
548000000 -0.9712494 0.036429953 -0.00017134646 -1.4513198e-005 -0.00033861279 -0.00055380713 -0.97871643 0.031954795
549000000 -0.97249931 0.035957851 -0.00092841755 -0.00084738678 -0.00017347405 -0.00042740535 -0.97927547 0.030780016
550000000 -0.97154707 0.036057282 -0.00074564532 -0.00017941454 -0.00033466017 -0.0010588107 -0.98047239 0.031686302
551000000 -0.97180516 0.035734177 -0.00030408197 -0.000936492 0.00034083865 -0.00047415867 -0.97864711 0.030684559
552000000 -0.97200751 0.036159124 4.4928733e-005 -0.00037637725 0.00028621432 -0.00054739794 -0.97945255 0.030901931
553000000 -0.9722752 0.03639736 -0.00017119634 6.6302186e-005 -6.6199602e-005 -0.0007549916 -0.97899008 0.029219257
554000000 -0.97354585 0.035585806 5.825912e-005 -0.00051372871 -3.5843586e-005 -0.00021875621 -0.97989577 0.03065617
555000000 -0.97081691 0.036067106 0.00075907953 -8.2420165e-006 -0.00016706571 0.00010927576 -0.9801203 0.031852175
556000000 -0.97226733 0.036386006 -0.00066588592 -0.00017160708 -0.00036179347 -0.0011608491 -0.97906816 0.031699937
557000000 -0.97161037 0.036460251 0.00034406173 -1.5097309e-005 0.00052513351 -7.3373199e-006 -0.98077452 0.030945435
558000000 -0.97128528 0.036044553 -0.00043919374 0.00027455849 -0.00024013135 -0.00040153865 -0.97993749 0.032251578
559000000 -0.97225207 0.036014441 1.6557709e-005 -0.00059862353 -0.00018476381 0.0001468284 -0.98045909 0.031810384
560000000 -0.97178024 0.035659198 -0.00014499396 -0.00060172129 0.00076509156 -0.00019420001 -0.97933841 0.030133637
561000000 -0.97127026 0.036853239 0.00029674583 0.00018356866 -0.00051745039 -0.00012523906 -0.97887087 0.030970478
562000000 -0.97112095 0.03596092 0.00019785864 9.6111093e-005 -0.00029057713 -0.00064240309 -0.98023927 0.031755473
563000000 -0.97037792 0.036684845 -0.00014521665 -0.00059406197 0.00010873425 -0.00014197241 -0.98022068 0.031758077
564000000 -0.97268307 0.03631876 0.00028859783 -0.00017639446 -0.0010018827 -0.00068342889 -0.97940004 0.031833369
565000000 -0.97286201 0.035129305 0.00033820429 -0.00056283415 -0.00029828207 -0.0011677411 -0.9803592 0.031000746
566000000 -0.97235787 0.036127396 0.00027351538 -0.00033773587 -0.00034244772 -0.00044820647 -0.97880661 0.031047646
567000000 -0.97181588 0.035464376 0.00062714965 -0.0003875079 -0.0002251055 -0.00047619955 -0.98106587 0.030452799
568000000 -0.97202045 0.036244832 0.00010278264 -0.0011675989 0.00067777495 -0.00055176055 -0.97906196 0.029999286
569000000 -0.97039396 0.036117189 0.00042230738 -0.00013728994 0.00010265032 -0.00051341025 -0.97989899 0.030780438
570000000 -0.97130573 0.036720209 -0.00061617693 -0.00084581663 -0.00060940557 -0.00024343225 -0.97946316 0.03118049
571000000 -0.97227567 0.035620015 0.00049444177 -0.00070104527 0.00055344956 -0.00083689991 -0.98031241 0.031787843
572000000 -0.97085017 0.035007082 0.00018358635 -0.0004173858 -9.9770805e-005 -0.00052666146 -0.97996092 0.030902047
573000000 -0.97183502 0.035807673 0.0002432849 -0.00057093444 -0.00058412034 -0.00036323658 -0.97958708 0.031755853
574000000 -0.97122258 0.0364298 -0.00015033782 2.4419245e-005 -8.9614536e-005 -0.00063858117 -0.98031783 0.030653469
575000000 -0.97105426 0.035705559 6.6035004e-006 -0.0007017405 -0.00056141382 9.4511975e-005 -0.98004675 0.031541403
576000000 -0.97122949 0.036468487 -0.00023384595 -0.00104836 -0.00020040532 -0.00043588033 -0.97973537 0.031456202
577000000 -0.97163057 0.03559123 -0.00059563632 -0.00078727247 0.00057667546 -0.00069394027 -0.97864139 0.030719509
578000000 -0.97141087 0.037231896 -0.00042723061 -0.00052157335 -3.7087866e-005 -9.8452314e-005 -0.98007625 0.031424381
579000000 -0.97184008 0.036856618 -0.00064572121 0.00071693998 -0.00011431114 -0.00063701818 -0.97996026 0.030568095
580000000 -0.97224969 0.037044901 -0.00016998779 -0.00088814163 0.00023544957 7.7337565e-005 -0.97960609 0.031660967
581000000 -0.9724378 0.036092851 0.00059504173 -0.00089658709 -0.00043301261 -0.00035657105 -0.98067462 0.030977778
582000000 -0.9721331 0.036077302 -0.00018730164 8.533767e-005 -0.00032817977 -0.00053398195 -0.98011726 0.030678276
583000000 -0.97068572 0.037395239 0.0001343194 -0.00013781825 -0.00037013827 -0.0003095163 -0.98053974 0.031238886
584000000 -0.97189081 0.037072483 0.00056424434 -0.00037484712 0.00037014854 -0.00037037575 -0.97976339 0.032000605
585000000 -0.97176617 0.0355241 0.0005819432 -0.00087448687 -0.00037625252 -0.00070514512 -0.9806729 0.031304982
586000000 -0.97200048 0.036314927 -0.00020085114 -0.00049133826 -0.00028652843 6.2698644e-005 -0.97868651 0.031385321
587000000 -0.9718805 0.037448406 -0.00060854014 0.00020813881 0.00045555792 -0.00078541995 -0.97819191 0.031684462
588000000 -0.97008163 0.036157772 -0.00038288158 -0.00030942095 0.00024645729 -0.00023465934 -0.98071128 0.032658853
589000000 -0.97254968 0.03726029 -0.00064180425 -0.00049685431 -3.6391182e-005 -0.00013707842 -0.97883624 0.032881383
590000000 -0.97171789 0.037260219 -0.0006689275 -0.00011366369 0.00053622306 -0.00045709711 -0.97902191 0.031821497
591000000 -0.9727757 0.036054075 -0.00048661741 -0.000548593 7.6968725e-005 -0.00040429132 -0.97900766 0.031674813
592000000 -0.97198451 0.037118036 -0.000597117 -0.00029882169 -8.5761691e-005 -0.00026620098 -0.98015434 0.030563449
593000000 -0.97092968 0.037452847 0.00057434442 -0.00038673851 0.00020392143 -0.00043668548 -0.97945297 0.032110941
594000000 -0.97243702 0.037843488 0.00017737548 -0.00075615448 -0.00023004705 -0.00034738789 -0.98074263 0.032502282
595000000 -0.97277391 0.036837984 -0.00062021037 -0.00024311093 0.00024234602 -0.00080264028 -0.97895062 0.032485548
596000000 -0.97056711 0.03762161 1.7583077e-005 -0.00091165723 -0.00079257268 -0.00043213012 -0.9785338 0.032477647
597000000 -0.97205985 0.036801822 -0.00022065912 -0.0004457935 0.00034529672 0.00024754272 -0.97851253 0.031824466
598000000 -0.97194088 0.038169898 0.00027207739 -0.00085985439 0.00076727808 -0.00054866576 -0.97982693 0.031947568
599000000 -0.97056055 0.037545275 -0.00058530469 -0.00023752222 0.0002397106 0.00010726655 -0.97960228 0.032245237
600000000 -0.97118425 0.039174464 4.4301219e-006 -0.00062403054 -0.00079481455 -0.00093518442 -0.97968823 0.032083753
601000000 -0.97153413 0.038602538 0.00012386433 -0.00085575419 0.0003032102 -0.00077681534 -0.97972757 0.031952318
602000000 -0.97230238 0.038230557 -0.00065937208 -0.00013076696 -0.0001337054 -0.00061369425 -0.97948694 0.03214334
603000000 -0.97214687 0.038687922 -0.00038175986 -0.00043081341 0.00014791747 -0.0001654013 -0.9791792 0.03186439
604000000 -0.97230959 0.039243743 0.0003764396 -0.00023629017 0.0002216743 -0.0010668264 -0.98004329 0.032380916
605000000 -0.97187644 0.038982313 0.00069893524 -0.00080327294 8.0037913e-005 -0.0012396139 -0.97971243 0.033671733
606000000 -0.97110873 0.038046598 0.00060466136 0.00018601937 0.00026486488 -0.00088798814 -0.97907883 0.033336591
607000000 -0.971264 0.037353616 8.2468214e-005 -0.00097167603 2.8402586e-005 -0.00028984598 -0.97963566 0.030998863
608000000 -0.97183865 0.037956677 0.0002787339 -0.00090173434 -4.305812e-005 -0.00094863644 -0.97992527 0.033375837
609000000 -0.97154319 0.037562285 7.6840828e-005 -0.00057351415 0.00028002777 -0.00018697584 -0.97852767 0.032073267
610000000 -0.97213066 0.039502919 0.00018923462 -0.00051955943 0.00046057647 -0.00073549029 -0.97884566 0.033112977
611000000 -0.97118884 0.03991849 5.5008717e-005 -0.00037043705 6.7593515e-005 -0.00023308957 -0.98013151 0.033664074
612000000 -0.97215664 0.039136801 0.0007641394 -0.0013076053 -0.00016889026 -0.00021715854 -0.97921312 0.033426605
613000000 -0.97177362 0.039881911 -3.4463988e-005 -0.0001599525 0.00019712295 -0.00045961994 -0.9792648 0.032728016
614000000 -0.97107458 0.039652649 0.00038356284 0.00013610927 0.00069335982 -0.00022862994 -0.98064363 0.032273326
615000000 -0.97137326 0.040848207 0.00031382931 -6.3430125e-005 -0.00039775809 -0.00060817396 -0.97938281 0.033103719
616000000 -0.97190517 0.038963813 2.6512827e-005 -0.00031699968 0.00048255359 6.5254877e-005 -0.97801578 0.0330173
617000000 -0.97137105 0.041242432 -0.00010867188 -0.00049683405 -0.00031261166 -0.00081463321 -0.97905022 0.032730199
618000000 -0.97172004 0.040508382 -0.00051762059 -0.00060250924 -0.00011757455 -0.0004639659 -0.97920132 0.033816103
619000000 -0.97036028 0.040752061 0.00010777678 7.4423602e-005 -0.00042223485 -0.00067294057 -0.97994286 0.033328135
620000000 -0.97134006 0.040779397 0.00014345226 -0.00082534383 0.0003529471 -0.0008561252 -0.97856832 0.032296717
621000000 -0.97162449 0.039311174 -0.00040589325 -0.0012657451 -0.00038439655 -0.00022082824 -0.98021668 0.033895802
622000000 -0.97117168 0.038906179 0.0006924498 -0.00018102941 0.000161374 -0.00090603722 -0.97999996 0.033514656
623000000 -0.97053349 0.039916087 0.00027017269 -0.00074790098 6.57938e-005 -0.0013557363 -0.97917324 0.033884577
624000000 -0.97081202 0.039788447 -0.00068150234 -0.00050263345 0.00024497937 -0.00087217981 -0.97902048 0.034267642
625000000 -0.97182733 0.041817386 -0.00041430281 -0.00084081379 -0.00036109943 -0.00035332184 -0.97907668 0.033766881
626000000 -0.97133511 0.041246004 -0.00012799172 -0.0013456375 0.0001633981 -0.00068004872 -0.97895479 0.034134794
627000000 -0.97199965 0.041340988 0.00045375543 -0.0005713852 -0.0008290172 -0.00036700955 -0.97938043 0.033983022
628000000 -0.97134048 0.04125021 -0.00089903729 -0.0006498131 0.0003807999 -0.00040301026 -0.97966981 0.0349328
629000000 -0.97105294 0.042327274 -0.00027079726 -0.00070111844 -0.00031751517 -0.00084259547 -0.97897339 0.034603231
630000000 -0.9708038 0.041404676 -0.00029655854 -8.8325891e-005 -0.00036724229 -0.00052516739 -0.97942626 0.034960229
631000000 -0.97049892 0.041071448 -1.8748955e-005 -1.3868617e-005 -0.00058366131 -0.00086421479 -0.97931772 0.034978028
632000000 -0.97134954 0.041729249 1.09752e-005 -6.2168998e-005 -0.00038722483 -0.00070545397 -0.97960526 0.033836782
633000000 -0.97168225 0.041220967 -0.00016284834 5.6562603e-005 9.7673677e-005 -0.00013920596 -0.978724 0.033836316
634000000 -0.97145534 0.042229518 -0.00021680724 -0.0009486046 0.00037760506 -2.4424351e-005 -0.98023754 0.034373876
635000000 -0.97113258 0.040698826 -9.8937118e-005 -0.0005843594 0.00026921422 -0.00033454635 -0.97944474 0.034496866
636000000 -0.97140902 0.042528033 -0.00040236724 0.00012174944 0.00010217447 -0.00044633436 -0.97939634 0.034486674
637000000 -0.9707008 0.042266719 -0.00053684565 -0.00030000485 -0.00067884644 -0.00071276136 -0.97793978 0.034314074
638000000 -0.97065264 0.04324799 0.00046244927 -0.00033769215 -0.00012905971 -0.00060291699 -0.97859973 0.033093527
639000000 -0.97111034 0.043287713 0.00027168004 -0.00057964679 -0.00018589871 -0.00060939236 -0.9797411 0.034772139
640000000 -0.97128326 0.042165853 -0.0006647844 0.00010207538 -6.5312313e-005 -0.00063857989 -0.97826481 0.03448553
641000000 -0.9712463 0.042114779 -0.00025323889 -0.0005434457 -0.00032457936 -8.0441641e-005 -0.97905177 0.035527922
642000000 -0.97098637 0.043333892 0.00016618097 -0.0010262246 0.00028296025 -0.00062400219 -0.98078525 0.034007613
643000000 -0.97091508 0.043646622 -7.5685348e-005 -6.1124134e-005 -0.00030065552 0.00013052716 -0.97862911 0.033917155
644000000 -0.97117037 0.043514859 -0.00052371627 -0.0010269773 -2.7176186e-005 -0.00095849542 -0.97946286 0.03538613
645000000 -0.9701789 0.041884497 -0.00030254689 -0.0010732939 -1.7432396e-005 -8.0278885e-005 -0.97954994 0.035428751
646000000 -0.97233683 0.043432131 -0.00028269491 -0.0005075956 0.00022467869 -0.00036933963 -0.97822881 0.036305316
647000000 -0.97079057 0.043417536 -0.00013445206 -0.00059054018 -0.0010025863 -0.00033511582 -0.97885919 0.035192154
648000000 -0.97051615 0.044008341 -0.0010284192 6.0890339e-005 -0.00040473905 -0.00074125367 -0.97725034 0.035482943
649000000 -0.97136134 0.042865481 0.00063750724 0.00010968026 0.00024908912 -0.00059883413 -0.98019367 0.036426216
650000000 -0.97038341 0.04306189 0.00022893041 -0.00013426578 -0.00079465524 -0.00083722005 -0.97851855 0.035924226
651000000 -0.970393 0.042464532 -0.00037110189 -3.2631549e-005 -0.00013564869 -0.00077366707 -0.97853714 0.036006249
652000000 -0.97110295 0.044357736 0.00012028507 -0.00080396485 -0.00036326176 0.00025346136 -0.97788453 0.035945009
653000000 -0.97043705 0.043079007 -0.00038582081 -0.00028149807 -0.00068368233 -0.0005371655 -0.97826159 0.035135578
654000000 -0.97020924 0.043603141 -0.00011218813 -0.00065697439 -0.00015458542 -0.00040717839 -0.97985959 0.034714237
655000000 -0.97140372 0.042829607 -0.00031403394 -0.00032402095 -0.00025629814 -0.00039515007 -0.97781789 0.036437128
656000000 -0.97039485 0.043437563 0.00028024669 -0.00080446817 -1.6555279e-005 -0.00049511372 -0.97806054 0.036417581
657000000 -0.97107148 0.043909166 -0.00027531464 -0.0008912253 4.165262e-005 -0.0008972116 -0.97919327 0.03480741
658000000 -0.97046411 0.044371158 -0.00031424526 -0.00058318902 -4.2441279e-005 -0.00094239117 -0.97900891 0.035464268
659000000 -0.9707523 0.044501659 0.00029805672 -0.00038751928 7.2633069e-005 -0.00085910491 -0.97876668 0.03638225
660000000 -0.97074962 0.045031197 0.00046520375 -0.0005584968 -0.00022287092 -0.00038835907 -0.97806054 0.035189483
661000000 -0.96984261 0.043391336 -9.9359466e-005 -0.00015969458 -0.00063170743 -0.00018545985 -0.97830838 0.037178367
662000000 -0.97118396 0.04432524 0.00016184837 -0.000245003 -0.00010674285 -0.0002621001 -0.97965252 0.036760382
663000000 -0.9710086 0.044570547 -0.00038228638 -0.00026708969 6.6993591e-005 -0.00056393188 -0.97903699 0.035569672
664000000 -0.97075951 0.042690657 -0.00024540321 -0.0010544362 -4.7915608e-005 -0.00051494094 -0.97912598 0.035497081
665000000 -0.97045338 0.044243257 0.00021307876 -0.00017696913 0.00037205929 0.00016366341 -0.97887665 0.035543315
666000000 -0.97055769 0.043662921 -0.00085083785 -4.1920019e-005 0.00039630619 6.7028508e-005 -0.97851771 0.035948403
667000000 -0.96931452 0.044388033 -0.00022993215 -0.0002420599 5.0140461e-005 -0.00028457976 -0.97771865 0.035415947
668000000 -0.97000265 0.045708746 9.3233743e-005 -3.5966863e-005 -0.0011037894 0.00035103603 -0.97897398 0.035504412
