!Keysight Technologies,M9374A,MY55442783,A.12.55.05
!Date: Thursday, May 20, 2021 12:16:24
!Correction: S11(Full 2 Port(1,2)) 
!S21(Full 2 Port(1,2)) 
!S12(Full 2 Port(1,2)) 
!S22(Full 2 Port(1,2)) 
!S2P File: Measurements: S11, S21, S12, S22:
# Hz S  RI   R 50
500000000 -0.97104031 0.033787828 0.00015567802 -0.00023097699 -0.00056987669 -0.00033463445 -0.98000836 0.027180977
501000000 -0.97324187 0.033287887 0.00050767534 -0.00031677206 -0.00017210866 0.0001491828 -0.97976249 0.025586039
502000000 -0.97200853 0.033449676 0.00028928192 -0.0002011313 0.00025086204 -0.00066328025 -0.98039591 0.027810762
503000000 -0.97308058 0.032334667 8.651377e-005 -0.00021367772 0.00023223046 2.6374346e-005 -0.97976899 0.027404848
504000000 -0.97296095 0.03319091 9.4158546e-005 -0.00014856619 -8.6337886e-006 -0.00033421806 -0.97976106 0.026968289
505000000 -0.97341383 0.032791846 -0.00013350148 -0.001198553 0.0003925995 3.5736652e-005 -0.98017156 0.027902845
506000000 -0.97171324 0.032617539 -0.00060697302 0.00029475457 -0.00037705177 0.00022335877 -0.97967571 0.026522798
507000000 -0.97209811 0.034836743 -1.327099e-005 -5.0336239e-005 -0.00047290043 0.00023266059 -0.98026866 0.02784249
508000000 -0.97381026 0.033644315 -4.526124e-006 -0.00014156713 0.00012669641 -0.00030706552 -0.97966796 0.027708707
509000000 -0.97204399 0.033868473 0.00044670803 -0.0011641859 0.00045264408 -0.00049861282 -0.98012567 0.027890166
510000000 -0.9725433 0.034579687 -0.00065374485 -8.5678003e-005 -0.00012427078 -0.00034121267 -0.97940123 0.028274691
511000000 -0.9726131 0.034248117 -0.00081443851 -5.1171082e-005 0.00065064087 -0.00056788418 -0.97914165 0.028730109
512000000 -0.97122723 0.032964576 4.9084229e-005 -0.00057951151 0.00046157287 -0.00087082054 -0.98030889 0.028366335
513000000 -0.97318459 0.03463776 0.00024107602 -1.0085663e-005 0.00027588944 -0.00050944247 -0.97983015 0.028456695
514000000 -0.97269237 0.034002434 0.00059651252 -0.00073460309 -7.1259201e-005 -0.00061633636 -0.98013455 0.028616445
515000000 -0.97261357 0.033775311 -0.00052654871 -0.0001085122 -0.00062599609 -0.00074336387 -0.98049587 0.028224645
516000000 -0.97191101 0.033352923 0.00023951035 9.0630012e-005 0.00013694594 -0.0008133137 -0.9797619 0.029529413
517000000 -0.9724254 0.035970926 -0.00030107694 -0.00065775879 -0.0011248182 -0.00090302707 -0.97941142 0.028642558
518000000 -0.9726631 0.034519397 9.9461329e-005 0.00016661095 -0.00047944734 -0.00035192774 -0.97958434 0.029367102
519000000 -0.97216225 0.035914563 -0.00056951551 -0.0004096975 -0.00088349142 -0.00038799201 -0.98140514 0.029339297
520000000 -0.97239625 0.033744678 -0.00026528217 0.00028659447 1.4244465e-005 -0.00041596757 -0.9782989 0.02888917
521000000 -0.97172773 0.035794858 0.00036940299 -0.00050541013 0.00024876907 -0.00076780625 -0.97954464 0.028435066
522000000 -0.97201025 0.035598863 -0.00022996889 -0.00034695014 -0.00038793718 -0.00033565346 -0.97913504 0.029331746
523000000 -0.97260141 0.034110237 0.00020518749 -0.00070092914 0.00036308359 -0.00074415322 -0.97942805 0.029411945
524000000 -0.97275758 0.035394859 -0.00019262222 -0.00094911462 -0.0003807141 -0.00041971411 -0.9803912 0.029842831
525000000 -0.97134894 0.035220586 -2.661458e-005 0.00028602552 -0.00059478771 -0.0003088114 -0.97963953 0.029324541
526000000 -0.97170836 0.035204392 -5.8703372e-005 -0.00039034602 -0.00016568963 -0.00068645086 -0.97997618 0.030081403
527000000 -0.97260642 0.036077846 2.3198127e-005 -0.00049019832 -9.1723035e-005 -0.00063020148 -0.97837228 0.029818179
528000000 -0.97151446 0.036349062 1.6605957e-006 -0.00030434024 0.00028864562 -0.00058279617 -0.97949022 0.029480508
529000000 -0.97203946 0.034209397 -0.00018011736 -0.00074077043 -0.00013162105 -0.00093359972 -0.97912908 0.029298965
530000000 -0.97211134 0.034990847 0.00057454203 -0.00058893953 0.00072943361 0.00011227979 -0.97908127 0.030160682
531000000 -0.97204185 0.035306301 2.7788472e-005 -0.00048103844 -0.0011711422 -0.0003626011 -0.97997701 0.031061748
532000000 -0.97246808 0.035010066 -0.001017824 -0.00024721981 -0.00052867224 -0.0010051822 -0.97886699 0.030758524
533000000 -0.97280979 0.035401128 0.00030220111 -0.00068769843 0.00017565097 -0.00064965209 -0.97958297 0.030778972
534000000 -0.97298491 0.034951661 -8.3148429e-005 -0.00013928693 0.00012331769 -0.0010777194 -0.97950947 0.030966789
535000000 -0.97159344 0.03651892 0.0008490053 0.00011025881 0.00013822308 -0.00054492598 -0.97944748 0.029128361
536000000 -0.97087115 0.03500599 -0.00011739627 1.3723644e-005 -0.00043126565 -0.00027811452 -0.97904342 0.030428216
537000000 -0.97214824 0.036484916 -0.00028520194 -0.0013189514 -0.00017434663 -0.00055342336 -0.97762787 0.029644247
538000000 -0.97249842 0.035684131 -0.00039552592 -0.00050927291 0.00048587978 -0.00042492294 -0.97915065 0.03123966
539000000 -0.97224343 0.035655163 0.00030364166 -0.00011740375 -0.00060424494 -0.00020593128 -0.97947431 0.030623078
540000000 -0.97203767 0.035533335 0.00062408729 -0.00057589676 0.0003871033 -0.0011259041 -0.97968978 0.032285515
541000000 -0.97215468 0.035299156 9.6282774e-006 9.6537857e-005 0.00072732841 -0.00019945395 -0.98068082 0.030906903
542000000 -0.97234714 0.036089316 -0.00024679073 6.0382128e-005 -7.3457973e-005 -0.00016633971 -0.97904617 0.030587424
543000000 -0.97215861 0.035218455 4.9710477e-005 -0.00037585193 1.722619e-005 -0.00058162404 -0.97967857 0.03170808
544000000 -0.9723748 0.035620838 8.1484533e-005 -4.797459e-005 0.00062843633 -0.00048672105 -0.98090678 0.031563018
545000000 -0.97264069 0.036311053 0.00010295079 -0.00092111278 -0.00044806526 -0.00053138123 -0.97916114 0.030743584
546000000 -0.97160077 0.035439584 -0.00045766393 -0.00031994353 0.00021807151 -0.00055577798 -0.98016238 0.030218547
547000000 -0.97114986 0.036706835 0.00019943831 -0.00022246844 -0.00033017917 -0.00062291336 -0.97998708 0.030381288
548000000 -0.97161674 0.035773676 0.00021779208 0.00021464001 -0.0008874191 -0.00010476181 -0.97906405 0.029527256
549000000 -0.97105962 0.035826802 4.8725735e-005 -0.00015276881 -0.00038028666 -0.00056294637 -0.97984499 0.032995719
550000000 -0.97143358 0.035438742 -0.00047712892 -0.00091256469 0.0003486388 -0.00056344847 -0.98024917 0.031372532
551000000 -0.97211909 0.03638681 -2.403289e-005 7.1964416e-005 0.00010028051 -0.00049115886 -0.97942138 0.031218214
552000000 -0.97229487 0.035159271 -0.0004307692 -0.0010280086 -0.0006494702 -0.00076624146 -0.9806968 0.032523695
553000000 -0.97146934 0.036290269 -0.00067960209 -0.001074899 -0.00020083094 0.00043023183 -0.97922063 0.030638894
554000000 -0.97101843 0.03542484 0.00063281099 -0.00045957603 -8.1748316e-005 -0.00023218768 -0.97966093 0.030817019
555000000 -0.97082865 0.036863677 0.00071761815 9.4445517e-005 -0.00038501291 -0.00017315529 -0.97994828 0.031751748
556000000 -0.97070193 0.035938218 -0.00087420619 -0.00059164321 -0.00014777583 -0.00063226494 -0.9797132 0.031823155
557000000 -0.97151059 0.036081366 0.00026103226 -0.00037934995 0.00029844226 -0.00018954328 -0.97974998 0.031169463
558000000 -0.97271603 0.036139928 -0.00037143964 -0.00048720653 -8.1961945e-005 -0.00042881194 -0.97943771 0.030993823
559000000 -0.97117782 0.036660176 -0.00010621692 -0.00051434489 0.00064442336 -0.00014574108 -0.97947651 0.031529654
560000000 -0.97175431 0.036971483 -7.9576203e-005 -0.00040905256 -3.9509578e-005 -0.00014939944 -0.97997385 0.030999968
561000000 -0.97133082 0.035594214 -0.00017287655 -0.00036240215 0.00064515829 -0.00010682546 -0.97941267 0.030047975
562000000 -0.97150928 0.036525764 -0.00010907678 -0.00065228983 -0.00027880017 -0.00016159391 -0.98086143 0.03113357
563000000 -0.97206545 0.035191704 -0.00022186429 -0.00067016017 -6.1551873e-005 -0.00027832415 -0.98003298 0.031617735
564000000 -0.97198635 0.036354326 4.418688e-005 -0.00046571353 -4.9558919e-005 -0.00072060351 -0.97947288 0.030251
565000000 -0.97173691 0.03605599 -5.6808392e-005 0.00012788948 3.0568001e-005 -7.5121301e-005 -0.98021549 0.032010417
566000000 -0.97199118 0.034953762 -1.9204266e-005 -0.00045547931 0.00041440909 -3.0302195e-005 -0.97967619 0.032805372
567000000 -0.97080737 0.036196612 0.00020071615 -8.9153473e-005 -0.0001887968 -5.520683e-005 -0.9798215 0.030930581
568000000 -0.97159356 0.03697294 -0.00067404116 -0.00041265064 -0.00016406988 -0.00068121409 -0.97852087 0.031229122
569000000 -0.97237062 0.035968881 0.00036542022 -0.00029127137 -0.00023319945 -0.000838476 -0.9801479 0.031205542
570000000 -0.9707188 0.035435483 -3.7778802e-005 -0.001023285 -3.8951293e-005 -0.00055068388 -0.97878617 0.030245503
571000000 -0.97138435 0.037022319 9.3559363e-005 -5.2219857e-005 5.6642435e-005 -0.00053807854 -0.98011667 0.03121523
572000000 -0.97113705 0.036342524 -9.0678463e-005 -0.00036966099 0.00066595955 -0.00039135676 -0.98079252 0.030041566
573000000 -0.97231787 0.035090242 -0.00075641408 -4.3867793e-005 -0.00059224549 -0.00060940842 -0.97893101 0.032272905
574000000 -0.97103924 0.036833115 -0.00022887594 -0.00032423064 -0.00053453341 -0.00081477093 -0.98126525 0.030334087
575000000 -0.97228593 0.035457328 0.00010071419 -0.00013659212 -0.0010002849 0.00038780848 -0.97958338 0.031479828
576000000 -0.97106987 0.035796862 0.0002312236 0.0006206081 -0.00045756952 -0.00069962337 -0.98064643 0.031960636
577000000 -0.97170776 0.036246035 -0.00050679635 -0.00079748756 -0.00034528633 0.00034359976 -0.98064488 0.03132895
578000000 -0.97064722 0.03680044 -0.00060110062 -0.00083419553 -0.00036284319 -0.0012667468 -0.9793545 0.031466797
579000000 -0.97023255 0.035565116 0.0003329083 0.00025669741 0.00019579107 -0.00010191632 -0.98034912 0.031762395
580000000 -0.97195393 0.035952665 -0.00022500083 -0.00054607465 -0.00054655207 -0.0010997362 -0.97878653 0.032681078
581000000 -0.97157401 0.035162296 -0.00073902815 0.00042336711 -0.00017613445 -0.00075758313 -0.97929907 0.030611692
582000000 -0.97145301 0.035824329 0.00014277955 -0.0002551185 0.00022194524 -0.00044540552 -0.97977561 0.031260028
583000000 -0.9713884 0.037159059 -0.00030262957 2.6502679e-005 -5.1985291e-005 -0.00089656061 -0.98001438 0.030658783
584000000 -0.97156465 0.036489442 -0.0005479136 -0.0003884036 -0.00022610681 -0.0010523824 -0.97951543 0.031735804
585000000 -0.97157007 0.036932576 0.00016902566 -0.00045383887 -0.00074002438 -0.00031989938 -0.98077905 0.030254662
586000000 -0.97239518 0.037003621 0.0003287477 -0.00094081432 0.00042905138 0.00019860937 -0.97990227 0.030467462
587000000 -0.97145128 0.037589803 0.00041150901 -0.00035844417 0.00068191596 -0.00018491832 -0.98014748 0.031558726
588000000 -0.97164613 0.037227184 -0.00039663535 0.00011344332 -0.00016833811 -0.00047785553 -0.97986627 0.0305098
589000000 -0.97150993 0.037288837 -0.00026326469 -0.0015406087 0.00010427781 -0.0011254876 -0.97917205 0.031655777
590000000 -0.9729349 0.036710445 -0.00026298035 -0.0003633888 -0.00050872879 -0.00099763274 -0.97947133 0.031544052
591000000 -0.97168577 0.036331907 -6.4363892e-005 -0.00021603396 -5.0533873e-007 -0.00040884709 -0.9797771 0.031074626
592000000 -0.97208446 0.036110263 -0.00017638326 -0.0008256766 -0.00028633978 -0.00090167398 -0.98016274 0.03068199
593000000 -0.97127241 0.036434233 -0.00010661963 -0.00051275571 -0.00048918807 0.00013676328 -0.98036575 0.030583888
594000000 -0.97117937 0.037844826 -0.00067294185 -0.00049837312 -0.00042758189 -0.0008667208 -0.97887504 0.03161291
595000000 -0.97162116 0.036700405 -0.00098884001 -0.00088084221 0.00017464325 -0.00052118843 -0.98026639 0.03223132
596000000 -0.97077084 0.036226347 -0.00048146682 -0.00075654843 -0.00086448726 -0.00081583712 -0.9782967 0.031151306
597000000 -0.97097665 0.03661548 -0.00057640549 -0.00042631343 0.00049314584 -0.00048017417 -0.97908062 0.031506658
598000000 -0.97120035 0.038397606 -0.0008436949 -0.00071679254 -0.00077286211 -0.0002746768 -0.98100477 0.031987056
599000000 -0.97081655 0.037152261 -0.00024927469 -0.00079363509 0.00053632347 -0.0012786025 -0.97947431 0.032808598
600000000 -0.97101158 0.038612723 -0.00027406987 -0.0009660431 0.00054487132 -0.00068681862 -0.97922927 0.032261334
601000000 -0.97114384 0.037832517 -0.00014673731 0.00011323769 -0.00026123066 -0.00065242604 -0.97958487 0.032287437
602000000 -0.97036719 0.037805066 0.0010255083 -0.00075267319 -6.0921888e-005 0.00017015351 -0.97968727 0.031941429
603000000 -0.97072297 0.037959393 -0.00041702713 -0.00037907227 -0.00024318254 -0.00016753637 -0.97933525 0.032434501
604000000 -0.97158128 0.039534312 0.00042189955 -0.001132217 -0.00010057676 -0.0010060578 -0.98022127 0.032662109
605000000 -0.97004318 0.038453121 -0.00073266972 -9.1258778e-005 0.00014557799 -0.00051034323 -0.97932154 0.031540785
606000000 -0.97163749 0.038456686 -0.00012541165 -0.00082572148 0.00014062964 -0.00041739212 -0.97859418 0.032351121
607000000 -0.97160137 0.038158055 -8.496891e-005 -0.00027816914 0.00024236309 -0.00035003072 -0.97839767 0.031725388
608000000 -0.97081476 0.038946036 -0.00016195426 -4.0888248e-005 -0.00015791118 -0.00062715984 -0.9817189 0.032021955
609000000 -0.97065204 0.03898453 -0.00050087849 3.5190515e-005 -0.00027741212 -0.000696073 -0.97923768 0.031625882
610000000 -0.97077894 0.03962408 0.00045010762 -0.00084833923 -0.00020263602 -0.00073672802 -0.97974867 0.033064563
611000000 -0.97118437 0.040029462 0.00036788933 -4.608728e-005 0.00033104632 -0.00045030573 -0.97819459 0.031749189
612000000 -0.97118163 0.03898577 0.0001680042 2.8472264e-006 -0.00017616161 -0.00011983701 -0.97922713 0.033913627
613000000 -0.97102666 0.040032621 9.0079498e-005 -0.00055638532 0.00051489164 -0.00074496592 -0.97897035 0.032793131
614000000 -0.97107768 0.038852699 0.00063004694 -0.00087203388 -0.0010537483 -0.0011231311 -0.9799701 0.033481468
615000000 -0.9703207 0.039953221 -0.00046051136 -0.00031408778 -0.00017930717 5.2718264e-005 -0.97947699 0.032637879
616000000 -0.97070551 0.039959699 -0.0010352456 -0.00048078815 -0.00016333122 0.00032939977 -0.97942221 0.034182414
617000000 -0.97097117 0.039516311 -0.00024749877 -0.00013295907 0.00047822398 -0.00011944505 -0.97898346 0.034605674
618000000 -0.97160953 0.04007281 -0.00022981138 4.1118892e-005 -0.00027726748 4.1795483e-005 -0.97888386 0.034114223
619000000 -0.97034699 0.040059961 -0.00061698799 -0.00029485361 0.00076710182 -0.00056924176 -0.97931784 0.032947969
620000000 -0.9704591 0.040438972 0.00016026104 -0.0010462765 -0.00078854803 -3.3891403e-005 -0.97963375 0.033900071
621000000 -0.97183222 0.040864035 -0.0004509385 -0.00076913851 -4.5985118e-005 -6.1419967e-005 -0.97902966 0.033061426
622000000 -0.9702121 0.038870685 -0.00050915004 8.4983476e-005 0.00020893985 -0.0014965887 -0.9785831 0.034231767
623000000 -0.96988612 0.03957342 0.00018475803 -0.00065891381 -0.00021239069 -0.00098431727 -0.97990948 0.033918645
624000000 -0.97086096 0.03912399 -0.00024342151 0.00030876315 -0.00043034705 -0.00030190684 -0.98011434 0.034018584
625000000 -0.97158653 0.04061627 -0.00039411889 -0.00013925612 0.00026620887 -0.00059621566 -0.97881615 0.033862151
626000000 -0.9704023 0.042262532 0.00091490807 -0.00056454196 0.00016377367 -0.00099118589 -0.97731459 0.034793954
627000000 -0.97133642 0.041405566 0.00036143677 -0.00034533415 -1.3760507e-005 -6.0028771e-005 -0.97857934 0.033727016
628000000 -0.97159374 0.041602928 -0.00020556756 -0.00064854155 6.0598893e-005 -0.0010029481 -0.97858518 0.034006752
629000000 -0.9716028 0.041555725 -4.4044067e-005 -2.1361408e-005 0.00016577986 -0.00033031448 -0.98036653 0.036009841
630000000 -0.97095835 0.041660063 9.8445898e-006 -0.00049630558 0.00045446653 -0.00051747431 -0.97874743 0.036009334
631000000 -0.9722231 0.041171513 0.00041639616 0.00018571698 -0.00012756197 -0.00059469009 -0.98059094 0.035667788
632000000 -0.97202855 0.042137992 0.00041476032 -5.0189064e-005 -0.0013023218 0.00020815745 -0.97794497 0.034901287
633000000 -0.97161818 0.041799042 0.00016573335 -0.0010747436 0.00065020501 -0.00054805097 -0.97908741 0.03395522
634000000 -0.9713757 0.040749546 -0.00049439771 -0.00080385234 -0.00093374145 -0.00012295127 -0.97916019 0.035135165
635000000 -0.9703415 0.041098859 0.00023383179 -0.00026454063 0.00023764798 -0.00052416656 -0.97916198 0.034576047
636000000 -0.97086006 0.040635906 0.00018498876 -0.00039603235 1.5721002e-005 -0.00072592258 -0.980416 0.035309009
637000000 -0.97177488 0.041457389 0.0011172484 -0.00031955537 0.00017703357 -0.00043353747 -0.97775966 0.035058089
638000000 -0.9701364 0.042063992 0.00043527986 -0.00065196573 0.00028284133 2.1028167e-005 -0.97935653 0.033760298
639000000 -0.97136074 0.042444743 -5.5030374e-005 -0.0010632315 0.00012276835 -0.0009105698 -0.97953343 0.034237795
640000000 -0.96953624 0.043157563 -0.0002868716 -0.00040088611 0.00014098806 -8.00013e-005 -0.97864604 0.033700023
641000000 -0.96958137 0.041856863 -7.3328451e-006 -0.00056188949 0.00010516898 -0.00038448031 -0.97890723 0.035593528
642000000 -0.96991217 0.043530177 -0.00023949269 -0.00030693162 -0.00064074079 -2.4760924e-005 -0.9785642 0.034439337
643000000 -0.97021109 0.042681545 -0.00076719554 -0.0011570883 -0.00020286966 -0.00025456509 -0.97962248 0.034554295
644000000 -0.97023004 0.043253478 0.0003943945 0.00060548523 0.00045704105 -0.00053289969 -0.97924453 0.035306383
645000000 -0.97044897 0.044183988 -0.00019594474 -0.00084307924 -0.00045684213 -0.00068836007 -0.9780882 0.035048999
646000000 -0.97079492 0.043402735 0.00043315097 -0.00055805093 0.00011436745 -0.00017425945 -0.97931039 0.034973778
647000000 -0.97180194 0.043089855 0.00020276359 -0.00014902453 5.1452484e-005 -0.00051912002 -0.97868711 0.035003614
648000000 -0.97133416 0.043025013 -0.0007406284 -0.00084523531 -6.6313543e-005 -0.0012654855 -0.97810996 0.034811269
649000000 -0.97035015 0.042178098 9.6864402e-005 -0.00044215788 6.9674672e-005 -0.0010966074 -0.97895998 0.035146829
650000000 -0.97031677 0.043825306 0.00048115771 -0.00010812795 8.404324e-005 -0.00088924187 -0.97854173 0.036351088
651000000 -0.96994263 0.043526184 -0.00015894909 -0.0007858724 -7.2644543e-005 -0.00074074784 -0.97914106 0.035484325
652000000 -0.9699235 0.044056524 -0.0005040433 7.3206407e-005 -0.00031832641 -0.00042023204 -0.97819394 0.03657091
653000000 -0.97122735 0.04332342 0.00078230572 -0.00021734706 -0.00015309853 -0.0006284985 -0.97817636 0.035450816
654000000 -0.97115135 0.044277716 -0.00044618046 -0.00024622405 -0.00017237123 0.00024648116 -0.98014033 0.035898533
655000000 -0.96930563 0.04387698 -0.00037209352 -0.00072935037 -0.00026550851 -0.0010958584 -0.97965473 0.035073888
656000000 -0.97032112 0.043468025 -0.00033231749 -0.00044097845 -0.00015351461 -0.0010557701 -0.97849429 0.035181537
657000000 -0.97103244 0.043447275 0.00041163457 -6.3735133e-005 -0.00020227881 4.0759328e-006 -0.97883201 0.035618834
658000000 -0.97152096 0.044351149 0.00021182069 -0.00072870002 -8.4036292e-005 -0.00080032542 -0.97904122 0.036707487
659000000 -0.96949029 0.043457199 -0.00019687029 -0.00083129702 -2.5014479e-005 -0.00054098002 -0.97963083 0.036064573
660000000 -0.97006053 0.042995427 -0.00027275409 -0.00062191178 0.00028750906 -0.00044759299 -0.97895777 0.034581296
661000000 -0.97086293 0.044269357 0.00046007757 -0.00051235629 -0.00044076421 1.2296631e-005 -0.9782387 0.035661161
662000000 -0.97076631 0.044206206 6.9955648e-005 -0.00043156871 -0.00028654499 0.0001236806 -0.98110515 0.037012808
663000000 -0.97040892 0.043563038 -0.00020529663 -0.0006725876 -0.00040562192 3.4841862e-005 -0.97771537 0.035212111
664000000 -0.97015619 0.042852294 -7.996682e-005 -0.0003502754 0.00021323518 -0.00039003397 -0.97862816 0.035952151
665000000 -0.96947753 0.044317633 0.00070704735 -0.00053430005 -0.00012772545 -0.00081498228 -0.97825372 0.036077205
666000000 -0.97068101 0.044002298 0.00035829344 0.00049005181 9.1096823e-005 -0.00042460853 -0.97926986 0.035380352
667000000 -0.97039384 0.044099644 -0.00063219189 -0.0001355837 0.0001815557 5.8925765e-005 -0.97791249 0.035559792
668000000 -0.97064668 0.044646103 0.00038883617 -0.0011569218 5.2359854e-005 -0.00041253981 -0.97824335 0.035958543
