!Keysight Technologies,M9374A,MY55442783,A.12.55.05
!Date: Thursday, May 20, 2021 11:39:10
!Correction: S11(Full 2 Port(1,2)) 
!S21(Full 2 Port(1,2)) 
!S12(Full 2 Port(1,2)) 
!S22(Full 2 Port(1,2)) 
!S2P File: Measurements: S11, S21, S12, S22:
# Hz S  RI   R 50
500000000 -0.97362477 0.033776406 -0.00041452626 2.2419232e-005 -0.00034369831 -0.00049588905 -0.97888011 0.027574308
501000000 -0.97388434 0.034326222 -0.00010031002 -0.00053359283 0.00041923791 1.5805128e-005 -0.97939855 0.027731279
502000000 -0.97465307 0.03353174 0.00075592089 -0.00065186358 -0.00057297369 9.6027899e-005 -0.97964048 0.027385866
503000000 -0.9724825 0.034506325 0.00025255646 -0.00023836661 -0.00062178733 -0.00028110272 -0.9795174 0.028125511
504000000 -0.97268414 0.034971371 -0.00061793509 -0.00013402758 -0.00031697642 -0.00048444391 -0.98064792 0.028569473
505000000 -0.97248971 0.034184217 -0.00015051378 -0.00079941598 2.4606679e-005 0.00011084372 -0.98001689 0.027684569
506000000 -0.97351766 0.034599889 6.6756576e-005 -6.9368194e-005 -0.00019619185 0.00017270581 -0.9797259 0.028155889
507000000 -0.97268665 0.035471112 -0.0005113011 -0.00046383019 -1.1435902e-006 -0.00041462039 -0.97935253 0.029780017
508000000 -0.97303063 0.035664596 3.53654e-005 -0.00089270668 -0.00041355583 -0.0004256434 -0.98003924 0.02842252
509000000 -0.97388369 0.03555781 -0.00049656682 -0.00035866551 8.5756394e-005 0.00040083204 -0.97866404 0.028511638
510000000 -0.97351825 0.034531053 0.00015459117 0.00016783182 -0.00014065449 -0.00057239475 -0.97907525 0.027647868
511000000 -0.97196883 0.034330171 0.00019248066 0.00014235404 0.00041597418 -0.00063319528 -0.98085624 0.029309027
512000000 -0.97170234 0.03475811 0.00013221402 -0.00039908779 -0.00025099018 -0.0004220914 -0.97996187 0.029646158
513000000 -0.97260523 0.035340272 -0.00012814005 -0.00053888751 -7.6293836e-005 -0.00025215448 -0.97933888 0.029018257
514000000 -0.97310603 0.035656378 -0.00039447317 9.5583346e-005 -0.00068029377 -0.00036545779 -0.98067355 0.029358754
515000000 -0.97431374 0.03598376 -0.00052181672 -0.00023965603 -0.00044082446 -0.00083481986 -0.97938728 0.028826667
516000000 -0.97240555 0.036078706 0.00061769976 -0.00023412761 -0.00034146535 0.00045231343 -0.9792105 0.028971327
517000000 -0.97395456 0.036018737 0.00010049733 -0.00031987502 -0.00062596385 -0.00026687636 -0.98026335 0.02847355
518000000 -0.97326726 0.036329892 -0.00036105991 0.00034078638 0.00014278082 -0.0003413079 -0.98018765 0.028964227
519000000 -0.97292078 0.035509005 -3.7254777e-005 -0.00047116439 -0.00050399534 -0.00032788547 -0.98019785 0.030289659
520000000 -0.97210717 0.033879347 0.00014694847 -9.1428898e-005 0.00059405155 -0.0002343604 -0.97853392 0.029963054
521000000 -0.97236538 0.035586629 0.0005892159 -0.0004789677 -0.00017308863 -0.00070901454 -0.97986096 0.030325742
522000000 -0.97405022 0.034145452 -0.00048862048 -0.00024878464 -0.00065970555 -0.00018090846 -0.97956085 0.029319715
523000000 -0.97294432 0.035256527 0.00026396484 -0.00048071358 0.00019664106 -0.00072374713 -0.9790867 0.030042382
524000000 -0.97251052 0.035030074 0.00050905865 -0.00058182824 9.8184602e-005 -0.00073945097 -0.97982323 0.030844463
525000000 -0.97162169 0.036312182 -7.2809395e-005 -0.00078330055 -0.0011184226 -0.0011239165 -0.98047447 0.030937163
526000000 -0.97308582 0.036144216 -0.0004222024 -0.0012350258 -0.00085090037 0.00013107499 -0.97981012 0.03067141
527000000 -0.97302198 0.03617774 0.00021546538 -2.8400013e-005 -0.00046517618 -0.00038276211 -0.97937673 0.030250812
528000000 -0.97303295 0.036048956 -0.0002691815 -9.9170422e-005 1.9138872e-005 3.2206219e-005 -0.97890621 0.029525837
529000000 -0.97344702 0.035012066 0.00011720649 -0.00085824501 4.8302521e-005 -0.00030935442 -0.97850293 0.030092498
530000000 -0.97221887 0.036558583 -0.00023347144 -0.00050278718 -0.00035720124 -0.00049743732 -0.98043734 0.030450951
531000000 -0.97325575 0.036361612 0.00042587848 -0.0004305538 0.00037108827 6.1282793e-005 -0.98065567 0.030839963
532000000 -0.9723838 0.035667758 3.9389528e-005 -0.00061737909 8.5946913e-006 -0.00070589961 -0.97880596 0.03016845
533000000 -0.97286445 0.036646768 -0.00052450364 -0.00046524635 -0.00043734492 0.00011800145 -0.98066264 0.029923819
534000000 -0.97290689 0.034865402 -5.4901913e-005 -0.00053269183 -0.00029814997 -0.00034977525 -0.98003429 0.030093158
535000000 -0.97296268 0.036505926 9.7813412e-005 -0.00057421398 -0.00046257346 -0.00045425876 -0.97841239 0.031324744
536000000 -0.97283268 0.036644205 0.0007136084 -0.0013008571 -0.00030787577 6.6167762e-005 -0.97869074 0.03014919
537000000 -0.97201502 0.035910305 -0.00039750824 0.00029699638 0.00049550104 -0.00034185042 -0.97887176 0.031327829
538000000 -0.97382879 0.037301909 -0.00076155696 0.00033543783 -0.00064346753 -0.00046265367 -0.97964549 0.031143505
539000000 -0.97347623 0.035999823 0.00027032066 7.2878742e-005 -0.00082390796 0.00031954204 -0.97923058 0.031755012
540000000 -0.97273457 0.036573187 -0.0002845409 -0.00094970549 -0.00032131592 -0.0011889433 -0.97851616 0.030331682
541000000 -0.9717741 0.03761654 8.6889573e-005 0.00019232568 -0.00017395578 -0.00028788767 -0.97976297 0.031050755
542000000 -0.97176325 0.036649462 -0.00039871957 -0.00022297949 -0.00021677959 -0.00035392211 -0.9793942 0.030242017
543000000 -0.97262448 0.036713801 -8.412201e-005 -0.00069300539 0.00055445032 -0.00052377029 -0.97915012 0.032034714
544000000 -0.97151148 0.036400471 -0.000151484 -0.0011241467 -0.00038044254 -0.00042317747 -0.9793039 0.03173608
545000000 -0.97269422 0.037245501 0.00029073044 -0.0002617618 -0.00022596127 -9.6146287e-005 -0.97883606 0.031686261
546000000 -0.97293073 0.037322342 -0.00046570765 -0.00058296486 0.00015150811 -0.00049398059 -0.97880328 0.031003904
547000000 -0.97198522 0.038080454 -0.00056919648 -0.00024871176 -0.00014441155 -0.00063588965 -0.97979409 0.031220013
548000000 -0.97155339 0.038164455 -0.00049651711 -0.00054231676 0.0001685305 -0.00018839867 -0.97969455 0.030821996
549000000 -0.97222054 0.035198838 0.00067943911 0.00019363007 -0.00027495183 -0.00090794067 -0.9794715 0.031624608
550000000 -0.96963567 0.036145322 5.6726829e-005 -0.00080841279 0.00018615242 -0.00046617334 -0.97907919 0.032144528
551000000 -0.97287321 0.036634069 0.00026581986 -0.0005250267 1.9504083e-005 -0.00023467249 -0.98026735 0.031109821
552000000 -0.9728058 0.036374871 0.00049469835 -0.00048261537 -0.00016985771 -0.00087096874 -0.97910899 0.032772187
553000000 -0.97288394 0.036697052 3.1853655e-005 -0.00068287877 -0.00085278897 -3.6339341e-005 -0.97987682 0.031011852
554000000 -0.97234422 0.036215656 -0.00020059556 -0.000404511 -0.000852931 -0.00045069098 -0.97985673 0.031386517
555000000 -0.97137517 0.036901824 0.00010273217 0.00045097002 0.00060408178 -0.0004601391 -0.9787609 0.032027256
556000000 -0.9709751 0.036831018 -0.00027584317 -0.00068953022 -0.00012635773 -0.00056431792 -0.9794746 0.032351539
557000000 -0.97256595 0.038595922 -0.00039951669 -2.5893558e-005 0.00035185466 -0.0007773923 -0.97874856 0.0310937
558000000 -0.97170049 0.036989674 -0.00081786601 -0.00052868482 -0.00045089418 -0.0006651053 -0.97990912 0.03141566
559000000 -0.97298878 0.036158536 -0.00037881025 -0.00010742912 9.0678463e-005 0.00025571912 -0.97998685 0.031744801
560000000 -0.97169077 0.038660113 -0.00067216944 -0.00049990637 1.0010093e-005 -0.00087968662 -0.97922844 0.032311577
561000000 -0.97185051 0.038030729 -0.0003471837 -0.00046981053 0.00014620447 -0.00060765154 -0.97878677 0.031599451
562000000 -0.97246563 0.037062947 0.0004964206 -0.00036489408 0.00058964267 -0.00022964716 -0.97963685 0.032849181
563000000 -0.97235703 0.036231849 -0.00046740702 0.00015067145 -0.00081147847 -0.00031021857 -0.98025018 0.033055764
564000000 -0.97265059 0.036438778 -0.00015258981 0.00017523149 -0.00035615839 -0.0009307962 -0.97964132 0.031956647
565000000 -0.97320127 0.037374675 -1.8926585e-005 -0.00088657375 -0.00046480031 -0.00018526791 -0.97930795 0.032112002
566000000 -0.97273421 0.03582716 -0.00095219078 -0.00021838327 0.00012517042 -0.00036931309 -0.97996771 0.030366097
567000000 -0.97239739 0.035610523 -0.00036750859 -0.00059120799 -0.00026230377 -0.00029371126 -0.97960192 0.032140788
568000000 -0.97248983 0.037063427 -0.00030206336 0.00018961637 -0.00014771528 0.0001599463 -0.98084074 0.032127637
569000000 -0.97152352 0.037314653 -0.00029610473 -0.00051890872 0.00029973022 -0.000828369 -0.97899693 0.031042319
570000000 -0.97184956 0.036163773 -0.00010402879 -0.000365435 -0.00099531515 -0.00012742856 -0.97867143 0.031969275
571000000 -0.97298914 0.03723805 0.00055447203 -0.0004692119 -0.00038573303 -0.00058097189 -0.98023057 0.031015413
572000000 -0.97126633 0.036437128 8.3005441e-005 -0.00027739097 -0.00081839482 -0.00060180534 -0.97945958 0.031317759
573000000 -0.97153664 0.036884021 -0.00034568566 0.0003139918 2.1498481e-005 -0.00074535876 -0.98041606 0.032508314
574000000 -0.97120017 0.037139237 0.00071332371 -0.00017665706 0.00016932253 3.668074e-005 -0.97952425 0.030806283
575000000 -0.97289044 0.037392028 -0.00017508148 -0.00047205112 9.6823489e-005 -0.00086216221 -0.97950923 0.032054551
576000000 -0.97116506 0.037093047 0.00017026765 -0.00089820882 -0.00050705497 -0.00045408611 -0.97978044 0.031574573
577000000 -0.97248554 0.036942821 -0.00034332261 -0.00034578957 0.00041997302 -0.00046843637 -0.97952664 0.031237694
578000000 -0.9719981 0.037187453 -0.00017675159 -0.00025721351 0.00023885215 -0.00043736861 -0.97897285 0.031432539
579000000 -0.971156 0.03728798 0.00095336389 0.00024342685 -0.00070704811 0.00010993407 -0.97900611 0.031455573
580000000 -0.97147876 0.037048765 0.00078520487 9.6114542e-005 -2.4584019e-006 -0.00034456947 -0.97895211 0.032386068
581000000 -0.9711132 0.036125645 -0.00049759093 -4.1065054e-005 0.0002929614 -0.00023149184 -0.98017925 0.033107571
582000000 -0.97185099 0.037252828 -0.00074727339 0.00048664582 0.00050914788 -3.9350074e-005 -0.98045254 0.031662773
583000000 -0.97092688 0.037281208 -5.2924956e-005 -0.00068860454 -0.00018115414 -0.00020139561 -0.98105592 0.031660143
584000000 -0.97165775 0.037020184 0.00043389961 -0.001052381 -1.2365236e-005 -0.00042698314 -0.98092741 0.033159729
585000000 -0.97280502 0.03789578 -0.00029996876 -0.00024901572 -0.00043606761 -0.00028845645 -0.98068535 0.032375231
586000000 -0.97162366 0.037843905 -0.00010083726 -0.00034366478 0.00030293068 -0.00052352814 -0.97885591 0.032073181
587000000 -0.97173816 0.038180362 -0.00024176108 -0.0010507937 0.00017825955 -1.6536924e-005 -0.97994518 0.032289788
588000000 -0.97167909 0.037922248 -0.00033397571 -0.00031887874 0.0003514633 -0.00015134295 -0.97929645 0.032989562
589000000 -0.97259039 0.037192944 0.000327146 -4.9144663e-005 0.00011750381 -0.00024168527 -0.9791972 0.032505564
590000000 -0.97082514 0.039113533 0.00074926339 -0.0006736475 -0.00036100709 0.00012476608 -0.9786762 0.030937307
591000000 -0.97140324 0.03741103 -8.6699838e-005 9.9636427e-006 -1.6303866e-005 -4.8131453e-005 -0.97952259 0.032917693
592000000 -0.97123599 0.03811314 -0.00020664319 -0.00019921076 -0.00036542269 -0.00018444702 -0.97901529 0.031846646
593000000 -0.97151154 0.037384275 9.0088193e-005 -0.00078944105 0.00020062055 -0.00081944355 -0.97893876 0.033137359
594000000 -0.97201484 0.037451867 -0.00036983544 -0.00070952717 -0.00029681035 -0.00038607587 -0.97959167 0.03208176
595000000 -0.97193223 0.037031759 -0.00083757343 -0.00045397875 -3.076336e-007 -4.7973448e-005 -0.97894937 0.032175634
596000000 -0.97258049 0.037414387 -0.00028818959 -0.00069924281 -0.00029086549 -0.00018169648 -0.97868609 0.032406271
597000000 -0.97307539 0.038437873 0.00025334785 -0.00029114878 -0.00067229144 0.00037476048 -0.97909546 0.032840408
598000000 -0.9724161 0.039437417 0.00010762142 -0.0010264586 -0.00017075881 -0.00028495089 -0.98050404 0.032810256
599000000 -0.97208458 0.03812978 0.00020169052 -0.00070707075 -1.7080853e-005 -0.0011732421 -0.98037148 0.032763682
600000000 -0.97309303 0.03971966 -0.00049604528 -0.001028089 0.00061874278 -0.00034886715 -0.98005754 0.031791605
601000000 -0.97148228 0.039278734 -2.7121456e-005 -0.00034173203 0.00012433596 -0.00099552225 -0.97854173 0.03250495
602000000 -0.9717471 0.039970174 -7.5212592e-005 0.0004851663 -0.00075065059 3.9574479e-005 -0.97928619 0.033252176
603000000 -0.97236478 0.039437003 -0.00018574866 -0.0011510826 -0.00047007485 -0.0011718801 -0.97993857 0.032160386
604000000 -0.97334063 0.039926939 8.2177205e-005 0.00011022349 3.4207374e-006 -0.0010313411 -0.97893703 0.033268526
605000000 -0.97211683 0.039838668 0.00033353613 4.2775209e-005 0.00048160626 0.00053810107 -0.97995007 0.033112861
606000000 -0.97143787 0.039443854 -0.00025749847 -0.00029828708 -0.00011347808 -6.0518927e-005 -0.97858477 0.032824039
607000000 -0.97059852 0.038391694 0.00024655042 -0.00044589941 -5.9688791e-005 -1.365055e-005 -0.97981668 0.033482533
608000000 -0.97245169 0.041740391 -0.00048538271 -0.00092245807 -0.00046278225 -0.00032573659 -0.97909415 0.033015475
609000000 -0.97307783 0.040003881 -0.0012231267 -0.00065361283 0.0004812165 -0.00041667063 -0.97935605 0.033776555
610000000 -0.97197837 0.038935848 -0.00064438034 -0.00043553321 -8.4173815e-005 -0.00015847854 -0.97893673 0.033583257
611000000 -0.97110581 0.040912781 -0.00029248232 -0.00045428894 -0.00064645964 -4.7132318e-005 -0.97918469 0.033849873
612000000 -0.97092682 0.039475027 -0.00018213209 -0.00089138217 -0.00023294154 -0.00065257406 -0.97944623 0.034009449
613000000 -0.97231263 0.040314354 -0.00034037788 0.00014954041 0.00018460103 -0.00020746829 -0.97933513 0.032851469
614000000 -0.97054011 0.040988848 -8.2748098e-005 -0.00027171505 -0.00012364291 -0.00013164002 -0.98075211 0.033077579
615000000 -0.97181094 0.040602986 0.00050518801 0.00018948753 -9.7793945e-006 -0.00042081877 -0.97914642 0.03423664
616000000 -0.97206777 0.0407569 -0.00033440525 -0.00019783745 -0.00053403957 -0.0014430492 -0.9788968 0.033669945
617000000 -0.97116798 0.040765196 -0.00017495098 0.00017142826 0.00039430807 -0.001154062 -0.97973716 0.034015387
618000000 -0.97166193 0.039657924 -0.00076845684 -0.00023366888 -0.00063288113 -0.00021311606 -0.97937757 0.034321275
619000000 -0.97167343 0.042023484 0.00047848214 -0.00021043372 -0.00038178821 -0.00015107091 -0.97989666 0.035054479
620000000 -0.97087562 0.041693524 -0.00051155238 -6.5252942e-005 -0.00026350323 -0.00094946043 -0.97912037 0.033971976
621000000 -0.97263408 0.041528009 -0.0001350541 -0.00018052179 -7.0411414e-005 -0.00052832381 -0.97965735 0.035453293
622000000 -0.97082001 0.04041082 0.00034646582 -0.00080670632 -9.9689576e-005 -0.00023885394 -0.97921568 0.033865523
623000000 -0.97198385 0.04211539 -0.00032489756 -0.00031728792 0.00025718406 -1.0140891e-005 -0.98039585 0.034058291
624000000 -0.97194242 0.041249268 0.00017037529 -0.00041328321 -0.00043473774 -1.1830155e-006 -0.97955334 0.034176484
625000000 -0.97105694 0.041419834 -0.00029599521 -0.00065500889 -0.00024122551 -0.000240682 -0.97923553 0.032912295
626000000 -0.97148865 0.04194995 0.00046441975 -0.00018627483 -0.00016465607 -0.00078391988 -0.97899729 0.035073902
627000000 -0.971003 0.041473944 -0.00016608626 -0.00051275705 -0.00033455135 -0.00054344907 -0.97884017 0.034593895
628000000 -0.97151738 0.041626755 -8.9692621e-005 -0.00082189724 -1.6363216e-005 -5.6518027e-005 -0.97868335 0.035448674
629000000 -0.97186637 0.041918408 0.0005429156 -0.00076701929 0.00086899806 -0.00095530762 -0.97980583 0.035665628
630000000 -0.97124392 0.042852137 -0.00028988716 0.00033834673 -1.3496235e-005 -0.00082891522 -0.97904718 0.036343124
631000000 -0.97090113 0.042433359 -6.579653e-006 -0.00010855135 -8.1921244e-005 -0.00011606602 -0.9795559 0.035303704
632000000 -0.97138363 0.042714633 -0.0002504478 -0.0010105 0.00020490201 -0.00072242977 -0.97848713 0.034751039
633000000 -0.97175902 0.042873923 -0.0002439431 -0.00099671702 -0.00030458136 -0.00019935254 -0.9778229 0.034645412
634000000 -0.97166389 0.042863395 -0.00028810176 -0.00058441126 0.00025954132 -0.0009525987 -0.97914129 0.035044234
635000000 -0.97154874 0.042682584 -0.00069125701 0.0004240339 -8.2395949e-005 0.00010770898 -0.97751534 0.034550633
636000000 -0.97196627 0.041889094 -0.00069410802 -0.00049533747 -9.01608e-005 -0.0010277677 -0.97935647 0.034778029
637000000 -0.97035915 0.043731704 -0.0002535432 -0.0005765846 -0.00037383829 -0.00097725249 -0.97844887 0.035187751
638000000 -0.97032398 0.042917535 -3.1632502e-005 -0.00043444021 -0.00033289468 -0.00034350262 -0.9790861 0.03382957
639000000 -0.9716543 0.043956846 0.00034557353 -0.00097233633 0.0002140818 -0.00092728669 -0.97923416 0.03544914
640000000 -0.97113889 0.04397554 0.0005246895 -0.00082393683 0.00072898821 -0.00062273146 -0.97843468 0.034886967
641000000 -0.97223037 0.043112848 -1.8403047e-005 -0.00033340123 -0.00050829788 -0.00039901378 -0.9789809 0.034560051
642000000 -0.97115391 0.042078409 0.00012710583 -0.00045703101 0.00025070881 -0.00032725514 -0.97851139 0.035872776
643000000 -0.97151315 0.044114169 0.0001222448 -0.00081184151 -0.00017014905 -0.00069118879 -0.97828174 0.035328392
644000000 -0.97075623 0.044489603 6.7555164e-005 -0.00052311289 0.00047190653 -0.00033352332 -0.97945589 0.034755204
645000000 -0.97110426 0.044451412 7.5298514e-005 -0.00091938529 -0.00025251621 -0.00080544932 -0.97849774 0.035710152
646000000 -0.97210455 0.043966912 -0.00011344616 -6.7078618e-005 -1.8763905e-005 -4.3161937e-005 -0.97832185 0.036066648
647000000 -0.97217661 0.044688605 0.00019682963 -0.00079996604 1.5801019e-005 -0.0010105625 -0.97903103 0.034786325
648000000 -0.97169441 0.04476656 -0.00026405646 -0.00024735151 0.00025454149 -0.00022335099 -0.97877896 0.036411263
649000000 -0.97196513 0.044367407 -0.00058531255 -0.00053693767 -0.00046612657 -0.00019448563 -0.97933251 0.036377605
650000000 -0.97049493 0.044282779 -0.00057791424 -0.00038205428 -0.00036576673 -0.00054020516 -0.97887909 0.036887169
651000000 -0.97046572 0.044124145 -0.00044547516 -0.0006529112 0.00046300906 -0.00030849595 -0.97773141 0.035985522
652000000 -0.97178489 0.043470833 -0.0001305625 -0.00060311391 0.0010400387 4.589122e-006 -0.97703958 0.036465492
653000000 -0.97184134 0.044823583 5.8834888e-005 -2.7677879e-006 0.00015336613 -0.0011617398 -0.97866887 0.034684934
654000000 -0.97062469 0.045248672 0.00022153032 -0.00024187239 -0.00025994884 -0.00050777697 -0.97861761 0.036389165
655000000 -0.97114772 0.043859426 0.00064828119 -6.8308836e-005 -5.3921274e-005 0.00035971054 -0.97814506 0.036239471
656000000 -0.97140199 0.04544083 0.00027370267 0.00015742621 -0.00086138304 -0.00063201477 -0.97769099 0.036035147
657000000 -0.97043335 0.044978172 -6.8485104e-005 -0.00027534069 3.7230864e-005 -0.00057063869 -0.97842151 0.037011903
658000000 -0.97200543 0.044510346 0.00058230251 -0.00015322295 -0.00094091397 -0.00058156101 -0.97820973 0.035779737
659000000 -0.97144145 0.044844143 -0.00021778444 -6.6166409e-005 -0.00057626277 -0.0013115333 -0.97835612 0.035237838
660000000 -0.97097015 0.045325294 -0.00017944953 -0.00029931575 -0.00060548342 -0.00065880729 -0.97838616 0.035783019
661000000 -0.97138268 0.045290381 -0.00032893199 -0.00034762535 -0.00078176713 -0.00069360062 -0.97912908 0.036256205
662000000 -0.97044986 0.045521952 -0.00034336798 -0.00089444104 -0.00016369892 -0.00048698534 -0.97918081 0.037101682
663000000 -0.97171408 0.045287408 0.00023815958 -0.00068759994 -0.00020850131 -0.0006131953 -0.97760391 0.036013581
664000000 -0.97056359 0.044402149 0.00025354512 -0.00064562605 -0.00059697911 -0.00067691738 -0.9781189 0.036249779
665000000 -0.97134775 0.044833634 7.208802e-005 -0.00077322737 1.4063598e-005 -0.00052488077 -0.97690433 0.036369257
666000000 -0.97081155 0.04458214 0.0001755804 -0.00051590614 -9.8823046e-005 -0.00045989381 -0.97959268 0.035436071
667000000 -0.97113544 0.04641027 9.1173402e-005 -0.0012881822 0.00019412988 -0.00062355056 -0.97881836 0.036491603
668000000 -0.97030616 0.044497289 0.00016224729 -0.00032693366 0.0006481997 -0.00037661131 -0.97908354 0.035606284
