!Keysight Technologies,M9374A,MY55442783,A.12.55.05
!Date: Thursday, May 20, 2021 11:44:29
!Correction: S11(Full 2 Port(1,2)) 
!S21(Full 2 Port(1,2)) 
!S12(Full 2 Port(1,2)) 
!S22(Full 2 Port(1,2)) 
!S2P File: Measurements: S11, S21, S12, S22:
# Hz S  RI   R 50
500000000 -0.97314668 0.034396853 -0.00017395626 -0.00068281131 0.00044384948 -0.00033989691 -0.97937995 0.027332395
501000000 -0.97380614 0.034102987 -0.0010990734 -0.0011803092 -0.0002555869 -0.0012690959 -0.98106289 0.026719349
502000000 -0.97251958 0.034170106 3.5745369e-008 -0.00086706912 -0.00035549956 -0.00035970693 -0.98027068 0.028082216
503000000 -0.97230208 0.033636272 -0.00033160532 -0.00016495977 -0.00021335404 0.00027620641 -0.97977298 0.026744187
504000000 -0.97355115 0.03463205 2.8388902e-006 -0.00059849699 0.00096808653 -0.00078769244 -0.98130059 0.028420068
505000000 -0.97268075 0.033977304 -0.00066199905 -0.00026132775 0.00010938562 -0.00014743942 -0.9800095 0.026826523
506000000 -0.97263694 0.033952422 0.00019720216 0.00036645524 -0.00038818517 -0.00010579725 -0.97952956 0.028388236
507000000 -0.97371417 0.033580005 -1.9953284e-005 -0.00052392349 -0.00010704641 -0.00060625927 -0.98101145 0.028991818
508000000 -0.97336334 0.034459554 -0.0005675882 -8.0359277e-005 -0.00044492332 0.00020034758 -0.98096496 0.028046904
509000000 -0.97359836 0.033676494 0.00088894524 0.00011062805 0.00026671865 -0.00012163598 -0.97959828 0.029279638
510000000 -0.97357482 0.035063528 -0.00037808582 -0.00065515266 -0.00067788013 2.3691982e-005 -0.98021227 0.02856195
511000000 -0.97188425 0.035789426 0.00030692539 -0.00020795349 -0.00070192752 -0.00039671324 -0.97967821 0.028722204
512000000 -0.97250986 0.033916824 0.00029546965 -0.0012532804 -0.00041067036 -0.00055247382 -0.97993994 0.028492495
513000000 -0.97327083 0.035136342 -0.00079452246 -0.0004890298 0.00017150288 -0.00062707416 -0.98046035 0.028017363
514000000 -0.97348499 0.035067849 -0.00028460857 -0.0001730855 -0.000446438 -0.00068647409 -0.98043561 0.029580398
515000000 -0.9734987 0.0350403 -0.00040317158 -0.00094706519 -0.00085729465 -0.0011373125 -0.97954887 0.029887274
516000000 -0.9730916 0.036179896 -0.00037704926 0.00031773082 -0.00015267867 -0.00090903655 -0.98080969 0.029700879
517000000 -0.97258502 0.035162482 0.00033803284 -0.00016218494 -0.00032762633 -0.00074387837 -0.97939134 0.029300718
518000000 -0.97251791 0.035330992 -0.00050776324 -0.0010913571 -0.00013204165 0.00040196168 -0.97960955 0.028781334
519000000 -0.97287351 0.03555733 -0.00066268089 -0.00037781819 0.0003068744 -0.00067817443 -0.98017412 0.031162715
520000000 -0.97425967 0.034416031 0.00049443397 -0.0009472227 0.00021155599 0.00036966923 -0.97925484 0.030282928
521000000 -0.97316521 0.035767216 -0.00010516046 0.00036506171 0.00029039112 -4.1104242e-005 -0.97955781 0.030208465
522000000 -0.97268969 0.035499986 0.00076656928 -0.00088940974 0.00033065866 8.8834997e-005 -0.97993082 0.030832708
523000000 -0.97311509 0.034573201 0.00023319972 -5.8327645e-005 -0.0010707708 -2.0892285e-006 -0.97980827 0.02990317
524000000 -0.97237909 0.035658002 0.00033036774 -0.00032903242 -1.5632782e-005 -0.00061042851 -0.97966999 0.029685058
525000000 -0.97260547 0.036229707 1.0031493e-005 0.00040733555 0.0002646365 -0.0004884057 -0.97947437 0.029999258
526000000 -0.9733246 0.036597822 5.0213952e-005 0.00011176353 -5.3718344e-005 -0.00074912346 -0.97913516 0.031424832
527000000 -0.97293353 0.035239901 0.0002031123 -0.00039755882 -0.00028461745 -0.00065212144 -0.98001415 0.02991032
528000000 -0.97226691 0.035934422 0.00039102347 -0.00094041234 -0.00029160728 3.0874209e-005 -0.97937745 0.030544268
529000000 -0.97308344 0.03616726 0.00025710915 0.00020765726 -0.0010751621 -0.0008122563 -0.97951114 0.030644326
530000000 -0.97350079 0.036325376 0.00031552988 -1.0349524e-005 -0.0006196585 -0.00023050742 -0.98105115 0.030729068
531000000 -0.97411245 0.035574015 -0.00017315469 0.00013171176 -0.00044511212 -0.00078724307 -0.97952181 0.030917769
532000000 -0.97234714 0.034880016 0.00013877451 -0.00024478824 -0.00016690038 -0.00088875409 -0.97930431 0.03097978
533000000 -0.97279036 0.035891794 0.00064735557 -0.00034840452 0.0005786157 -0.00060901197 -0.97870159 0.031042928
534000000 -0.97273594 0.036424357 -0.00022540262 -9.7015574e-005 -9.7844619e-005 0.00026488525 -0.98015547 0.03025073
535000000 -0.97361028 0.036301855 0.00023281448 -0.00082325761 -0.0004570671 -0.00038170308 -0.97854823 0.03145583
536000000 -0.97222024 0.036482953 7.5967553e-005 -0.00046900852 0.00022851258 -0.00024244898 -0.97852206 0.030658918
537000000 -0.97245276 0.03622894 0.00030033375 0.00036712145 -0.00047340861 8.3329702e-005 -0.97929209 0.03186857
538000000 -0.97295237 0.036031526 -5.6132001e-005 0.00010804398 -0.00053310592 8.6168817e-005 -0.9793523 0.031218292
539000000 -0.97467095 0.035870474 8.1108687e-005 -0.0011360686 -0.00017215495 -0.00014815353 -0.97876644 0.030951887
540000000 -0.97184557 0.036140207 -0.00097024889 -0.00010835788 0.00016970464 -2.9187438e-005 -0.98002028 0.030234642
541000000 -0.97139525 0.036640212 0.00046308251 -0.00037262411 0.0002336793 -0.00085507688 -0.97979766 0.029464977
542000000 -0.97219962 0.036564529 0.0002398682 8.8054439e-005 0.00093589391 -0.00015435832 -0.97803718 0.031383008
543000000 -0.97196859 0.036887161 2.691752e-005 -0.00072263862 0.00041729436 -0.00045830538 -0.97909045 0.032326855
544000000 -0.97322279 0.036471061 0.00048336727 -0.00026110208 -0.00063293503 0.00017796144 -0.9803797 0.031389333
545000000 -0.97361469 0.036533501 -0.00046531379 -1.3933545e-005 -0.00057052181 1.4207963e-005 -0.97887671 0.032131772
546000000 -0.97213233 0.037907101 7.8415207e-005 0.00078132411 -0.00017748034 -0.00036664936 -0.97974426 0.031308521
547000000 -0.97271061 0.036768775 -0.00027032907 -6.0872466e-005 -0.00021828877 -0.00063521875 -0.97949702 0.031509962
548000000 -0.9726522 0.036568519 0.00055239757 -0.0011930331 -0.0001039447 -0.00095780176 -0.97914153 0.031542826
549000000 -0.97207415 0.035422865 -0.00064328435 -0.00028527668 -0.00016949208 -0.00021583526 -0.97898942 0.030973935
550000000 -0.97294855 0.035252422 0.00049159129 -0.00065890327 -0.00018188084 -0.00090255472 -0.97947824 0.031774778
551000000 -0.97190464 0.036655489 -0.00069886935 -0.00096373161 0.00012444532 -0.00061404647 -0.98030436 0.032104362
552000000 -0.97343099 0.035785969 -0.00014987108 0.00010917215 -6.3098071e-007 -0.00034469887 -0.97925967 0.031915344
553000000 -0.9740907 0.037385091 0.00022356131 -0.00044760024 -0.00051615812 0.0004304527 -0.97949958 0.029721968
554000000 -0.97268575 0.035493948 0.00042964681 -0.00017077265 -2.2866465e-005 -0.00046023107 -0.97943175 0.032142557
555000000 -0.9717961 0.035909757 -3.9635204e-005 9.379867e-005 -1.3941211e-005 0.00059604982 -0.9796741 0.030557901
556000000 -0.97192794 0.037459824 0.0006027465 -0.00080294267 0.00057820696 -0.00038055363 -0.97964418 0.030596653
557000000 -0.9724828 0.036441568 -0.00010603556 -0.00042293433 -0.00034073426 -0.00057088054 -0.97963899 0.031051699
558000000 -0.97310817 0.036745287 -0.00031034945 6.1317616e-005 1.9461093e-005 -0.00061676494 -0.97914094 0.031096637
559000000 -0.97252041 0.037228785 0.00020320389 5.1407718e-005 0.00013514403 -0.00021964301 -0.97937977 0.031828664
560000000 -0.97233403 0.037128199 -0.00024927323 -0.0011068196 -0.00052179472 -0.00016806106 -0.97888792 0.031006459
561000000 -0.97388154 0.036517929 -0.00038762469 -0.00067992212 -0.00060976855 -0.0003674184 -0.97852397 0.030675808
562000000 -0.97380149 0.036745246 -0.00038696014 -0.0010215207 -0.00067056849 -0.0004849773 -0.97984344 0.032112185
563000000 -0.97168064 0.036484551 2.731325e-005 -0.00025378086 0.0010911269 -7.2609961e-005 -0.9790557 0.032939021
564000000 -0.97230417 0.035935618 -0.00045325173 1.3155073e-005 0.00041722893 -0.00098301307 -0.98052406 0.029976981
565000000 -0.97205728 0.036577683 -0.00081166148 -0.0008515587 -0.00020402751 -0.00012255208 -0.97936964 0.031183505
566000000 -0.97215873 0.036236551 0.00014458442 -0.00015917188 0.00018900557 0.00012867496 -0.9798587 0.030538948
567000000 -0.97154438 0.036723711 -0.00053049665 -0.00050763303 -0.00016199425 -0.00085713039 -0.97957921 0.031940013
568000000 -0.97198236 0.03757748 -0.00030434877 -0.00029418606 0.00019227721 -0.00012206178 -0.97820455 0.030504646
569000000 -0.97303742 0.037225105 -2.9534203e-005 -0.00032757001 -0.00049508334 -0.00026376825 -0.97876817 0.030075604
570000000 -0.97207433 0.03614961 -0.00082417461 4.2060197e-005 -5.4490006e-006 -0.00054347183 -0.97930324 0.031718317
571000000 -0.97179532 0.036276717 -0.00053085439 -0.00054080464 0.00031412128 -0.0013685935 -0.98043847 0.032019489
572000000 -0.97155643 0.036141954 0.00025112671 -0.00018999929 0.00068289012 0.00020012015 -0.97846413 0.031089529
573000000 -0.97257769 0.035894465 0.00020391274 0.00038340641 0.00067898288 -0.0010620566 -0.98030216 0.032198906
574000000 -0.97177196 0.036361054 -0.00018158747 -4.103536e-005 -0.00012689982 5.7097241e-005 -0.97948492 0.031714492
575000000 -0.97140759 0.037368923 -0.0002410866 -0.00030440054 -0.00059083948 -0.00054294232 -0.9814446 0.032436557
576000000 -0.97118998 0.037035957 -0.00031086194 -0.00054336811 0.00011410809 -8.7631757e-005 -0.97911394 0.032094356
577000000 -0.97316569 0.036502436 0.00021888748 -1.9715133e-005 -0.00043961228 6.2587103e-005 -0.98046494 0.031609647
578000000 -0.97216409 0.036680646 0.00035505166 -0.0007344535 8.3744766e-005 -8.843356e-005 -0.97872037 0.031279113
579000000 -0.97166061 0.036726676 -3.1490545e-005 -0.00049567572 -3.7213638e-005 0.00034497134 -0.98118281 0.031485733
580000000 -0.97144902 0.036777582 0.00013344568 -0.00099769339 -0.00028577636 0.00015355552 -0.979491 0.032743007
581000000 -0.97227055 0.037252024 -0.00024972257 -0.00042922178 0.00041643056 -0.00023278905 -0.98077089 0.030875159
582000000 -0.97207361 0.036845103 -3.066735e-005 -0.00045707921 -0.00029466584 -0.00063089438 -0.97999281 0.032246817
583000000 -0.97105908 0.037029978 -2.5160731e-005 -0.00076003431 -0.00025758866 -0.00045417075 -0.98009497 0.030851807
584000000 -0.97171199 0.037594065 -0.0002644186 -0.0005365673 -0.00017971631 0.00019567566 -0.9788751 0.032121412
585000000 -0.97199196 0.037443809 -0.00019285985 0.00049125915 -0.0003266659 -0.0011511948 -0.97866082 0.03207656
586000000 -0.97242308 0.036623489 0.00041828043 -5.5561017e-005 0.00017793349 -0.00055671675 -0.9800086 0.030989537
587000000 -0.97267467 0.037467699 -0.00038655018 -0.00013160512 -0.0002474334 -0.00050931791 -0.9785977 0.032840189
588000000 -0.97229391 0.036801059 -0.00052986882 -0.00043658918 0.00044353725 -0.00022364632 -0.98013008 0.032276023
589000000 -0.97256607 0.036944773 -0.00016810533 -9.7654316e-005 -1.9494088e-005 -0.00050523912 -0.97865546 0.031547286
590000000 -0.97167593 0.037589718 0.00030099749 0.0001452829 -0.00020923628 -0.00082182745 -0.9803881 0.0327866
591000000 -0.97172022 0.038614597 -0.00062927837 -7.9792422e-005 -0.00014383631 -0.00056338147 -0.97989148 0.032190047
592000000 -0.97201085 0.037273902 -0.00049620779 -0.00016706652 2.9641824e-005 -0.00024241794 -0.97968084 0.031532042
593000000 -0.97191757 0.036371097 -0.0002822055 -0.00070789247 0.00049749529 -0.00057690032 -0.97898167 0.030583434
594000000 -0.97164994 0.037673034 0.00027580015 -0.00040777843 -0.00020297509 -0.00035200213 -0.97826517 0.032084081
595000000 -0.97233158 0.03850092 0.00034878269 -0.001117463 -0.000644546 -0.00013581103 -0.9813205 0.032128684
596000000 -0.9722079 0.037957922 0.00051220896 -0.00047455152 -8.9590612e-005 -0.00063173193 -0.97914994 0.03338306
597000000 -0.97189575 0.039012626 0.0002078659 0.00072874827 -0.00067041244 -0.00065212708 -0.97903448 0.031728979
598000000 -0.97213936 0.037942503 -0.00042657592 -0.00051010249 0.0003173537 3.535315e-005 -0.97868425 0.032784831
599000000 -0.97303516 0.037464134 3.7133621e-005 -4.7840589e-005 -9.7706092e-005 0.00096011983 -0.98016018 0.032595608
600000000 -0.97091484 0.038659047 3.9130286e-005 -0.00057280168 0.00047613986 -0.00054770586 -0.97856951 0.032043394
601000000 -0.97145349 0.039228443 0.00014581559 -0.00032153411 -0.0001955536 -9.1479596e-005 -0.98015428 0.032987237
602000000 -0.97296631 0.038622409 6.3648142e-005 -0.00055121991 -7.7034361e-005 -0.0010952797 -0.97963458 0.032955468
603000000 -0.97252524 0.038783714 -7.0672049e-006 -0.00020948802 -8.6778426e-005 -0.00096456084 -0.97985548 0.032552287
604000000 -0.97178739 0.039312501 -0.00052957563 -8.7117973e-005 0.00012357412 -0.00068034488 -0.97978342 0.033450011
605000000 -0.97022325 0.039791066 0.00026425687 -0.00022454273 -7.6447868e-005 -0.00054122205 -0.97941238 0.03352249
606000000 -0.97236907 0.038304105 -0.0002237563 -0.00014082316 0.00015420392 -0.00057149719 -0.97861755 0.032857023
607000000 -0.97318429 0.038931459 -0.00015809719 -0.00061106886 -0.00027470529 -0.00019491068 -0.97891289 0.033178192
608000000 -0.97256708 0.039577052 -0.00041973399 -0.0010326213 0.00010502679 5.9338108e-005 -0.98025489 0.033806071
609000000 -0.9715243 0.039754175 -1.4132119e-005 -0.00079445296 -0.00033751837 -0.00034150941 -0.97900546 0.032488517
610000000 -0.97171533 0.041079447 0.00034298227 -0.00057878369 0.00023243167 -0.00058021466 -0.979002 0.032362662
611000000 -0.9712069 0.040502805 -0.00046859926 4.8653143e-005 -0.00028935296 -0.00078720256 -0.98003429 0.032688372
612000000 -0.97121948 0.040881261 -0.0005024331 -0.0002901062 -0.00040799004 -0.00028389681 -0.97881395 0.03404247
613000000 -0.97125483 0.040256232 0.00033601277 -0.00040718482 -0.00051548105 -0.00061125087 -0.97949725 0.032657184
614000000 -0.97160625 0.040766113 -0.00056170911 -0.00036766945 0.00051579217 -0.00049208349 -0.9798699 0.032625489
615000000 -0.97218543 0.039698273 0.00015819421 -0.0003830377 -0.00021215357 -0.0010685864 -0.97807854 0.032984164
616000000 -0.97232336 0.040017955 -0.00021130656 -0.00054028805 -0.00065002742 -0.0011069797 -0.97971475 0.033600111
617000000 -0.97337234 0.040017821 8.9793059e-005 -0.00017532999 0.00027000043 -0.00057046587 -0.97922409 0.03404367
618000000 -0.97223485 0.04090466 -0.00050828373 -0.00096366665 -0.00033324194 -9.6309668e-005 -0.97916257 0.034667205
619000000 -0.9718132 0.041980114 -0.00025213388 -0.00060281699 -6.7552435e-005 -0.00085654896 -0.97878081 0.034974374
620000000 -0.97179991 0.040787283 0.00030949258 -0.00058167783 -0.00015982473 -0.0005015374 -0.97965682 0.0346254
621000000 -0.97305524 0.040973838 -0.00023257344 -0.0012235619 0.00046292646 -1.151819e-005 -0.97880268 0.033390455
622000000 -0.97216302 0.041161221 -0.00023004808 -0.00094552472 -0.00035498262 -7.7158351e-005 -0.97863054 0.033654969
623000000 -0.97153407 0.040540244 0.00053732889 -0.0013305107 0.0001572834 0.00079936109 -0.98058742 0.03424209
624000000 -0.97158229 0.039672438 5.3931297e-005 -7.6628799e-005 -0.00048706777 -0.00036897376 -0.97930425 0.03386889
625000000 -0.97165865 0.042711958 -0.00020643405 -0.00031134544 -0.00098215649 -0.00040541112 -0.97989953 0.033503275
626000000 -0.97276551 0.041271307 -1.6185428e-005 6.9800059e-005 -0.00011288957 -0.00017909858 -0.97934896 0.035101578
627000000 -0.97133076 0.04181885 -0.00010904802 -0.00051253039 0.00020724774 -4.2534612e-005 -0.97775418 0.034128316
628000000 -0.97142267 0.042593874 0.0002903002 -0.00078896998 0.0003894415 -0.00066564005 -0.97978646 0.035200354
629000000 -0.97186643 0.042459499 0.00056277448 -0.00083882629 7.0440066e-005 0.0006423904 -0.97808069 0.035061207
630000000 -0.97138172 0.043508496 -0.00015825934 -0.0008377647 0.00033077461 -0.00039541736 -0.97852093 0.034804896
631000000 -0.9707762 0.04300331 0.00022309316 -0.001212661 -0.00046663184 -0.00070727302 -0.98045892 0.035090063
632000000 -0.9723658 0.043066323 0.0010681696 -0.00049878185 -0.0001410671 -0.00055187463 -0.9782787 0.034323007
633000000 -0.97234857 0.041701555 -0.0001239277 -0.0011452477 -0.00058023637 -0.00056968408 -0.97925669 0.035339836
634000000 -0.97160852 0.04242444 -0.00015691973 -0.00079174043 0.00015080831 -0.0007441268 -0.9797315 0.035889253
635000000 -0.97189361 0.042774968 0.00020649373 -0.00030132593 -0.00039731577 -0.00057375705 -0.97973239 0.034826726
636000000 -0.97120297 0.042884868 -3.788235e-005 -0.00017208983 7.1550436e-005 -7.1962204e-005 -0.97950411 0.036311511
637000000 -0.97130328 0.043407906 0.00055326353 -0.00086148671 0.00037922937 -0.0013097551 -0.97764933 0.035658032
638000000 -0.97188526 0.043429527 0.00058874604 -0.00039173744 0.00010239328 -0.00050938933 -0.97905767 0.035592634
639000000 -0.97159731 0.04262479 0.00056372397 0.00026633477 -0.00081868708 0.00035334576 -0.97944647 0.035098899
640000000 -0.97165161 0.043416135 -0.00035225321 -0.00087634334 0.00020120412 -0.0001616395 -0.9777413 0.035357576
641000000 -0.97194111 0.041344572 -3.4281082e-005 -0.00059727195 -0.00066358258 -0.00096145429 -0.97828078 0.035863891
642000000 -0.9718042 0.042962525 -5.835859e-005 -0.00041704805 0.00026377843 -0.00065791717 -0.97898775 0.036086559
643000000 -0.97197598 0.043347888 0.0006566238 -0.0011783326 0.00013216959 -0.00087395491 -0.97942531 0.035585329
644000000 -0.97132015 0.04361216 -0.00020495575 -0.0003619231 -0.00094244228 -0.00061332126 -0.97935331 0.036635473
645000000 -0.97144341 0.044387713 1.2405336e-005 -0.00034114911 4.6996724e-005 -0.0011210631 -0.97907561 0.034596257
646000000 -0.97282189 0.044430375 -0.00015208696 -0.00059641001 -0.00029946989 -0.00030339215 -0.97879398 0.036182724
647000000 -0.97150457 0.043690346 0.00068014883 -0.00024221075 -0.00043607823 -0.00067418971 -0.97963983 0.03526387
648000000 -0.97059584 0.043538898 0.00023248191 -0.00062189612 0.00053849939 -0.00041725321 -0.9794361 0.037317116
649000000 -0.97167778 0.044019874 -6.0776532e-005 -0.00066616351 0.00015933685 -0.00089323294 -0.97877955 0.035944458
650000000 -0.97109354 0.043396536 4.8361955e-005 -0.0010125556 -0.00046138652 -0.00072615227 -0.97898549 0.036426604
651000000 -0.97201455 0.042337686 0.00063907949 -0.00076180807 -0.0012165065 -0.00087336713 -0.97892374 0.036863487
652000000 -0.97112262 0.044893838 -0.0004444737 -0.00077185192 0.00014402163 -0.00033872435 -0.97767842 0.034884308
653000000 -0.9720934 0.044905432 -0.00020049496 -0.00066587754 -0.00038403555 0.00040209442 -0.97918105 0.035408374
654000000 -0.9713645 0.044590987 -0.00084686151 -0.0009006178 6.5758744e-005 -0.00057660352 -0.9801327 0.036224641
655000000 -0.97110164 0.043868568 -0.00064984948 -0.0005136783 -0.00057093665 -0.00081700354 -0.97794199 0.035896394
656000000 -0.9709788 0.043485492 -0.00054325542 -0.00088162575 -0.00023546595 -0.00030296546 -0.97994816 0.036626779
657000000 -0.97116435 0.045072481 -0.00019141183 -0.00013679822 -4.3444757e-005 -0.00090617029 -0.97874385 0.036649093
658000000 -0.97126615 0.044961214 -0.00049931637 -0.00041852263 0.00040090681 -0.00071773678 -0.97780728 0.035992466
659000000 -0.97103035 0.044937074 9.9110875e-005 -0.00054400921 0.001089355 -0.00035768663 -0.97756505 0.035552572
660000000 -0.97159445 0.045525011 0.00031127915 -0.00081797579 0.00015591836 -0.00079770898 -0.97785765 0.03629002
661000000 -0.97025746 0.045203228 -0.00025199779 -0.0007150665 -0.00012362833 -6.3441323e-005 -0.97822487 0.036628641
662000000 -0.97057229 0.04468159 8.4033934e-005 0.0005986336 -0.00021647716 0.00021351292 -0.97940826 0.036363691
663000000 -0.97072524 0.045208491 -0.00053372898 2.9457147e-005 -0.00029925824 -0.00075528951 -0.97795558 0.036052123
664000000 -0.97214931 0.044788778 0.00041702006 -0.00093472551 -0.00015444354 -0.00095930381 -0.98008883 0.036714636
665000000 -0.97139686 0.044366788 -0.00022430986 -0.00031227365 -0.00062255858 -0.00074645481 -0.97849041 0.036689237
666000000 -0.97149706 0.044846557 -0.00022863924 -0.00024972504 -0.0001461428 -0.00021389645 -0.9788413 0.035489097
667000000 -0.97164124 0.045685802 7.384301e-005 -0.00064094161 -0.00014467527 -0.00060488796 -0.97890383 0.035707351
668000000 -0.97122645 0.045583017 -8.8068307e-005 -0.0004782633 0.00045461749 -0.00050901523 -0.97895938 0.035174709
