!Keysight Technologies,M9374A,MY55442783,A.12.55.05
!Date: Thursday, May 20, 2021 11:33:50
!Correction: S11(Full 2 Port(1,2)) 
!S21(Full 2 Port(1,2)) 
!S12(Full 2 Port(1,2)) 
!S22(Full 2 Port(1,2)) 
!S2P File: Measurements: S11, S21, S12, S22:
# Hz S  RI   R 50
500000000 -0.97328007 0.034491766 -0.00034381429 -0.00014758397 -0.00065427268 -0.00082150771 -0.979617 0.028844152
501000000 -0.97288334 0.035232645 -0.00034319342 -0.0005694193 -0.0005915566 -6.4264794e-005 -0.97978079 0.027598128
502000000 -0.97261328 0.033829849 -0.00053774373 -0.00071059185 -0.00013303423 -7.1757946e-005 -0.97971255 0.02662795
503000000 -0.9720884 0.033673476 0.00043898725 -0.00078250829 -0.00077907811 -0.00071499252 -0.97936749 0.027926631
504000000 -0.97313136 0.034968629 -0.00024569855 -0.00069291383 4.4190729e-005 -0.00042070856 -0.98046052 0.02834658
505000000 -0.97220093 0.03350183 -0.00023894863 -0.00067433296 -0.00044379718 0.00037062782 -0.98041439 0.027258771
506000000 -0.97293323 0.035202552 0.00031569818 -0.00075725105 -0.00029246724 -0.00029107532 -0.97976077 0.027473114
507000000 -0.97187889 0.03455659 -0.00064631022 0.00011346831 9.7708093e-005 -0.00077058875 -0.97882664 0.028693246
508000000 -0.97283655 0.035242073 -0.00035470311 -0.00072660355 -5.6106128e-005 8.479182e-005 -0.97800225 0.029672084
509000000 -0.97147906 0.034819916 0.00020676538 -0.00023850607 -0.00029323582 -0.00019921051 -0.98056382 0.029924177
510000000 -0.97205073 0.034499474 -0.00034122192 0.00011595804 -0.0011541927 -0.00020163448 -0.97835749 0.029008988
511000000 -0.971771 0.03573399 -0.00047830009 -0.00017983303 -0.00083256868 -0.00073963159 -0.98050553 0.029486841
512000000 -0.97203302 0.035226986 0.00015017248 -0.00028556827 -0.00023913814 -0.00015421354 -0.97907537 0.029537154
513000000 -0.97280186 0.034461595 4.5903598e-005 -0.00020745216 0.0012528262 -0.00058788183 -0.97981769 0.028889053
514000000 -0.97318065 0.035088677 0.00034944288 -2.5132729e-007 -0.00052024343 -0.0002618508 -0.97935015 0.030246608
515000000 -0.97250706 0.035386164 -0.00013255271 -0.00030501498 0.00032399772 -0.00077250774 -0.97931993 0.029380051
516000000 -0.97213674 0.036526535 -0.00041216335 -0.00067639124 6.1059036e-006 -0.00044545194 -0.97889668 0.028527196
517000000 -0.97337329 0.036354687 -0.00086621457 0.00010763452 -0.0004214595 -0.00087246875 -0.97866058 0.028602663
518000000 -0.97330087 0.036542613 1.8196906e-005 -0.0012735506 0.00061855518 -0.00066899683 -0.97901404 0.03001309
519000000 -0.97234333 0.035597503 0.00031670151 -0.00020148081 0.00010171164 -0.00024668101 -0.97821182 0.029789584
520000000 -0.97150534 0.034973636 -0.00054466049 0.00037528426 -0.00018269944 -0.0003174482 -0.97959888 0.030327158
521000000 -0.97273523 0.036733706 0.00036096585 -0.00053179084 -9.8840457e-005 -0.00024336584 -0.9779914 0.030106077
522000000 -0.97354066 0.035901282 -0.00056997169 -0.00018203827 -0.00012642897 -0.00020915695 -0.9796049 0.030157348
523000000 -0.97342837 0.035142615 0.00016758773 -0.00046700603 0.0004734011 -0.00012629584 -0.978827 0.030578844
524000000 -0.97336817 0.035996452 0.00049447833 -0.0002443679 0.00042308966 7.858251e-005 -0.97998065 0.029808417
525000000 -0.97202814 0.036943667 0.00011555215 -0.00050591771 0.00020313149 -0.00054697378 -0.97953248 0.031109724
526000000 -0.97253251 0.037544798 -0.00059847889 -0.00083545718 8.1210856e-005 7.4396397e-005 -0.97986394 0.031141922
527000000 -0.97395301 0.036529131 -0.00033762801 0.00047840015 -0.00048536682 -0.00048671034 -0.98063326 0.030236239
528000000 -0.97231627 0.036434703 -0.00025636971 -0.00031988599 -0.00077416911 -0.00041672884 -0.97956812 0.031227835
529000000 -0.97276634 0.035664447 -6.7658286e-005 -0.00020215855 -3.6143683e-006 -0.00075097103 -0.97804952 0.030428292
530000000 -0.97255069 0.037417896 0.00010341036 -0.00062609353 -0.00032886252 -0.00056284748 -0.98083997 0.02920776
531000000 -0.97266179 0.036298275 -0.00026069628 -0.00057247205 -0.00093205646 -0.00025362984 -0.97887802 0.030668518
532000000 -0.97162485 0.036585942 -0.0003924382 -0.00060819631 -8.8312605e-005 -0.00074697152 -0.97925389 0.031745933
533000000 -0.97303492 0.036869247 -0.00024421059 -0.00012672185 -0.00082257634 -0.00073505193 -0.97927648 0.031017123
534000000 -0.97211355 0.035909139 0.00087063335 -0.00074801571 0.0003621619 -0.00051407231 -0.9792043 0.031516567
535000000 -0.97208381 0.036883354 -0.00025724826 -0.00071882666 -0.00010761525 -8.617765e-005 -0.97907054 0.02997658
536000000 -0.97297305 0.036983907 -0.00092015037 -0.00013933892 -0.00043835957 -0.00086365495 -0.97998214 0.030824214
537000000 -0.97150213 0.035679355 4.7299454e-005 -0.00052687922 -0.00086755177 -0.0016050941 -0.97950274 0.030729722
538000000 -0.97200537 0.036384642 0.00019444765 -0.0009678179 -0.00010985428 -0.00048027805 -0.97884631 0.030997302
539000000 -0.9721728 0.037291717 6.4746382e-005 -0.00071700965 -0.00021127997 -0.00093830924 -0.98003179 0.031765684
540000000 -0.97227347 0.036636844 -0.00031103869 -0.00044900761 -0.00024904663 -0.00039690884 -0.97831595 0.031995427
541000000 -0.97254193 0.037114769 -9.6839358e-005 -0.00076962326 0.00039662007 -0.00069108792 -0.97994369 0.03172617
542000000 -0.97213775 0.037001889 -0.00057231926 -0.00031868668 0.00043360228 -3.9844941e-005 -0.97888684 0.030977337
543000000 -0.97202551 0.035943624 -0.00032911394 -0.00076578249 -0.00012784073 -0.00069983129 -0.97922719 0.031211894
544000000 -0.97350621 0.038109977 -0.00029010879 -0.00084562739 0.00036551451 -0.00066606695 -0.979873 0.031911355
545000000 -0.97386003 0.037256379 -0.00022769993 -0.00059669319 0.00035995306 -0.00017842554 -0.97822392 0.032007679
546000000 -0.97218841 0.037988599 -0.00032891019 -0.00033964432 -0.00061451196 -0.00048634774 -0.97849137 0.031438142
547000000 -0.97245497 0.037456293 -2.307041e-005 -0.00093876233 -0.00020656969 -0.00044116037 -0.97922856 0.03087778
548000000 -0.97112519 0.037699431 -0.00039228704 -0.00047813717 -0.00041582616 -0.0010809277 -0.97903591 0.031402662
549000000 -0.97261482 0.036449324 -0.00012411915 -0.00061423023 0.00049988762 -0.00024753538 -0.97878557 0.032241017
550000000 -0.97153693 0.038457964 0.00017372017 0.00068246975 0.0001019932 -0.00040299955 -0.97805208 0.03200648
551000000 -0.97198772 0.036790241 0.00033052341 -0.00092028646 0.00018395094 -0.00078046304 -0.97977769 0.030757466
552000000 -0.97158575 0.037383959 -0.00071271602 -0.0011137046 -0.00013830222 -0.00056874281 -0.97833163 0.031810146
553000000 -0.9720102 0.037769817 -0.00033336863 -0.00058426819 -0.00035214069 -6.7849709e-005 -0.97896904 0.031319022
554000000 -0.97245336 0.036820929 -0.00086079637 0.00036500918 -7.4464355e-005 -0.00064039766 -0.97939217 0.030135691
555000000 -0.97188485 0.036813084 0.00037101883 -0.00044110592 0.00038303499 -0.00072215102 -0.97977239 0.032164257
556000000 -0.97184968 0.037024803 -0.0006560472 -0.00011572687 -0.00023781153 -0.00051353697 -0.97991818 0.031926651
557000000 -0.97299087 0.037201442 -0.00024993747 8.8249049e-005 -3.6691807e-005 -6.7261586e-005 -0.979877 0.032322206
558000000 -0.97216547 0.036891084 -0.00017312284 -0.00011096957 0.00011989448 -0.0002451218 -0.97954214 0.032075021
559000000 -0.97109544 0.036336772 0.00026346964 0.00022480269 -0.00040042671 0.00019067258 -0.98001295 0.031511746
560000000 -0.97239614 0.037299581 -9.6360716e-005 -4.1724383e-005 0.00039857053 -0.00070595974 -0.97927165 0.030915128
561000000 -0.97228861 0.036625735 2.8246153e-005 -5.6776473e-005 0.00030599532 -0.00040863469 -0.97950721 0.030588474
562000000 -0.97166842 0.037404601 3.4435154e-005 6.499952e-005 -0.00012210004 -0.00043648679 -0.97929668 0.032257535
563000000 -0.97181076 0.037358694 0.00028890042 -0.00034197816 -0.00042864776 -0.00036723242 -0.97942662 0.032630678
564000000 -0.97182482 0.0367213 -0.00073087442 0.00058915553 -0.00011860838 1.8043782e-005 -0.97912198 0.032005571
565000000 -0.97312313 0.037132841 -0.00023470665 -0.00033724663 0.00070162979 -0.0009716627 -0.98005241 0.031584565
566000000 -0.9719705 0.036264442 -0.00010553607 -0.00081747351 -0.00034448583 -0.00078864145 -0.97909033 0.031277083
567000000 -0.97154576 0.037520654 -8.0104954e-005 -2.9846913e-005 -0.00049728696 -0.0008851724 -0.97931623 0.0316035
568000000 -0.97100377 0.037192222 -0.00069151074 -0.00070357166 -0.00024844168 -0.00032468126 -0.97957647 0.030795924
569000000 -0.97191381 0.036571451 -0.00052985916 0.00020547042 -0.00027502159 0.00057297316 -0.97987396 0.030590111
570000000 -0.97177452 0.037373025 -1.5168757e-006 -0.0011936461 -0.00066991767 -0.0004090681 -0.97971171 0.032075502
571000000 -0.97188318 0.036295846 0.00060087693 -0.00042253581 0.000108005 -0.00044963937 -0.97986799 0.032642037
572000000 -0.97184885 0.037459508 0.00011229349 -0.0005289549 -0.0002444032 0.00013792938 -0.97807425 0.032355282
573000000 -0.97236955 0.03710115 -0.00018153487 -0.00056050031 -0.00016498947 -0.00052197557 -0.9796735 0.033250492
574000000 -0.9718973 0.035950333 -0.0010845196 -0.00084177608 0.00031070711 -0.00023021227 -0.97992843 0.03261964
575000000 -0.97232366 0.03697776 -0.00030308912 -0.00038915785 0.00074745895 -0.00083006843 -0.98125249 0.032171287
576000000 -0.97098589 0.036346156 -0.00045186337 0.00022564869 0.00057468197 -0.00048584183 -0.97873086 0.032859873
577000000 -0.9717896 0.037096392 -0.00056752941 4.8958282e-005 0.00011414958 -0.00028945858 -0.97916526 0.031597044
578000000 -0.97268838 0.037396185 0.00031853962 -0.00027986956 -7.2473966e-005 -0.00011594648 -0.98008782 0.031211846
579000000 -0.97155833 0.037723474 0.00013357399 0.00013804653 -0.00026819142 -0.00020605121 -0.98211193 0.032370396
580000000 -0.97100484 0.037395999 0.00013860656 -0.00050843944 -0.00090073294 0.00010798914 -0.97931588 0.033946969
581000000 -0.97177154 0.036221653 -0.00013739015 -0.00079312536 0.00036815272 0.00012498572 -0.97956908 0.031236509
582000000 -0.97084194 0.038042959 0.00049690297 -0.00061006314 0.00031265072 -0.00024674373 -0.97984058 0.031799588
583000000 -0.97156954 0.038203161 0.00031393036 -0.00079063233 -9.5086951e-005 -0.0005415933 -0.97976094 0.030511998
584000000 -0.97243375 0.037111018 0.00065113202 4.2986012e-005 -0.00018189051 -0.00059952022 -0.97950071 0.03186227
585000000 -0.97135895 0.03654173 9.1483518e-005 -0.00053578726 0.00052453304 -0.00079485698 -0.97945851 0.032442823
586000000 -0.97163117 0.037137192 -8.3737366e-005 -5.9468221e-007 0.00038919991 -0.00055142504 -0.97956342 0.031450763
587000000 -0.97236842 0.038421556 -0.00047838534 -0.0009403255 -0.00024782046 -0.00014060311 -0.97850275 0.03225844
588000000 -0.97079498 0.037371911 -0.00042418056 -0.0001769607 -9.5280317e-005 -0.00064919668 -0.98072881 0.03211927
589000000 -0.9710657 0.038866717 6.1642677e-006 -0.00073824578 0.0004461488 0.00017042 -0.98031771 0.033084188
590000000 -0.97174323 0.039067291 0.00012875491 -0.0003039783 -6.3410484e-006 -0.00061849254 -0.9796797 0.032083929
591000000 -0.97236431 0.03764664 0.00091139891 -0.0009831934 -9.7720709e-005 -0.00058687286 -0.97931355 0.032517664
592000000 -0.97217065 0.037374388 0.00030266683 -0.00055230141 -0.00015373784 0.00031650742 -0.97910208 0.032126449
593000000 -0.97290611 0.036953472 -0.00021848435 -0.00067290268 9.4956515e-005 -0.00084827264 -0.97965747 0.031566072
594000000 -0.97158599 0.038068466 -1.6647031e-005 0.00015008937 0.00033073101 -0.00068856281 -0.98087436 0.031745188
595000000 -0.97192806 0.038819786 -0.00022189222 0.00010227425 0.00061912206 -0.00081103441 -0.97797114 0.032059662
596000000 -0.97239709 0.03849335 -0.00047101709 -0.00040024804 0.0001344073 -0.00056139706 -0.97776484 0.032596953
597000000 -0.97108161 0.038585249 6.1129285e-005 9.5044241e-005 0.00018217746 0.00031636562 -0.979487 0.033247955
598000000 -0.97167677 0.039040715 0.00025016296 -0.0005059737 0.0005397455 -0.00015175848 -0.97954851 0.033600327
599000000 -0.97167617 0.037303403 0.00063893344 -0.0001018989 -0.0007894914 -0.0008903757 -0.98039001 0.032411348
600000000 -0.97108388 0.038980015 -0.00013071464 -0.00018640234 -0.00030268784 -0.00018077307 -0.97890544 0.032201357
601000000 -0.97142631 0.039856054 0.00047491945 -0.00036052562 -5.0851348e-005 -0.00037577568 -0.97879243 0.033062413
602000000 -0.97238827 0.039614536 0.00016824105 -0.00042537585 -0.00046696089 -0.00044411907 -0.9791525 0.033165015
603000000 -0.97222257 0.041063752 -6.1072416e-005 -0.00067404163 -0.00014929892 -7.9122387e-005 -0.97994369 0.033807505
604000000 -0.97098231 0.039140198 0.00046911961 -0.00021359757 4.7001511e-005 -0.00016257098 -0.97914398 0.033249229
605000000 -0.97177953 0.038583625 -0.00014563272 -1.7972834e-005 0.00024730235 1.996959e-005 -0.97842175 0.032885175
606000000 -0.97189194 0.039642196 -0.00026445321 -0.00023754248 9.6382275e-005 0.00046323164 -0.9796378 0.031718515
607000000 -0.97136366 0.038524728 -0.00033530602 -0.001011562 5.0484192e-005 -0.0013109491 -0.97874892 0.031902786
608000000 -0.9722507 0.040180638 -0.00061713991 -0.00079749624 -0.00032147291 0.00021236877 -0.97963679 0.034411866
609000000 -0.97233224 0.040562741 0.00016213095 -5.5356428e-005 -0.00011523259 -0.00040740296 -0.97945702 0.033974003
610000000 -0.9724142 0.039170299 6.1367558e-005 -0.00022841925 -0.00037519311 -0.00039831107 -0.97780943 0.033470958
611000000 -0.97117066 0.042031359 0.00071551849 2.0811603e-006 0.0003108682 5.1635915e-008 -0.97795534 0.033124506
612000000 -0.97104824 0.041028388 0.00029257254 -0.00065289735 3.8676513e-005 -0.00038928419 -0.98003268 0.033726785
613000000 -0.97106588 0.039363667 -0.00058611552 -0.00054735929 -0.00059850025 -0.0011302076 -0.97963059 0.033554718
614000000 -0.9721989 0.041663282 -0.00064615731 -6.5350774e-005 0.00038212654 -0.00016036804 -0.98040521 0.036104403
615000000 -0.97271383 0.040430311 -4.6079476e-005 -0.0008050364 0.00047138621 -0.00056071748 -0.97883022 0.034419224
616000000 -0.97146279 0.040233612 -0.00089134165 0.00022257678 -0.0004693151 0.00058997126 -0.97943759 0.0348025
617000000 -0.97172165 0.041447885 -3.6127025e-005 -0.00037157195 0.0002687854 -0.001083652 -0.97944856 0.034597933
618000000 -0.97322249 0.040753964 0.00022924505 -0.00082697708 -2.8592127e-005 -0.00017953959 -0.97965276 0.033025187
619000000 -0.97212803 0.040447313 0.00061912823 -0.00027022374 5.8235401e-005 -0.00016333396 -0.97912621 0.03486241
620000000 -0.97081703 0.041172136 0.00075847103 -3.4284178e-005 -0.00050492061 -0.00090745493 -0.97822821 0.033951052
621000000 -0.97155213 0.042492654 -0.00031927065 -0.00056311645 0.00051689125 -0.0011722851 -0.97794634 0.033814494
622000000 -0.97059155 0.040949896 -0.000238095 0.00032258668 -5.7620509e-005 0.00014119272 -0.9778738 0.034694221
623000000 -0.9713921 0.042688306 -2.3169925e-005 -0.00031774538 0.00058237603 -4.1444713e-005 -0.9784224 0.034306485
624000000 -0.97096056 0.041903149 0.00011155639 -0.0012576539 -0.00065460242 -0.00033459868 -0.97849476 0.033912223
625000000 -0.97084743 0.043987043 0.0008939954 -0.0004991109 -9.0162022e-005 -0.00071494823 -0.97852552 0.034006525
626000000 -0.97164917 0.042547192 -0.0001936662 0.00033959094 -9.1532122e-005 -0.00093964662 -0.97849095 0.035109133
627000000 -0.97143131 0.042697504 0.00066576578 0.00024361194 -0.0015950901 -0.00013712404 -0.97880048 0.034085233
628000000 -0.97070116 0.043140855 -0.00034111657 -0.00084314536 -1.3998989e-005 -0.0007136818 -0.97867531 0.03599469
629000000 -0.97233695 0.042524833 -0.00015572546 -0.0005615268 0.00080321694 -0.00073914038 -0.97885305 0.036247917
630000000 -0.9716723 0.042793553 0.00033670946 0.00019595753 -0.0004694208 -0.0004128172 -0.97857893 0.035737388
631000000 -0.97211289 0.043552678 -0.00056948641 0.00012285277 -5.7230623e-005 -0.0002492748 -0.97939324 0.035248928
632000000 -0.97186077 0.043198574 1.0044856e-005 -0.00042523048 0.00010488111 -8.6007458e-005 -0.97925603 0.034428243
633000000 -0.97126126 0.042626694 -0.00018224103 -0.00050795608 -0.0004168147 -0.00087376492 -0.97844195 0.035298698
634000000 -0.97058791 0.045007262 0.00050975441 -0.0010360135 -0.0004991297 -0.00050744438 -0.97800279 0.035377629
635000000 -0.97014564 0.041376583 -0.00058381853 -0.00083032495 -0.00013393181 -0.00039109201 -0.97924995 0.035521787
636000000 -0.97061116 0.043980189 -0.00022719879 0.00030056521 0.0008803524 -0.0005496848 -0.97879589 0.033680592
637000000 -0.97174126 0.043795679 0.00069791649 -0.00045740113 -0.00012434711 -0.00070859323 -0.97860652 0.035334334
638000000 -0.97026658 0.042806935 -0.00034073301 0.00012590137 -0.00066160667 -0.00018992119 -0.98048848 0.034735952
639000000 -0.97294068 0.043651767 -0.00035547742 -0.00034438563 -0.00042039974 -0.00096203078 -0.97878373 0.035843782
640000000 -0.97130448 0.043574572 0.00046452763 -0.00025420589 -0.0001120427 -0.00031463575 -0.97757429 0.035383683
641000000 -0.9714635 0.043209814 0.00022987182 -0.00018121261 -0.00053941249 -0.00062112982 -0.97780895 0.035451643
642000000 -0.97027218 0.043033209 -0.00016391887 -0.00048852561 -0.00024096225 -0.00024212677 -0.97813678 0.035216447
643000000 -0.97007751 0.04428621 0.00053435628 0.0002556472 -0.00039235328 -0.00076557975 -0.97835946 0.035895672
644000000 -0.97133911 0.044190411 0.00038374786 1.3805375e-005 0.00014985444 -0.00027034126 -0.97887266 0.036202233
645000000 -0.97193533 0.043993041 0.00048735837 -0.00096915138 0.00034801508 -0.00042520234 -0.97935283 0.037496559
646000000 -0.97168899 0.045402899 -0.00017491193 -0.00027420308 -0.00025594077 -0.00069041835 -0.97750902 0.03766571
647000000 -0.97171944 0.044275738 -0.00035961778 -0.00099323201 0.00030409714 -0.00023274294 -0.97908235 0.035618741
648000000 -0.97083992 0.044164404 8.074064e-005 -0.00057495513 -0.00013799364 0.00032238092 -0.97878009 0.037258953
649000000 -0.97080982 0.044656258 0.00011365632 -0.00079404499 0.0004159167 -0.00090567517 -0.97877508 0.035446405
650000000 -0.9699477 0.044518176 -0.00013562846 -0.00048932759 -0.00040902587 -0.00029991148 -0.97872406 0.035870258
651000000 -0.97120708 0.04429866 0.00051253982 -0.00053205248 0.0011887751 2.6205451e-005 -0.97796088 0.036194928
652000000 -0.97094822 0.044997424 -0.00078610104 0.00017766928 -0.00078906206 -0.00068379304 -0.9774943 0.035773627
653000000 -0.97012311 0.044849053 -0.00030223018 -0.00062354869 -0.00063371251 -0.00020915017 -0.97880191 0.036328111
654000000 -0.97076768 0.0444277 -4.6098106e-005 -0.00065283768 -0.00049855455 -8.4156869e-005 -0.97964066 0.036826745
655000000 -0.97077703 0.044908695 -0.00026553479 -0.0014626853 0.0003341898 -0.0003992178 -0.9779526 0.037362717
656000000 -0.97123545 0.045754582 -0.00024453967 -0.0012600295 -0.00047755378 -0.00057918433 -0.978203 0.036683682
657000000 -0.97072357 0.044134781 0.00022264472 -0.0010741731 0.00014487548 -0.00085179391 -0.97899544 0.035854984
658000000 -0.97193724 0.044220261 -0.00029219501 -0.00028677066 -0.00069502549 -0.00041670963 -0.97867304 0.03553063
659000000 -0.97148645 0.045279976 0.00025581472 -0.00060077716 -0.0004229226 -0.00056336832 -0.97701836 0.036538415
660000000 -0.9713248 0.046079908 -0.00010909497 -0.00038664657 -9.975164e-005 -0.00057499297 -0.97783798 0.036573716
661000000 -0.9716894 0.045732062 0.00041996356 -0.00062725565 -9.190385e-005 -0.00051966647 -0.97896767 0.03607367
662000000 -0.97123748 0.045068469 2.971876e-005 0.00013163904 0.00022267774 -0.00012354256 -0.97921008 0.037461322
663000000 -0.97074634 0.044339757 0.00059713109 -0.00092012598 0.00011928369 0.00021367182 -0.97811723 0.036409132
664000000 -0.97105247 0.044110805 -0.00019954176 0.00035565329 0.00016013242 -0.00014638736 -0.97846502 0.037153691
665000000 -0.97185427 0.045491159 4.5658177e-005 -0.00036867615 -0.00097633689 -0.00069616258 -0.97852737 0.036842834
666000000 -0.96981919 0.045650546 -4.251445e-005 -0.00020265789 0.00057648396 -0.0012794707 -0.97865129 0.03565694
667000000 -0.97017455 0.044734504 -0.00020253245 7.4324002e-005 0.00050084712 -5.6713361e-005 -0.97794265 0.034717735
668000000 -0.97011471 0.044594448 -0.00016906999 -0.00019282904 -0.00068565237 0.00013923299 -0.97961718 0.036552861
