!Keysight Technologies,M9374A,MY55442783,A.12.55.05
!Date: Thursday, May 20, 2021 12:05:46
!Correction: S11(Full 2 Port(1,2)) 
!S21(Full 2 Port(1,2)) 
!S12(Full 2 Port(1,2)) 
!S22(Full 2 Port(1,2)) 
!S2P File: Measurements: S11, S21, S12, S22:
# Hz S  RI   R 50
500000000 -0.97311777 0.032385144 0.00014235459 -0.00021165771 -0.00042876633 -0.00078692782 -0.97891074 0.026998136
501000000 -0.97325045 0.034430798 -9.5032607e-005 -0.0009118063 -0.00013149614 8.5586209e-005 -0.97995752 0.027625222
502000000 -0.97253662 0.033377122 -1.4655163e-005 -0.00048643211 0.00055442832 -0.00089737313 -0.98073262 0.026851002
503000000 -0.972027 0.032645032 7.3683404e-005 -0.00079970213 0.0006090462 0.00026519893 -0.97912663 0.028255962
504000000 -0.9734717 0.033736404 -0.00026302363 -0.00026594219 -0.00045094517 0.00048588862 -0.979182 0.027330756
505000000 -0.97320396 0.032438144 -0.00039264275 -0.00084715115 0.00040166502 -0.00021487601 -0.98059219 0.027773714
506000000 -0.97183269 0.033031069 -0.00055648159 8.6963948e-005 0.00054427783 -0.00067497621 -0.97967076 0.028199727
507000000 -0.9739548 0.034271181 0.00061151839 0.00011137392 -0.00025710397 -0.00017281802 -0.97992176 0.027515862
508000000 -0.97357565 0.033526085 -0.00020366363 -0.0001701099 0.00014797806 0.00016725209 -0.97936255 0.029012412
509000000 -0.97405523 0.033918101 -0.00070331962 -0.0006638011 -2.3426453e-005 -0.00040145626 -0.9791494 0.027989358
510000000 -0.97260427 0.0350702 -3.7315476e-005 -0.00053230795 0.00064854999 -0.00052650936 -0.97889453 0.028598439
511000000 -0.9716953 0.034175728 -7.4545933e-005 -0.00081893179 -0.00021478461 -0.00080231734 -0.97918826 0.028345594
512000000 -0.97203416 0.033580195 0.00032499604 -0.00050974719 -0.0003775506 -0.00053991424 -0.98037672 0.028538393
513000000 -0.97400618 0.034503642 -0.00037836522 -0.00051218999 -0.00015628988 -0.00091217796 -0.97968113 0.027661327
514000000 -0.97372311 0.035190549 8.245794e-005 0.00047905958 -0.00041413651 -0.00075558567 -0.98040879 0.029188631
515000000 -0.97308677 0.034306467 0.00020782561 0.00013773938 0.00070418068 -0.00018460909 -0.98037606 0.028887806
516000000 -0.97216302 0.034825779 0.0010613806 -0.00022075532 -0.00079496886 -0.00068631035 -0.98031127 0.029047545
517000000 -0.97246867 0.034294393 -0.00018398535 -0.00046665853 -0.0001138529 0.00041543096 -0.97981519 0.026755609
518000000 -0.97307378 0.035542067 0.00094947702 -0.00097431825 0.00035870686 0.00010331949 -0.97924995 0.028717214
519000000 -0.97278661 0.035006296 -0.00038538247 -0.00023063496 -3.7198995e-005 -0.00036265925 -0.97878486 0.028729334
520000000 -0.97198838 0.034294534 1.2938583e-005 0.00019463351 0.00058731163 -8.4742525e-005 -0.97863203 0.029150259
521000000 -0.97172767 0.035746578 8.3110557e-005 -0.00061312452 -0.00025157409 -0.00038556653 -0.97898936 0.029790713
522000000 -0.97365993 0.035704557 -0.00038086652 -0.00045230103 -0.00048381806 -0.00020172393 -0.97931355 0.028608525
523000000 -0.97409397 0.033614311 -0.00037129343 -0.0004401789 0.00072254729 0.00045685566 -0.98046947 0.029975129
524000000 -0.9737162 0.034627154 5.6558325e-005 -0.00049096171 0.00074266572 -0.00015433587 -0.98024267 0.030031046
525000000 -0.97219074 0.0358763 0.00040336174 -9.786756e-006 0.0004366496 -0.00059145689 -0.97942138 0.030555639
526000000 -0.97277963 0.034777019 0.00013765645 -0.00064016995 -0.00060796278 6.7861438e-005 -0.98042762 0.028809015
527000000 -0.97343272 0.034668922 -9.3981987e-005 -6.9081148e-006 -0.00017022922 -0.00071710133 -0.97904694 0.029334504
528000000 -0.97261876 0.035717387 -0.00021603964 -7.4889023e-005 0.00051690149 -0.00033879193 -0.97936738 0.030958351
529000000 -0.97282279 0.036316544 5.018742e-005 -0.00030120439 -0.0004469316 -0.00039187062 -0.97927469 0.029157937
530000000 -0.97243088 0.036440879 -0.00042640738 -0.00034677124 -0.00013730099 -0.000191885 -0.9807837 0.029156895
531000000 -0.97319084 0.034820497 0.00034689248 -0.00036970773 5.8077942e-005 -0.00021066073 -0.97942746 0.031178461
532000000 -0.97303021 0.035693951 0.00054592919 -0.00065565668 -0.00038117537 -0.00038637788 -0.97942156 0.030859957
533000000 -0.97266823 0.035930302 0.00019897652 -0.0004662211 -0.00011679962 -0.00027864639 -0.97922653 0.031153008
534000000 -0.97276485 0.034558777 9.0428606e-005 -0.00081231835 0.00017959374 0.00043545174 -0.97914129 0.029508641
535000000 -0.97287351 0.036101151 -0.00079251063 0.00019145619 -0.00046168704 -0.00030813477 -0.97833341 0.029834216
536000000 -0.972597 0.03513816 -0.00019936418 -0.00018950587 0.0003315614 -0.00032237874 -0.97866601 0.030761708
537000000 -0.97235137 0.035948865 -0.00036446337 -0.00070499047 0.00019140507 -0.00056496693 -0.97936851 0.03118673
538000000 -0.97270721 0.036898874 -0.00024453766 -0.00088074349 0.00018201883 6.3342541e-006 -0.97926736 0.029984856
539000000 -0.97303081 0.03515435 -0.00036991414 -0.00063015864 0.00048690112 -0.00059022789 -0.98037112 0.030647496
540000000 -0.97316861 0.03509615 -0.00049294101 -0.00068456179 2.9661209e-005 -0.00080511032 -0.97944582 0.030893333
541000000 -0.97230595 0.036329821 -0.0012853175 -0.00034182848 -1.5818336e-005 -0.00082096166 -0.97998542 0.030184196
542000000 -0.9736408 0.036424529 -0.00022923898 -0.00080221985 -0.00021477789 -0.00055495766 -0.97989672 0.030201243
543000000 -0.97193235 0.035572603 0.00020495268 -0.00024472811 -0.000259494 -0.00019583627 -0.98013508 0.03014061
544000000 -0.97253239 0.035032548 -0.00028798715 -0.00051199005 -0.00018614178 -9.3791732e-007 -0.98056006 0.031488396
545000000 -0.97394961 0.034911234 -0.00052218657 -0.00049156835 -0.00053068314 6.7052773e-005 -0.97997701 0.031467777
546000000 -0.97282124 0.036944062 0.00014234678 -0.00053039164 -8.7748158e-005 -0.0014980139 -0.97951949 0.030185793
547000000 -0.97313225 0.035431262 -0.00026200266 -0.00030292003 -0.0014471291 -0.00042252912 -0.97871846 0.031339891
548000000 -0.97307158 0.035968594 0.00046240506 -0.0005585496 0.00039254813 -0.00026087998 -0.97922319 0.03092055
549000000 -0.97217751 0.035834979 -0.0002311781 -0.00048408244 0.00058623613 -0.00019025947 -0.97840452 0.031559441
550000000 -0.97175002 0.036651153 0.00039578756 -0.00067470002 0.00032418256 -0.00057703868 -0.98059529 0.031904425
551000000 -0.97272575 0.035821937 -0.0001437421 -0.00062086369 0.00021704777 -0.00041120269 -0.98061335 0.030918391
552000000 -0.97240597 0.035970084 -5.9897684e-005 0.00021984008 -0.0007367527 -0.00053993496 -0.97881007 0.031389557
553000000 -0.97302848 0.037093058 6.5976172e-005 -0.00046114027 -0.00038515439 -0.0007382129 -0.97886723 0.031238608
554000000 -0.97191495 0.035708606 -0.00034366208 -0.0008262606 8.6575776e-005 -0.00024440073 -0.97955018 0.030932207
555000000 -0.97223365 0.035302546 -0.00028984656 -0.00060959754 -0.00081313483 -0.00018255431 -0.97882128 0.031136058
556000000 -0.97307044 0.03540859 -0.00021120891 -0.00079113973 0.00014526711 -0.00045624195 -0.97986871 0.031633377
557000000 -0.97357041 0.037146915 -0.00015182374 -0.00069947616 -0.00019813085 -0.00022949187 -0.97999662 0.031597711
558000000 -0.97360367 0.036957979 -0.00033076832 -2.8766175e-005 -0.00023152736 -0.00025256875 -0.98034286 0.030472299
559000000 -0.97252345 0.036876351 -0.0004552333 0.00031629228 7.1624978e-005 -0.00067123212 -0.98012167 0.031971734
560000000 -0.97231233 0.035966929 0.00044913456 -0.00020744625 0.00017425951 -0.00040479327 -0.9788518 0.030320635
561000000 -0.97321504 0.035775281 -0.00044779427 -0.00057772652 0.00039346647 -0.0011032412 -0.97935903 0.031518232
562000000 -0.97214544 0.036885053 -0.00025873043 0.0002449663 -0.00059597957 -0.00038605966 -0.98033905 0.030955117
563000000 -0.97378045 0.036797751 0.00011908863 -7.4478259e-005 -0.00044193649 -0.00040063108 -0.97896099 0.031270716
564000000 -0.97224665 0.036125679 -0.00035477878 -0.00040531266 0.000505612 -0.00055792951 -0.9794606 0.03214588
565000000 -0.97244668 0.035840236 -6.8855617e-005 -0.00066368532 -0.00021086453 -0.00044306423 -0.98017544 0.031280622
566000000 -0.97216338 0.035391714 -0.00035325921 -0.00074021623 5.6865101e-005 -0.00052211405 -0.98004723 0.0313632
567000000 -0.97202271 0.036693234 0.00047020649 -0.00031616341 6.0665119e-005 -0.00048026774 -0.9796173 0.031132784
568000000 -0.97171634 0.037319984 -0.0001539962 -0.00079923531 -0.00052015804 -0.0011497641 -0.98010951 0.032108605
569000000 -0.97219723 0.037360694 -0.0006166136 0.00015986344 4.3890865e-005 -0.00064448628 -0.98071474 0.030681109
570000000 -0.97190583 0.03610203 -0.00010241671 -0.0005902616 -0.00042738413 0.00013378535 -0.97941893 0.030083485
571000000 -0.97215116 0.035305846 5.8237718e-005 -0.00099875638 -0.00068005279 -0.00090704137 -0.97981936 0.032030877
572000000 -0.97016627 0.036117285 0.00054162071 -0.00052931864 -0.00032324958 -0.00059532397 -0.97904873 0.031068562
573000000 -0.97229809 0.036472328 -0.00039891666 2.3727345e-005 -0.0003021766 -0.00025262119 -0.97986346 0.032016739
574000000 -0.97046983 0.036695618 0.00057146791 -0.00066595891 -3.4512905e-005 -0.0001972107 -0.97931916 0.031038312
575000000 -0.97254658 0.036742482 -0.00034273334 -0.00045732778 8.5255961e-005 -0.00011436792 -0.98124993 0.031942334
576000000 -0.9715603 0.036421459 0.00061042485 -0.00082713977 -0.00018570403 -0.0002515247 -0.98021752 0.030901663
577000000 -0.97248667 0.03579988 0.00023949334 -7.7280965e-005 0.00016678577 -0.00040356212 -0.97904795 0.030844515
578000000 -0.97228354 0.036685497 0.0006344103 -0.00044135179 0.00038071396 -0.00085977273 -0.97888929 0.030535482
579000000 -0.97277182 0.035473309 0.00024966939 -0.00030638324 -0.00019267446 -2.2669492e-005 -0.9799673 0.030407686
580000000 -0.97182232 0.035870057 -0.00058927346 -0.00034060207 8.3895493e-006 7.4252341e-005 -0.98054296 0.030869801
581000000 -0.97164237 0.036213793 -0.00042262205 0.00019546226 -8.1761929e-005 -0.00039126998 -0.980488 0.032189485
582000000 -0.97186136 0.036013305 3.2327148e-006 0.00010880441 0.00038404315 0.0001161437 -0.9796803 0.031560726
583000000 -0.97220486 0.036963578 0.00031721199 -5.782663e-005 -2.3750425e-005 0.00024049806 -0.97890168 0.031907458
584000000 -0.97177964 0.035669908 0.0004658793 -3.9249844e-005 -0.00037226547 -0.00034301772 -0.97971302 0.03104534
585000000 -0.97258627 0.036125451 -0.00034326411 -0.00034572836 2.7960332e-005 -0.00060785958 -0.97974062 0.033303551
586000000 -0.97164649 0.037034921 -0.00017052484 -0.00070090708 0.00029976433 -0.0012346371 -0.97890353 0.031472415
587000000 -0.97178274 0.036883727 0.00027613909 -0.0006678754 -0.00033128419 -0.00037658066 -0.97826988 0.031518728
588000000 -0.97193909 0.037847575 -0.0006656078 -0.00020468557 -0.00082749448 -0.00036302628 -0.97948176 0.032027449
589000000 -0.9721573 0.037634984 3.388078e-005 0.00012880261 0.00014898878 -0.00043314064 -0.98005068 0.033398684
590000000 -0.97087359 0.037061822 -0.00035117706 0.00010532275 0.00060063798 -0.000346994 -0.9790749 0.031529214
591000000 -0.97191346 0.037215374 -0.0005481132 -0.00020122663 -3.4951456e-005 -0.00018376714 -0.9794566 0.032496914
592000000 -0.97305638 0.037840083 0.00012390772 -0.00019446391 -0.00021465578 0.0004563409 -0.97951275 0.031383667
593000000 -0.97094649 0.037037667 0.00052993308 6.1179135e-006 -0.0002822367 7.4635049e-005 -0.98083323 0.031607229
594000000 -0.97060847 0.038837664 -4.4852717e-005 0.00029431749 -0.00017289 -0.0013407401 -0.97997403 0.031889312
595000000 -0.97210604 0.037017096 -0.00033720999 -0.00079545757 0.00012096936 -0.00031636888 -0.98123699 0.031943597
596000000 -0.97171468 0.038489547 0.00026179556 -0.00086513942 -0.00075988192 -0.0003107813 -0.97967404 0.030861674
597000000 -0.97204018 0.038822245 0.00051363034 -0.00072578696 -0.00033343059 -0.00058646023 -0.97841394 0.031462438
598000000 -0.9715724 0.039193951 -9.3556067e-005 0.00023559795 -0.00011728816 -0.00038315987 -0.9800483 0.032368679
599000000 -0.97251385 0.037442617 -0.00031878467 -0.00063960522 -9.5345298e-005 -0.00010464137 -0.97956681 0.030941395
600000000 -0.97238612 0.038049508 0.00035187433 -0.00072754413 -0.00063138816 -0.001035555 -0.9799788 0.031902146
601000000 -0.97265762 0.039175432 -4.0745832e-005 -0.00022306883 1.7473098e-005 -0.00098209153 -0.979886 0.032367479
602000000 -0.97190011 0.037889067 -0.00026369147 -0.00054343307 0.00031987156 -0.00090316485 -0.97948587 0.032557461
603000000 -0.97209817 0.038267452 -0.00096624345 -0.00062407803 -0.00042013457 0.00042139395 -0.97983921 0.033772949
604000000 -0.97123265 0.039683133 -0.00051345973 2.5207835e-005 -0.00023399689 0.00018271028 -0.97908354 0.031012563
605000000 -0.9717772 0.039275646 -0.00087212154 -0.0012225134 -0.00035563682 -0.00037807008 -0.98077166 0.032514166
606000000 -0.97221458 0.03894994 -0.00042573895 0.00020053812 -0.0003995077 -0.00043049583 -0.97988939 0.032301705
607000000 -0.97273338 0.038970273 5.4300868e-005 -0.0005213457 4.8750233e-005 -0.00092242524 -0.97880447 0.033411171
608000000 -0.97328806 0.039986476 0.00047853735 -0.00037817631 0.00014854604 -9.0881265e-005 -0.9789148 0.032022953
609000000 -0.9719888 0.038664058 0.00041916978 -0.00043183236 0.00055855309 -2.6058091e-005 -0.97835547 0.031412326
610000000 -0.97187907 0.038331825 -5.0880939e-005 -0.00010535578 0.00055904256 -0.00067461224 -0.9794783 0.033344701
611000000 -0.97069246 0.040329296 8.6945729e-005 -0.00065105513 0.00088103506 -0.00040911554 -0.97897863 0.03280085
612000000 -0.97180176 0.04029106 0.00031445487 -0.00059547269 0.00011669694 -0.00043107948 -0.97908199 0.032685574
613000000 -0.97068506 0.040866904 -0.00032538371 -0.0010005244 -0.00060763618 0.00063030829 -0.97977406 0.032192394
614000000 -0.97193462 0.039257426 0.00059511937 -0.00091223582 -0.00039466217 -0.00031044739 -0.98061168 0.033626892
615000000 -0.97117114 0.039468482 -0.00012418123 0.00016737301 0.00013977166 -0.00038577474 -0.97942066 0.032510202
616000000 -0.97258037 0.041940298 -0.00029826339 -0.00045585184 0.00042909806 -0.00066064519 -0.97867078 0.03261913
617000000 -0.97176558 0.041318107 0.00030297894 -0.00072165113 -0.00083431392 -0.00044401386 -0.98058027 0.033612374
618000000 -0.97252667 0.040290192 -0.00046125802 -0.00031672991 0.00060962583 -0.00038940506 -0.97915345 0.034013148
619000000 -0.97101003 0.039920703 0.00050566578 -0.0011055011 -0.00027424385 -4.2644428e-005 -0.97995073 0.033416037
620000000 -0.97147501 0.040317073 -0.00020236698 -0.00043428518 0.00013027532 -0.00036173058 -0.9798494 0.033733081
621000000 -0.9725194 0.040321805 9.7016629e-005 -0.00056880648 0.00016679768 -0.00043462351 -0.97947973 0.033556648
622000000 -0.9710474 0.039432626 0.00048371989 -0.00073525106 -0.00029930944 8.5849519e-005 -0.97974843 0.033800825
623000000 -0.97133446 0.041234761 0.00044613628 -0.00026925691 0.00021114753 -0.00057282241 -0.97961664 0.033629265
624000000 -0.97184843 0.041911554 -3.7637685e-006 -1.7437744e-005 -0.00010945249 0.00035093146 -0.97922111 0.034190871
625000000 -0.973239 0.0421688 1.0365165e-005 2.9625993e-005 0.00082705467 -0.00029199032 -0.97842956 0.033740673
626000000 -0.97212285 0.041483596 -0.00021840501 -0.00033164676 -0.00020517242 -0.0012514263 -0.97821593 0.034043845
627000000 -0.9714669 0.041601826 7.3266769e-005 -0.00020692486 -0.00032730665 -0.00055992504 -0.97906286 0.034728687
628000000 -0.97164202 0.042296212 -0.0005581553 -0.00019795325 -0.00017435791 -0.00032838137 -0.97967249 0.035155907
629000000 -0.97158575 0.042607278 -6.4500906e-005 -0.0011980106 0.00024103775 -0.0009179989 -0.97913849 0.03361937
630000000 -0.97068167 0.042007044 0.00045663034 -0.00033069734 0.00042053632 -0.00036793752 -0.97947609 0.035016663
631000000 -0.97207022 0.041727725 -0.00034513522 -0.0011843294 9.3167611e-005 0.00065741292 -0.97941405 0.034570646
632000000 -0.97168696 0.041558038 -0.00017646585 2.9095407e-005 -0.00019233015 -0.0013182142 -0.97791123 0.034006372
633000000 -0.97104239 0.042211715 0.0005454481 -3.2758962e-005 -0.00049770606 -0.00081759476 -0.97841609 0.034210261
634000000 -0.9723466 0.041860465 -9.4139643e-005 -0.00038427816 -0.00043206007 -0.00035870066 -0.97863215 0.035143435
635000000 -0.97175324 0.040439513 -0.00062489824 -0.00053751323 -0.00013059359 -0.00010108244 -0.98002595 0.034327295
636000000 -0.97073239 0.041250594 -0.00039786534 -0.00081372721 0.00056358037 -0.00067371374 -0.97981399 0.03512302
637000000 -0.97008246 0.042731393 0.00057444413 -0.00094092241 -7.247195e-005 -0.00023533328 -0.97840393 0.034130506
638000000 -0.97121269 0.042342696 0.00027455486 -0.0010822567 0.00039604076 0.00011468849 -0.9790045 0.034715824
639000000 -0.97277635 0.044052623 7.0495131e-005 -0.00040021871 0.00030181746 -0.00036282081 -0.97840327 0.036129244
640000000 -0.97157687 0.043204118 -7.2585295e-005 -0.0011554505 0.00012708768 -0.00069492887 -0.97792655 0.035567999
641000000 -0.97146672 0.043047439 -4.2495038e-005 -0.00042867503 -0.00064433721 -0.0010153726 -0.97909009 0.034543138
642000000 -0.97025937 0.042524077 -0.00021721749 -0.00087398716 -0.00040746265 0.00018022697 -0.97899902 0.034826487
643000000 -0.9702782 0.043074757 -0.00039025003 -0.0002566537 7.7596465e-005 -0.0012841837 -0.97662657 0.034217384
644000000 -0.97236979 0.042820938 -0.00030985937 -0.00096603116 -0.00032688875 -0.00050600211 -0.97948658 0.035107505
645000000 -0.97136891 0.043934271 -0.00038451416 -0.00033865756 -0.00065954722 -0.00019066788 -0.97974771 0.0353388
646000000 -0.97061229 0.042742141 0.0001204711 -0.00034750463 -5.5480809e-006 -3.5018795e-005 -0.97769386 0.03610158
647000000 -0.97099781 0.044342801 -0.0005671368 -0.00016035064 0.00026763784 -0.0008305661 -0.97785378 0.034975499
648000000 -0.97122788 0.043516409 0.00039087769 -0.00086422998 -0.00010930814 -0.00085143192 -0.97782969 0.035291974
649000000 -0.97225225 0.043445494 -0.00010041838 -0.00040597975 0.00041146498 -0.00073853933 -0.97873294 0.035569746
650000000 -0.97154236 0.043851282 0.00015014313 -2.8789218e-005 -2.9725712e-005 -7.7149925e-005 -0.97822791 0.035519917
651000000 -0.972682 0.042771336 0.00067748339 -0.00067671371 -0.00064744765 0.0001144971 -0.97884095 0.034782786
652000000 -0.97265434 0.044197202 7.2878545e-005 -0.00097067625 0.00016990349 -3.6357789e-005 -0.97805297 0.035418909
653000000 -0.97156829 0.042897675 6.3441417e-005 -0.00040734984 -0.00034503051 -0.00043120584 -0.9783082 0.034753408
654000000 -0.97143024 0.0441604 0.00046314404 -0.00036845807 -0.00045281326 -0.00044674746 -0.97911936 0.035755318
655000000 -0.97000152 0.044344507 -1.6068262e-007 -0.00058520393 0.00029186931 -0.00036029861 -0.97835267 0.035343636
656000000 -0.97029614 0.044179782 -0.00075883773 -0.00013355607 0.00045697024 -0.00040454816 -0.97909373 0.03462068
657000000 -0.97217453 0.044276342 7.544749e-005 -0.00019671621 -0.00023615826 -0.00014001597 -0.97827107 0.035989426
658000000 -0.97170573 0.043706845 -0.00068536104 -0.00010546511 3.536341e-005 0.00030181365 -0.97838855 0.03523612
659000000 -0.97083056 0.044206999 -0.00089646265 -0.00043013971 0.00011165126 -0.00032436746 -0.97871548 0.036035024
660000000 -0.97199988 0.045131266 -0.00025161606 -0.00054795429 -0.00046390237 -0.0004605198 -0.97862822 0.03544125
661000000 -0.97143394 0.044512123 8.9906753e-005 -0.00022267421 -0.00017569152 -0.00012077382 -0.97864902 0.037172165
662000000 -0.97172052 0.043323316 0.00014635776 -0.00034340113 -0.00089751719 -0.0011855675 -0.97938633 0.035211682
663000000 -0.97215158 0.043224759 -0.00018959974 -0.00078004866 0.00020866726 -0.00061459129 -0.97844082 0.035925332
664000000 -0.97109324 0.043756977 -0.00020766113 -0.00034299862 4.4371831e-005 -0.00063908112 -0.97945666 0.036362559
665000000 -0.97148663 0.044555601 -0.0001722266 -0.0007563213 0.00010717753 -0.00081362558 -0.97755933 0.037217095
666000000 -0.97064692 0.044310767 -0.00031461127 0.00044911262 -8.6445361e-005 -0.00026018321 -0.97826189 0.035571098
667000000 -0.97167212 0.045339461 -5.5270168e-005 -0.00039642476 0.00027775546 -0.00053874461 -0.97889346 0.036088545
668000000 -0.97132236 0.04392729 0.00040768122 -0.00039583805 -0.00040208857 -0.00053000852 -0.97947639 0.035886098
