!Keysight Technologies,M9374A,MY55442783,A.12.55.05
!Date: Thursday, May 20, 2021 11:28:31
!Correction: S11(Full 2 Port(1,2)) 
!S21(Full 2 Port(1,2)) 
!S12(Full 2 Port(1,2)) 
!S22(Full 2 Port(1,2)) 
!S2P File: Measurements: S11, S21, S12, S22:
# Hz S  RI   R 50
500000000 -0.97357523 0.03392937 0.00023827306 5.6426339e-005 -0.0003111448 -0.00041736977 -0.97857904 0.026756309
501000000 -0.97179574 0.036237456 0.00020647043 -5.8380476e-005 4.1294526e-005 -0.00017372881 -0.97937906 0.028036276
502000000 -0.97177857 0.032949906 -0.00027016862 -0.0007637635 -0.00052389922 -0.00020114385 -0.97936577 0.029057093
503000000 -0.97318256 0.034574427 -0.00054985302 0.00049776642 0.00083677878 -0.0012039508 -0.97886127 0.028763494
504000000 -0.97132766 0.035154231 -9.6577583e-005 -2.5590487e-005 -0.00050206186 -0.0005276638 -0.97962052 0.026332675
505000000 -0.97295833 0.034264974 -0.00032337839 -0.0004577566 6.6247449e-005 -0.00042575967 -0.97938293 0.028264271
506000000 -0.97228682 0.034773022 -0.0002187888 -0.00060510845 0.00035468847 -0.00051628664 -0.9788264 0.029073974
507000000 -0.97182798 0.034403499 -0.00045225731 -0.00032886217 -0.00031125417 -5.2118918e-005 -0.97913796 0.028497528
508000000 -0.97324193 0.034817543 0.0005689715 -0.00034339778 0.0003084093 -0.00057073723 -0.97890407 0.028372608
509000000 -0.97238672 0.03486158 -4.1986041e-006 -0.0010319994 -0.00031091535 -0.00057278585 -0.97945255 0.029539675
510000000 -0.97256953 0.036297314 -0.00058420195 0.00020387371 -0.00023808896 8.4581145e-005 -0.97811478 0.030250981
511000000 -0.97246671 0.035706691 -0.00049253565 0.00072357402 0.00012700001 -0.00011402347 -0.98075289 0.028794451
512000000 -0.97354972 0.034214526 -0.00042432421 -0.00044416773 -0.00037921872 -0.00097773678 -0.97939438 0.029975614
513000000 -0.97243816 0.035150748 -0.00012740061 -0.00076146162 6.3989333e-005 0.0002077583 -0.97986746 0.030038547
514000000 -0.9722383 0.034776267 2.9976547e-005 -0.00061376818 -0.00063554669 -0.00014702723 -0.97974765 0.029495163
515000000 -0.97280931 0.03512767 -0.00012177861 -0.00086043286 -0.00015349113 -3.9032595e-005 -0.97931415 0.030125704
516000000 -0.97127128 0.036649391 -0.00014297936 -3.5025892e-005 0.00027728864 -6.6873661e-005 -0.98021251 0.030521855
517000000 -0.97370833 0.035664137 0.0005564217 -0.00011366436 0.00049960363 9.5793315e-005 -0.97896796 0.028919142
518000000 -0.97195101 0.035879429 -0.0002057915 -3.5625017e-005 0.00024861598 -0.00053210004 -0.97934103 0.029043172
519000000 -0.97303325 0.035136938 2.7087932e-005 -0.00052712118 -0.00047640322 2.8175959e-005 -0.97929257 0.029130172
520000000 -0.97254872 0.035782639 0.00025511355 2.5510833e-005 -0.00081731717 0.00038288944 -0.97888577 0.030467376
521000000 -0.97209388 0.03599418 -0.00071143429 0.00030806247 0.00034255628 -0.00049333955 -0.97879279 0.030617485
522000000 -0.97209305 0.036540359 -0.0005508429 0.00013809874 5.6616926e-005 -0.00070901262 -0.97951996 0.030123759
523000000 -0.97250587 0.035496835 -0.00072620297 -0.00089828088 6.6481794e-006 0.00012131928 -0.97830057 0.030205064
524000000 -0.97172046 0.036919512 -0.00029078027 0.00014683034 -0.00087352411 -0.00066922366 -0.97986281 0.030163942
525000000 -0.97191888 0.036491435 0.00019944401 -0.0007418915 -0.00044884827 -0.00077736261 -0.97820562 0.030824468
526000000 -0.97266394 0.036515038 -5.1778912e-005 3.3430068e-005 -0.00060976774 -0.00034097015 -0.97911018 0.031053474
527000000 -0.97313696 0.035038076 -0.00035838305 -0.00079898804 0.00020711945 0.00023203183 -0.97913808 0.030653998
528000000 -0.9717707 0.036939718 9.1323847e-005 -0.00084382278 -0.00035219066 -0.00050946895 -0.97927785 0.03126885
529000000 -0.97247952 0.036422502 -7.8121893e-006 -0.0010958049 -1.6227734e-005 -0.00088523934 -0.97928441 0.03053716
530000000 -0.9728266 0.037721515 -0.00062537333 -0.00042132812 -0.0004071728 -0.00096518954 -0.98036385 0.030258309
531000000 -0.97250456 0.036465831 -6.9430658e-005 -0.00061415083 0.00044470924 -0.0001884683 -0.97944856 0.031598691
532000000 -0.97169828 0.036445804 -0.00044187051 -0.00050914072 0.00039986573 -0.00017548884 -0.97973818 0.032712366
533000000 -0.97247809 0.037248291 0.00039690637 -0.00033107423 -5.3208096e-005 -0.00070019002 -0.97954345 0.031634614
534000000 -0.97301072 0.036912329 0.00033240285 5.8618622e-005 0.00057482411 -0.00038448989 -0.97882122 0.0314667
535000000 -0.97226131 0.036074445 -0.00074548554 -0.00095301709 6.7313857e-005 -0.00057904387 -0.97742754 0.030363025
536000000 -0.9718312 0.036743261 -0.00076889701 -0.00020999549 -0.00016681636 -0.00073957839 -0.97928631 0.03108307
537000000 -0.97291529 0.035683405 -0.00055859436 0.00022681992 -0.0009693586 -0.00041525406 -0.979541 0.032059118
538000000 -0.97330797 0.037095014 0.00058012898 -0.00043144773 -0.0006869018 -0.00054665137 -0.97857678 0.031136969
539000000 -0.9724313 0.038302008 0.00033727419 -0.00073430623 -0.00012140113 -0.00044780166 -0.97908747 0.032343216
540000000 -0.97202468 0.037162013 -0.0015750077 0.00045151028 -0.00033701351 -0.0006588159 -0.97972524 0.031225104
541000000 -0.97243261 0.038394257 2.9655946e-005 -0.0006113383 -0.00028755789 0.00040633851 -0.97819132 0.031435501
542000000 -0.97260833 0.037769441 -0.00085380918 -0.00025408651 -0.00056282518 -0.00083049835 -0.97939187 0.032492783
543000000 -0.97202945 0.036625504 -0.00045661762 -0.00026225371 -0.00047570199 0.00025299832 -0.97856337 0.032432482
544000000 -0.97251743 0.037937723 0.00097916322 0.00061840529 0.00012454118 -0.00054236839 -0.97992837 0.031881366
545000000 -0.97271913 0.037628826 -0.00013086569 -0.00015902807 -0.00010154006 -0.00097592652 -0.97890598 0.031526938
546000000 -0.97151476 0.037734918 0.0002143623 -0.0004817243 -0.00044058953 -0.00026956495 -0.97873896 0.032190636
547000000 -0.97253239 0.038751878 0.0002449915 -0.00056337373 0.00061536301 0.00032151485 -0.97989756 0.032154135
548000000 -0.97216523 0.038213089 -0.00083895773 -0.00057388487 -0.0004820324 -0.00033380388 -0.97861648 0.03205657
549000000 -0.97084725 0.037071016 -4.8164213e-005 -0.00067232898 -0.00010576237 -0.00067041273 -0.97841907 0.032180894
550000000 -0.97032958 0.037556969 -0.00025086279 -6.8682493e-005 -0.00072777155 -0.00063107803 -0.97979748 0.033135634
551000000 -0.97218907 0.036562547 -7.3735719e-005 -0.0001100491 -0.00030537022 -0.00019969452 -0.97791755 0.031015947
552000000 -0.97211051 0.036259875 0.00016650867 -0.00066836446 -0.00062265905 0.00030075209 -0.97927994 0.031798091
553000000 -0.97285318 0.037539031 -0.00072023075 0.0002857435 0.00034623724 -0.00018773341 -0.97857392 0.031398684
554000000 -0.97256678 0.035777226 -0.00019504766 -0.00058062212 -0.0005408625 -0.00062007707 -0.97991502 0.031825993
555000000 -0.9713192 0.037456963 -0.00067950046 -0.00015271826 -0.00046366508 -0.00080150535 -0.97928184 0.031909566
556000000 -0.97115457 0.037600666 -0.00025680076 -0.00031258137 -7.4425225e-005 -0.00022900914 -0.97883916 0.03165295
557000000 -0.9725982 0.037400287 5.2889895e-006 -0.00057773909 -0.00034754886 -0.00028087126 -0.97968817 0.031671833
558000000 -0.97145629 0.036741424 0.00016364563 -0.00061846356 0.00010966625 -0.00096171431 -0.97937387 0.03131314
559000000 -0.97163826 0.037604507 0.00035352525 0.00016071832 0.00046005417 -0.00043320263 -0.979792 0.032801017
560000000 -0.97223973 0.038271494 0.00027825288 -0.0010691676 0.00016742904 -0.00045072817 -0.97894746 0.032740574
561000000 -0.97234052 0.037719194 -0.00050658692 -0.00039651929 -0.00011116105 6.072631e-005 -0.97934747 0.031947166
562000000 -0.97222507 0.038714398 -0.00034754811 0.00010236058 0.00038270614 -0.0010004039 -0.98014665 0.032629758
563000000 -0.97165114 0.037255622 -7.9289413e-005 -3.9400547e-005 -0.00090932782 -0.0005047759 -0.97884059 0.032141779
564000000 -0.97170067 0.038682871 0.00052403333 8.4041298e-005 -3.3797369e-005 -0.00064632925 -0.97927362 0.032131404
565000000 -0.97149426 0.038059346 -0.00030665364 4.6915597e-005 -0.00012939582 -0.00010258555 -0.97926277 0.03331168
566000000 -0.97048134 0.037335131 -0.00035395159 -0.00022812988 -3.0035668e-005 -0.00056485861 -0.97831339 0.031452704
567000000 -0.9715777 0.036441267 -0.00023845508 -0.00032107948 -5.2453834e-005 0.00030502374 -0.979123 0.032638717
568000000 -0.97172374 0.037054598 3.1292424e-005 -0.00077246898 -0.00030544482 -0.0007445981 -0.97873145 0.03105347
569000000 -0.97156572 0.03689586 0.00021275722 0.00030724244 -7.7463716e-005 -0.00014983883 -0.97940832 0.031837381
570000000 -0.97103703 0.037120223 8.7927408e-005 -0.00039842879 -9.8991091e-005 0.00047501895 -0.97874725 0.031518087
571000000 -0.97059357 0.038430668 0.00049098628 -0.00014360415 0.00058970449 0.00015674681 -0.9795751 0.032718413
572000000 -0.97146583 0.037268922 0.00014256941 -0.0008061665 -0.00024895693 -0.00076475024 -0.97827208 0.032129355
573000000 -0.97127378 0.038243137 0.00045766679 -0.00032360238 -0.00024329577 0.00086289877 -0.9797647 0.031465583
574000000 -0.97004449 0.037527822 -0.00018531361 -0.00036988998 -8.9733061e-005 -0.00034747063 -0.9791562 0.031477459
575000000 -0.97080064 0.036718376 0.00029542233 -0.00052775833 -0.00062651909 -0.00042604076 -0.97978866 0.032205597
576000000 -0.97162426 0.036747072 -0.00017169703 -4.0782976e-005 6.0945698e-005 -0.0006450424 -0.97840804 0.032130003
577000000 -0.97107822 0.038136534 -4.6309056e-006 -0.00046529583 5.6687884e-005 3.6937261e-005 -0.98047304 0.031558827
578000000 -0.97095126 0.037747089 -0.00051706174 -0.00069835095 1.9002984e-005 -0.00086109788 -0.97987533 0.031098543
579000000 -0.97128803 0.037668057 -0.00011775013 -5.2071497e-005 -0.00040606613 -0.00078409171 -0.97996747 0.03184991
580000000 -0.97193575 0.037263699 -0.00026692933 -0.00089146418 -0.00014847158 -0.00037842506 -0.9781934 0.032395389
581000000 -0.97079313 0.037193347 -0.00015340021 -3.2754713e-005 -0.00068852986 -0.00019807959 -0.97959906 0.031891011
582000000 -0.97205287 0.038328506 -8.5258929e-005 0.00059060607 0.00050777785 -0.00042699292 -0.98028231 0.031797852
583000000 -0.97194457 0.038843613 -0.00040671151 -0.0004847261 0.00019266883 -0.00026992185 -0.97872621 0.0321007
584000000 -0.97036821 0.038291369 -0.00012695053 2.4201579e-005 0.00012287677 -0.00036504489 -0.97906458 0.032600515
585000000 -0.9712041 0.037672944 -0.00052902615 -0.00078661047 -0.00049106532 -0.0012784117 -0.97909468 0.031985186
586000000 -0.97188103 0.037711702 0.00074774423 -0.00095075188 0.00023679579 -0.0011293325 -0.97947514 0.031832274
587000000 -0.97077608 0.038679283 -0.00012196007 -0.00023104974 5.9888705e-005 -0.00049581617 -0.97848243 0.03214927
588000000 -0.97109687 0.037688036 -0.00042238738 0.00019849674 -0.00014981435 -0.00028196559 -0.98009706 0.031819534
589000000 -0.97169107 0.037650365 -0.00021087835 -0.00046193926 0.00045072552 -0.00055186136 -0.97871089 0.032460425
590000000 -0.97048509 0.039276801 0.00057791016 -0.00018305442 0.00022085466 -0.00063817541 -0.97825652 0.032451887
591000000 -0.97093248 0.037904613 0.00041360391 -0.00037554887 -0.0002004558 -0.0010007522 -0.97953767 0.032987978
592000000 -0.97187817 0.039481759 -2.1620608e-006 -0.0010645799 -0.00030919592 -0.00017902511 -0.97966278 0.032215748
593000000 -0.97081804 0.037634272 -0.00034965601 -0.0008067952 -0.00086740637 -2.7118465e-006 -0.97911459 0.033945754
594000000 -0.9710688 0.037937939 0.0011379193 9.490228e-006 -1.4705201e-005 -0.00024481479 -0.98005319 0.032984946
595000000 -0.97171181 0.037997775 -0.00020260179 0.00030732836 0.0006935586 0.00037098661 -0.97938758 0.033426058
596000000 -0.97218704 0.038707417 -0.00010952712 -0.00032215912 -6.3141328e-005 -0.00044394383 -0.97884083 0.034042202
597000000 -0.97254235 0.038827777 0.00015274562 -0.00073245284 -0.00038881504 -0.00067052728 -0.97830313 0.033285707
598000000 -0.97170353 0.039055511 -0.00070509029 0.00028249016 -0.00016676821 -0.00044469262 -0.97960287 0.032954432
599000000 -0.97187442 0.039650366 -0.00032909022 -0.0005393516 -0.00084863184 -0.00037776551 -0.97763807 0.033344392
600000000 -0.971928 0.040174089 -0.00034172155 -5.146036e-005 -3.0290941e-005 -0.00039098138 -0.97966033 0.032897834
601000000 -0.97199684 0.039808635 -7.454661e-005 -0.00010131343 -1.7858763e-005 7.8835343e-005 -0.97817767 0.032689944
602000000 -0.97151101 0.040148679 -0.00043436332 -0.00048481324 -0.00010026045 -1.5065302e-005 -0.97998905 0.032445129
603000000 -0.97131211 0.040239036 -0.00039218564 -0.00050989154 0.0003007855 -0.00075163302 -0.97944409 0.032229844
604000000 -0.97110575 0.039824609 0.00044824975 -0.0010123359 -5.8449907e-005 -0.00074461498 -0.97830784 0.032560676
605000000 -0.97273552 0.039924473 -1.2265527e-005 -0.00078721863 0.00033436454 -0.00020100077 -0.97875786 0.032966256
606000000 -0.97063148 0.040317792 5.8129852e-005 -0.00068355154 -0.00069417583 -0.0012203787 -0.97808832 0.034170989
607000000 -0.97261202 0.040123604 -0.00060892373 -0.001169489 -7.01065e-005 -0.00039204539 -0.97946417 0.032647509
608000000 -0.97130471 0.039763354 -0.00030446835 -0.00027086251 -0.00022858569 -0.00065923546 -0.97874391 0.032007936
609000000 -0.97136259 0.041200399 -0.0011004485 0.0001337771 0.00019613943 -0.00032566779 -0.97937334 0.033670902
610000000 -0.9720602 0.041575488 0.00032808809 -0.00023749174 -0.00013373035 -0.0010372092 -0.97786379 0.034244191
611000000 -0.96944875 0.039398968 -0.00092272466 4.3584379e-005 -0.00099199393 -0.00020570475 -0.9790439 0.033199158
612000000 -0.97162664 0.040791452 -0.000123081 0.00013934591 -0.0003567258 0.00040210006 -0.9796828 0.03417822
613000000 -0.9709022 0.041358497 -0.0003035205 -0.00066200341 0.00018238758 -0.000306467 -0.97850245 0.034446746
614000000 -0.97111475 0.041244756 0.00032207451 -0.00072281365 -5.9352504e-005 -0.00089565647 -0.97929949 0.033627614
615000000 -0.97060633 0.040694743 -0.00037988508 -0.00083640619 -0.00010051023 -0.0007558511 -0.97913963 0.033831708
616000000 -0.97054309 0.040639263 -8.0511621e-005 -0.00032606453 0.00049278571 -0.0010164221 -0.9779982 0.034667369
617000000 -0.9727062 0.041158214 -4.8936337e-005 -0.00036492015 -0.00095081626 0.00016476049 -0.97889757 0.035045043
618000000 -0.97168273 0.040728014 -0.00090724783 -0.00050197728 0.00067445467 -0.00035961191 -0.97881287 0.034163345
619000000 -0.97014356 0.042200096 -0.00079145626 -0.00095844781 -7.0833856e-005 -9.0503505e-005 -0.97929615 0.036357466
620000000 -0.97037882 0.0429134 -0.00034997187 -0.00097541901 7.4877338e-005 -0.00041652593 -0.97810024 0.036130466
621000000 -0.97182429 0.041902166 -9.6495271e-005 -0.00044302348 0.00024750858 -0.00086772087 -0.97892308 0.034909964
622000000 -0.97098464 0.040065587 -0.0002533955 -0.0010356318 0.0001995229 -0.0014076723 -0.97840458 0.035174411
623000000 -0.97100592 0.041770861 9.2114409e-005 -0.00010628969 0.00055693649 -0.00070813682 -0.97762799 0.034468848
624000000 -0.97048789 0.041464292 0.00017206668 -0.00068367628 0.00013259068 -0.00090588396 -0.97939253 0.034851171
625000000 -0.97171319 0.042795192 -0.00039451008 -0.0001096392 0.00022000834 -0.00016689589 -0.97919476 0.035371013
626000000 -0.97071594 0.043228325 -0.00073193287 -0.0010416387 -0.00065489276 -0.00024756216 -0.97782642 0.035599653
627000000 -0.97137862 0.042528041 -0.00038588565 -0.00027055189 0.00040950836 -0.00038150221 -0.97741532 0.035150256
628000000 -0.97116864 0.042206675 -4.897084e-005 -0.0006745439 -2.5890484e-005 -0.00038950736 -0.9784838 0.036028624
629000000 -0.97080046 0.044584125 -8.9557514e-005 -0.00095107802 -0.0013092359 -5.0233448e-005 -0.97931629 0.035863627
630000000 -0.97053468 0.042478073 -0.00019908816 -0.00072786788 -0.00096473552 -0.00022745969 -0.97910452 0.036521591
631000000 -0.97084349 0.043128841 -0.00087049074 -0.00026453906 0.00025907898 -0.0013926068 -0.97941089 0.037081543
632000000 -0.97103596 0.043762438 0.00042363416 -0.000717722 -0.00039121797 -7.4808551e-005 -0.97796261 0.03502439
633000000 -0.97131115 0.043203413 -0.00045518528 -0.00068056944 -0.00016491427 -0.00041178521 -0.98001111 0.03549378
634000000 -0.97242427 0.04327102 0.00011685767 -0.0010794709 -0.00060630718 -0.0010083285 -0.97914571 0.035098914
635000000 -0.97034007 0.043462273 -0.00010842433 -0.00093433156 -0.00042802707 -0.0014972525 -0.97923052 0.034842208
636000000 -0.97009957 0.043440334 -0.0010836273 -0.00045896927 -0.00045156572 -0.00018770389 -0.97872585 0.034900371
637000000 -0.97099519 0.043761753 0.00040960158 -0.00072911498 0.00015576187 -0.0013029784 -0.97844064 0.035353109
638000000 -0.97038484 0.04298405 2.2687018e-005 -0.00032718648 -0.001255451 -0.00015737407 -0.97959489 0.035893902
639000000 -0.97176957 0.042616729 0.0003190983 -0.0012289423 0.0004112192 -0.00096097414 -0.98010671 0.035636202
640000000 -0.97101212 0.043952722 -0.000169088 -0.00037947641 9.0646608e-005 -0.00082986901 -0.97743708 0.035993945
641000000 -0.97176874 0.044055406 0.00027375668 -0.00055174652 0.0003413861 0.00015524529 -0.97791469 0.036458291
642000000 -0.97001475 0.043817356 -0.00046182264 -0.0006589673 0.00029886223 0.00030026323 -0.97863275 0.035292525
643000000 -0.97085881 0.044756562 0.00031813019 -0.0005282237 -0.00051444891 -0.00048801879 -0.97881711 0.036713921
644000000 -0.9702428 0.044179272 -1.9740958e-006 -0.00069693528 0.00077733694 3.5260899e-005 -0.97937292 0.036214553
645000000 -0.97031969 0.045162838 0.00045725214 -0.00059236842 -0.00017998257 -0.00046768738 -0.97881663 0.036088698
646000000 -0.97083139 0.044142716 -0.00015664073 -0.00055096479 -0.00017530724 -0.00043484932 -0.97864974 0.037341736
647000000 -0.97135043 0.044487093 -0.00026413915 -0.00075149373 -0.00033866143 0.00011705856 -0.97707403 0.036738157
648000000 -0.97055674 0.042752303 0.00019664638 -0.00093614042 -0.00044145432 -2.6717044e-005 -0.97883266 0.036528632
649000000 -0.97084951 0.044622499 -1.473572e-005 -0.00090664782 0.00029016711 -0.00069532561 -0.9795239 0.036497664
650000000 -0.97044659 0.0451422 -0.00017802164 -0.00030364477 -3.5090285e-005 -0.00060124375 -0.97840756 0.037178673
651000000 -0.97150242 0.045263927 -0.00069767999 -0.00031872588 -0.00045975397 -0.00054344255 -0.97839236 0.036169026
652000000 -0.97093785 0.044090867 -1.5781616e-005 -0.00024256413 -8.6213353e-005 -0.0008961244 -0.97783512 0.036758117
653000000 -0.97020721 0.044610802 0.00030305513 0.00015329443 0.00015541798 -0.0010984291 -0.97835058 0.036784306
654000000 -0.97023797 0.044749398 -0.0011597746 -0.00043856952 -0.00060069258 -0.00080297515 -0.97889614 0.03644583
655000000 -0.97091186 0.046803653 -0.00059469038 -0.00033881579 5.2464184e-005 -0.00078013149 -0.97771358 0.036687151
656000000 -0.97024763 0.045206036 1.5045087e-005 -6.1624264e-006 0.00033407818 -0.00048181225 -0.9777531 0.036151297
657000000 -0.97055376 0.044721931 0.00019178749 -0.00039669647 9.1741342e-005 -0.00067129801 -0.9783234 0.036058519
658000000 -0.97179109 0.044569448 0.00053532392 -0.00078144058 0.00052744441 -0.0011255488 -0.97846591 0.036676325
659000000 -0.96996897 0.045889847 0.00023239756 -0.00046674503 0.0002785672 -0.00073146325 -0.97745961 0.037773132
660000000 -0.9707607 0.044953082 -6.2360428e-005 -0.00046379375 0.0001898659 -0.0017411557 -0.9783842 0.036252648
661000000 -0.97162533 0.046016224 0.00021115436 -0.00034842515 -0.00019740964 -0.00066301372 -0.97959179 0.037392572
662000000 -0.97002643 0.04563212 1.1407597e-005 -0.00029977001 -0.00027412936 -0.00063379173 -0.97933918 0.037205886
663000000 -0.97102374 0.045346022 -0.00010530101 -0.00045069188 0.0002858472 -0.00058997638 -0.97889346 0.036770083
664000000 -0.97091067 0.044650145 -0.00028366275 1.7935241e-005 -0.00059360766 -0.00035911505 -0.97895873 0.037091926
665000000 -0.9704237 0.045523033 -0.00030795406 -0.00092801836 0.00025113372 -0.00034586759 -0.97839749 0.037794724
666000000 -0.97081065 0.045068253 4.5091251e-006 -0.00074630568 0.00024235119 -0.00073216652 -0.97878367 0.036715575
667000000 -0.96964663 0.045347538 2.3440141e-005 -0.00068047928 0.00015673129 -0.00036356106 -0.97768176 0.037738357
668000000 -0.97102678 0.04490361 -0.00024918217 -0.00018863344 0.00012747415 -0.00078484736 -0.97917449 0.036650054
