!Keysight Technologies,M9374A,MY55442783,A.12.55.05
!Date: Thursday, May 20, 2021 12:00:26
!Correction: S11(Full 2 Port(1,2)) 
!S21(Full 2 Port(1,2)) 
!S12(Full 2 Port(1,2)) 
!S22(Full 2 Port(1,2)) 
!S2P File: Measurements: S11, S21, S12, S22:
# Hz S  RI   R 50
500000000 -0.97400469 0.034610644 0.00011635493 -0.00017400243 -0.00013158811 -0.00072877476 -0.97859454 0.026556477
501000000 -0.97456253 0.033275433 -0.00023806487 0.00054573943 -8.3706298e-005 -0.00025152089 -0.98027921 0.027544538
502000000 -0.97382981 0.034403279 -2.005159e-005 0.00010179166 -5.6035196e-006 -3.9841572e-005 -0.98079139 0.027477195
503000000 -0.97354639 0.03408869 -0.00072289188 -0.001237298 0.00021995908 0.00015825011 -0.97966075 0.027675617
504000000 -0.97356677 0.034115586 0.00041580779 -0.00018865299 0.00029650144 0.00050513842 -0.97927606 0.027430994
505000000 -0.97497606 0.033991456 0.00032039898 -0.00031961396 -0.00014509317 0.00029755966 -0.9822405 0.027274452
506000000 -0.97393411 0.033540934 0.00010055093 -0.00049587811 -0.00035519138 -0.00021359429 -0.98112905 0.027803076
507000000 -0.97283041 0.034007922 -3.1464951e-005 -0.00041223367 5.8549733e-005 -0.00031609842 -0.97967046 0.02908578
508000000 -0.97355574 0.033693265 3.6489416e-006 -0.00014860269 0.00014765607 1.6234228e-005 -0.97932398 0.028013334
509000000 -0.97359228 0.034313582 -0.00031272229 -0.0003247518 -0.00023048033 0.00016554615 -0.97968757 0.028107539
510000000 -0.97481346 0.034626085 -0.00016296003 0.00018677344 6.055996e-005 -0.00015440545 -0.97919935 0.027849298
511000000 -0.97310865 0.035119496 0.000318593 -0.00085383665 -0.00012557072 0.00028369034 -0.98027736 0.028430877
512000000 -0.97381282 0.034812264 -5.8629677e-005 -0.00057840819 -0.00012793628 -0.0001673091 -0.97992074 0.028105751
513000000 -0.97303164 0.03463167 -4.8907765e-005 -0.00058111455 8.5771637e-005 0.00039188564 -0.98000664 0.02759297
514000000 -0.97267622 0.034594152 -0.00068013562 -0.00076778536 0.00020479482 -2.8131019e-006 -0.97932321 0.028683444
515000000 -0.97370678 0.034910128 -0.00048111906 -0.00031253873 3.8761096e-005 -0.0010732398 -0.98045295 0.028881738
516000000 -0.97354496 0.034244973 -0.00017239944 -0.00074013416 0.00080971274 0.00034329336 -0.97967249 0.028807946
517000000 -0.97383261 0.035641931 0.0001322451 -0.001066121 -0.00058776711 -0.00061690359 -0.98006934 0.028766628
518000000 -0.97362238 0.034703795 -0.00021995221 -0.000156746 -0.00089640758 0.00016205182 -0.98026317 0.028244272
519000000 -0.97338152 0.03490499 -0.00076837023 -0.00038018386 0.00011509022 -0.00031477239 -0.98034889 0.028672662
520000000 -0.97411186 0.034603622 -0.00035043547 0.00065071741 0.0001262343 -0.00037423312 -0.97779453 0.029183848
521000000 -0.97263837 0.034929618 0.00039475088 3.6353249e-006 -0.00045958697 0.00035947049 -0.97948849 0.029408047
522000000 -0.97379738 0.034801051 -0.00067361334 -0.00042857576 -0.00039138997 -0.00090380845 -0.97890019 0.02958782
523000000 -0.9730193 0.034337234 -7.5531556e-005 -0.00046741508 -0.00016430824 -0.00035052391 -0.98026943 0.029378377
524000000 -0.97410828 0.035330735 -0.0007866518 -0.00058064394 0.00018381519 -0.00055077055 -0.98027974 0.029902216
525000000 -0.97160292 0.036294159 -0.00059694855 -0.0014675719 9.3514711e-005 -0.00030038942 -0.97953898 0.031373605
526000000 -0.97502238 0.036243919 5.6520934e-005 -0.00080947741 5.2786141e-005 -0.00032822683 -0.98000848 0.030320873
527000000 -0.97456992 0.035383631 -0.00041190159 -0.0006154243 0.00041939304 -0.00027944337 -0.9796595 0.029891808
528000000 -0.97296101 0.036223006 0.00052935549 -0.00065111765 0.00054350263 -0.00027737004 -0.97880459 0.031448271
529000000 -0.97281867 0.035675414 -4.1194875e-005 -0.00089412066 -0.0006349688 0.00084731582 -0.97905099 0.030340169
530000000 -0.97271448 0.035468079 0.00011931296 -0.00041872144 -0.00035481522 -0.00020174269 -0.97987574 0.030088505
531000000 -0.97266924 0.03541955 -6.5602821e-005 -0.00037183633 -0.00035577282 -0.00076462643 -0.98006433 0.029933019
532000000 -0.97364283 0.035793677 0.00019771954 -8.2160201e-005 0.00019587025 -0.00068527629 -0.97774035 0.029991839
533000000 -0.97300601 0.036039893 1.9672112e-005 -0.0004075818 -0.00081526005 -0.00046569863 -0.97993559 0.031174365
534000000 -0.97318482 0.035270263 -0.00021490209 -0.00025867886 -0.00042205304 -0.00046076934 -0.97958535 0.031025011
535000000 -0.97303599 0.036953624 -0.00081436819 0.00017600291 -0.00047865292 -0.00041561801 -0.97965753 0.028836621
536000000 -0.97378433 0.03650216 -0.00017494215 -0.0014301419 -6.1687447e-006 0.00042267845 -0.97843212 0.031199984
537000000 -0.97412586 0.035971299 -0.00015110603 -0.00011460421 4.9354912e-005 -0.00058334821 -0.98024815 0.030907754
538000000 -0.97321147 0.035844848 -4.090786e-005 -0.00049078936 -0.00044224542 -0.00064306136 -0.97912806 0.030683786
539000000 -0.97298431 0.036704708 0.00017826469 -0.00044554626 -0.00018720829 -8.4844374e-005 -0.9782511 0.031529911
540000000 -0.97367638 0.036666702 -4.7985395e-005 -0.00061356724 -0.00028700568 -0.00097649568 -0.97953254 0.032079436
541000000 -0.97378927 0.037363585 -0.0006883443 -0.00042230549 -0.0003411425 -0.00027552992 -0.98057866 0.030157968
542000000 -0.9731124 0.03684042 -0.00018063463 0.0002150122 0.00032093952 -0.0005503507 -0.97920865 0.03117596
543000000 -0.97225416 0.036615018 -0.00038806701 -0.00068240921 -0.00014961133 9.4577508e-006 -0.97971797 0.031516574
544000000 -0.9727416 0.036799788 3.7288668e-005 -0.00077976281 0.00047884529 -0.0006024781 -0.97993487 0.031434219
545000000 -0.97307569 0.035881601 -0.00036369986 -9.9980054e-005 0.00019527096 0.00024187304 -0.97910661 0.030390728
546000000 -0.97279173 0.03647827 -0.00015072661 -0.00063806376 -0.00018408554 -0.00010965708 -0.97891277 0.030716926
547000000 -0.9736017 0.03605099 0.00079017197 -0.00076262839 0.00041578556 -0.00012378434 -0.9797588 0.031927284
548000000 -0.97234404 0.036605783 0.0010372794 -0.00038766346 -0.00016211785 -0.00059865357 -0.97927713 0.032212537
549000000 -0.9731133 0.036077518 6.817661e-007 -0.00072352326 0.00038004995 -0.00043734736 -0.97908199 0.032143008
550000000 -0.97286481 0.036285266 0.00057402201 -0.00085187762 9.4338793e-005 -0.00014353567 -0.97981977 0.031714696
551000000 -0.97304612 0.036753129 -7.6134282e-005 -0.00054601475 3.7711347e-005 -0.00071442017 -0.97983909 0.030565344
552000000 -0.9729712 0.035919588 3.8892442e-005 -0.00024255931 -0.00019512689 0.00060953706 -0.98008072 0.032248002
553000000 -0.97293884 0.034832515 -7.7839628e-005 -0.001194124 -0.00067585352 -0.00036965022 -0.97878116 0.030250581
554000000 -0.97166234 0.036473557 -0.00050923636 -0.00057158252 0.00028956635 -0.00037365084 -0.97975552 0.030932644
555000000 -0.97285694 0.035878569 -0.00020349516 -0.00034058062 -0.00043266037 0.00011845484 -0.97910601 0.030569587
556000000 -0.97256947 0.036763232 -0.00020792929 -0.00060033094 9.9399302e-005 -2.4537678e-005 -0.97974533 0.031831741
557000000 -0.97264832 0.036546547 -0.00070466223 -0.00053005083 -0.00061423989 -0.00043237445 -0.97911716 0.031220235
558000000 -0.97331363 0.035573971 2.4703073e-005 -0.00021916219 -0.00027017627 7.4177515e-005 -0.97962409 0.030730417
559000000 -0.97184384 0.036370844 0.00032554506 -0.00047240758 -0.00079760881 -0.00040130498 -0.97991335 0.030863378
560000000 -0.97286624 0.037501 -0.0005383403 1.5712865e-005 -0.00010710399 -0.0004324058 -0.97999829 0.031223621
561000000 -0.97321826 0.036828987 -0.00065445644 -5.4827677e-005 0.00042553202 0.00022921182 -0.97858936 0.031202124
562000000 -0.97334409 0.036883507 -0.00060568139 -0.00014180219 -8.3516206e-005 -0.0010123007 -0.97932571 0.032254551
563000000 -0.97315389 0.037214663 0.00035601598 -0.00031505295 0.00015178004 0.00073482248 -0.97970909 0.032302048
564000000 -0.97281969 0.036131758 -0.0003682127 -0.00027245015 0.00040180265 -0.00060480257 -0.9795267 0.031146994
565000000 -0.97273588 0.036369182 0.00035950227 -0.00049030088 -0.00034992362 -0.00088088372 -0.97879773 0.032135498
566000000 -0.97286367 0.035662435 -2.9774044e-005 -0.00096803787 -0.00054413028 -0.00014277842 -0.98025799 0.030997366
567000000 -0.97274262 0.036440853 -8.947216e-005 2.1151973e-005 0.00013832762 -0.00092668273 -0.97997266 0.030882347
568000000 -0.97328424 0.03612332 3.9671977e-005 -0.00087682914 0.00012135691 -0.00046457877 -0.97982216 0.031231621
569000000 -0.97294098 0.036050919 0.00050694583 -0.0007398352 -7.114622e-005 -0.00081974408 -0.97890908 0.031061145
570000000 -0.9723931 0.037261896 7.7230645e-005 -0.00017831172 -0.00027613353 -0.00066314801 -0.98022938 0.031713039
571000000 -0.97195482 0.036617216 0.00016730322 -0.00058743282 -6.2589868e-005 -0.00042199064 -0.97947127 0.032394361
572000000 -0.97214067 0.036922555 0.00060585118 -0.00014827133 -0.00013235888 -0.0006594134 -0.97897357 0.030705404
573000000 -0.97237504 0.035534117 0.00021284907 -0.00091971271 -0.00030086481 -0.00028731543 -0.98056078 0.03224181
574000000 -0.97146368 0.035559133 -0.0005725504 -0.0012193843 0.00045381472 -0.00083790015 -0.97954291 0.031482197
575000000 -0.97245401 0.03560422 6.5526929e-006 -0.00090312061 -0.0003459515 0.00020207559 -0.9799543 0.030800082
576000000 -0.97199291 0.03581626 -0.00022182727 -0.00071934453 0.00035598836 -0.00068805495 -0.98091334 0.032200668
577000000 -0.97231245 0.035651453 -0.00010524873 -0.00057057088 -0.00012995528 -0.00036246426 -0.97975457 0.029935176
578000000 -0.97098899 0.036860518 -0.00030580288 -0.00029338259 -0.00040238636 0.00020019396 -0.97922796 0.030915204
579000000 -0.97205573 0.036842369 -0.00092771288 -0.00075529073 0.00047998049 -8.083861e-005 -0.98062176 0.032017697
580000000 -0.97273475 0.035174355 -0.00070006715 -0.00045899354 -0.00078582321 7.7108409e-005 -0.97987568 0.032672897
581000000 -0.97393233 0.036568817 4.2934938e-005 -0.00022618088 4.8174217e-005 -1.0822556e-005 -0.97987163 0.031974148
582000000 -0.97128582 0.037074666 -0.00060281943 -0.00061363366 -0.00035330176 -0.00052789855 -0.97937256 0.030766791
583000000 -0.97165561 0.037552621 -0.00029191017 -0.00034797631 -0.00021086374 -0.00052297825 -0.97996968 0.030633893
584000000 -0.97250867 0.035885833 -0.0001377369 -9.5362448e-005 -0.00040320202 -0.00063179887 -0.98116243 0.033124063
585000000 -0.97213763 0.037282687 -0.00010028879 -0.00083309371 -0.00093588041 -0.00063324231 -0.97920555 0.032200068
586000000 -0.97356039 0.03774878 -0.00018462801 -0.00072971423 -0.00029432611 -0.00012566794 -0.97993338 0.031535849
587000000 -0.97263461 0.036908511 9.1961983e-006 -0.00017644008 -0.0001758619 -0.00066449761 -0.97989184 0.031167148
588000000 -0.97232264 0.037683919 -0.00039656687 -0.00029770363 -4.4502965e-005 -0.00068351597 -0.97995979 0.032643612
589000000 -0.97208709 0.037064392 -0.0004698023 -0.00030818515 -0.00067256682 -0.00030856766 -0.97838265 0.031478368
590000000 -0.97067076 0.037444189 -0.00051699544 -0.00029860248 0.00061052304 -0.00089178933 -0.97869194 0.03220715
591000000 -0.9710815 0.037325386 0.00028808968 -0.00077500549 5.1808431e-005 -0.00054681971 -0.98016185 0.032614931
592000000 -0.97157401 0.037361141 0.00041880086 -0.00062801887 0.00015453451 -0.0002928015 -0.98005527 0.031926718
593000000 -0.97227192 0.037108216 -0.0001436009 0.00048340479 -0.00057318585 -0.00033649887 -0.98057008 0.031290859
594000000 -0.97280824 0.038357083 7.7772122e-005 -0.00041923791 0.00023728189 -0.00048395109 -0.97974139 0.032768067
595000000 -0.97191536 0.037908815 -0.00024079297 -0.00063047657 -0.00018648415 0.00017089288 -0.97912449 0.032636035
596000000 -0.97284037 0.037812099 7.2312469e-005 0.00015524215 -3.5098365e-005 -0.00039735969 -0.98022628 0.031061966
597000000 -0.97245669 0.037864588 0.00024612667 0.0004396154 0.00046937354 -0.00056294474 -0.97878504 0.032000624
598000000 -0.9731245 0.038116597 -5.0375647e-006 -0.00020766997 0.000599908 0.00011850482 -0.9796232 0.031424847
599000000 -0.97140759 0.036541648 0.00029065768 -0.0004642047 6.7236465e-007 -0.00010944327 -0.97944176 0.031823006
600000000 -0.9712916 0.038178962 0.00088565395 -0.0004878341 0.00013699611 -0.00044365096 -0.97962642 0.031431351
601000000 -0.97161216 0.039223582 0.00025654063 -0.0011370277 0.00031418394 -0.00071651099 -0.97957194 0.032742493
602000000 -0.97238266 0.039403193 0.00043369719 -0.00029210499 -0.00088784745 -0.00042487579 -0.97905105 0.032290965
603000000 -0.97332299 0.038303759 0.0002337121 -0.00085169286 -0.0003024498 -0.00058109703 -0.97968262 0.032164514
604000000 -0.97090799 0.038782671 -0.0006386789 -0.00071848161 0.0003542217 -0.00013018122 -0.97967398 0.033564873
605000000 -0.97126383 0.038543399 -3.0972253e-005 -0.00026628241 3.3062563e-005 -0.00065531366 -0.97926176 0.033116341
606000000 -0.97209585 0.038983352 -0.00027771419 6.524464e-006 0.0007088469 -0.00018249308 -0.97791958 0.032179099
607000000 -0.97437036 0.037923265 -0.00018301184 -0.0001260124 -0.00039949661 0.00022959577 -0.97909313 0.031460207
608000000 -0.97241157 0.039241221 0.00012248516 -0.00091268349 -0.0011181865 0.00043804498 -0.97971898 0.033085324
609000000 -0.97252423 0.040007006 -0.0007658992 -0.00077701756 0.00021301123 -0.00051350734 -0.97862875 0.034234464
610000000 -0.97306454 0.040064011 -0.00077167928 -0.00077550171 -0.00026960691 -0.00071010127 -0.97812581 0.034034744
611000000 -0.97231406 0.03912206 0.00030011198 -0.00066813739 0.00019011974 -0.00076748128 -0.97818965 0.032337062
612000000 -0.97259247 0.039134514 0.00032655435 -0.00042978811 -0.00028618687 0.00025427376 -0.98002571 0.031881548
613000000 -0.97163844 0.038900603 -0.00010874207 0.00017537973 -0.00040401725 -0.00036639697 -0.97899747 0.033082016
614000000 -0.97226769 0.040062185 0.00021264073 -0.00052600069 0.00016752332 0.00096343481 -0.97862345 0.033850532
615000000 -0.97218251 0.03963124 -0.00014720662 -0.00068208715 0.00064941635 -0.00012487835 -0.97874367 0.033697817
616000000 -0.97201127 0.040569101 -0.00014825417 -0.00074090296 -0.00051036506 -0.00031983102 -0.9784686 0.033292115
617000000 -0.9725678 0.040444229 -0.00099516287 0.00092051108 -0.00099377346 -0.00040765695 -0.9798727 0.033927705
618000000 -0.97257322 0.041028291 -0.0010026488 -0.0011030127 9.7640259e-005 -0.00025452513 -0.9781335 0.03374815
619000000 -0.97153693 0.040049911 -0.00025392417 -0.00099916209 0.00023592853 -0.00016464722 -0.97980887 0.033934463
620000000 -0.97154444 0.041529715 -0.00074374536 -0.0010097815 -6.4561627e-006 -0.0007523091 -0.97993207 0.033499479
621000000 -0.97328019 0.041601177 -0.000471946 -0.00052917778 -0.00018714632 -0.00013301193 -0.97843224 0.034478985
622000000 -0.97236907 0.040316921 9.939423e-005 -0.00019931274 0.00011527249 -0.00054469035 -0.98007107 0.035224572
623000000 -0.9710899 0.040837951 0.00044691184 -0.0011129655 -8.237057e-006 -2.8272461e-005 -0.97804874 0.035273835
624000000 -0.97317034 0.040882699 -0.00013203862 0.00014955847 -4.975206e-005 -0.00041344453 -0.97783852 0.034830209
625000000 -0.97310734 0.04201499 -0.00030802298 -0.00019837405 0.00028972133 -2.9242166e-005 -0.97871494 0.033539806
626000000 -0.97333336 0.040949784 8.2572558e-005 -0.00076363061 -0.00032652909 0.00024586491 -0.97964078 0.034599125
627000000 -0.97232223 0.041284394 0.00018232799 0.00024146007 -0.00018155749 -0.0010265813 -0.97889698 0.033074573
628000000 -0.97294742 0.041095831 0.00029878374 -0.00087404734 -0.00043931193 -0.00099031464 -0.97921759 0.033546645
629000000 -0.97323698 0.042459443 -0.00064965105 -0.00088651193 -2.557382e-006 -0.00034536116 -0.97971463 0.034585577
630000000 -0.97090375 0.041654982 0.0004595936 -0.0003122284 -0.00031271324 -0.00068290514 -0.97877276 0.035692468
631000000 -0.97335601 0.041777968 -0.00021932344 -0.0001663039 0.00025630885 -0.00061771134 -0.98110044 0.034629799
632000000 -0.97237134 0.043428965 -0.00035273697 -0.00015504606 0.00037555033 -0.0011801004 -0.97852468 0.034992326
633000000 -0.97225624 0.042558193 -0.00052878325 -0.00028383356 0.00025472467 -0.00011338712 -0.97906381 0.035013855
634000000 -0.97114599 0.042383779 -0.00092551066 -0.00041739288 -0.00091068941 -0.0010676039 -0.97909957 0.03427719
635000000 -0.97213238 0.042045884 0.00098871626 -0.00021133746 0.00073918502 -0.0006708419 -0.97915787 0.034163035
636000000 -0.9721449 0.041870475 -0.0002281565 -0.00015778501 -0.00012253666 -2.3621691e-005 -0.98007178 0.035060909
637000000 -0.97309351 0.04243169 7.7733835e-005 -0.0006717639 -0.00036950916 -6.361654e-006 -0.9785713 0.034865122
638000000 -0.97259039 0.042624451 0.00019439585 2.426693e-005 0.00018241705 -0.00044744014 -0.97938347 0.033648092
639000000 -0.97240788 0.043046817 0.00019668859 -0.00036899213 0.00010352596 -0.00074326561 -0.97745264 0.035451766
640000000 -0.97160536 0.041694917 0.00046930573 -0.00027412936 0.00081250659 -2.7920236e-005 -0.97754759 0.036080923
641000000 -0.97215921 0.042954102 0.00016428492 -0.00042319769 0.00013881564 -0.00035308191 -0.97882223 0.035421114
642000000 -0.9718349 0.043512989 -0.00034540662 -0.00061327853 -0.00026607412 -0.00010549579 -0.97941035 0.035952408
643000000 -0.97267574 0.043475151 0.0002140978 -0.0006617739 5.8985475e-005 -0.00039238919 -0.97885138 0.035234597
644000000 -0.97150791 0.044052441 0.00027646541 -0.00063349737 5.7538295e-005 -7.0704002e-005 -0.98067778 0.035943974
645000000 -0.97192889 0.043452017 -0.00056810211 -0.00025892953 -0.00041880712 -0.0010252291 -0.97888285 0.034000266
646000000 -0.97117496 0.044317573 7.9231875e-005 -0.00097377971 -0.00016679596 1.3501179e-006 -0.97736591 0.035421513
647000000 -0.97208792 0.043839283 1.3154573e-005 -0.00049716933 0.00062668987 -0.00084325235 -0.97838771 0.034617785
648000000 -0.9721247 0.044134416 0.00035751818 -0.00050174393 -0.00032301302 -0.00014261079 -0.97900963 0.035168152
649000000 -0.97256911 0.043997481 -0.00040455471 0.00027399877 -0.00060507079 -3.9940132e-005 -0.97961563 0.035188481
650000000 -0.97123563 0.044041909 -0.00087517669 -0.0004830354 2.7893697e-005 -0.00080286374 -0.97753096 0.036178257
651000000 -0.97198743 0.043003723 -0.00033603248 -0.00078365864 8.0834601e-005 -0.00014017218 -0.9780525 0.034900334
652000000 -0.97262824 0.043364041 -2.2310418e-005 -6.0239821e-005 -0.00024365338 -0.00024429453 -0.97840106 0.036336914
653000000 -0.97007924 0.043896079 -5.5381654e-005 -0.00053170737 3.111042e-005 -0.00035273633 -0.97808617 0.035648122
654000000 -0.97157162 0.043487921 -0.00031505522 0.00013524042 0.00020899023 -0.00046053049 -0.97977203 0.035402309
655000000 -0.97175992 0.043818999 0.00019000749 -0.00052608596 -0.00055993558 -0.00084241631 -0.97892982 0.035790209
656000000 -0.97130257 0.043819398 -0.00025918736 -0.00030387743 -0.00044924885 -0.0004018239 -0.9790653 0.035141904
657000000 -0.97126919 0.043661006 0.0004941668 -0.00099241594 -0.00037699231 -0.0005651543 -0.97883689 0.036471963
658000000 -0.9721508 0.044415556 0.00063657505 -7.7239245e-005 0.00019107302 -0.00060729013 -0.9794327 0.034821685
659000000 -0.97180712 0.043796547 -0.00032684617 -0.00012450018 9.9399309e-005 -0.00042716454 -0.9793393 0.035522342
660000000 -0.97044474 0.045529943 -0.00041689977 -3.1032447e-005 4.6818323e-006 -0.00038190896 -0.97757852 0.034875795
661000000 -0.97208118 0.044482615 -0.00090694171 -0.00025232523 -0.00062953727 -4.136299e-005 -0.97899544 0.036194529
662000000 -0.97160417 0.044612352 0.00069810223 -0.0007671786 0.00050343509 -0.00046639581 -0.97933531 0.036328223
663000000 -0.97166854 0.043849733 -0.00018211026 -0.00038629613 -0.00086581783 -0.00054788654 -0.97860307 0.037216291
664000000 -0.97158939 0.043277927 -0.00034328713 -0.00044405294 0.00024189525 0.00015504763 -0.97942221 0.035427049
665000000 -0.97130585 0.044154543 0.00097796577 -0.00042222833 0.00044585357 -0.0010713127 -0.97828031 0.035981387
666000000 -0.97089559 0.043874107 -2.5396359e-005 -0.00038072764 -0.00049627241 0.00058993226 -0.97820401 0.03534833
667000000 -0.97122955 0.045836978 3.661446e-005 -0.00020997113 -0.0004604666 -0.00086435641 -0.97916895 0.036344305
668000000 -0.97150576 0.043858126 6.2885294e-005 -0.00011648543 0.00014552388 -0.0012312159 -0.9791944 0.036971405
