!Keysight Technologies,M9374A,MY55442783,A.12.55.05
!Date: Thursday, May 20, 2021 11:49:48
!Correction: S11(Full 2 Port(1,2)) 
!S21(Full 2 Port(1,2)) 
!S12(Full 2 Port(1,2)) 
!S22(Full 2 Port(1,2)) 
!S2P File: Measurements: S11, S21, S12, S22:
# Hz S  RI   R 50
500000000 -0.97332162 0.034868333 0.00012372399 -0.00018222464 -0.00058481545 -0.00052281679 -0.9795754 0.027529344
501000000 -0.97423732 0.033075694 -0.00010627547 -0.00017265882 -5.3542815e-005 -0.00060985913 -0.98014444 0.027809653
502000000 -0.97317576 0.033447672 -0.00042134454 0.00050806772 -0.00058253034 -0.0007643787 -0.97972906 0.028102916
503000000 -0.97371799 0.033978172 -0.00027490774 2.7001881e-005 1.2734872e-005 0.00021037174 -0.97996289 0.028449623
504000000 -0.97336078 0.033714127 -0.00028299453 -0.00029189987 -0.00040330642 0.00049229315 -0.98042917 0.026614612
505000000 -0.9730407 0.035146624 6.090404e-005 0.00013940773 0.00034794904 -0.0008033741 -0.97894263 0.028024334
506000000 -0.97335285 0.033096548 0.00015528225 0.00014322456 -5.8761507e-005 -0.0001081368 -0.98017102 0.027451489
507000000 -0.97345412 0.034547254 -0.00060557772 -0.00087134156 -0.00032795232 0.00042707319 -0.97929466 0.028568288
508000000 -0.97401959 0.034974542 -9.988308e-005 -0.00031181017 -0.00077240798 -0.00052721705 -0.9788388 0.02888019
509000000 -0.97311306 0.034666084 -0.00098303659 -0.00074782653 0.0005049851 1.0847594e-006 -0.98064095 0.027445119
510000000 -0.97250307 0.034422394 0.00042164049 -0.0005006445 -0.0002519004 -0.0009593885 -0.97786659 0.029913072
511000000 -0.97278517 0.034501765 0.00026352538 0.00016942021 -0.00025375662 -0.00048730741 -0.97959179 0.028844932
512000000 -0.97274411 0.034327053 -0.0001162318 -6.0273942e-005 0.00034684766 -0.00090226514 -0.98074174 0.028300108
513000000 -0.97352797 0.034156512 -0.0010138124 -0.00052681053 -0.00013112297 -3.8919148e-005 -0.97839379 0.029092859
514000000 -0.973023 0.034419276 0.00035801111 -0.0011033106 -0.00058948604 0.00031991588 -0.97993284 0.029196141
515000000 -0.97333807 0.035979725 -0.00026052672 -0.00032816592 0.00098105741 -0.00034395684 -0.97968441 0.028257441
516000000 -0.97319055 0.034080684 -0.00064150459 -0.00021441848 -0.00016194128 -0.0012472447 -0.97930688 0.029398657
517000000 -0.97272044 0.035952572 0.0001937341 -0.00071740395 -0.00065166439 -0.0010000382 -0.97897506 0.029732628
518000000 -0.9732126 0.035657749 -0.00033886515 -0.00084073591 -0.00021431055 -0.00038340685 -0.97844595 0.028871885
519000000 -0.97364593 0.034030046 0.00017351405 -0.00069547864 -0.00026644865 -6.2465406e-005 -0.97932947 0.029876368
520000000 -0.97264755 0.034031786 0.00031526966 -8.3363258e-005 -0.00019598461 -0.00086277124 -0.97880489 0.028736539
521000000 -0.97289824 0.035263125 -0.00055005559 -0.00029939253 -0.00022957892 -0.00041343636 -0.97934788 0.030010875
522000000 -0.97389185 0.035815541 0.00040387776 -0.00039778068 0.0001030501 -0.00021562628 -0.97884995 0.029426966
523000000 -0.97395712 0.035711452 -8.3584746e-006 -0.00037026504 0.00021837752 -0.00086893118 -0.97925961 0.029607348
524000000 -0.97238648 0.035539165 0.00014192563 -0.00087425846 -0.0011749377 2.1290705e-005 -0.97919822 0.030455304
525000000 -0.97286576 0.035479371 -0.000156896 -0.00086132094 0.00017066576 -8.9485024e-005 -0.98002374 0.029934619
526000000 -0.97120225 0.036017366 0.00023040832 -0.00038631851 0.00034594641 0.00059456343 -0.97962528 0.030555116
527000000 -0.97340983 0.036714345 0.00063794898 -0.00028800883 -0.00049069308 -2.4808673e-005 -0.97916603 0.029969005
528000000 -0.97407055 0.035904907 0.00031414942 0.00029030588 -4.2436932e-005 -0.00029297723 -0.97856492 0.030090796
529000000 -0.97301525 0.036449816 -0.00026559902 6.2926425e-005 -0.00013182085 -0.00018405035 -0.97860116 0.030374886
530000000 -0.97312391 0.036037333 -9.7544136e-005 -0.00081319269 -0.00010117098 -0.00028434308 -0.97944534 0.0303731
531000000 -0.97179192 0.035098765 -2.5554342e-005 8.6355307e-005 0.00065029471 -0.00057328871 -0.97963363 0.030952966
532000000 -0.9719075 0.038034547 5.2949985e-005 -0.00026128418 -0.00049902615 -0.00017591601 -0.97860646 0.029678121
533000000 -0.9734149 0.0358309 -0.00045284268 -0.00053174153 0.00042314647 -0.0013684466 -0.97905821 0.030989137
534000000 -0.97347152 0.03479309 -5.6788442e-005 2.7194006e-005 -0.00092221022 -6.6884364e-005 -0.97921932 0.031397559
535000000 -0.97290117 0.037817925 -0.00019620144 -0.00024851749 -0.00028324715 -0.000283706 -0.97853285 0.030462714
536000000 -0.97138739 0.036289621 -0.00033685123 -0.00095097872 -0.00037271462 -4.4481218e-005 -0.97763294 0.030129895
537000000 -0.97208369 0.036343142 0.00045421498 -0.0011373643 -0.00045396993 -0.00057607784 -0.97908986 0.031305142
538000000 -0.97346973 0.036512882 -0.00096433458 -4.6353798e-006 -0.00072755193 -0.0001442533 -0.97929585 0.029660992
539000000 -0.97381401 0.036019921 -0.00048814216 -0.00052938989 -0.00027572692 -0.00027791163 -0.97719365 0.031212304
540000000 -0.97402763 0.036533512 0.00072187348 -2.9923774e-006 4.2050451e-006 -0.00047100696 -0.9787975 0.029999319
541000000 -0.9730252 0.037524618 -0.00035792918 -0.00050490821 0.0001014425 -6.3510146e-005 -0.97891927 0.031342175
542000000 -0.97256303 0.037181664 -0.00072335458 0.00019526362 -0.00036970357 -0.00098478107 -0.97980732 0.03109874
543000000 -0.97149748 0.036411729 3.0242038e-005 -0.00056348793 -0.00023677417 -0.00074429746 -0.97901666 0.030879004
544000000 -0.97165704 0.037429519 -0.00017040005 -0.00038717163 -0.00070379814 -0.00025683819 -0.97996241 0.031003229
545000000 -0.97277701 0.036153689 -0.00017197752 -0.00029190013 0.00013506904 -0.00080915424 -0.9786967 0.030396957
546000000 -0.97289658 0.036222268 -0.00034503298 0.00033955259 5.6585974e-005 -1.8028645e-006 -0.97989148 0.030872783
547000000 -0.97265309 0.036841482 -3.9753981e-005 0.00056857499 0.00016807317 -0.00055763649 -0.97918338 0.03157356
548000000 -0.97212708 0.036570475 1.271285e-005 -0.0004881593 -0.00054482796 -0.00040372787 -0.97912633 0.032026764
549000000 -0.97161287 0.037043247 0.00067740341 -0.00090320612 0.00037458519 -0.00048949482 -0.97946674 0.03157863
550000000 -0.97132313 0.036846701 1.61225e-005 -0.00024902515 0.0005689027 -0.00016367741 -0.97842866 0.031689432
551000000 -0.97191489 0.038028114 -0.0002220813 -0.00029011548 0.00012708953 -0.00096444605 -0.9787547 0.03093143
552000000 -0.97274834 0.035624869 0.00036656341 -0.00050649559 0.00036304313 -0.00090373115 -0.97791862 0.030811705
553000000 -0.97281581 0.036351059 -0.00015530059 -8.4466345e-005 2.0557e-006 -0.00044070368 -0.97919661 0.031174393
554000000 -0.97141564 0.0358201 -0.00017418124 -0.0007646142 -2.2128166e-005 -0.00059406803 -0.97965187 0.030641425
555000000 -0.97193855 0.036191612 0.00028017844 1.3585339e-005 -4.0184535e-005 3.299351e-005 -0.9793635 0.029796069
556000000 -0.97135055 0.037091397 -0.00040267766 -0.00011797752 6.8144334e-005 -0.0002785697 -0.9794246 0.031562574
557000000 -0.9727475 0.036131952 4.4544558e-005 -0.0011627156 0.00024084425 -0.00085751852 -0.98002034 0.032128904
558000000 -0.97300643 0.0361978 -0.00021956635 -0.00010548111 0.00020991414 -0.00049072766 -0.97963709 0.031709708
559000000 -0.97257602 0.036122754 4.6557059e-005 -5.7789737e-005 -0.00037138083 -0.0001017177 -0.97988737 0.03274817
560000000 -0.97167641 0.036915965 -3.2484597e-005 -0.00036774075 -0.00012143691 -0.00034540778 -0.97981846 0.031640366
561000000 -0.97143096 0.03688854 -0.00012970358 -0.00079960452 -0.00035112197 -4.9370301e-005 -0.97868532 0.030395474
562000000 -0.97233367 0.037321258 -0.00018832886 -0.00074810308 -0.00034204687 -0.00050691608 -0.97987974 0.031815652
563000000 -0.97253048 0.037529733 -0.00038943565 -7.8724952e-005 -0.00012001108 -0.0011326071 -0.97921914 0.03153627
564000000 -0.97195613 0.036864623 -0.00064980675 -5.8818503e-005 0.0001750404 2.4371557e-005 -0.97970349 0.031754594
565000000 -0.97255325 0.036118768 -0.00044817294 -0.00070981262 -0.00060264632 -0.00064839225 -0.97958618 0.031193947
566000000 -0.97254717 0.036504079 -0.00053400948 -0.00057541311 1.5962645e-005 -0.00017314107 -0.97834599 0.030479252
567000000 -0.97215855 0.036426328 0.00036107216 -0.00036601923 -0.00034470929 -0.000724071 -0.97995597 0.031486053
568000000 -0.97253728 0.036323778 -4.1716256e-005 -0.00030859414 -0.00050268084 -0.00068680767 -0.97822684 0.031885546
569000000 -0.97288662 0.036529694 -0.00090963475 -0.00024113743 0.00021057302 2.2562892e-005 -0.97886628 0.030554939
570000000 -0.97125518 0.036016226 -0.00074235257 -0.00047316492 -0.00016422565 -0.0012006002 -0.98011518 0.031395372
571000000 -0.97129428 0.037085753 -0.00028497557 -0.00057214987 -3.6737343e-005 -0.00017004079 -0.97889096 0.031655028
572000000 -0.97147399 0.036336198 3.6507001e-005 -0.0013208488 -0.00050001981 -0.00043001442 -0.97907919 0.031094629
573000000 -0.97253847 0.036594104 -1.5602262e-005 -0.00081203098 -0.00046011733 -0.0003642175 -0.97842622 0.031751893
574000000 -0.97149801 0.034693431 0.00030875087 -0.00073745317 -0.00017687121 -0.00065678626 -0.98031664 0.029753121
575000000 -0.97236186 0.037224937 -0.00021743607 -0.00060121756 -3.254629e-005 0.00063924462 -0.9789716 0.032257892
576000000 -0.97226572 0.035866804 -0.00072449312 -4.2137963e-005 0.00044370178 -0.00091131567 -0.97903889 0.031884931
577000000 -0.97255051 0.037379891 3.6120793e-005 -0.00043977777 -4.7136586e-005 -0.00010063691 -0.97966808 0.031605363
578000000 -0.97096246 0.037335139 0.00020486236 -0.00075772917 7.8281577e-005 -0.00061999133 -0.98031783 0.031781431
579000000 -0.9726662 0.039053179 0.00042843871 -0.00018122231 -0.00067501893 -0.00056804437 -0.97993582 0.030714575
580000000 -0.97116578 0.036835365 -0.00012503189 -0.00083417213 0.00013870963 -0.00043065817 -0.97990757 0.031824045
581000000 -0.97376406 0.035998013 -0.00010361893 -0.00057382201 -0.0005080445 -0.00079738599 -0.97935569 0.031901963
582000000 -0.97177309 0.03749983 -0.00070064107 -0.00054591201 0.00028118445 -0.00070240762 -0.98013765 0.031051815
583000000 -0.97063798 0.037236981 -0.00037228159 0.0001326073 -0.00030997617 -0.00041708254 -0.97912699 0.031042513
584000000 -0.97222388 0.037372395 -0.00058240962 -0.00034062553 0.0001052977 -0.00025478232 -0.97953314 0.032328803
585000000 -0.9723689 0.037837084 -0.0001581432 -0.00015623578 0.00017436624 -0.00027692819 -0.97946769 0.031511247
586000000 -0.9732244 0.037761703 -0.00064087997 0.00013753532 -0.00020167181 -0.00061932602 -0.9798767 0.032090385
587000000 -0.97267312 0.037024777 0.00023077312 -0.00088542735 -0.00056964124 0.00050614215 -0.97966903 0.031334698
588000000 -0.97237521 0.037271179 0.0002187582 0.00013423247 -0.00056549197 -0.00074165518 -0.98004138 0.030915024
589000000 -0.97156888 0.036909442 -0.00045209096 -0.0002727953 -0.00049423368 -0.00047055076 -0.9783681 0.032404333
590000000 -0.97177643 0.039269589 -0.0003254443 -0.00013421934 0.0006266486 -0.00064815528 -0.97935385 0.031276152
591000000 -0.97245771 0.036849964 0.00023914434 -0.00053991412 0.00060858257 -0.00049244473 -0.97899187 0.031886596
592000000 -0.97330749 0.036677472 0.00032352543 -0.0001661502 0.00032168336 -0.0011368089 -0.97912121 0.031562801
593000000 -0.97137094 0.038158987 -0.00044867763 0.00031235718 -0.00056396489 -0.00023883281 -0.98028094 0.030835714
594000000 -0.97196573 0.038218774 5.6629444e-005 -0.00048075532 -0.00013573751 -0.00015084537 -0.97899282 0.032975394
595000000 -0.97056752 0.037414834 0.00044053941 -0.00039073487 0.00049883086 -0.00039999778 -0.9793781 0.03088402
596000000 -0.97164851 0.037546698 -0.00011798131 -0.0011695937 -0.00030475706 -0.0010153024 -0.97936749 0.031781301
597000000 -0.974002 0.038320187 -0.0005321136 -0.00092461472 2.8019907e-005 -0.00034453959 -0.97943497 0.032491639
598000000 -0.97346193 0.037861973 -0.00076812482 -0.00087322778 -0.00071253104 -0.0010747063 -0.97923768 0.031999622
599000000 -0.97183549 0.038209543 -0.00021928207 -0.0003858812 0.00074285397 -0.00052982802 -0.98025715 0.032471355
600000000 -0.97306025 0.037618298 0.00030911225 -0.00030049979 2.4172947e-005 -0.00044512961 -0.97929358 0.032294329
601000000 -0.9731102 0.039612256 -0.00015771657 -0.00058065081 -0.00017703621 -0.00055739796 -0.97954392 0.033167761
602000000 -0.97209567 0.038610298 -0.00071318791 -0.00027756052 -0.00081896049 -0.00060691853 -0.97902608 0.032545317
603000000 -0.97241777 0.038966656 0.0003469603 -0.00079356949 -0.00063605717 -0.00078327686 -0.98058647 0.032906566
604000000 -0.97188365 0.039400119 0.00042795995 -0.0016584304 0.00031833543 2.6786131e-005 -0.97944111 0.032792281
605000000 -0.97146487 0.038263164 -0.00054016203 -0.00066452916 0.00038547363 -0.00071347813 -0.97936547 0.031923518
606000000 -0.97177863 0.037710428 0.00025702667 -0.00047191174 0.00025418735 1.9766359e-005 -0.97867912 0.032621305
607000000 -0.97316253 0.038468994 0.00012718904 -0.00075598876 0.00023308216 -0.00036514644 -0.97781873 0.032559488
608000000 -0.97157705 0.039033961 -0.00029747095 -0.00033648332 0.00040929031 3.751873e-005 -0.980088 0.032848749
609000000 -0.97145766 0.038543131 -0.00042573528 -0.0001173241 0.00024887532 -0.00036341831 -0.9795512 0.033026747
610000000 -0.97208679 0.040127117 -0.00040422851 -0.0011512046 -4.0682571e-005 -0.00081374531 -0.9785834 0.033056051
611000000 -0.97213662 0.038846463 6.9700451e-005 -0.00056600699 -0.00019314367 -0.00070025667 -0.97863913 0.032274641
612000000 -0.97180283 0.040070519 2.8780516e-005 -0.0003837538 0.00020841269 -3.8974547e-005 -0.9793359 0.032966964
613000000 -0.97226256 0.040061384 -0.00031242284 -0.00083171536 -0.00046060543 -0.00042008667 -0.97813308 0.03358566
614000000 -0.97268993 0.040999938 -0.00030390787 -0.00042700136 -0.00036007343 -0.00010257521 -0.97916132 0.033172991
615000000 -0.97146201 0.041186918 -0.00052648335 0.00030399571 0.00011479418 -0.001035264 -0.97935283 0.033488907
616000000 -0.97196293 0.040825874 -0.00052473263 -0.00063395395 -0.00066826446 -0.00077917072 -0.97867948 0.03376982
617000000 -0.97231996 0.040117715 0.00042847151 -0.00029862765 0.0012476367 -0.00060771324 -0.97949111 0.033855844
618000000 -0.97214073 0.040221743 0.00016610426 -0.00067020039 0.00021278219 6.7282781e-005 -0.97929204 0.033196382
619000000 -0.97132313 0.041014109 0.00047247516 -0.00029854698 -0.00050838618 -0.00056953618 -0.97944057 0.032643043
620000000 -0.97103363 0.041420341 -0.00036140284 -0.00088768156 -0.00032666576 -0.0009909384 -0.97976607 0.033702016
621000000 -0.97280055 0.040483851 -0.00022361992 -0.00049186329 -3.6984387e-005 2.2074522e-005 -0.97806293 0.033964537
622000000 -0.97214788 0.041056272 0.00046912336 7.8954763e-006 0.00014889002 -0.0009970133 -0.97827572 0.033403579
623000000 -0.97163993 0.042395398 -0.00050907896 -0.00058640429 -0.0003503336 -0.00079230015 -0.97958457 0.033198949
624000000 -0.97198236 0.041026149 0.0005277624 -0.00058527157 4.3071668e-005 0.00012389949 -0.9791823 0.033684358
625000000 -0.97257644 0.042434458 0.00017290132 -0.00097469665 -0.00067447993 1.0406373e-005 -0.97773266 0.035016727
626000000 -0.97292602 0.041678526 -0.00078849128 -0.0010068906 -0.00062027544 -0.00079774065 -0.97745609 0.034813005
627000000 -0.97208482 0.042199999 5.8483285e-005 -0.00080214569 -0.00039114262 -0.00084101286 -0.97908759 0.034638997
628000000 -0.97124535 0.042209372 -6.2863008e-005 -0.00079419819 -0.00055304222 -0.00099257694 -0.97911406 0.034158677
629000000 -0.97203684 0.042615552 0.00025996525 -0.00074022304 8.4065876e-005 -0.0011769616 -0.97811657 0.035858944
630000000 -0.97210538 0.041826647 -0.00038887915 -7.7824137e-005 0.00038470866 -0.00050321716 -0.97893828 0.035779163
631000000 -0.97213274 0.041154742 -0.0013675789 -0.00043917366 -0.00060237496 -0.00049139786 -0.97949153 0.034652453
632000000 -0.9721384 0.042887855 -0.00010467254 -0.00054388482 -0.00087310851 -0.0006387264 -0.97807962 0.03407684
633000000 -0.97113657 0.043307386 5.7756642e-005 -0.0002387987 -0.00040283796 -0.0004133723 -0.97864658 0.034346256
634000000 -0.97225344 0.042656105 0.00066013064 -0.00034574323 -0.00058758236 -0.00066639361 -0.97921193 0.034275115
635000000 -0.97100931 0.042314433 -8.1483246e-005 -1.2879703e-005 0.00026860464 -0.0010244132 -0.97882533 0.034283899
636000000 -0.97235113 0.042309798 -0.00048238746 -0.00045196962 0.00049837434 -0.00017176851 -0.97837532 0.034753278
637000000 -0.97132409 0.04255233 0.00033547284 -0.00048510972 -0.00093700353 -0.00059095799 -0.97818029 0.035386231
638000000 -0.97090071 0.043733649 -0.00058509642 0.00040522587 -0.00045576121 -0.00040686951 -0.97869778 0.034463279
639000000 -0.97204936 0.04357912 -0.00029180312 -0.00021392205 -0.00016827516 -0.0004986102 -0.97919327 0.035117742
640000000 -0.97127306 0.043103028 -0.00017830284 4.4555603e-005 0.00011254192 -0.00054543978 -0.97911304 0.034713734
641000000 -0.97070897 0.042478804 -7.3401352e-006 -0.0015181077 -0.00024015362 -0.00096106739 -0.97886026 0.035673294
642000000 -0.97053146 0.042493932 -0.0010761853 -0.00020519194 0.00056214328 -0.00047718568 -0.97914624 0.035136249
643000000 -0.97131604 0.043713313 -0.00018818835 -0.00056355278 0.0002543272 -0.00029835914 -0.97829241 0.035520907
644000000 -0.97150582 0.042609639 -0.00051955023 -0.0012436298 -0.00080297422 -0.00082134648 -0.97824186 0.03626943
645000000 -0.97183424 0.043320332 0.00017815272 -0.00030152363 6.5709268e-005 -1.7491648e-005 -0.97822386 0.034427837
646000000 -0.97288013 0.043751564 0.00094147911 -0.00038673417 0.00018700646 -6.8361151e-005 -0.97898269 0.035833616
647000000 -0.97210652 0.044604104 -2.3778428e-005 -0.00037638584 0.00073935278 -0.00068115373 -0.97850454 0.0361109
648000000 -0.97248113 0.043457013 -0.00032513106 -0.00015676452 -0.00010897738 -1.8579552e-005 -0.9781847 0.037108693
649000000 -0.97098881 0.043744512 -0.00012146215 -0.00029055323 -0.0001282684 -0.001323536 -0.97886062 0.035795275
650000000 -0.9708432 0.044346072 -0.00062254397 -0.00099320663 -0.00053400919 0.00021345324 -0.97847414 0.037299745
651000000 -0.97199899 0.043660469 -0.00032420288 -0.00032018044 2.5585114e-005 6.104066e-006 -0.97878927 0.036158029
652000000 -0.97190219 0.043411281 -0.00018391293 -0.00036850391 7.7971577e-005 -0.00048150352 -0.97728789 0.035388887
653000000 -0.97231239 0.043650318 0.00015670033 -0.00056811393 -0.00022213034 -5.3085445e-005 -0.97868097 0.036122773
654000000 -0.97088951 0.044804819 8.9595218e-005 -0.00027969285 -0.00028552942 -0.00019053093 -0.97842556 0.036327869
655000000 -0.97102463 0.043857556 -0.00049791805 -0.00039505999 -6.1582148e-005 -0.00030563865 -0.97760499 0.03569559
656000000 -0.97048783 0.045321304 -0.00014187138 -0.0011217551 -0.00014771815 -0.00049244828 -0.97801048 0.035777234
657000000 -0.9721095 0.044366419 -0.00030858858 -0.00027461775 0.00046998868 -0.00087059388 -0.97934276 0.036029082
658000000 -0.97220522 0.044436954 0.00060363678 -9.3567149e-005 -0.00035593676 -0.00070024445 -0.97802919 0.035476211
659000000 -0.97060418 0.044291627 0.00013147265 -0.00037412927 -0.00058126549 -0.00075479236 -0.97845614 0.035796694
660000000 -0.97065151 0.044638626 -0.00022435217 -0.00011146979 0.00068938569 -0.00073892361 -0.97836536 0.035348747
661000000 -0.97174418 0.043206152 -0.00022172301 -0.00015015891 0.00046171705 -0.00060021598 -0.97856355 0.036187273
662000000 -0.97018939 0.044365842 -0.00012613858 -0.00023384826 -8.1609483e-005 -0.00060085522 -0.979936 0.036932558
663000000 -0.97333401 0.045362707 -2.5735571e-006 -0.00045087608 -0.00043271936 -0.00057210977 -0.97856182 0.036110274
664000000 -0.97150064 0.044479128 0.00015212708 -0.00066474563 -0.00036922257 0.00015263083 -0.97816801 0.0380885
665000000 -0.97153747 0.045342296 -0.00060503394 -0.00037824956 0.00025583911 -0.00072684127 -0.97882795 0.036707222
666000000 -0.97064549 0.044276964 -0.00031056174 -0.00044255474 -0.00023226904 -0.00078624126 -0.9795531 0.036196001
667000000 -0.97069335 0.045812096 -0.00012433885 -0.00088630087 -0.00029463728 -0.00095493055 -0.97914129 0.035043404
668000000 -0.97130358 0.044096135 0.00045996474 -0.00018585875 0.00024586212 0.00024143219 -0.97892183 0.035848051
