!Keysight Technologies,M9374A,MY55442783,A.12.55.05
!Date: Thursday, May 20, 2021 12:21:44
!Correction: S11(Full 2 Port(1,2)) 
!S21(Full 2 Port(1,2)) 
!S12(Full 2 Port(1,2)) 
!S22(Full 2 Port(1,2)) 
!S2P File: Measurements: S11, S21, S12, S22:
# Hz S  RI   R 50
500000000 -0.97017103 0.032582399 -0.00034971352 -0.00095180073 -0.00037695872 -0.00036028321 -0.97909248 0.026908984
501000000 -0.96959066 0.032714594 -0.00048246136 -0.00051675359 -0.00051375409 -0.00043788092 -0.97998571 0.027536761
502000000 -0.97140384 0.03252697 0.00045228863 -0.001133855 0.00046720193 -0.00035311602 -0.97998464 0.027840899
503000000 -0.96861774 0.03236882 0.00016499784 -8.802292e-005 0.00010993447 -0.00035004679 -0.97954786 0.027282307
504000000 -0.96830356 0.033669818 -0.00044879236 -0.00060543668 -0.00068925222 -0.00027301363 -0.98161119 0.026572492
505000000 -0.9689073 0.034304481 4.4001346e-005 0.00062774552 0.00060758984 0.00020506734 -0.97873032 0.027649421
506000000 -0.96927875 0.032305583 0.00034646786 -0.0003453643 0.00027226549 -0.000317306 -0.97809088 0.026418172
507000000 -0.96985734 0.033213031 0.00033870008 -0.00030319925 -0.0006845473 -0.00047376391 -0.98060471 0.028279696
508000000 -0.97056341 0.032901753 -0.00043805569 0.00012653085 -0.00034517649 -0.00071106863 -0.97908181 0.027706739
509000000 -0.97002429 0.033462256 0.00026271396 -0.00045606052 0.00040653202 -0.00049296377 -0.97994316 0.029029112
510000000 -0.96883887 0.034389477 -0.00023219353 0.00024499878 0.00038194511 -0.00058215525 -0.97801185 0.029392369
511000000 -0.96924525 0.034165781 -0.0001478879 0.00013775106 -0.00013865152 -0.00057101477 -0.9805789 0.02859525
512000000 -0.96886051 0.033971597 -0.00041144522 -9.4020295e-005 -9.7069642e-005 -0.00048671567 -0.9802348 0.02918338
513000000 -0.96964538 0.033580169 7.5000503e-006 0.00056205562 -3.4362867e-005 -0.00017398938 -0.9789651 0.028109863
514000000 -0.96836698 0.033704624 -0.00043129965 -0.00054094708 0.00013923126 1.269016e-005 -0.97935283 0.028883515
515000000 -0.96965742 0.033248968 0.00028270402 -0.00043906082 0.00023137474 -0.00053055986 -0.98067486 0.028939109
516000000 -0.9695549 0.035070941 -0.0001373665 0.00051887479 -0.00035763372 -0.0006865157 -0.98036683 0.028360544
517000000 -0.96951759 0.03514469 1.6695523e-005 0.00041799396 -0.00046597951 0.00012537661 -0.97969562 0.027785793
518000000 -0.96966428 0.03462996 -0.00032872314 -0.00070243899 0.0002797131 -0.00052707864 -0.9791128 0.027759291
519000000 -0.97011542 0.03324965 0.00082470855 -0.00029345616 -0.00065642077 -0.00015262108 -0.98004973 0.029533327
520000000 -0.96849805 0.035185277 0.00017911351 -0.00015782504 1.8351233e-005 5.5103512e-005 -0.97998995 0.028827321
521000000 -0.96970719 0.034290709 0.00031607589 -9.9694713e-005 -0.00016043505 -0.00074724475 -0.97905451 0.028049527
522000000 -0.97029221 0.034625974 -0.00055333652 -0.00046692448 -0.00026292063 -0.00031839855 -0.97885209 0.029462375
523000000 -0.9696272 0.032842621 1.0442229e-005 -0.0014014045 4.6569334e-005 -0.00033143911 -0.97901547 0.02916511
524000000 -0.96965158 0.035441939 -0.00042787343 -0.00011921909 -0.00012966883 8.2160128e-005 -0.97895843 0.028990647
525000000 -0.96765721 0.034657784 -0.00012483003 -0.00037176878 -0.00012975543 -0.000342093 -0.98084551 0.030691568
526000000 -0.96914595 0.035494749 -0.00082858081 -0.00036265302 -0.00023170565 -0.00075439084 -0.97935289 0.030241268
527000000 -0.96934646 0.034500897 -0.00039334391 -0.00060968188 -8.0848498e-005 -0.00081586069 -0.98060524 0.029305924
528000000 -0.96975213 0.035847407 -0.00037919029 -0.00055395288 0.00096926949 -9.7667144e-005 -0.97897571 0.029991318
529000000 -0.97008544 0.034170359 -0.00018853585 9.421198e-005 -6.1658043e-006 -0.00029518927 -0.97889972 0.029806761
530000000 -0.96939683 0.035144366 0.00049073063 -0.00018284467 -0.00044230296 -0.00098399061 -0.98035473 0.029768122
531000000 -0.96955079 0.034791462 0.00040122465 -9.6978983e-005 0.00023406306 -0.00019028962 -0.98018265 0.030221038
532000000 -0.96976137 0.035063427 5.3163626e-006 -0.00089965801 -0.00035720246 -0.00030860695 -0.97883826 0.030012783
533000000 -0.96852416 0.03482822 -0.00076294213 -0.0002089232 -0.00047823339 7.2339858e-006 -0.97962838 0.030001087
534000000 -0.9696002 0.035307642 0.00012961368 -0.00013629232 -0.00024727109 -0.00022674382 -0.97987711 0.029744085
535000000 -0.96873033 0.035037726 0.00011591357 -0.00022484991 -4.1322695e-005 -0.00043792877 -0.97791827 0.030427027
536000000 -0.96956813 0.035464194 0.00013316094 -9.2639231e-005 0.0006964613 -0.00019059553 -0.9788686 0.030396974
537000000 -0.96936613 0.034939878 -0.00073493511 -0.00092562265 -8.1535036e-005 6.4698957e-005 -0.97998589 0.031176874
538000000 -0.96966028 0.035715859 -0.00029423618 -8.5923661e-005 7.1601637e-005 -0.00062592106 -0.97884053 0.031284336
539000000 -0.96899825 0.035388164 0.00026011636 -0.00047045515 -0.00034585394 -0.00051940174 -0.97922128 0.030953702
540000000 -0.9695887 0.034662947 0.00013073071 -0.00072799105 -0.00033565407 -0.00026632196 -0.98020875 0.030542277
541000000 -0.96853894 0.035449553 -0.00012590567 -0.00064557377 -0.00013935767 -0.00026857792 -0.98011982 0.031639989
542000000 -0.9700079 0.036546271 -0.0002881391 -0.00040294268 0.0003850169 -0.00065360533 -0.97983229 0.03054603
543000000 -0.96998161 0.035374567 -0.0006803936 -0.0010747488 -0.00029602851 0.00042804689 -0.97840053 0.030933416
544000000 -0.96899033 0.035803653 0.00040681541 -0.00078567991 -0.00089514424 -0.00035626249 -0.98000199 0.030791823
545000000 -0.96991938 0.036375836 8.1920898e-006 -0.00082867895 0.00046492615 -0.00012288825 -0.97990048 0.031210521
546000000 -0.96946359 0.035650413 -0.00050918543 -0.00081985578 -2.2101489e-005 -0.00015598472 -0.97848463 0.031511035
547000000 -0.96941096 0.035544109 0.00025419105 -6.3537278e-005 0.00022708556 -0.00042833711 -0.97928858 0.03109782
548000000 -0.96854275 0.036609191 0.00036427026 -0.00084122713 0.00027621054 -0.0004249237 -0.97931451 0.031498414
549000000 -0.96889782 0.035838392 0.0001539794 -0.00034612286 -0.00020856093 -0.00046193611 -0.97999239 0.031380057
550000000 -0.96784008 0.035351101 0.0001913528 0.00018017959 -1.3904552e-005 -0.00025326243 -0.97992945 0.031868301
551000000 -0.96919143 0.036397714 0.00034254149 -0.00012737689 0.00025153853 -0.00018045102 -0.97876227 0.031189207
552000000 -0.96850061 0.035351355 0.00070772786 2.6455798e-005 -0.00024930169 -0.0009726478 -0.97832078 0.030960314
553000000 -0.96942079 0.037336186 0.00019463876 -0.00010600121 0.00034622723 -2.2392669e-005 -0.97970289 0.030283093
554000000 -0.96920538 0.035565641 -0.00010840533 -0.00026326376 -0.00053604663 -0.00034506078 -0.97927368 0.030449208
555000000 -0.96728301 0.036124993 0.00023513925 -0.0009215179 -0.00022266738 -0.00065264484 -0.9794994 0.030581856
556000000 -0.96871156 0.035268087 4.9945374e-006 -0.0004661959 0.00020841126 0.00023377 -0.97972161 0.032831207
557000000 -0.96999454 0.034749772 -0.00034166142 -0.00089436065 -9.6244781e-005 -0.00090167549 -0.98045814 0.031483449
558000000 -0.96866548 0.036469914 -7.6949082e-006 -0.00020910194 0.00085258461 -0.00027913076 -0.98015863 0.032192253
559000000 -0.96767819 0.034592215 0.00046241508 -0.00040847564 -3.154845e-005 -0.00048211581 -0.97956717 0.031670269
560000000 -0.96822172 0.035200521 -5.3833326e-005 -0.00010992686 0.00024554494 -0.00085752929 -0.97956079 0.03069924
561000000 -0.96850055 0.03492846 -0.00019571172 -7.8050281e-005 0.00021209239 -0.00084232714 -0.97770649 0.031264707
562000000 -0.96756136 0.035918705 0.00013578379 8.017302e-005 -0.00038694046 -5.2179425e-005 -0.98021245 0.031445611
563000000 -0.96883869 0.036315687 -0.00045988979 -9.8741339e-006 -0.00061218312 -0.00077776931 -0.97971582 0.032985039
564000000 -0.9684813 0.035513103 0.00032396481 -0.00050054543 -0.00042987193 5.0516795e-005 -0.98020816 0.031356461
565000000 -0.96957618 0.0362342 -0.00032661002 -0.00053489511 0.00022507375 -0.00023218393 -0.98018664 0.030839698
566000000 -0.96826136 0.034893703 0.00031749785 -0.00023689066 -0.00094423239 -0.00022209174 -0.97950202 0.030312199
567000000 -0.96873158 0.035436023 -0.00012431764 -0.00083511899 0.00024451897 -0.00041050449 -0.97967929 0.030182701
568000000 -0.96889549 0.036596481 0.00066779624 3.0552085e-006 -0.00021422716 -0.00018315147 -0.98040336 0.030592375
569000000 -0.96807504 0.035780255 -0.00027834901 -0.0013551621 0.0006209584 -0.0010980946 -0.97868961 0.0306582
570000000 -0.96786797 0.035476133 0.00017300458 -0.0005236424 -1.5638938e-005 0.00020234955 -0.97939473 0.031529285
571000000 -0.97011852 0.03557786 0.00011921075 -0.00051001133 0.00013711692 -0.00081960135 -0.97934002 0.031488504
572000000 -0.96735162 0.035642911 0.00088942947 -0.00067839923 -0.00024595435 -0.00036330768 -0.97817284 0.030660173
573000000 -0.96968734 0.035188925 3.8991886e-005 -9.1068723e-005 0.00023641743 -0.00068515289 -0.9805817 0.031700555
574000000 -0.9690159 0.036703218 -0.00032895707 -0.00031445286 -0.00027730793 -0.00094927935 -0.97893929 0.030719919
575000000 -0.96817255 0.037031502 2.7947219e-006 -1.5721949e-005 0.00033013537 -0.0002165226 -0.98033684 0.032307439
576000000 -0.96846962 0.036246616 -0.00019031327 7.110976e-005 0.00010185807 -0.00083131762 -0.98027664 0.031964939
577000000 -0.96915424 0.036461126 0.00079778512 -3.8904836e-005 -0.00036658207 -8.5369975e-005 -0.98092765 0.03049816
578000000 -0.96926904 0.036360011 -6.1010865e-005 -0.00097825273 -6.3492262e-005 0.00013225396 -0.97890437 0.03163657
579000000 -0.96773803 0.03745497 -3.2909658e-005 -0.00053825357 0.00018372567 -0.00010556229 -0.9808107 0.03004238
580000000 -0.96853667 0.03569841 0.00031496325 -0.00014940207 -0.00020876083 -0.00080667157 -0.97930449 0.031837612
581000000 -0.96778297 0.034809493 -0.00075987505 -0.00040897963 -0.0004939991 0.00025581755 -0.98090297 0.031459849
582000000 -0.96758485 0.035634786 1.7572414e-005 -0.00013500529 -0.00054729398 -0.00078850798 -0.98059601 0.031290978
583000000 -0.9687103 0.035887435 -0.00034020172 4.8757203e-005 -0.0004052548 0.00034139695 -0.98000044 0.030597208
584000000 -0.96839488 0.035680547 -2.3149067e-005 -0.00064240937 0.00045887905 -0.0004414584 -0.97813398 0.032914232
585000000 -0.96924895 0.036512882 0.00031042116 -0.00043478078 0.00096477842 -0.00042714525 -0.97843665 0.032166176
586000000 -0.96938604 0.037182778 -0.00084620086 -0.00027604183 -0.00038901856 -0.0006870798 -0.97946721 0.031484034
587000000 -0.96924031 0.036382534 0.00021471277 -0.00038196737 0.00045687842 -0.0007942525 -0.98000044 0.03227957
588000000 -0.96885753 0.035041738 0.00030585879 -0.00098997448 5.874913e-005 -0.00018402767 -0.98023653 0.03255159
589000000 -0.96893054 0.035878371 -0.0004338334 -0.00093306962 0.00015863712 -0.00050874148 -0.9786272 0.031182809
590000000 -0.96854311 0.037154298 -0.00025460409 -0.00095512305 -7.845142e-005 -0.0011410207 -0.97843921 0.031334609
591000000 -0.96921629 0.036682904 -0.00048828823 -0.00063300214 -0.00039714813 -0.00024896068 -0.97890806 0.031197265
592000000 -0.9677403 0.037058011 -0.00025419798 -0.000655738 9.1281772e-006 -0.00022317986 -0.97940576 0.031798482
593000000 -0.96941036 0.036370307 2.9431252e-005 -0.00047893493 -0.00031371627 -0.00034602368 -0.98006898 0.032157801
594000000 -0.96855241 0.036871124 -8.6339503e-005 -0.0005795827 -0.00039926189 -0.00075318222 -0.98030013 0.031736232
595000000 -0.96925062 0.036728617 -7.1482624e-005 -0.00063962414 -0.00025816404 -0.00061795593 -0.98035616 0.031806935
596000000 -0.96789593 0.037220445 0.0001493835 -0.00069007557 -0.00021990185 -0.00069387234 -0.97929662 0.03060076
597000000 -0.96816564 0.038233813 -0.00012288385 -1.2122653e-005 0.0002938403 0.00020819085 -0.97914922 0.03101125
598000000 -0.96931136 0.037952904 -0.00045080943 -0.00025921865 0.00025163597 -0.00056590256 -0.97846311 0.031988479
599000000 -0.96784049 0.036392707 -0.00017915858 -0.00044410495 -0.0001922403 -0.00030875995 -0.97940034 0.03201117
600000000 -0.96886128 0.03791194 0.0004480581 -0.00036210124 -7.6787052e-005 -0.00011831983 -0.978939 0.032080118
601000000 -0.96803987 0.039370541 0.00018026207 -0.00063136761 -1.3723332e-005 9.1012211e-005 -0.97940463 0.031885345
602000000 -0.96917671 0.037697602 -0.00027337353 -0.00050133804 0.00043757571 -0.00074670441 -0.97889417 0.033487283
603000000 -0.96899414 0.037965905 -0.00060026353 -0.00097734691 5.364883e-005 0.00036366726 -0.97939199 0.033012491
604000000 -0.96772182 0.038421642 -0.00062928692 -0.00088235061 0.0003211872 -0.00080230623 -0.98014712 0.033494953
605000000 -0.96930945 0.037782665 0.00045633496 0.00013354844 -0.00069276581 -0.00022305785 -0.97895747 0.032908592
606000000 -0.96924651 0.037676275 0.0001303168 -0.00065790646 0.00017205765 -0.00033979915 -0.97858948 0.032474466
607000000 -0.96780306 0.038043968 -0.00051509833 -0.00038714666 -0.0003439938 0.00032822529 -0.98007351 0.03144376
608000000 -0.96840519 0.039408963 -0.00032019182 -0.00034840647 -4.3344673e-005 -0.0014049547 -0.97842669 0.032624032
609000000 -0.96780914 0.039194327 0.00053168187 -0.0003287397 -9.6822412e-005 -0.0012062633 -0.9786132 0.032233726
610000000 -0.96734935 0.038909558 0.0001343219 -1.7475371e-005 -0.00015350214 0.00044096966 -0.97945797 0.032610994
611000000 -0.9681266 0.039345231 -5.8633364e-006 4.1376643e-005 -0.00078388158 -0.00076875568 -0.97904366 0.033008996
612000000 -0.96871948 0.039010894 7.010316e-005 -0.00012818395 -0.00012817334 -0.00066730101 -0.97951317 0.03420021
613000000 -0.96762389 0.038962819 -0.00056507252 0.00010276355 -1.9643141e-005 -0.0014545309 -0.98001111 0.032270182
614000000 -0.96934205 0.03856048 -0.00035107674 -0.00040381949 0.00077032443 -0.00023193873 -0.97933859 0.032015979
615000000 -0.96815985 0.038349543 0.00018230655 -0.0003423249 -0.0003580582 -0.00042632123 -0.97989237 0.033440553
616000000 -0.96908212 0.039108902 0.00017644244 -0.00047886913 -0.0004721093 0.00019969659 -0.97844559 0.032721773
617000000 -0.96948671 0.040467735 -0.00050649105 -0.0002676135 -0.00023222594 -0.00077787193 -0.97964185 0.03448014
618000000 -0.96958947 0.040014923 0.00010162005 -0.00054905523 -0.00040858032 -0.0010468652 -0.97852772 0.034350846
619000000 -0.96708083 0.040179625 0.00061730086 -0.0010334477 0.00023466004 -0.001140396 -0.97975719 0.032484028
620000000 -0.96768057 0.038680129 0.00019185711 -0.0013387091 0.00041063814 5.5600343e-005 -0.97950894 0.03391945
621000000 -0.96982491 0.039695337 0.00010218677 -0.00063247717 -0.00022121519 3.5594279e-005 -0.97909808 0.033673618
622000000 -0.96807122 0.038835153 -0.00023421782 0.00039130621 -0.00017272054 -0.00049785309 -0.97942889 0.034626581
623000000 -0.96744329 0.040574577 0.00016094046 -0.0008018323 -0.00045224535 -0.00028053325 -0.97924489 0.033337053
624000000 -0.96732736 0.040343713 -0.00024910906 -0.00062234735 0.00031705239 -0.0010002967 -0.97911298 0.032862205
625000000 -0.9683032 0.04242843 -0.00013708547 -0.0011222945 0.0001944142 0.00022299014 -0.9798004 0.033496391
626000000 -0.96903318 0.04064906 -0.00017292901 -0.00064818503 -0.00056018884 3.1586464e-005 -0.97899377 0.035068691
627000000 -0.96833766 0.041098796 -0.00016755052 -0.00064747233 -0.00040980749 -0.0005575926 -0.97877723 0.033677325
628000000 -0.96875882 0.040532142 0.0007307565 -0.00056088244 0.00064900488 -0.00069023151 -0.97851527 0.035696775
629000000 -0.96798986 0.041817199 -0.00034011627 -0.00048059219 -2.3150689e-005 -0.0007220853 -0.98022354 0.03363144
630000000 -0.96721095 0.041229129 0.00048058343 -0.00025076148 0.0002381338 -6.5158483e-009 -0.98058921 0.035389014
631000000 -0.96948409 0.041454416 0.00072594103 0.00060799759 -0.00026908057 -0.00073163706 -0.9788903 0.0347833
632000000 -0.96777648 0.042296078 -0.0001984421 -0.00010093495 -0.0002925049 -0.00025981493 -0.97881639 0.033636153
633000000 -0.96768123 0.040634889 -0.00017981351 -0.00038324291 -0.00046279735 -0.0012425538 -0.97934073 0.034644082
634000000 -0.96783882 0.04180878 0.00023244612 -0.0006413309 0.00030919706 -0.0002102264 -0.97898269 0.034777623
635000000 -0.96890104 0.041509442 -3.1427047e-005 -0.00069371017 2.7002156e-005 -0.00027786 -0.97924244 0.03454319
636000000 -0.96817946 0.041691229 0.00057256129 -0.00060888438 3.2637166e-005 -0.00034373306 -0.97989023 0.033847876
637000000 -0.96749789 0.041717704 -0.00027138804 1.1973014e-005 -0.0003413595 -0.00053846743 -0.97918868 0.033992119
638000000 -0.96754324 0.041342374 -0.00035486111 -0.00038213102 -6.8341382e-005 -0.00018841603 -0.97834247 0.034129497
639000000 -0.96920848 0.041156702 -0.00069037097 -4.3234391e-005 -0.00035089214 -4.221467e-005 -0.97786158 0.03524702
640000000 -0.96783888 0.042573243 -0.00059261249 -0.0008123694 0.00051469897 -0.00065380288 -0.97859943 0.034666907
641000000 -0.9683184 0.041932523 -0.00037310275 -0.00034115702 -0.00019050571 -0.00057448685 -0.97876447 0.034692191
642000000 -0.96862036 0.042525906 -7.4364834e-005 -0.00018354142 0.00011480183 -1.1787496e-005 -0.97956765 0.035033938
643000000 -0.96765101 0.04304361 -0.00020848939 -0.00054760335 -0.00056701084 -0.00025749113 -0.97829527 0.034648322
644000000 -0.96848202 0.042624883 -2.5091016e-005 0.00038838622 -0.0002824158 -0.00094456156 -0.97889692 0.035210334
645000000 -0.96743733 0.043061223 -5.8883732e-005 -0.00025899618 -0.00010423758 -0.00012240419 -0.97945744 0.034866352
646000000 -0.96739954 0.043462783 0.00035809516 -0.00068698596 1.2676698e-005 -0.00047144052 -0.97751266 0.035702743
647000000 -0.96831638 0.043595444 -7.0342896e-005 -0.0005531488 0.00032792671 -0.00056239945 -0.9794631 0.034601845
648000000 -0.96796232 0.042411696 0.00029944145 0.00015900274 0.00052365358 -0.00033861946 -0.97866446 0.03569451
649000000 -0.96804631 0.042722192 -0.00060439832 -0.00031678058 -7.2999421e-005 0.00015298006 -0.9787159 0.035501238
650000000 -0.96772486 0.043045521 -0.00026315829 -0.00098754757 -0.00021515122 -0.00038153099 -0.97779089 0.036208637
651000000 -0.96813071 0.043001004 0.00033684025 -3.0771636e-005 2.5200261e-006 -0.00063039019 -0.97866428 0.035778593
652000000 -0.96732557 0.04262574 -0.00023609707 -0.00016120453 -0.00071780523 -0.00040257329 -0.97820079 0.035172883
653000000 -0.96822995 0.041928686 -0.0008414195 0.00019971728 -0.00066390692 -0.00094572676 -0.97944468 0.035090093
654000000 -0.96672481 0.043110885 0.00017359023 -0.00081451901 -0.00021596318 -0.00038997663 -0.97970015 0.034790576
655000000 -0.96639931 0.043768421 -0.00060751615 -0.00083352532 4.8364574e-005 -0.00013805361 -0.97911066 0.035124496
656000000 -0.9669553 0.043389518 -0.0008085731 1.497048e-005 -0.00029611532 -0.00054592534 -0.97842515 0.035502449
657000000 -0.96820831 0.043451507 -0.00023168027 -0.00097031239 -0.0010823262 -0.00085565203 -0.97872251 0.035017706
658000000 -0.96672332 0.043559559 0.00030448611 -0.0003608281 -0.00027153004 -0.00021740147 -0.97872996 0.034677286
659000000 -0.96635622 0.043287676 6.1449823e-006 -0.00033438148 0.00060021767 0.00039146817 -0.97976446 0.035751987
660000000 -0.96678853 0.044738658 5.6297722e-005 -0.00039704988 -0.00079743151 -0.00039301082 -0.97815132 0.034457766
661000000 -0.96816182 0.043914229 0.00027597262 -0.00021710106 0.00020572546 -0.00016763889 -0.97848052 0.035852585
662000000 -0.96836537 0.04326402 -9.1085327e-005 -0.00022041511 0.00054647925 -0.0011749964 -0.97894537 0.035807095
663000000 -0.96767992 0.043830011 0.00046101358 -0.00011774008 -0.00063679606 -0.00061777432 -0.97838742 0.03639951
664000000 -0.96730167 0.043768078 -0.00054649776 -0.00027968606 0.0002522486 0.00066934386 -0.9787308 0.03555486
665000000 -0.96756721 0.042671919 0.00067213125 -4.9148284e-006 0.00039784677 -0.00025499024 -0.97824645 0.035640836
666000000 -0.96907514 0.043241147 -0.00038214226 -0.0010124468 -4.4741697e-005 -0.00058879034 -0.9784801 0.03551472
667000000 -0.96641511 0.044162598 -2.5154037e-005 -0.00038646293 0.00026328082 -0.00068100222 -0.97921813 0.035898235
668000000 -0.96716201 0.043924477 -0.00029715907 -0.00066319451 0.00066729472 -0.00053175323 -0.97938424 0.035287131
