!Keysight Technologies,M9374A,MY55442783,A.12.55.05
!Date: Wednesday, May 19, 2021 19:31:12
!Correction: S11(Full 2 Port(1,2)) 
!S21(Full 2 Port(1,2)) 
!S12(Full 2 Port(1,2)) 
!S22(Full 2 Port(1,2)) 
!S2P File: Measurements: S11, S21, S12, S22:
# Hz S  RI   R 50
500000000 -0.81243759 0.069545731 0.0003858016 -0.0020948437 -0.00057817041 -0.0018236132 -0.81899768 0.065526783
501000000 -0.81106442 0.069728911 0.00089272286 -0.0010864298 -0.0005107341 -0.0016002269 -0.81801361 0.065053463
502000000 -0.8118065 0.070188992 -0.00083425635 -0.00093883858 0.00031351097 -0.0016727047 -0.81780767 0.065023318
503000000 -0.81232846 0.06890057 -0.00045067276 -0.00040494246 0.00017738393 -0.001593852 -0.81808507 0.06565614
504000000 -0.8109594 0.07053443 -0.00012164249 -0.0018228677 -0.00068414409 -0.0012957446 -0.81746846 0.06502223
505000000 -0.81167328 0.069761612 0.00060757081 -0.001939691 -0.00075869303 -0.00095869985 -0.81748563 0.064908229
506000000 -0.81082076 0.071799278 -0.00078562717 -0.0018149923 0.00066333212 -0.00052306533 -0.81806046 0.065283
507000000 -0.81153935 0.069177479 -0.00125701 -0.001751742 0.00045275412 -0.0013336332 -0.81816679 0.067035943
508000000 -0.81095338 0.069758788 -0.00046678603 -0.0016664222 0.00016621777 -0.0012621575 -0.81754196 0.066192664
509000000 -0.81171191 0.071368068 0.0004967904 -0.00089474174 -0.0002662742 -0.0013855679 -0.81826693 0.067233555
510000000 -0.81177664 0.072079651 -0.0005029756 -0.0019984213 -0.0015901666 -0.001541052 -0.81845134 0.065898389
511000000 -0.81118989 0.071770288 0.00040432153 -0.00025649637 0.00081243087 -0.0015278056 -0.81670243 0.067066662
512000000 -0.81214058 0.070507936 0.00027448568 -0.0021828229 -0.001069936 -0.001677983 -0.81778908 0.067505836
513000000 -0.81193101 0.071169809 -0.00099056994 -0.0023193946 -0.00079025171 -0.00088844507 -0.81800598 0.067360461
514000000 -0.81122637 0.071484223 -0.00056770234 -0.00043988079 -0.00044863287 -0.002588758 -0.81703633 0.067177162
515000000 -0.81169325 0.072644718 -0.00041155491 -0.001051144 0.00010061647 -0.00091520452 -0.8187719 0.06757427
516000000 -0.81211501 0.073218197 2.6026604e-005 -0.000925623 -0.00045895096 -0.0012941379 -0.81782198 0.066112921
517000000 -0.8117221 0.072610542 0.00041497455 -0.0013522285 0.00026699188 -0.0018115655 -0.81704164 0.06836845
518000000 -0.81211656 0.073420361 3.9442664e-005 -0.002552981 -0.00046138841 -0.0016548841 -0.81785738 0.067901641
519000000 -0.81168348 0.071668424 0.00019400589 -0.001386339 0.00054636074 -0.0012799309 -0.8178373 0.068859927
520000000 -0.81163025 0.072725132 -0.00089579361 -0.0018054264 -0.0010048806 -0.0013538668 -0.81785887 0.067312583
521000000 -0.81164616 0.074270755 -0.00052677101 -0.00019888302 0.0001462416 -0.00062582426 -0.81747591 0.069313794
522000000 -0.81264299 0.072401002 -0.00081263325 -0.00081565621 0.00059068837 -0.0022892805 -0.81820822 0.069605269
523000000 -0.8114379 0.072734192 6.4005122e-005 -0.0013375415 -0.00033715123 -0.0010513489 -0.81785959 0.068111807
524000000 -0.81061482 0.072944388 -0.00076413021 -0.0012828126 0.00041547482 -0.0016608521 -0.81866509 0.067378275
525000000 -0.81141102 0.073731117 -0.0011989685 -0.00084905868 0.0013375117 -0.00067939435 -0.81726283 0.070572712
526000000 -0.81207919 0.075302079 -0.00025087246 -0.0015241731 0.0002251886 -0.002696675 -0.8176021 0.068534128
527000000 -0.8123346 0.073748052 -0.0011955735 -0.0024261479 -0.00012383296 -0.0015937182 -0.81842524 0.06937556
528000000 -0.81082946 0.076181248 -0.00044535979 -0.0022765351 -0.001265367 -0.00089225691 -0.81835252 0.069103152
529000000 -0.8129611 0.073792964 -0.00058371708 -0.0014209078 0.00017542565 -0.0015862132 -0.81848145 0.070007041
530000000 -0.81162846 0.074961387 0.00049244822 -0.00038254951 -0.00042351897 -0.002681786 -0.8178398 0.069117822
531000000 -0.81142819 0.075148784 -0.0004416678 -0.0013702855 0.0010930159 -0.0016997735 -0.8173244 0.071557976
532000000 -0.81166416 0.073152907 8.2714789e-005 -0.0016056122 0.00036837964 -0.0015301873 -0.81793553 0.068622537
533000000 -0.81088448 0.075630628 6.8562156e-005 -0.0011107357 0.00039874858 -0.0024443108 -0.8171382 0.070771277
534000000 -0.81368375 0.075945996 0.00068645249 -0.0014296925 0.00044703035 -0.00079223374 -0.81709206 0.07148505
535000000 -0.81252325 0.075265124 -0.00021015247 -0.0016670905 -0.00024632213 -0.0016023904 -0.8172673 0.070530906
536000000 -0.8108139 0.074822426 0.0011258172 -0.0017621197 -0.00066737912 -0.0017443625 -0.8165136 0.068656191
537000000 -0.81078577 0.076516896 -0.0005568912 -0.0019607828 -0.00029309132 -0.0024426479 -0.81805319 0.070408083
538000000 -0.81155854 0.075198002 -0.0010025111 -0.0015801464 -0.00016071813 -0.0014228553 -0.81909937 0.072185479
539000000 -0.81023633 0.075403526 -0.00014873072 -0.0013501174 -0.00070393173 -0.0010339461 -0.81797791 0.071050398
540000000 -0.81140172 0.076234922 0.00042840766 -0.00090773596 0.00019592406 -0.0018278459 -0.81820494 0.07143642
541000000 -0.8114326 0.076193303 0.00051645708 -0.001597013 0.00017930657 -0.00083145493 -0.81698024 0.071022354
542000000 -0.81232601 0.075393669 0.00010393519 -0.0018442416 -0.00090834335 -0.0012493941 -0.81709588 0.072352827
543000000 -0.81097662 0.074836165 -0.00064936682 -0.0011997444 -0.00029557617 -0.001062616 -0.81821322 0.071561307
544000000 -0.81004852 0.076957703 -2.0481222e-005 -0.0013838133 -0.00044639275 -0.0011247321 -0.81778133 0.071219772
545000000 -0.81304115 0.07698103 4.9158185e-005 -0.00097326981 -0.00050856045 -0.0011539095 -0.81617403 0.07185857
546000000 -0.81069827 0.0757882 -7.8302197e-005 -0.0014829577 -0.00034411781 -0.0011341602 -0.81681991 0.07263267
547000000 -0.8123076 0.078038268 -7.4656571e-005 -0.0022428569 0.00019717048 -0.0021131877 -0.81791985 0.071815036
548000000 -0.81053132 0.076742664 -0.0010379705 -0.001327407 -0.0002225319 -0.0015640145 -0.81653005 0.071614064
549000000 -0.81063992 0.076495379 -0.00078625139 -0.0013637169 -0.00028268358 -0.0012271557 -0.81785995 0.072889812
550000000 -0.81015342 0.077818252 0.00068856776 -0.0011962568 -0.00065138441 -0.0011671041 -0.81844097 0.072255209
551000000 -0.81102949 0.077122934 0.0003289083 -0.0011896576 -0.00039848508 -0.0016599307 -0.81889778 0.072803341
552000000 -0.81021541 0.075294286 -0.00016119503 -0.0012376219 -0.00051244715 -0.0015143404 -0.82034349 0.07325922
553000000 -0.81267375 0.07734488 -0.00080836104 -0.00038308889 -0.00069725595 -0.0021923264 -0.81801707 0.072597027
554000000 -0.81103736 0.076447695 0.000260892 -0.0026259676 -0.00096492103 -0.0022756229 -0.81853002 0.073460467
555000000 -0.81154722 0.076732285 0.00018551627 -0.0015264283 -0.00060129573 -0.00060250273 -0.81662005 0.072452679
556000000 -0.81159282 0.075711958 -0.0010960909 -0.0022081982 -2.2888034e-005 -0.00070714811 -0.81941879 0.07385198
557000000 -0.81033045 0.075724341 0.00078994711 -0.00098237291 1.1999336e-005 -0.0010599336 -0.81891763 0.073209003
558000000 -0.81044394 0.075534999 1.3086227e-005 -0.0012170296 -0.00011238357 -0.00077617966 -0.81779498 0.071445748
559000000 -0.81103247 0.07821127 0.00057670276 -0.0013726146 -0.00061289786 -2.1230342e-005 -0.8170982 0.075055584
560000000 -0.81143874 0.077718779 -0.00010592915 -0.0011615134 5.9722079e-005 -0.0021870676 -0.81761825 0.073984183
561000000 -0.81202966 0.077341609 -0.00060784112 -0.0011534441 -0.00075422262 -0.0017226192 -0.81809086 0.073150985
562000000 -0.81128097 0.078422487 -0.001356215 -0.0020137886 -0.00057880365 -0.0015894799 -0.8178193 0.073932499
563000000 -0.81070715 0.07832884 -0.0010873396 -0.00064606941 -0.00087062834 -0.0015655393 -0.81742471 0.073637344
564000000 -0.81072015 0.078034401 0.00029509535 -0.0018760033 -8.5105465e-005 -0.0012921687 -0.81857783 0.072309762
565000000 -0.81141591 0.076954916 -0.00034355422 -0.0012458151 0.00086300023 -0.0017721428 -0.81772888 0.073834412
566000000 -0.81176007 0.076786466 0.00072174839 -0.0017717553 -0.00077871606 -0.00032910614 -0.81889093 0.074780807
567000000 -0.81138188 0.079034418 0.00010979672 -0.00095567876 -0.00061563501 -0.0012706555 -0.81788373 0.074315645
568000000 -0.81112951 0.078800596 2.1907603e-005 -0.000879717 -0.00036364197 -0.0022911115 -0.81679595 0.074357949
569000000 -0.81207329 0.079369374 0.00052585831 -0.0014374275 -0.00091312081 -0.0017735392 -0.81836444 0.073121391
570000000 -0.81033051 0.07718154 -1.6772834e-005 -0.0016876949 -0.00031399674 -0.0013357704 -0.81841624 0.074661575
571000000 -0.81120569 0.078756742 -0.00055056385 -0.0008002473 0.0002021767 -0.0021746254 -0.8175227 0.075044915
572000000 -0.81008244 0.077842057 3.7660753e-005 -0.0010869958 -0.00032898862 -0.001220269 -0.81652272 0.073456228
573000000 -0.81068575 0.078651391 0.001024839 -0.0015911787 -0.00071857998 -0.0013449816 -0.8168363 0.074205376
574000000 -0.81065571 0.077823639 0.00025132031 -0.0013217129 0.00016043277 -0.001081842 -0.81711745 0.075243548
575000000 -0.80821127 0.077479206 -0.00012528826 -0.00045524575 9.4179384e-005 -0.00098438864 -0.81873441 0.075300194
576000000 -0.81102127 0.079459451 -0.00059548917 -0.002284734 -0.00023972182 -0.0015682214 -0.81659257 0.075888112
577000000 -0.80896056 0.078566119 0.00034154294 -0.00084929075 -0.00032756044 -0.0024041573 -0.81782824 0.074806534
578000000 -0.80946356 0.079558045 -0.00063937384 -0.0015756601 0.00025095599 -0.0015305897 -0.81927228 0.075696029
579000000 -0.81138688 0.078773201 -9.0723552e-005 -0.0010274998 0.00012590893 -0.0017811498 -0.81654549 0.075961068
580000000 -0.81100398 0.079462267 -4.6915429e-005 -0.0010812663 -0.0002469249 -0.001660744 -0.81767792 0.07399302
581000000 -0.80977112 0.079174027 4.2291096e-005 -0.002382589 -0.0013979211 -0.00089189503 -0.81616896 0.074224025
582000000 -0.81063735 0.078380771 -0.00097916578 -0.0010284731 -0.00041394314 -0.0020030763 -0.81723285 0.076124936
583000000 -0.81026858 0.080606624 -7.012899e-005 -0.00091916946 6.0246439e-005 -0.0017353499 -0.81837308 0.076587074
584000000 -0.81039834 0.078759946 -0.00011427197 -0.0014045332 3.1359461e-005 -0.0014251532 -0.8161819 0.076164559
585000000 -0.81032825 0.079821713 -1.7325376e-005 -0.0022356859 0.00016938803 -0.0010962321 -0.81830019 0.076324314
586000000 -0.81067312 0.079688869 0.00043383904 -0.00071126706 0.00073900627 -0.0010925499 -0.81867599 0.075068593
587000000 -0.81034398 0.081009142 -0.00063351559 -0.0023851972 -0.00012171737 -0.00096852757 -0.8181873 0.074779652
588000000 -0.81032443 0.080672927 -0.00067400635 -0.0016224595 -0.00064893509 -0.0015633909 -0.81748283 0.076728463
589000000 -0.81018293 0.081151746 -7.6349083e-005 -0.002025672 0.00049290346 -0.0022046147 -0.8161695 0.077035785
590000000 -0.80992734 0.080583461 -8.0464124e-005 -0.0028491751 0.00022239708 -0.0019483428 -0.81571865 0.074519955
591000000 -0.80950558 0.082273625 -0.0010702047 -0.00032288668 -0.00036170252 -0.0020397084 -0.81753844 0.077217512
592000000 -0.81053269 0.080628492 9.9456542e-005 -0.0024952395 0.00059378421 -0.0012894393 -0.81681043 0.07670062
593000000 -0.80997109 0.07860209 -0.00026046217 -0.0015674722 0.00059808913 -0.00087429438 -0.81714028 0.077689692
594000000 -0.81056857 0.081214041 0.00060089934 -0.0011880925 -0.00036183841 -0.0014601424 -0.81751263 0.077390864
595000000 -0.81057125 0.081756882 -0.001871512 -0.0014079909 0.00093444245 -0.00022684789 -0.81920749 0.077119187
596000000 -0.80972117 0.083022848 -0.00042973165 -0.0021950905 9.96374e-005 -0.0011574804 -0.81802648 0.077943005
597000000 -0.8098799 0.080316141 0.00017151557 -0.001795406 -0.00034195563 -0.0016330126 -0.81795478 0.076783337
598000000 -0.80993581 0.082191274 -0.00068075291 -0.0015592944 0.00049044343 -0.0011435818 -0.81796473 0.076957874
599000000 -0.80869693 0.081426643 0.00015698015 -0.0013717578 -0.00033830429 -0.0015617865 -0.81862295 0.077253819
600000000 -0.81050134 0.081707455 2.5887664e-005 -0.0015854208 -0.00023727404 -0.0014525598 -0.81770647 0.076423779
601000000 -0.8097747 0.082764834 -0.00078039814 -0.0010605706 0.00038224188 -0.001276932 -0.81746083 0.07838738
602000000 -0.81099576 0.081881605 0.00017168038 -0.0011051394 -0.00098733569 -0.0022249513 -0.81712496 0.077066712
603000000 -0.81166923 0.082407832 -0.0010007333 -0.0013989098 1.5030081e-005 -0.0022712839 -0.81737673 0.076667257
604000000 -0.80966061 0.082705684 0.00030508419 -0.0022704827 0.0012935804 -0.0010548109 -0.81644118 0.079756759
605000000 -0.80960828 0.083583087 -7.6868688e-005 -0.00074533198 -0.00034910144 -0.0021196008 -0.81641728 0.079159491
606000000 -0.81009322 0.082800739 -0.00032413157 -0.0011228016 -0.0010222666 -0.0016931484 -0.81701452 0.077452324
607000000 -0.80955976 0.083759427 0.00105224 -0.0019633065 0.00015566908 -0.0013833438 -0.81868273 0.077957034
608000000 -0.81040996 0.083117709 -0.00085591857 -0.0016303638 -0.0013388862 -0.0018022691 -0.81667662 0.077609465
609000000 -0.80959034 0.084282279 -0.00051139318 -0.0014961014 -0.00090520066 -0.0017626946 -0.81833524 0.07872536
610000000 -0.80955637 0.082859553 7.3792238e-005 -0.0017704953 -0.0018285639 -0.0020215062 -0.81684518 0.080093391
611000000 -0.81016368 0.083929561 -0.00094235549 -0.00083849853 -1.4818866e-005 -0.0028515782 -0.81703818 0.079983026
612000000 -0.8094216 0.084386729 -0.00050346548 -0.0013124739 -0.00079485308 -0.0023055419 -0.81770414 0.080119997
613000000 -0.80803287 0.085595272 -0.00072710623 -0.00076231384 0.00057522353 -0.0021848355 -0.81589019 0.079204254
614000000 -0.80885291 0.086163156 -0.00035874135 -0.0024299093 0.00050515763 -0.0014977116 -0.81687719 0.079319321
615000000 -0.8109408 0.085355736 -0.00015325418 -0.0024555225 -0.00044784762 -0.0013193996 -0.81610006 0.079805419
616000000 -0.81135941 0.086707763 0.00053733611 -0.0014756706 -0.00093218725 -0.0019709715 -0.81629378 0.081608735
617000000 -0.81033266 0.084753841 -0.0005391005 -0.0013833912 -0.0010594856 1.8159588e-005 -0.8180325 0.078674607
618000000 -0.81068629 0.085840225 2.3351463e-006 -0.00086226175 -0.00054064137 -0.00098891393 -0.81622869 0.080840491
619000000 -0.80893779 0.085869461 0.00069871161 -0.0017050388 0.00035109263 -0.0020725334 -0.81610286 0.080482557
620000000 -0.81033272 0.086010478 -0.00047429913 -0.0010344556 -0.00053919718 -0.0009664839 -0.81589031 0.080058224
621000000 -0.80958807 0.087096602 -0.00053187355 -0.0014194692 -0.00058588409 -0.0010184607 -0.81657338 0.081154443
622000000 -0.80821508 0.08577428 0.00021699751 -0.0012498047 0.00033300242 -0.0011899689 -0.81381929 0.081255779
623000000 -0.8108595 0.086213179 -0.00064649241 -0.0023266857 -0.00036537525 -0.0017589374 -0.81574529 0.080077089
624000000 -0.81011569 0.086783186 -0.0005983336 -0.0012606493 -0.0002004346 -0.00088645687 -0.816755 0.080869488
625000000 -0.80942029 0.086758688 -0.0008454856 -0.0016161448 0.00010775098 -0.0023528633 -0.81628287 0.080028571
626000000 -0.80940133 0.086983614 0.001291897 -0.0015843352 -1.8652167e-005 -0.0016189863 -0.81386602 0.082991771
627000000 -0.8094995 0.087129973 -0.0014696722 -0.00055396504 -0.00045513615 -0.0015482272 -0.8176862 0.080135204
628000000 -0.80829936 0.087053195 0.00023299312 -0.0017411707 -0.00087380467 -0.0014633257 -0.81558347 0.082056597
629000000 -0.80919796 0.087878227 0.00062572438 -0.00064038928 -0.0001506133 -0.0023332627 -0.81662607 0.082976244
630000000 -0.80862576 0.087963231 -0.0012590539 -0.0019172884 0.00046737643 -0.0018749699 -0.81630915 0.082355969
631000000 -0.80863035 0.086977154 -0.00039763597 -0.00043275417 -0.00014405132 -0.0020746386 -0.81839365 0.081590131
632000000 -0.8101331 0.088890806 -0.0013632246 -0.0020626038 -0.00030761055 -0.00184606 -0.81681222 0.082092158
633000000 -0.80876136 0.088582613 0.00069600344 -0.0023570624 0.00040188467 -0.0011779441 -0.81628811 0.083121441
634000000 -0.81069434 0.089025997 -0.00067130307 -0.0023907737 -0.00042663474 -0.002197521 -0.81751126 0.08333195
635000000 -0.80857688 0.08728189 -0.00036199248 -0.002166779 -0.00086407445 -0.0014890883 -0.81644201 0.082969166
636000000 -0.80855763 0.088068433 0.00046200593 -0.0011722484 -0.001085817 -0.0018661423 -0.81517065 0.082103938
637000000 -0.80910546 0.089063883 -5.0551629e-005 -0.0010492367 -0.00039756592 -0.0012549083 -0.81640536 0.081866659
638000000 -0.8095783 0.088480532 -0.00015640784 -0.0020695077 3.4062854e-005 -0.0014689022 -0.81589752 0.082048923
639000000 -0.80997497 0.090875857 -0.00049085706 -0.0019953274 -4.5198003e-006 -0.0008480071 -0.81557649 0.083977751
640000000 -0.80860156 0.090015151 -0.00078120065 -0.0013318041 -0.00042410576 -0.0017214563 -0.81586605 0.083054744
641000000 -0.80927145 0.088721499 -0.00054195832 -0.0019320745 2.0348883e-005 -0.0013249528 -0.81609184 0.082979068
642000000 -0.8073467 0.089039907 -0.00060816255 -0.0014903832 8.4866388e-006 -0.00065292855 -0.81603003 0.084337011
643000000 -0.80963099 0.091167763 -0.00077945931 -0.00078790332 -6.3738749e-005 -0.0016036053 -0.81554914 0.082729213
644000000 -0.80865705 0.089993186 -0.00053225202 -0.0022649621 -0.00053573604 -0.0013043081 -0.81657284 0.084142007
645000000 -0.80896658 0.090693891 0.00070338306 -0.0016707919 0.00030133824 -0.0021181118 -0.81592304 0.083196402
646000000 -0.80881089 0.091002405 -0.00062850368 -0.0014392636 -0.00018442883 -0.0022243522 -0.81596392 0.084308155
647000000 -0.8090294 0.091242522 -0.00014781058 -0.0024023203 0.00063342619 -0.00086015672 -0.81676513 0.083550565
648000000 -0.80743593 0.091790073 -0.00049315736 -0.0015605247 -0.0004186673 -0.00065958669 -0.81581521 0.084510155
649000000 -0.80836815 0.092059664 -0.00041401651 -0.0021435763 0.00043975771 -0.0018410854 -0.81694978 0.084396094
650000000 -0.80815876 0.091821894 -0.00056887133 -0.0013606115 0.00019741533 -0.0014761005 -0.81581229 0.08509209
651000000 -0.8090151 0.089816153 0.00065684476 -0.0018415501 -0.00074952235 -0.0021431788 -0.81592345 0.084880605
652000000 -0.80873454 0.090141088 -0.00030930204 -0.0026132285 0.00010793715 -0.0019596547 -0.81466252 0.085948706
653000000 -0.80857414 0.090978652 -0.00073755626 -0.0017950778 0.00033191708 -0.0023614869 -0.81512666 0.085583359
654000000 -0.80871546 0.091335453 -3.9465776e-005 -0.00096424553 -0.00012358763 -0.0015926477 -0.81580299 0.085755311
655000000 -0.80759501 0.091481127 -0.00027561872 -0.0023487229 -0.00060861494 -0.0018037678 -0.81582332 0.085744515
656000000 -0.80824548 0.091485538 -5.0102008e-005 -0.0015358776 -0.00082299026 -0.0011070139 -0.81628489 0.085177034
657000000 -0.80810112 0.091861345 -7.0861061e-005 -0.0021119795 0.00010130942 -0.0017465833 -0.81505275 0.085318886
658000000 -0.80772072 0.091623805 -0.001649717 -0.00097087794 -3.4732879e-005 -0.0024106978 -0.81701928 0.083366007
659000000 -0.80771559 0.092477255 -0.00064343412 -0.0018744252 -0.00048448783 -0.00052478048 -0.81530255 0.085896082
660000000 -0.80879658 0.093087949 -0.00049762108 -0.00033926356 -0.00055427453 -0.00107824 -0.81560791 0.085735485
661000000 -0.80957896 0.093000464 -0.00011757803 -0.0018570494 -0.00030529822 -0.0023310091 -0.81523752 0.086090468
662000000 -0.80960524 0.092337437 -0.0003696018 -0.0016871942 0.00053804007 -0.0025353918 -0.81638628 0.087241568
663000000 -0.80905908 0.093371168 -0.00061908423 -0.0023907674 -0.00077014917 -0.0014698135 -0.81615365 0.086984783
664000000 -0.80914527 0.09237463 -0.00020581334 -0.0021868702 -0.00032629317 -0.0022638428 -0.81657362 0.084882677
665000000 -0.80892777 0.093417525 -0.00022581698 -0.0016969307 0.00039323268 -0.0012916614 -0.81616229 0.086999446
666000000 -0.80894226 0.092110105 -0.00017904297 -0.0015732887 0.00022175592 -0.0021461362 -0.81553596 0.084635302
667000000 -0.80851382 0.092142478 0.00089096633 -0.0026309316 -0.00059693592 -0.0023246966 -0.81436944 0.084979482
668000000 -0.8084262 0.092360288 -0.0018231465 -0.0019280369 0.00030069705 -0.0026317521 -0.81720257 0.086221948
669000000 -0.80889243 0.093604192 0.00013736075 -0.0015610788 9.9116244e-007 -0.0016795006 -0.81699133 0.085441038
670000000 -0.80889386 0.093037315 -0.0013037815 -0.0021297336 -2.5627811e-005 -0.0022949202 -0.81584764 0.086729698
