!Keysight Technologies,M9374A,MY55442783,A.12.55.05
!Date: Wednesday, May 19, 2021 19:15:11
!Correction: S11(Full 2 Port(1,2)) 
!S21(Full 2 Port(1,2)) 
!S12(Full 2 Port(1,2)) 
!S22(Full 2 Port(1,2)) 
!S2P File: Measurements: S11, S21, S12, S22:
# Hz S  RI   R 50
500000000 -0.81464136 0.071793035 6.9231399e-005 -0.0012973584 0.00083435047 -0.0020881353 -0.81789982 0.066185974
501000000 -0.81308872 0.071434356 -0.00081934931 -0.0013376361 -0.00050857122 -0.00090223749 -0.81755501 0.068468578
502000000 -0.81412005 0.072906114 0.00046039242 -0.0013831917 -0.00043634052 -0.0016455201 -0.81992173 0.066155136
503000000 -0.81418854 0.072494626 0.00025274482 -0.0011943465 0.00039981911 -0.001215632 -0.81819534 0.065559424
504000000 -0.81201273 0.072080061 0.00044455647 -0.0019441725 -0.0002530771 -0.0010603713 -0.81837261 0.066803686
505000000 -0.81367087 0.071392156 0.00065744919 -0.001839344 -0.00056980475 -0.0011908356 -0.81756306 0.06740687
506000000 -0.81388849 0.07420028 -0.0012387825 -0.0025938589 0.00032175821 -0.00017355919 -0.81760043 0.066588007
507000000 -0.81463909 0.074283399 -0.0009048038 0.00041810828 0.00040764423 -0.00084675656 -0.81903797 0.068362281
508000000 -0.81499374 0.072621852 -0.001125064 -0.0018777103 0.00052486535 -0.0010032515 -0.81877893 0.068769343
509000000 -0.81441063 0.072750732 -4.1701005e-005 -0.0014513693 0.00045317443 -0.0013563579 -0.8177917 0.066289738
510000000 -0.81225657 0.074385546 -0.0003901138 -0.0012217897 -2.4159777e-005 -0.00096505921 -0.81798798 0.068204068
511000000 -0.81238818 0.072914779 -0.00070466881 -0.0025721234 -0.0016916179 -0.00099268497 -0.81756192 0.067518093
512000000 -0.8121537 0.072936893 -0.00054250134 -0.0013485681 -0.0012651106 -0.0015721351 -0.81811678 0.067083471
513000000 -0.81376535 0.075392559 -0.00047827722 -0.0011205417 0.00021737861 -0.0024865665 -0.8185299 0.068629056
514000000 -0.8127383 0.074415989 0.00026132006 -0.0017809205 -0.0012800819 -0.00048661436 -0.81790513 0.068719693
515000000 -0.81377256 0.075731598 -0.00080974493 -0.0010505273 0.00053314824 -0.0014147456 -0.81808442 0.069461159
516000000 -0.81455159 0.0737039 -0.00032058894 -0.0012453697 -0.00068602263 -0.0022652426 -0.817343 0.068612099
517000000 -0.81304115 0.073831268 0.00032940801 -0.0004100182 -0.00041397344 -0.0013824173 -0.81674743 0.0698044
518000000 -0.81461161 0.073154114 9.8335055e-005 -0.0014531438 -0.00068517582 -0.00093454547 -0.8178547 0.06875325
519000000 -0.81294882 0.074112631 0.00036582793 -0.0015015297 6.7774577e-005 -0.00083166832 -0.81763357 0.069774717
520000000 -0.8122794 0.074806325 -0.00014698725 -0.0015662136 -0.0012921792 -0.00026455586 -0.81948 0.068603627
521000000 -0.81425756 0.074892409 0.00044360879 -0.00022766822 -0.0011593353 -0.00098580203 -0.81583351 0.070170261
522000000 -0.81530637 0.075327009 0.00085181766 -0.0014007783 -0.0005403891 -0.00058094243 -0.81847876 0.070635028
523000000 -0.81292212 0.074976973 0.00010354164 -0.0007962301 -0.0010070862 -0.0011354707 -0.81685287 0.071131334
524000000 -0.81217319 0.074411653 -0.00018748354 -0.0018478422 -6.0813682e-006 -0.0016427824 -0.81786603 0.069124699
525000000 -0.81394398 0.076910719 -0.00029047771 -0.0014685744 1.163269e-005 -0.0012498942 -0.81696194 0.070680857
526000000 -0.81428748 0.07660643 -0.0022025947 -0.0011328985 0.0003502233 -0.00017456057 -0.816392 0.071443453
527000000 -0.81399262 0.075782552 -0.00067102496 -0.00045221567 -0.00044396587 -0.0012560744 -0.81804895 0.07061971
528000000 -0.8145687 0.076535329 -0.00050624681 -0.00097590947 0.00011535944 -0.0024292369 -0.81728804 0.072180256
529000000 -0.81228364 0.076869376 -0.00071418309 -0.0017285756 0.00012186963 -0.0018519838 -0.81759971 0.071399868
530000000 -0.81237674 0.076578081 -0.00016962223 -0.0021883417 -0.0011322241 -0.0016301969 -0.81884301 0.068874292
531000000 -0.81423062 0.077129491 0.000203102 -0.0012653689 -0.00044833132 -0.0017399761 -0.81747389 0.071418077
532000000 -0.81163728 0.074557126 -0.00028501416 -0.0014879799 -0.00076025061 -0.0012223705 -0.81909859 0.070488624
533000000 -0.81438518 0.076861709 0.0010332011 -0.00084944395 0.00010847785 -0.0010091284 -0.81781751 0.071433723
534000000 -0.81380832 0.076009952 -0.00016973195 -0.0016350478 0.00048472561 -0.00055738637 -0.81696111 0.071808428
535000000 -0.81390637 0.078105956 -0.0006855051 -0.0014661873 5.3136315e-005 -0.0010117773 -0.81671858 0.073616557
536000000 -0.81319499 0.077319622 -0.00050886074 -0.0011909076 0.00019158726 -0.0011063488 -0.81782877 0.071500026
537000000 -0.81217498 0.077599287 1.7631948e-005 -0.0003107377 0.00019567968 -0.00158226 -0.8167032 0.073546186
538000000 -0.81378162 0.07825271 -0.0010651025 -0.0014430486 0.00063180208 -0.0013894585 -0.81697613 0.072191857
539000000 -0.81373781 0.077531122 0.00024619306 -0.001724221 -0.00065783865 -0.0019989712 -0.81736439 0.074291423
540000000 -0.81327945 0.077103302 0.00048214436 -0.0014810107 0.00019511755 -0.0012469875 -0.81642634 0.073104002
541000000 -0.81239742 0.078897357 -9.0619178e-005 -0.0019058274 -0.00043045843 -0.0015640452 -0.81796336 0.071863741
542000000 -0.81222624 0.077516243 1.507754e-005 -0.00061375921 -0.00025588338 -0.0012047671 -0.81734109 0.072544418
543000000 -0.81398177 0.077465713 -0.00085136038 -0.00081898045 -0.00032278386 -0.0014177947 -0.81744182 0.073269755
544000000 -0.81320387 0.078696251 0.00066967943 -0.0010314863 -0.00041181134 -0.0013905023 -0.81759453 0.073551536
545000000 -0.81452465 0.077872097 -0.00080350763 -0.0009008387 0.00025504539 -0.00026807317 -0.81693697 0.072837099
546000000 -0.81325167 0.079241157 0.0011903271 -0.0010715959 3.3318754e-006 -0.0015635698 -0.81753308 0.072607592
547000000 -0.81299853 0.078009292 -0.00014431392 -0.0014074716 -0.00040364554 -0.0012217916 -0.81784952 0.07317362
548000000 -0.8139286 0.078044645 -0.00064317527 -0.0012477561 -0.00030225856 -0.0018815111 -0.81804168 0.075397924
549000000 -0.81222665 0.078029923 -0.00033880639 -0.0005169849 -0.00039956029 -0.0022289241 -0.8179369 0.075030364
550000000 -0.8123039 0.079755299 -0.00049186847 -0.00049517589 -0.00023713712 -0.0025766129 -0.81625021 0.075256296
551000000 -0.81170326 0.078475192 -0.00043313878 -0.0011034847 -0.00084391306 -0.00060010806 -0.81716466 0.073009387
552000000 -0.81346846 0.078442946 -8.1319973e-005 -0.0023003332 -0.00067587616 -0.001274203 -0.81879354 0.07432659
553000000 -0.81421512 0.078103319 -0.00054804725 -0.0011642139 -0.00065612857 -0.0016496113 -0.81765169 0.073546678
554000000 -0.8148669 0.078759164 -0.0010811391 -0.0022815755 6.9654197e-005 -0.0022253559 -0.81649572 0.074962392
555000000 -0.81237006 0.07918711 -0.00036863031 -0.0012252901 -0.00023400498 -0.001694703 -0.81748599 0.075102955
556000000 -0.81177092 0.07836666 0.0011203982 -0.00041309235 -0.00094151206 -0.0015899326 -0.8172068 0.075649455
557000000 -0.81359857 0.078740329 -0.00056939962 -0.00054988835 4.9144928e-005 -0.000905786 -0.81732345 0.075577185
558000000 -0.81194764 0.078766562 -1.2414424e-005 -0.0020673717 -1.0904092e-005 -0.0010977481 -0.81787419 0.075719751
559000000 -0.81234407 0.079279028 0.00046159557 -0.0009193978 -0.00030247722 -0.00041176126 -0.8186875 0.075244956
560000000 -0.81257397 0.078371756 3.4731096e-005 -0.00046167593 0.00029661547 -0.0021125542 -0.81622118 0.075362377
561000000 -0.81311208 0.07906834 -0.00012201069 -0.0012134551 -4.4034601e-005 -0.0010389506 -0.81848633 0.075839281
562000000 -0.81370986 0.080064483 -0.0006018501 -0.0013831845 -0.00077314803 -0.0013002013 -0.81716597 0.076234601
563000000 -0.81280851 0.079811148 -0.00016634967 -0.0019650678 -0.0014694389 -0.0012314935 -0.81821245 0.07573773
564000000 -0.81252986 0.07892859 8.2404826e-005 -0.00044291656 2.809861e-005 -0.0014171763 -0.81682307 0.075613141
565000000 -0.81310302 0.079710014 -0.00012162979 -0.0014959286 -0.00010235898 -0.0017814598 -0.81663305 0.076894894
566000000 -0.81249356 0.077862144 0.00037683544 -0.0013967761 -0.00050905347 -0.0013048077 -0.81650692 0.07558693
567000000 -0.81181645 0.079926535 5.5839413e-005 -0.0020615738 0.00011297116 -0.0020269991 -0.81696761 0.075538732
568000000 -0.81177419 0.080988735 0.0001560189 -0.0017408209 0.00024261331 -0.00026819875 -0.81737787 0.074753955
569000000 -0.81168222 0.078969106 -0.00011820519 -0.0013417852 -0.00072210986 -0.0016665477 -0.81754303 0.074754417
570000000 -0.81272447 0.08136075 0.00037888638 -0.0020638222 0.00079152791 -0.0018582352 -0.81756473 0.076423109
571000000 -0.81251287 0.079165921 -0.00012775132 -0.0013245775 0.00028417728 -0.0014843055 -0.81581014 0.076204017
572000000 -0.81206739 0.079258487 -0.00042129797 -0.0016422038 -0.00026132845 -0.0010588457 -0.8186723 0.074756302
573000000 -0.81143415 0.080318123 -0.00014002713 -0.0016639291 -0.0004702658 -0.0017825582 -0.81683481 0.075091667
574000000 -0.81188667 0.080652922 0.00037927969 -0.0014965357 0.00072866533 -0.0012509746 -0.81681335 0.076790474
575000000 -0.81236196 0.080489472 0.00059481582 -0.0013477319 -0.00018668122 -0.0010766288 -0.81809634 0.076512098
576000000 -0.81127405 0.081544533 -0.00026757305 -0.001551492 -0.0012446039 -0.001761585 -0.81655806 0.074963465
577000000 -0.81301278 0.080780908 -0.0005412554 -0.00078933913 -0.00098303729 -0.00050046598 -0.81699318 0.075871386
578000000 -0.81186056 0.081775732 -0.00039131919 -0.0013044563 -0.00020704097 -0.0011481504 -0.81657553 0.075550951
579000000 -0.8120048 0.082343131 -0.00024253267 -0.0015059701 -0.00074170763 -0.0011561732 -0.81651855 0.076740034
580000000 -0.81073499 0.080858767 -0.0010015318 -0.001968734 9.7751254e-005 -0.0017792853 -0.81604344 0.077305257
581000000 -0.81237108 0.079876028 -0.00059831759 -0.0012205092 -0.00012632673 -0.0024642164 -0.81815976 0.076551311
582000000 -0.81114668 0.080037452 4.7916066e-005 -0.0007661478 -0.00028075679 -0.0023350173 -0.81824708 0.078058235
583000000 -0.81298441 0.08156202 -9.503965e-006 -0.001502883 -0.0013127483 -0.0016367726 -0.81754905 0.077075221
584000000 -0.81068504 0.080795355 0.00055370515 -0.0013363364 -0.00050437637 -0.0020301181 -0.81696159 0.078032516
585000000 -0.81247753 0.082448877 -0.0004049319 -0.00055281498 0.00022415603 -0.0019817643 -0.81604421 0.076578945
586000000 -0.81277603 0.082093827 -0.00064422097 -0.001820866 6.1267761e-005 -0.0011905044 -0.81908011 0.076902829
587000000 -0.81167126 0.082728893 0.0002397606 -0.00061902456 -0.0012279183 -0.0017761231 -0.81612504 0.07777705
588000000 -0.81185299 0.081927001 -0.00055479875 -0.0013355598 -0.00031951262 -0.0017166687 -0.8173514 0.078191318
589000000 -0.81191283 0.08251401 -0.00013686271 -0.0015144036 -0.00016332527 -0.0017190198 -0.8176232 0.078264244
590000000 -0.80915177 0.083198234 -0.00036207578 -0.0026419277 5.9507656e-005 -0.00055318774 -0.81784129 0.079296328
591000000 -0.81236482 0.084242426 0.00020317483 -0.0013993409 -2.2115222e-005 -0.0021177446 -0.81685597 0.078229159
592000000 -0.81199759 0.082282022 0.00023569533 -0.0019209682 0.0010714651 -0.0021114638 -0.81765836 0.078439251
593000000 -0.81232929 0.083448261 -0.00013979453 -0.0013120185 0.00048209075 -0.0021813267 -0.81703275 0.080050215
594000000 -0.8123107 0.083378531 -0.0015061448 -0.00096272258 -0.00087603019 -0.0011542399 -0.81848115 0.078940481
595000000 -0.81143612 0.082491711 -0.00063432986 -0.0011624382 -0.00020253098 -0.0018568505 -0.8171972 0.079577193
596000000 -0.81212735 0.084445223 0.00028864935 -0.00080855144 -0.00030100567 -0.0010609153 -0.81679952 0.079209745
597000000 -0.81199306 0.083645165 2.9339913e-005 -0.0015772486 -0.0002078195 -0.00093824422 -0.81781894 0.079246566
598000000 -0.81166238 0.084776424 -4.832094e-006 -0.0018900597 -0.00059849099 -0.0011216031 -0.81722718 0.07949803
599000000 -0.81139868 0.084282324 -0.0006090852 -0.0012604408 0.00039432338 -0.0011596989 -0.81776315 0.079433374
600000000 -0.81292081 0.082954518 -0.0013233424 -0.0016697069 0.00029351981 -0.0020235777 -0.81622654 0.079169735
601000000 -0.81063128 0.085208438 0.00036134227 -0.0014323379 -0.00088692212 -0.0011576228 -0.81766689 0.078977533
602000000 -0.81161803 0.084929392 0.00067094818 -0.0012839901 7.8882724e-005 -0.00072846224 -0.81525344 0.079084381
603000000 -0.81061047 0.085873969 -2.2272596e-005 -0.0018080097 -0.00036357393 -0.0024227751 -0.81694055 0.080038093
604000000 -0.8114053 0.084466897 -0.00085533009 -0.0019831858 0.00081680098 -0.0023755853 -0.81784713 0.07959792
605000000 -0.8117798 0.085320041 -0.000142124 -0.001365913 0.00013264373 -0.0013877011 -0.81674343 0.081083588
606000000 -0.81187338 0.086072043 -0.00028072094 -0.0022439994 -0.00098990591 -0.0019122231 -0.81531113 0.079393104
607000000 -0.81216508 0.085117385 -0.0008171107 -0.001136933 -0.00052125915 -0.0016504201 -0.81704497 0.080789685
608000000 -0.81228977 0.085108884 -0.00058573612 -0.0014409403 0.00016224965 -0.00074790121 -0.814897 0.079593994
609000000 -0.80996323 0.085935712 -0.0010083088 -0.0035706819 -0.0010616555 -0.0015874446 -0.81521446 0.080449805
610000000 -0.81139296 0.086104222 -0.00098673766 -0.0014964279 -0.00052157178 -0.0015910947 -0.81651133 0.080619477
611000000 -0.81011343 0.085788786 -0.00020534362 -0.0026527126 -0.00062331511 -0.00065088086 -0.81656557 0.081296638
612000000 -0.81062609 0.086980045 -0.00026327922 -0.0016493171 -0.00036996551 -0.00264686 -0.81693804 0.081514023
613000000 -0.81157756 0.084384091 0.00064093352 -0.00014273541 -3.5906894e-005 -0.00075517269 -0.8171711 0.080745682
614000000 -0.81149232 0.086401522 -0.0010877186 -0.0020694775 9.1798829e-006 -0.00083737029 -0.81758404 0.082110487
615000000 -0.81143606 0.088070169 -0.0011917932 -0.001857645 -0.00011659171 -0.00044046008 -0.81756246 0.082630515
616000000 -0.81236374 0.089422308 -0.0010990002 -0.0018255151 -0.0010334419 -0.0010749209 -0.81558776 0.081693731
617000000 -0.81136757 0.088754073 0.001128536 -0.0019467745 0.00082738465 -0.0018036764 -0.81635529 0.082528561
618000000 -0.81225079 0.0897526 -0.0011680451 -0.0010231744 0.00092532975 -0.0024119734 -0.81559432 0.083965994
619000000 -0.81113386 0.088593565 0.00033761933 -0.0013901014 -0.00081358268 -0.0018865908 -0.81696761 0.083019868
620000000 -0.81175733 0.088175878 -0.00084408774 -0.0024560126 -0.00034401563 -0.0012109881 -0.81794274 0.083186455
621000000 -0.8113398 0.088397995 0.00011345391 -0.0011437645 -0.0017176636 -0.0018547502 -0.81608784 0.081600323
622000000 -0.81150323 0.086863741 -6.6058288e-005 -0.0012725551 -0.00074578711 -0.0017024748 -0.81560665 0.083301947
623000000 -0.8121953 0.088623583 -0.00074934855 -0.0005893152 0.00028122868 -0.0019321978 -0.81781185 0.083289087
624000000 -0.81066906 0.088989355 -0.00085013796 -0.001957776 0.00064633146 -0.00096518639 -0.81554449 0.081484921
625000000 -0.81181109 0.090713553 -2.8094432e-006 -0.0017769521 -0.00031290602 -0.0021575338 -0.81447542 0.08296854
626000000 -0.81151181 0.089579083 0.00021067579 -0.0015341759 -0.00013426263 -0.0012715112 -0.81551993 0.083598383
627000000 -0.81068867 0.0894932 -0.00014816978 -0.0008600459 -0.00060529698 -0.0018158486 -0.81541961 0.083767265
628000000 -0.8104884 0.089340702 -0.001016918 -0.0019119971 -0.00053353718 -0.0021458233 -0.81640983 0.085712045
629000000 -0.81108421 0.090937279 -0.0011398876 -0.0015538166 -0.00072830368 -0.0017566017 -0.81559789 0.083381265
630000000 -0.81042433 0.090640537 0.00016928537 -0.0020442493 0.00039275907 -0.0021345194 -0.81593609 0.084384866
631000000 -0.81162274 0.090144902 -0.00053716206 -0.002227156 -0.00056435581 -0.0014959545 -0.81593418 0.084507421
632000000 -0.81155509 0.09127973 0.00042980534 -0.0020630048 -0.00028390024 -0.0014797229 -0.81714159 0.083711684
633000000 -0.81017417 0.090455137 -0.0022178541 -0.001942397 -0.00025139228 -0.002016762 -0.81598586 0.084186584
634000000 -0.81137985 0.090995297 -0.00086447055 -0.0020617021 -0.00040784807 -0.0017968171 -0.81553048 0.083726682
635000000 -0.81063122 0.090884402 -0.00032729123 -0.0014885202 -0.0010396823 -0.00046505459 -0.81615084 0.084213138
636000000 -0.81117302 0.090510353 -0.00060516101 -0.0031659512 0.00094513322 -0.0017095372 -0.8162306 0.083733469
637000000 -0.81010211 0.090974919 0.00084508891 -0.0013233897 -0.0015572293 -0.0017066617 -0.81574649 0.08468511
638000000 -0.81016183 0.092796795 -0.00065793109 -0.0018497297 -0.00062095851 -0.0021709402 -0.81568497 0.084941506
639000000 -0.81189173 0.092586569 4.5897879e-005 -0.00205831 -6.4981425e-005 -0.0009850706 -0.81539714 0.086031012
640000000 -0.81081992 0.092273265 -0.00044610005 -0.0012553246 -0.00015645711 -0.00096394971 -0.8150329 0.084021203
641000000 -0.81076914 0.092847168 0.00037115312 -0.0019536535 0.00014477877 -0.00096927071 -0.81594479 0.085558377
642000000 -0.81057435 0.092883259 -0.00066033471 -0.0021456326 -8.5042484e-006 -0.00079934788 -0.81681335 0.086305484
643000000 -0.81009114 0.092618138 -0.00024501712 -0.0015356537 -1.3358615e-005 -0.0010325805 -0.81509846 0.08675006
644000000 -0.81011599 0.091753744 -0.00049031992 -0.00129436 -0.0011979026 -0.0018588707 -0.81706035 0.085261971
645000000 -0.8101657 0.091716617 -0.0013701003 -0.0011161235 -0.00070751703 -0.0011440017 -0.81537783 0.085607581
646000000 -0.8117305 0.092792109 -1.6655812e-006 -0.0026112045 -0.0010105154 -0.0015130668 -0.8160904 0.085152358
647000000 -0.81141484 0.093424357 -0.0011163867 -0.0012119761 -0.0011838053 -0.0021954749 -0.81677091 0.086467735
648000000 -0.81036335 0.093285933 -0.00052431831 -0.00096070394 -0.00082519976 -0.001462261 -0.81376326 0.086370394
649000000 -0.81049919 0.093345493 -0.00012144156 -0.0015830074 -0.000789957 -0.0020564224 -0.81673735 0.086351939
650000000 -0.80928046 0.094762713 0.00020463848 -0.001422793 0.0011406824 -0.0016629401 -0.81634885 0.086521104
651000000 -0.81285286 0.092696287 -0.00016017133 -0.0021787887 -0.00015818336 -0.001264959 -0.81617683 0.086018912
652000000 -0.81068468 0.093591362 0.00021454906 -0.0010678547 -0.00012769124 -0.0017726443 -0.81580222 0.086266242
653000000 -0.81061631 0.093474656 -0.00046000016 -0.0018001343 -0.0010679866 -0.0020557346 -0.81634849 0.086530499
654000000 -0.81108111 0.094362043 -0.00010576584 -0.0014111145 -0.00060120062 -0.0020050779 -0.81731933 0.087911598
655000000 -0.8099755 0.095049754 -0.00040492264 -0.0011834971 -0.00078574015 -0.0016911335 -0.81580865 0.087220915
656000000 -0.81028509 0.094479099 -0.00024970109 -0.002819774 0.0001643979 -0.0018731002 -0.81588227 0.086912729
657000000 -0.80947834 0.094425224 -0.0015342945 -0.001776699 0.00077743875 -0.0022930042 -0.81594938 0.086852506
658000000 -0.80932474 0.093771122 0.0001197708 -0.0017845284 0.00068212306 -0.0017905215 -0.81512916 0.086984955
659000000 -0.8090989 0.094895035 -0.00040007959 -0.00078675797 -0.00016720427 -0.0016033946 -0.81483793 0.087343186
660000000 -0.81066597 0.095293581 -0.00050384074 -0.0017808962 4.1110208e-005 -0.0013280559 -0.81586897 0.08717756
661000000 -0.80994934 0.09576501 -0.00076780451 -0.0027850836 -5.4624426e-005 -0.0024854839 -0.81636065 0.087777741
662000000 -0.81141317 0.095203787 -0.0010929509 -0.0016949415 -0.00059090136 -0.0010001 -0.81568545 0.088590376
663000000 -0.81248957 0.095121942 0.00019702627 -0.0016315012 -0.00020447116 -0.0017848938 -0.81520611 0.086597487
664000000 -0.81013709 0.094672292 -0.00061354815 -0.0023321088 -0.00064139767 -0.0017074818 -0.81424654 0.088502869
665000000 -0.81002897 0.09671507 -0.00052402291 -0.00086136576 -0.00041625195 -0.00097823702 -0.81470126 0.087769657
666000000 -0.81012118 0.095052317 0.00036408592 -0.0013873306 0.00018829534 -0.0016817579 -0.81539571 0.086962692
667000000 -0.80947459 0.09587875 0.0001240478 -0.0030326161 0.00017347638 -0.0017240955 -0.81556487 0.088644817
668000000 -0.81100857 0.096617728 0.00046592052 -0.0018154754 -0.00073592796 -0.0024634223 -0.81646979 0.0890458
669000000 -0.81134665 0.096191533 -0.00010729956 -0.001504522 -0.0009902711 -0.0023910126 -0.81401271 0.08711648
670000000 -0.81031251 0.095877454 5.1873922e-005 -0.002304025 0.00081201352 -0.0013491464 -0.81685191 0.088830382
671000000 -0.81022656 0.094883457 4.4106164e-005 -0.0025936246 -0.00081269513 -0.0011252126 -0.81479681 0.088326387
