!Keysight Technologies,M9374A,MY55442783,A.12.55.05
!Date: Wednesday, May 19, 2021 19:08:45
!Correction: S11(Full 2 Port(1,2)) 
!S21(Full 2 Port(1,2)) 
!S12(Full 2 Port(1,2)) 
!S22(Full 2 Port(1,2)) 
!S2P File: Measurements: S11, S21, S12, S22:
# Hz S  RI   R 50
500000000 -0.81053561 0.074160516 0.00022436942 -0.00040321078 0.00033503995 -0.00032511837 -0.81805235 0.068065278
501000000 -0.8124283 0.073979348 -0.00062084594 -0.0014331467 0.00018434782 -0.00031371406 -0.81831384 0.067747034
502000000 -0.81317341 0.071449779 -0.0006606013 -0.0017633992 0.00053607894 -0.0008348155 -0.81825978 0.069447286
503000000 -0.81173211 0.072222561 0.00015465834 -0.0014847447 0.00041399352 -0.0011825438 -0.81957394 0.067139328
504000000 -0.81241089 0.072510794 -0.00074783422 -0.00071177416 -0.00028978291 -0.0020714237 -0.81745201 0.067364477
505000000 -0.81336212 0.073013149 0.0006007317 -0.00013109506 -6.4556574e-005 -0.0023402274 -0.81816512 0.067478426
506000000 -0.81376767 0.073773414 -0.00074389542 -0.0017087822 -0.0002561498 -0.00072071591 -0.81940299 0.069918983
507000000 -0.81325978 0.07483089 -0.00019905223 -0.00068823982 7.8772951e-005 -0.0011876125 -0.81979263 0.068536758
508000000 -0.81266415 0.074428566 -0.00061989616 -0.0011588177 6.691122e-005 -0.0014420463 -0.81666094 0.069627702
509000000 -0.81351024 0.074122705 -0.00050052314 -0.001645255 -0.00032842669 -0.00091936003 -0.81714487 0.069795169
510000000 -0.81376594 0.074082956 -0.00049915916 -0.00080232881 -0.00062175485 -0.0019146792 -0.81639612 0.070170946
511000000 -0.81350785 0.074906155 7.1808332e-005 -0.0014842318 0.00061831466 -0.0011778031 -0.81697327 0.069310792
512000000 -0.81251091 0.075431846 -0.00027546557 -0.001314741 -0.00024348938 -0.001099546 -0.81759793 0.070394829
513000000 -0.81108356 0.0736975 0.00078220473 -0.0007817247 -0.00090997783 -0.0018838975 -0.81746852 0.069115177
514000000 -0.81329471 0.075435229 -0.00057163951 -0.0017349207 0.00015116154 -0.0011909974 -0.81647575 0.069987163
515000000 -0.81344765 0.07651674 -0.0017483862 -0.00074566511 -0.00040649678 -0.0013669421 -0.81632048 0.070400558
516000000 -0.81198466 0.076308422 2.2885095e-005 -0.00091431238 -0.00041527423 -0.0012917799 -0.81735265 0.071687095
517000000 -0.8127048 0.075939924 -0.00077143835 -0.0018459305 0.0005510386 -0.0015339326 -0.81663454 0.07188724
518000000 -0.81227893 0.074536532 -0.00042991273 -0.0015397789 0.00104603 -0.0014312303 -0.81684369 0.071105756
519000000 -0.81169438 0.0775287 -0.00079326122 -0.0011229313 0.00028615905 -0.0021874059 -0.81692815 0.072426155
520000000 -0.81246841 0.075859427 0.00037286946 -0.0018440209 0.00039347814 -0.0014680253 -0.81824005 0.07093817
521000000 -0.8125549 0.075720645 -0.00089238636 -0.0012576634 -7.6507851e-005 1.4746029e-005 -0.81812763 0.07180541
522000000 -0.81291091 0.076205224 -5.3396681e-005 -0.0024267207 -0.00022675436 -0.0010933006 -0.81742972 0.07109458
523000000 -0.81286216 0.076696083 -0.00049794035 -0.001088378 0.00038456338 -0.00023956639 -0.81770885 0.07137458
524000000 -0.81256777 0.076282166 -0.00037847261 -0.0023879008 -0.0010948469 -0.00080238393 -0.81753343 0.07246016
525000000 -0.8119626 0.076288976 -0.0008557929 -0.0018079069 -0.0010763938 -0.0016651377 -0.81703579 0.072471566
526000000 -0.81212479 0.077619761 0.00011837099 -0.00166236 -0.00051178836 -0.002316829 -0.81807339 0.071877263
527000000 -0.81259841 0.076937482 0.00047763719 -0.0011550586 8.2922532e-005 -0.001945175 -0.81784457 0.073379807
528000000 -0.8140139 0.078997597 0.00025496216 -0.0010828448 -0.0014480078 -0.0027309223 -0.81744051 0.073046856
529000000 -0.81236607 0.07774993 0.00047772008 -0.00066053553 -2.0218167e-005 -0.00220972 -0.81708741 0.073391899
530000000 -0.81237763 0.078258343 7.6441385e-005 -0.0014395992 0.00067802792 -0.0019446872 -0.81787264 0.073197678
531000000 -0.81313294 0.077130571 -0.00093592436 -0.0010652316 -3.2745073e-005 -0.0011645696 -0.8165071 0.073698513
532000000 -0.81113911 0.076627605 -2.7084625e-005 -0.0016118343 0.00046975832 -0.0017227761 -0.81657153 0.074919447
533000000 -0.8115409 0.077786051 0.00033827047 -0.0021992421 0.00010377986 -0.0022643236 -0.81728774 0.073918216
534000000 -0.81245536 0.078740396 0.00064012338 -0.00083093654 -0.0005158147 -0.0014368285 -0.81715095 0.074422009
535000000 -0.81285942 0.079098225 0.00034356769 -0.001739165 -0.00010385894 -0.0013412493 -0.81575006 0.074192122
536000000 -0.81280458 0.077848196 0.0001579013 -0.00094816962 -0.00022503131 -0.0014530371 -0.81747103 0.074566953
537000000 -0.81185555 0.078747377 -0.00033049207 -0.00046874076 -0.00073429174 -0.0013618779 -0.81790417 0.074539341
538000000 -0.81221765 0.078151621 -0.00051569927 -0.0020409008 -6.1500486e-006 -0.0012861278 -0.81745863 0.074495584
539000000 -0.81350315 0.078749031 0.00010194976 -0.0022002046 -0.00080474513 -0.001977945 -0.81736326 0.07444495
540000000 -0.8114686 0.078579038 -3.2735675e-006 -0.0020349764 -9.3329589e-005 -0.001758717 -0.81742877 0.074618168
541000000 -0.81094003 0.079658799 -0.00070276315 -0.0018278292 -0.0001435436 -0.0014148515 -0.81801194 0.075280003
542000000 -0.81229424 0.079012603 -0.0011872746 -0.0014134214 -8.9471614e-005 -0.0010869184 -0.81746709 0.074140415
543000000 -0.81168813 0.079030067 0.00029438932 -0.00073670875 -0.0005604602 -0.00099551678 -0.81919456 0.076160498
544000000 -0.81177288 0.079149999 -0.00066752505 -0.0011497586 -0.00022802684 -0.00042784301 -0.81730205 0.074316025
545000000 -0.81249785 0.078352951 0.00030902805 -0.00046312774 -0.00074591109 -0.00067496352 -0.81725132 0.073192306
546000000 -0.80980438 0.08010073 -0.00075748865 -0.0021547258 -0.0012942845 -0.0018442671 -0.81643176 0.075851828
547000000 -0.81329882 0.079703078 -0.00037709327 -0.0013664749 -0.00059351092 -0.00073212036 -0.81905735 0.075892821
548000000 -0.81245446 0.080271341 -0.00055118802 -0.0017563093 -0.00077593984 -0.0025931597 -0.816544 0.07634978
549000000 -0.81149858 0.078915119 -0.00092306157 -0.000684014 0.00046457985 -0.0013002187 -0.81829637 0.075931855
550000000 -0.81146508 0.079678997 9.4232651e-005 -0.0012682065 0.00054800935 -0.0016789475 -0.81760395 0.075910814
551000000 -0.81113464 0.07964354 -0.00028265966 -0.0013308655 -2.3301927e-005 -0.00090526958 -0.81755245 0.074776255
552000000 -0.81203568 0.079635948 -0.00012698391 -0.0019513334 0.00023285212 -0.0021369425 -0.81658536 0.075791478
553000000 -0.81241202 0.079676963 0.00040034132 -0.0011295116 -0.00090664573 -0.0010623556 -0.81724083 0.075953767
554000000 -0.81053406 0.080149494 -0.00045647027 -0.00099421153 -0.00011445184 -0.002330876 -0.81739467 0.075243324
555000000 -0.81125021 0.080313273 -0.00025861285 -0.0016637308 -0.00093095336 -0.00076248648 -0.81698459 0.075400628
556000000 -0.81317306 0.080379754 -4.631445e-005 -0.0010139637 -0.00039314642 -0.0018124814 -0.81691664 0.077500708
557000000 -0.81378621 0.080292307 0.00035476024 -0.0014509798 -0.0012443408 -0.00031830708 -0.81709135 0.075727306
558000000 -0.81248093 0.080554493 -0.00092585949 -0.0017323598 -0.00091088034 -0.001907591 -0.81692147 0.076459251
559000000 -0.812325 0.080978952 -0.00053066527 -0.0014873828 0.00076606026 -0.0013921207 -0.81713027 0.077459142
560000000 -0.81208569 0.080998458 -0.00011067622 -0.0013329274 -0.00073060661 -0.00098780647 -0.81697327 0.076505303
561000000 -0.81344849 0.081483297 -0.00011455126 -0.0017873595 3.4719753e-005 -0.002012609 -0.81606066 0.075504258
562000000 -0.81148356 0.081103489 -9.9676756e-005 -0.0013553412 -0.00047356563 -0.00083551166 -0.81915647 0.07716196
563000000 -0.81168622 0.081803918 -0.00027277481 -0.00092755276 -0.00010105586 -0.0011792807 -0.81589079 0.079004131
564000000 -0.81124568 0.080208316 -0.00065037288 -0.0016391522 0.00016599837 -0.0024506159 -0.81770873 0.076016955
565000000 -0.81143254 0.080467619 -0.0013759541 -0.0015771975 -0.00022110778 -0.0014998619 -0.81748897 0.076889172
566000000 -0.81186163 0.080437653 0.00017975383 -0.00212054 0.00035840267 -0.001631845 -0.81725752 0.07673955
567000000 -0.81223822 0.081967741 -0.0010461997 -0.0023868873 0.00074087171 -0.0018445984 -0.8176834 0.077487186
568000000 -0.81083304 0.080793366 -0.00045972911 -0.0023146896 -0.0007603509 -0.0010518614 -0.81756777 0.076875381
569000000 -0.81241935 0.081641331 0.00042164492 -0.0017204458 -0.0010102924 -0.0016406626 -0.81726074 0.076043248
570000000 -0.81220078 0.082015418 5.8968559e-005 -0.00175674 -0.00046651886 -0.0020551598 -0.81710249 0.077863991
571000000 -0.81193686 0.081349447 -0.00023316732 -0.0012732032 -0.0019159842 -0.0016285157 -0.81686842 0.078371048
572000000 -0.81026036 0.08363051 -0.00021462572 -0.0014609597 -0.00044127612 -0.0032744617 -0.81742579 0.078511156
573000000 -0.81135011 0.081044629 7.1177186e-005 -0.00058084785 -0.00048102078 -0.0029772841 -0.81667036 0.076914705
574000000 -0.81074697 0.081974596 -0.00013289848 -0.0011123921 -0.0010021301 -0.00020316151 -0.81844723 0.07918895
575000000 -0.81137627 0.081389748 0.00018953743 -1.4498981e-005 -0.00043513972 -0.00096389384 -0.81743449 0.079134814
576000000 -0.81046456 0.08160454 -0.00032864066 -0.0019356152 -0.00010581683 -0.0024593065 -0.8176474 0.080073811
577000000 -0.81067145 0.081649669 -0.00026747049 -0.0007535842 -0.00036139225 -0.0018050431 -0.81759667 0.077454969
578000000 -0.81020397 0.082274489 -0.00041565861 -0.001323727 -0.00030446361 -0.0021144764 -0.81669241 0.076991409
579000000 -0.81059933 0.083992235 -0.00091761525 -0.0011135365 -0.00037378893 -0.0022288971 -0.81740433 0.077735215
580000000 -0.81067139 0.081800386 0.00017053017 -0.0021724929 -0.00071677967 -0.0013620972 -0.81653941 0.078467786
581000000 -0.81032246 0.082255073 -0.0011357117 -0.0029803514 -0.00027950687 -0.0013128149 -0.81939262 0.079854473
582000000 -0.81083655 0.08292155 -2.2404565e-005 -0.0010783107 0.00017253181 -0.00069311738 -0.81829369 0.078892611
583000000 -0.81096071 0.083803169 -0.0007680658 -0.002118241 -0.0008787695 -0.0016632334 -0.81820744 0.078360036
584000000 -0.81033593 0.082623817 -0.0012175223 -0.0010736668 -0.00032097069 -0.002199349 -0.81650883 0.079588927
585000000 -0.81209254 0.083760373 0.00058898219 -0.0013184133 -0.00035881842 -0.0019363509 -0.81746531 0.079380289
586000000 -0.81083828 0.083107688 -0.00032399784 -0.0018155796 -0.00091037556 -0.0027796568 -0.81784689 0.078801036
587000000 -0.81150627 0.083273284 -0.0011290448 -0.0015875616 0.0003789638 -0.0015548886 -0.81615162 0.079214871
588000000 -0.81047356 0.084848486 -0.00022516056 -0.0020221656 0.00029443658 -0.0014830399 -0.81730103 0.078943871
589000000 -0.81153464 0.08436618 -0.00033913343 -0.0020919761 -0.00097321125 -0.00079847721 -0.81685328 0.080013938
590000000 -0.81161654 0.084205762 0.00048985967 -0.0015500949 4.3722095e-005 -0.0010867403 -0.81716669 0.079208046
591000000 -0.8107549 0.08434055 -0.0003558048 -0.00094305875 -0.00053773553 -0.00092766539 -0.81709385 0.079930983
592000000 -0.81178755 0.081962727 -0.0003833512 -0.0012211264 -0.0010407718 -0.0012718528 -0.81596118 0.079351857
593000000 -0.81095541 0.085113972 -0.0010251004 -0.0014470258 -0.00092749117 -0.0021676929 -0.8161273 0.080108784
594000000 -0.81085527 0.08503706 -0.00039790382 -0.00098880671 -0.00055495626 -0.00076090248 -0.81878406 0.080519691
595000000 -0.81088823 0.085518137 -0.00068122655 -0.00067924976 6.7478613e-005 -0.0013512966 -0.81553239 0.080009654
596000000 -0.81314677 0.086493067 -0.00075753505 -0.0021996503 -0.001216438 -0.001369897 -0.8159914 0.079877965
597000000 -0.81025988 0.084802173 0.00053870323 -0.00069341535 -0.00055989285 -0.0014438088 -0.81690335 0.080034353
598000000 -0.80916488 0.085892186 0.00073154719 -0.0019865269 0.00065030897 -0.0013959333 -0.8164503 0.080225356
599000000 -0.81155133 0.086966284 -0.00096756057 -0.0014692952 -0.0017094202 -0.0014909834 -0.81649226 0.080291994
600000000 -0.81032318 0.085885629 -0.0014458577 -0.0020477271 -0.00031500345 -0.00094472821 -0.81595445 0.081801958
601000000 -0.81056809 0.086952679 -0.00094424613 -0.0016405354 -0.00072437304 -0.001391307 -0.81673914 0.08129248
602000000 -0.81146121 0.086495847 3.1135592e-006 -0.0013613146 0.00074943213 -0.0020432658 -0.81626725 0.081703432
603000000 -0.80957562 0.088483363 -0.00062012201 -0.0021830781 -2.7205055e-005 -0.0012601699 -0.81877965 0.08136072
604000000 -0.8105979 0.086406179 -0.00040860244 -0.0011014591 -0.0004016461 -0.0013125911 -0.81532109 0.082958229
605000000 -0.81030929 0.088585198 -0.0005862916 -0.0010354319 -2.5073688e-005 -0.0010094371 -0.81685948 0.080951177
606000000 -0.80947345 0.088085756 -2.884238e-005 -0.0013126535 -0.0010495175 -0.002113333 -0.814138 0.082343891
607000000 -0.81027484 0.08705128 -0.00023075147 -0.0010954747 -0.00045023378 -0.00046944135 -0.81594872 0.081176713
608000000 -0.81051642 0.087434016 -0.00046050415 -0.0020653738 -0.00088992342 -0.0012397047 -0.8175692 0.081712343
609000000 -0.81099123 0.087827653 -0.00094199245 -0.0015277705 -5.0942081e-006 -0.00039714371 -0.81674272 0.082068034
610000000 -0.80916882 0.088048086 -0.00026172333 -0.0026753698 -0.00037175577 -0.0015075923 -0.81568938 0.083188109
611000000 -0.8106966 0.088440731 0.00050659734 -0.00093392347 -0.00089556538 -1.3734396e-005 -0.8158778 0.082450211
612000000 -0.8091979 0.087500371 0.00057306804 -0.00043798762 0.00022943283 -0.0013966027 -0.81782132 0.081856139
613000000 -0.81153417 0.088419408 -0.00052640971 -0.0014521509 -0.00011574321 -0.0033984496 -0.81555641 0.08190731
614000000 -0.80991542 0.08823017 -0.00031620529 -0.0013852365 0.00056128559 -0.001263705 -0.81733096 0.083254769
615000000 -0.81033731 0.089318067 -0.00048563661 -0.0020928588 -0.00096444495 -0.0012576552 -0.81555569 0.081767425
616000000 -0.81005329 0.088593744 -0.00032300377 -0.00089703093 -0.00026084302 -0.0014532735 -0.81567425 0.083783865
617000000 -0.81084448 0.091532722 0.00088714581 -0.0018426867 -0.000229996 -0.0018884446 -0.81672931 0.085259221
618000000 -0.81000847 0.088742293 -0.00016294603 -0.0016680356 -7.055192e-005 -0.0011813684 -0.81588244 0.083911143
619000000 -0.81064141 0.089731082 -0.00010071255 -0.0021510022 -0.0004822285 -0.0015756375 -0.81498712 0.085002273
620000000 -0.80983114 0.089819543 0.0018194997 -0.002284535 0.00041460007 -0.0012663834 -0.81669164 0.084660746
621000000 -0.81066376 0.089742467 0.00042215351 -0.0016577259 -4.8300291e-005 -0.0019452377 -0.8163448 0.085293323
622000000 -0.80960482 0.090011142 -0.00075041526 -0.0020862857 -0.00074597594 -0.00095527404 -0.81551462 0.084004529
623000000 -0.81013387 0.090952434 -0.00088006444 -0.00095415185 -0.00091691321 -0.0019386095 -0.81613314 0.085018583
624000000 -0.80853641 0.089707248 -0.0008845941 -0.0018339398 -0.0003465919 -0.001572169 -0.81544614 0.084801249
625000000 -0.81047052 0.093991742 -0.0017281828 -0.0009498655 -0.0011041404 -0.0018552473 -0.815929 0.084496297
626000000 -0.81072509 0.091046669 -0.00048805453 -0.0015257057 -0.00010110985 -0.0015821159 -0.81571418 0.085129239
627000000 -0.81055772 0.090758786 -0.00010799329 -0.0017824149 -0.0002128263 -0.0015662237 -0.81442171 0.085180797
628000000 -0.81084037 0.091758735 2.3008257e-005 -0.00076372887 -0.001706459 -0.0020345873 -0.81511205 0.083800241
629000000 -0.8092342 0.090376697 -0.00039203893 -0.0017795748 -0.0011698427 -0.0019635845 -0.8161245 0.086059816
630000000 -0.80990565 0.091544524 -0.00087470713 -0.001083474 -0.00041366776 -0.0021285636 -0.8153339 0.086202048
631000000 -0.81066191 0.092560098 0.00072616199 -0.00012204121 -0.00032873364 -0.0013534589 -0.81602639 0.084472805
632000000 -0.80930459 0.091881938 -0.00029973264 -0.0014930501 -0.0011028042 -0.0017295008 -0.8144381 0.085368745
633000000 -0.81087941 0.093653545 -0.00016005982 -0.00085089268 -0.0010133391 -0.0019369946 -0.81586587 0.085173391
634000000 -0.8095355 0.093037061 3.5859597e-005 -0.0010194709 -2.2565428e-005 -0.00097729091 -0.81647527 0.085117258
635000000 -0.80917656 0.091330379 -0.00087475672 -0.0011376368 0.00026074107 -0.00087482954 -0.81664252 0.085941404
636000000 -0.80945474 0.093072414 -0.00075589865 -0.00033542779 -3.9636529e-005 -0.0020002574 -0.81615078 0.085938752
637000000 -0.80962801 0.091140926 -0.0012073715 -0.0015480957 -0.00023142126 -0.0018012141 -0.81579649 0.087633148
638000000 -0.81024003 0.092842057 -4.6123849e-005 -0.0012420141 -0.00081967487 -0.0014700564 -0.81573915 0.086478189
639000000 -0.81110263 0.092671432 0.00039884151 -0.0017420541 0.00045722304 -0.0012218116 -0.81531906 0.086651705
640000000 -0.80971748 0.093458705 -0.00061586493 -0.00068000169 -0.00029661533 -0.0015474961 -0.8161388 0.086062312
641000000 -0.81032431 0.093375124 -0.00090767309 -0.0021306002 -0.0007940128 -0.0027940881 -0.8161853 0.087780617
642000000 -0.81024063 0.093383498 -0.00072678307 -0.0010758167 -0.0010632715 -0.002198071 -0.8159129 0.086627342
643000000 -0.81036252 0.094062485 0.00061901356 -0.0019226756 0.00012832803 -0.00053800759 -0.8151924 0.087289438
644000000 -0.80921555 0.094340637 5.2531723e-005 -0.0012203121 -0.00033432411 -0.0025204613 -0.81739891 0.087140419
645000000 -0.80946136 0.094860613 -0.00071141002 -0.0021893026 0.00031633151 -0.0015375159 -0.81653512 0.087156907
646000000 -0.80850881 0.094252318 0.0003533187 -0.0019449207 6.2624335e-005 -0.0011654884 -0.81629717 0.086451203
647000000 -0.81014562 0.093162656 0.00040254495 -0.00089926337 -0.0005072233 -0.0015223301 -0.81524718 0.088393629
648000000 -0.8101117 0.094789334 -0.001365705 -0.0013446457 -0.00011251941 -0.0016109488 -0.81575978 0.088562772
649000000 -0.80936033 0.095111899 0.0003072292 -0.0013857855 -0.0011654218 -0.002565291 -0.81564921 0.088586405
650000000 -0.8095215 0.095510483 -0.00041295166 -0.0012412262 -0.00057420734 -0.0016944229 -0.8139379 0.087648116
651000000 -0.8087464 0.094869308 -0.00074779219 -0.0020980425 0.00024635458 -0.0017050268 -0.81541604 0.087829486
652000000 -0.81024766 0.094745241 -0.00027307603 -0.0013622389 0.0010080943 -0.00069308502 -0.81582642 0.089427926
653000000 -0.8085525 0.095832057 9.2186616e-005 -0.0023492423 -0.00078442472 -0.0006176114 -0.81483567 0.087980904
654000000 -0.80918324 0.095405549 -0.00065888197 -0.00072575529 -0.00034393772 -0.0012487093 -0.81587762 0.088294774
655000000 -0.80987555 0.095690258 -1.2998691e-005 -0.0014892549 -8.8530229e-005 -0.00087525399 -0.81521761 0.088705666
656000000 -0.81092733 0.096625887 -0.00094189373 -0.0020465737 9.7119962e-005 -0.002360252 -0.81446844 0.089641817
657000000 -0.80963761 0.095755279 0.00041847161 -0.00051362638 -0.00024814243 -0.0026323006 -0.81603742 0.088978
658000000 -0.8110804 0.096346661 -0.00044624112 -0.0021580849 8.569326e-005 -0.0016322759 -0.81501806 0.088927478
659000000 -0.80819964 0.096275382 0.00041175989 -0.002327098 0.00029742019 -0.0012507873 -0.81434673 0.088613562
660000000 -0.81075495 0.097247347 -0.001400447 -0.002890965 -0.0012551289 -0.0025581724 -0.81608409 0.089781091
661000000 -0.80984062 0.096805319 -0.00062244962 -0.0017754473 -0.00011202204 -0.0024048726 -0.81643504 0.090922564
662000000 -0.80888259 0.09620548 -0.00075264467 -0.001972191 -0.00018899629 -0.0018601636 -0.81614339 0.090577714
663000000 -0.80929989 0.097176433 1.5128288e-005 -0.0015712932 -0.0010022591 -0.0020395168 -0.8151049 0.089414671
664000000 -0.8091501 0.096771702 -0.00067034119 -0.00241759 -4.0398216e-005 -0.0024431176 -0.81498981 0.089962631
665000000 -0.80908978 0.097707003 -0.00038445464 -0.0010373865 -0.0001585851 -0.0013806846 -0.81615138 0.089844182
666000000 -0.8090173 0.097507857 -0.00071111473 -0.00091661979 6.1736602e-005 -0.00078785524 -0.81587213 0.091699123
667000000 -0.80980891 0.096251808 -0.00016675072 -0.0018159467 -0.00024894872 -0.0019906019 -0.81596154 0.089501292
668000000 -0.80907488 0.09669622 -0.00033627087 -0.0014520002 -0.00022658697 -0.0030520922 -0.81598324 0.08954449
669000000 -0.81006235 0.097276203 -0.00066238322 -0.0022603979 -0.0006026972 -0.0012771613 -0.81285125 0.090129502
670000000 -0.80873954 0.098513216 0.00039993486 -0.0015472915 -0.00060994673 -0.0010085586 -0.8150081 0.090593748
