!Keysight Technologies,M9374A,MY55442783,A.12.55.05
!Date: Wednesday, May 19, 2021 19:11:58
!Correction: S11(Full 2 Port(1,2)) 
!S21(Full 2 Port(1,2)) 
!S12(Full 2 Port(1,2)) 
!S22(Full 2 Port(1,2)) 
!S2P File: Measurements: S11, S21, S12, S22:
# Hz S  RI   R 50
500000000 -0.81495893 0.071463712 -0.000396811 -0.0014146583 -0.00087261852 -0.0015864826 -0.81867188 0.066708311
501000000 -0.81403506 0.072069012 -0.00093673001 -0.00020658995 -5.6040895e-005 -0.0019207019 -0.81876737 0.066891767
502000000 -0.81311792 0.071282648 0.00027307196 -0.0012206307 -0.00020055939 -0.001250361 -0.81902552 0.066341594
503000000 -0.81431228 0.071919471 -0.00042330267 -0.0011557295 0.00093149213 -0.00082098728 -0.81762934 0.06743414
504000000 -0.81262195 0.072607704 -0.00051916658 -0.00059452804 0.0002757312 -0.0023673284 -0.81833249 0.067918018
505000000 -0.81317639 0.073303141 -0.00032556555 -0.00085404085 -0.00019192284 -0.00047255299 -0.81871665 0.06724228
506000000 -0.81410164 0.072181709 -0.0004156043 -0.00044415591 -0.00018234854 -0.0033650107 -0.81671166 0.066983037
507000000 -0.81363612 0.073706888 0.00040336369 -0.0014251714 -0.0011658766 -0.0011062415 -0.81813633 0.06784144
508000000 -0.81318879 0.07366892 -0.0011297258 -0.00061546097 -0.00030631167 0.00044459928 -0.8175239 0.069486499
509000000 -0.81331176 0.074482709 -0.00037866563 -0.00023543036 0.0013759693 -0.0011291009 -0.81729716 0.06873174
510000000 -0.81344795 0.073254675 0.00010412659 -0.001565379 -0.0010166601 -0.0018246829 -0.81665295 0.069230691
511000000 -0.81440997 0.074845791 -0.0003661532 -0.0003941984 0.00036966495 -0.00093157112 -0.8160966 0.069193155
512000000 -0.8132596 0.073983625 -0.00093157403 -0.0014522193 0.00025115727 -0.0019433995 -0.81817943 0.068821207
513000000 -0.81314552 0.07507509 -7.3048301e-005 -0.0023783424 -0.00012032138 -0.00044041808 -0.81816143 0.068367682
514000000 -0.81421596 0.073872335 0.00022334651 -0.00079975865 -0.0011359989 -0.0017509189 -0.81688416 0.069346346
515000000 -0.81370395 0.074047774 -0.00030262629 -0.0010396776 0.0003178968 -0.0015814347 -0.81920606 0.070000835
516000000 -0.81314248 0.075024135 -0.00023096643 -0.0013623083 0.00062879152 -0.0018885618 -0.81638753 0.069361255
517000000 -0.81375438 0.075935602 -0.00024373033 -0.0012405252 -0.00067506102 -0.00067534921 -0.81735849 0.069644421
518000000 -0.81327903 0.074849129 0.00038229919 -0.00062971131 -0.00093126798 -0.0015796027 -0.81815952 0.070454858
519000000 -0.81308025 0.074518465 0.0016141249 -0.0018333644 -0.0001702655 -0.0015955572 -0.81511283 0.069327094
520000000 -0.81403929 0.074610114 0.00068718917 -0.0017147617 0.00064240186 -0.0012938974 -0.8171854 0.071211047
521000000 -0.81196928 0.075801648 0.00064398441 -0.001305507 0.00084696821 -0.0017393896 -0.81592029 0.071342543
522000000 -0.81444657 0.07614024 -0.0011473919 -0.0029272635 0.00072289369 -0.0019169466 -0.81783807 0.071547605
523000000 -0.81205839 0.07468912 -0.00080295868 -0.0014334365 -0.00040152064 -0.0018933312 -0.81692988 0.069787502
524000000 -0.81175917 0.077263683 -7.8934943e-005 -0.0014732853 -0.00015204125 -0.002038307 -0.81833065 0.07157962
525000000 -0.81318641 0.075779185 -0.00084082887 -0.00087592937 0.00028517377 -0.0014469161 -0.81707507 0.073064819
526000000 -0.81254798 0.077659085 -0.00017992999 -0.00046408983 -0.00027757682 -0.0021109597 -0.81850392 0.071236342
527000000 -0.81310475 0.075459279 -7.579165e-005 -0.0021044244 -0.00045734711 -4.5442805e-005 -0.81711829 0.071391128
528000000 -0.81272978 0.077767029 1.9322473e-005 -0.00050305342 -0.0002118393 -0.0016164246 -0.81701458 0.072575048
529000000 -0.81294763 0.076040469 -0.000445646 -0.0019575674 -0.0004448565 -0.0013102125 -0.81646985 0.070545889
530000000 -0.8137666 0.075817853 -0.00057544495 -0.002595695 -0.0011561534 -0.00095070002 -0.81750494 0.071862228
531000000 -0.81389076 0.077630818 -0.00049626292 -0.0021971471 -7.5435964e-005 -0.00094970997 -0.81696069 0.071499191
532000000 -0.81293696 0.076686218 -0.00088387547 -0.00082319824 -0.00034797055 -0.0021502287 -0.81832665 0.073792256
533000000 -0.81366861 0.076359525 -0.00063916104 -0.0011302382 -0.00079337391 -0.0010640463 -0.81724399 0.075381994
534000000 -0.81195247 0.077453621 -0.00054395502 -0.00084467424 -0.00021251111 -0.0020924385 -0.81767637 0.072356172
535000000 -0.81336886 0.076601394 -0.00037880542 -0.0018742395 -0.00071346184 -0.00079341658 -0.81612682 0.073676921
536000000 -0.81323898 0.075565241 -0.00016114469 -0.0010404222 0.00056609575 -0.00097648078 -0.81757927 0.072595119
537000000 -0.81320035 0.078843012 -0.00066684058 -0.0016387635 -0.0011440703 -0.00024529596 -0.81522518 0.073359214
538000000 -0.81228352 0.078685485 4.3782675e-005 -0.0020449872 -0.00022418292 -0.0018930321 -0.81610298 0.071625181
539000000 -0.81205583 0.078948855 -0.00048663831 -0.0013301857 -0.0012516006 -0.0012940174 -0.81658876 0.072181776
540000000 -0.81300014 0.076753378 0.00016873889 -0.0011190418 -0.00036064038 -0.0011392012 -0.81759924 0.072993882
541000000 -0.8133688 0.07846152 7.8491117e-005 -0.001720713 -0.00021036847 -0.0018736796 -0.81678855 0.071987569
542000000 -0.81224418 0.078666605 -0.0014301984 -0.0012797829 0.00014811072 -0.0010485322 -0.81513703 0.072770692
543000000 -0.81266433 0.078544475 0.00019580001 -0.0016390539 -0.00021396314 -0.0017288792 -0.81681782 0.073666424
544000000 -0.81287009 0.078672372 -0.0001212537 -0.0019446592 -0.00085539091 -0.0013302374 -0.81701267 0.074169308
545000000 -0.81126976 0.0785162 -0.00046881981 -0.00030383086 -0.0002275412 -0.0015457185 -0.81719154 0.074148014
546000000 -0.81202728 0.079516903 7.2492723e-005 -0.0014216689 -0.00050606427 -0.0014450584 -0.81746876 0.074238129
547000000 -0.81150371 0.078525007 0.00021066869 -0.0016322483 -0.00067632156 -0.0012264639 -0.81807774 0.073253848
548000000 -0.81219053 0.079948626 2.1592323e-005 -0.00054410321 0.00042673142 -0.0018538774 -0.81742215 0.075591862
549000000 -0.81332207 0.078098796 -0.00060818467 -0.0012592146 -0.00010412274 -0.0017094316 -0.8171984 0.073624641
550000000 -0.81190878 0.080579653 6.4048574e-005 -0.0026305397 -0.00098002923 -0.00064145471 -0.81617528 0.074981645
551000000 -0.81299031 0.079911627 -0.0017637662 0.00024419793 -0.00096153218 -0.00093190296 -0.81803179 0.074846439
552000000 -0.81237775 0.078997567 -0.00020237191 -0.0014653204 -0.00096148689 -0.0012926881 -0.81752622 0.074749224
553000000 -0.81234491 0.078681551 0.0007329323 -0.0011510521 -0.00041737172 -0.0015135095 -0.81792414 0.074287653
554000000 -0.81334448 0.078947008 -0.00041728467 -0.0018067562 -0.00019076918 -0.0019192939 -0.81641078 0.076440103
555000000 -0.81258082 0.078149401 -0.00011715139 -0.00027422683 -6.7379646e-005 -0.0012397193 -0.81718522 0.073995672
556000000 -0.81191581 0.08020357 -0.00044440207 -0.0010313297 -7.2293944e-005 -0.0022686648 -0.81661326 0.075229146
557000000 -0.81304926 0.0803295 -0.00017978851 -0.0016149189 -0.0010320724 -0.0019334635 -0.81750602 0.076051779
558000000 -0.81240344 0.079244412 0.00063863269 -0.0011742673 0.00069266651 -0.0005090413 -0.81732452 0.0761948
559000000 -0.81184667 0.0803532 5.0991686e-005 -0.0011512566 0.00025157249 -0.00090828026 -0.81781328 0.076108582
560000000 -0.81192523 0.080357745 -0.00023711218 -0.0013233917 0.00012515664 -0.001459745 -0.81645602 0.07603725
561000000 -0.81281829 0.079915889 0.00020922076 -0.001376454 -0.00072838587 -0.0010469395 -0.81788743 0.074776821
562000000 -0.81091839 0.079678938 0.00022642911 -0.0010163952 -0.00044943191 -0.0013995433 -0.81763524 0.076041132
563000000 -0.81282961 0.080302134 0.00050132326 -0.0015041832 -0.00049136981 -0.0012902064 -0.81727803 0.075722888
564000000 -0.8124097 0.079672441 -0.00028084687 -0.00051965832 -4.4552591e-005 -0.0015265145 -0.8186785 0.074319437
565000000 -0.81250578 0.081278674 -0.0002322901 -0.0017329446 -0.00063644664 -0.0015748526 -0.81751215 0.075930186
566000000 -0.81326461 0.080933951 0.00042973855 -0.0011742963 -0.00028283006 -0.0015832027 -0.81978619 0.07729353
567000000 -0.81297606 0.081096917 0.00041980878 -0.0019238114 0.00013768744 -0.0015278332 -0.81582052 0.07535331
568000000 -0.81368494 0.080324352 -0.00026642726 -0.00067597185 0.00010851377 -0.0015148266 -0.81630558 0.075963482
569000000 -0.81274724 0.080910496 -0.0007860348 -0.00042470923 0.0003417643 -0.00062383892 -0.81885779 0.076789796
570000000 -0.81114459 0.081575677 0.00082916702 -0.00056576566 -0.00036167973 -0.0018286144 -0.81796503 0.076326497
571000000 -0.81359392 0.080637217 -0.0012251979 -0.0016001125 0.00040712432 -0.0014225855 -0.81828052 0.076943733
572000000 -0.81121439 0.080803789 -3.1701159e-006 -0.0008158703 -0.00041144626 -0.0015126773 -0.81643289 0.075993709
573000000 -0.81369799 0.081737816 -0.00078998803 -0.0017759457 0.0013741931 -0.001936031 -0.81695426 0.078797385
574000000 -0.81095487 0.080965757 -0.00037600475 -0.00095547829 8.2874467e-005 -0.0010260708 -0.81553489 0.076151133
575000000 -0.81153649 0.080964148 -0.0004505309 -0.00093988283 -0.0011413823 -0.0018059075 -0.81674284 0.076685704
576000000 -0.81223619 0.081848763 -0.00054569845 -0.0017536253 -0.00078774686 -0.0019965591 -0.81808114 0.078606628
577000000 -0.81026775 0.080304347 -0.0010652989 -0.0012090846 0.00021202209 -0.001509969 -0.81656206 0.077941202
578000000 -0.81270373 0.080662988 -0.00068948278 -0.00070183427 0.00094187638 -0.0014911257 -0.81704128 0.076041132
579000000 -0.81288785 0.08254756 -1.0566185e-005 -0.0011911994 -0.00036181326 -0.00076054438 -0.81722379 0.076942623
580000000 -0.81185097 0.081007615 -0.0013692304 -0.0017659436 -0.00071764563 -0.0020164277 -0.81678516 0.077789329
581000000 -0.8128643 0.081183426 -0.0012939546 -0.0015625168 3.7981117e-005 -0.0010036505 -0.818497 0.079228707
582000000 -0.81175935 0.080879763 -0.00016250831 -0.0024210978 -0.00057144131 -0.0011227282 -0.8169685 0.078678012
583000000 -0.81249416 0.08443553 -0.00016340408 -0.0018646709 -0.00062351243 -0.00084547186 -0.81751692 0.079051189
584000000 -0.81179583 0.083072998 -0.0010929183 -0.0021526609 -0.00033614569 -0.0025726235 -0.81640923 0.079526097
585000000 -0.81160694 0.082801029 -0.00027603435 -0.0011961657 0.00010734405 -0.00084479811 -0.817954 0.077502362
586000000 -0.81176513 0.082198568 -0.0003857124 -0.00025373438 -0.00078721513 -0.00078665017 -0.81723052 0.079779409
587000000 -0.81155854 0.081862651 -0.00071839115 -0.0012853673 -0.00052607019 -0.0019441241 -0.81667632 0.077471256
588000000 -0.81261545 0.082031868 -0.00010622146 -0.0012274029 0.00076903775 -0.0019500543 -0.81646025 0.077448338
589000000 -0.81139654 0.081423096 -0.00029357689 -0.0021626423 -3.01696e-005 -0.0017064319 -0.81754315 0.078420937
590000000 -0.81123364 0.08313372 -0.000849056 -0.0014789575 0.00055598776 -0.0015498549 -0.81634748 0.078239359
591000000 -0.81198847 0.085630462 0.00055319309 -0.00040879767 0.0013236883 -0.0017781743 -0.81815028 0.078429714
592000000 -0.81103021 0.084068455 -0.00063399639 -0.0020370455 0.00070025551 -0.0022617804 -0.81694859 0.078890584
593000000 -0.81059182 0.083224781 -1.9790919e-005 -0.0025719935 -0.00026947705 -0.0021949548 -0.81789255 0.08011739
594000000 -0.81172705 0.083745949 -0.0008134917 -0.00072223053 -0.00045969119 -0.0026205964 -0.81797904 0.078959443
595000000 -0.81243747 0.083025932 0.0001765253 -0.00092698331 -0.0009199456 -0.0016161737 -0.81641793 0.078690916
596000000 -0.81129038 0.083455071 -0.00079046458 -0.0019582447 -0.00021215971 -0.00098477851 -0.81667781 0.079809621
597000000 -0.81353861 0.083844215 -0.00049338315 -0.0008399483 -0.00018901248 -0.0010922304 -0.81708574 0.079525717
598000000 -0.81146049 0.084393963 0.00064656365 -0.0012886052 0.00012464846 -0.0018744846 -0.81709331 0.079458907
599000000 -0.81049389 0.086380027 3.503955e-006 -0.0020932043 -0.0013226295 -0.0015304419 -0.81648612 0.079948567
600000000 -0.81054753 0.085569255 0.00059154793 -0.0011431953 5.8332076e-005 -0.00069046812 -0.81812662 0.080373168
601000000 -0.81096685 0.08526095 -0.00014186651 -0.0014139736 -0.00033999313 -0.0025229238 -0.81737232 0.081028968
602000000 -0.81071788 0.085180655 0.00019766386 -0.0011511093 -0.00034113828 -0.00090057921 -0.81547749 0.080759935
603000000 -0.81187451 0.087202974 -0.0014766118 -0.0023866119 -3.1796208e-005 -0.0010005378 -0.8168084 0.081917986
604000000 -0.81207323 0.087394543 -0.00081057328 -0.001961892 -0.00072970166 -0.0025574046 -0.81688255 0.079541653
605000000 -0.80985588 0.087226301 -0.0010698753 -0.0018639558 0.00049903145 -0.0017435235 -0.81592786 0.080528446
606000000 -0.81121767 0.087670572 -0.0012708289 -0.0016872308 -0.00079240644 -0.0013279875 -0.8158164 0.080718048
607000000 -0.81174481 0.084927425 -0.00078600988 -0.00071829424 0.00060298014 -0.0021437043 -0.81589645 0.080031849
608000000 -0.81341755 0.087933868 -0.00083229062 -0.0012334329 -0.00045402307 -0.0025019441 -0.81642532 0.079885289
609000000 -0.8102513 0.087249547 0.00062374689 -0.0017465812 0.00037510702 -0.0021675013 -0.81743747 0.081710517
610000000 -0.81202793 0.087384261 -0.00038088422 -0.0019947609 -0.0016365176 -0.0008333025 -0.81670189 0.081259593
611000000 -0.80958486 0.087573804 -0.00061040273 -0.0017282435 -0.0014900472 -0.00034671169 -0.8170867 0.081705362
612000000 -0.81025404 0.088331714 -0.00048681724 -0.0019249762 -0.00071396673 -0.0022363339 -0.81646997 0.080655724
613000000 -0.81018335 0.087304913 0.00062336732 -0.0015779228 -7.1127353e-005 -0.0016532526 -0.81604099 0.082104295
614000000 -0.8092196 0.088705353 -0.00051143934 -0.0010585675 -1.0255087e-006 -0.00091216317 -0.81602854 0.081746206
615000000 -0.8112939 0.087337293 0.00026842259 -0.0022977188 -0.00092566648 -0.001981 -0.81592709 0.08105848
616000000 -0.810431 0.086880803 -0.00029416644 -0.0010154651 -0.00076159381 -0.0014168358 -0.81633437 0.082789145
617000000 -0.81106222 0.089528605 -0.0006138194 -0.0010907246 -2.6399037e-005 -0.0014654528 -0.81578678 0.082934678
618000000 -0.81148928 0.088013329 0.00033324675 -0.0018985118 -0.00071173924 -0.0011541974 -0.81593293 0.084061302
619000000 -0.81067193 0.089906111 0.00011805998 -0.0011879859 -0.0015248212 -0.0016680084 -0.81754333 0.082363822
620000000 -0.81178188 0.089368731 0.00022111951 -0.00090575911 0.0014217879 -0.0015842285 -0.81542963 0.082594506
621000000 -0.81145436 0.08970467 -0.00050290517 -0.0013428336 -0.0010986566 -0.0013361535 -0.81777489 0.084477112
622000000 -0.80939025 0.089016415 -0.00069921557 -0.0015045456 0.00050323398 -0.0019697298 -0.81672662 0.082777195
623000000 -0.8111819 0.089205422 -0.0002503063 -0.0023016813 -0.00076856423 -0.0022300428 -0.81698143 0.083573826
624000000 -0.81055248 0.088560902 -0.0010103226 -0.0022346922 -0.0012958564 -0.0013081318 -0.8163501 0.083761588
625000000 -0.81141323 0.091200165 -0.00053474784 -0.00075309002 0.00014676154 -0.0010453886 -0.81603312 0.083567433
626000000 -0.81127167 0.09069936 9.710899e-005 -0.0012672539 0.00011159585 -0.0020983238 -0.81741697 0.084469721
627000000 -0.81219769 0.090954028 0.00047563773 -0.0019863783 6.6509623e-005 -0.0021838632 -0.81498051 0.084365033
628000000 -0.81259495 0.089749619 -0.00087798614 -0.0015628325 -0.00038831649 -0.0015277545 -0.81705308 0.085356072
629000000 -0.8103745 0.091802962 -0.00031205427 -0.0014577799 -0.00027554299 -0.0017702476 -0.8168807 0.083530083
630000000 -0.81041396 0.091478929 -0.00038122165 -0.0018760891 0.00033641228 -0.0019092609 -0.81551307 0.084294058
631000000 -0.81023729 0.091277868 -0.0004271277 -0.0018564737 -0.00034768236 -0.0026161391 -0.81698442 0.08461009
632000000 -0.8116917 0.090869986 -0.00064260716 -0.00092387066 0.00034503735 -0.0016357549 -0.81415254 0.083932452
633000000 -0.81011134 0.092278995 -3.0187133e-005 -0.0015117589 0.00047160909 -0.0028669846 -0.81696653 0.084009886
634000000 -0.808092 0.091191739 0.00021881102 -0.00095199246 -0.00030246499 -0.0022869413 -0.81479341 0.084590189
635000000 -0.81061184 0.091650762 -5.7209374e-005 -0.0015330679 0.0004184524 -0.0013281611 -0.81645244 0.085843943
636000000 -0.81027055 0.091271468 0.00060704193 -0.0014520752 0.00060006353 -0.0012910409 -0.81504387 0.084471829
637000000 -0.80975622 0.091940291 -7.6086308e-006 -0.00069915788 -0.00031001872 -0.0013886533 -0.81495321 0.085219398
638000000 -0.80978161 0.092101105 -0.00024619399 -0.0012693228 0.00041299648 -0.0011853839 -0.81529695 0.0854581
639000000 -0.81067348 0.092585757 -9.6738722e-006 -0.0019412441 -0.0012845623 -0.0015597822 -0.81604195 0.086525254
640000000 -0.80981582 0.094655991 -0.00015811475 -0.0014203337 0.00010955631 -0.0017476255 -0.81467938 0.086147711
641000000 -0.80954117 0.093573816 0.00029077235 -0.00091195764 -0.00051304133 -0.0017257137 -0.81536788 0.085614376
642000000 -0.81011575 0.092355996 0.00037049974 -0.0023339791 0.00075673038 -0.0021647874 -0.81643164 0.086738467
643000000 -0.80929881 0.093706653 -0.00011469123 -0.0021060957 0.00035350685 -0.0015160691 -0.81530082 0.085903302
644000000 -0.81162107 0.093275078 -0.0006571298 -0.0019291404 0.00015063165 -0.0013219336 -0.81525689 0.085403152
645000000 -0.81108266 0.093090706 5.4416701e-005 -0.0011383236 0.00032725805 -0.0011808533 -0.81527865 0.086533859
646000000 -0.81010282 0.093447395 -0.00011258695 -0.0019622743 0.00028933259 -0.0018098456 -0.81475514 0.086565159
647000000 -0.81080401 0.094357423 -0.0004370996 -0.0020712728 -8.0106423e-005 -0.0014392603 -0.81521714 0.086961426
648000000 -0.80875486 0.093937121 -0.00079869037 -0.0019585562 0.00058651948 -0.0010703629 -0.81516188 0.088323124
649000000 -0.81045043 0.093881197 -0.0012224569 -0.0010159861 0.00063937623 -0.002207461 -0.81616086 0.088159472
650000000 -0.80958241 0.093674824 -0.00011525182 -0.00066090468 0.00018892223 -0.0032155875 -0.81419909 0.088402458
651000000 -0.80934042 0.094308406 -3.7386777e-005 -0.0016400486 -7.5491364e-005 -0.0010827336 -0.81445062 0.087355278
652000000 -0.80994272 0.093153946 -0.0016560056 -0.0020460766 0.00066957524 -0.00094625697 -0.81561166 0.086352229
653000000 -0.80890775 0.093284264 -8.150372e-005 -0.0022054713 -1.3552351e-005 -0.0012229639 -0.81600791 0.086406082
654000000 -0.80995578 0.094128996 -3.9328661e-005 -0.0013214599 -0.0013068616 -0.0018896471 -0.81497282 0.088030167
655000000 -0.80955756 0.095639274 -6.6608191e-005 -0.0022417305 -0.0012471993 -0.0017786098 -0.81493336 0.088290974
656000000 -0.81048179 0.094551824 -0.00028615026 -0.0012338115 -0.0011336273 -0.0027557127 -0.81519532 0.087478682
657000000 -0.81002671 0.095263876 -9.1192043e-005 -0.0012151635 -0.00038977017 -0.0026897499 -0.81624383 0.089149348
658000000 -0.8090114 0.094777554 -0.0006214006 -0.0014654136 -0.00094072119 -0.0020136798 -0.81430858 0.086864717
659000000 -0.80982745 0.095568493 -0.00086156337 -0.0013556535 -0.00053152302 -0.00083269965 -0.81499082 0.087501138
660000000 -0.80975229 0.094279781 0.00045915955 -0.0009961247 0.00024467643 -0.0019668953 -0.81545621 0.087761544
661000000 -0.81146216 0.096721128 -6.3093568e-005 -0.001677565 -0.00079492101 -0.0015859526 -0.81510746 0.088549525
662000000 -0.81129509 0.095567852 -8.1330109e-006 -0.0019723929 -0.0012003073 -0.0009972424 -0.81614572 0.088742763
663000000 -0.81083494 0.095931381 -0.00059348781 -0.002217344 -0.00014363482 -0.0022279951 -0.81590551 0.087074928
664000000 -0.81116438 0.097023413 -0.000108443 -0.0017143377 0.0001531153 -0.0017470486 -0.81592941 0.089328818
665000000 -0.80935085 0.095269613 -0.00073743111 -0.0011092913 0.00037923385 -0.0010261285 -0.81640238 0.088433132
666000000 -0.8103593 0.096855387 0.00055847398 -0.0022401155 -0.00035199532 -0.0018401709 -0.81484717 0.08858081
667000000 -0.81177366 0.097466581 -0.0007640277 -0.0014799036 -0.00018053671 -0.0027111084 -0.81465387 0.088909671
668000000 -0.80909264 0.096783444 -9.6301905e-005 -0.0022744499 -0.00037537407 -0.001757367 -0.81506938 0.088327765
669000000 -0.81106591 0.094896398 -0.00044861596 -0.0025511638 0.00048500142 -0.0018338311 -0.8152656 0.0887499
670000000 -0.80938029 0.096788518 -0.00028391604 -0.0019687444 3.6281992e-005 -0.0017594025 -0.81522483 0.089712419
