!Keysight Technologies,M9374A,MY55442783,A.12.55.05
!Date: Wednesday, May 19, 2021 19:02:21
!Correction: S11(Full 2 Port(1,2)) 
!S21(Full 2 Port(1,2)) 
!S12(Full 2 Port(1,2)) 
!S22(Full 2 Port(1,2)) 
!S2P File: Measurements: S11, S21, S12, S22:
# Hz S  RI   R 50
500000000 -0.81146252 0.075050294 -0.00051498355 -0.00083239714 -8.1306309e-005 -0.0020248257 -0.8187201 0.069223151
501000000 -0.81393665 0.075725131 -0.0012669011 -0.0017298072 0.00010009929 -0.0011509778 -0.81728542 0.069750115
502000000 -0.81161642 0.074347071 -0.00014383311 -0.0018937116 -0.00069444446 -0.0013752263 -0.81808168 0.070128702
503000000 -0.80829453 0.075201727 -0.00057880103 -0.0010028937 0.00034573517 -0.00037235155 -0.81678975 0.069130987
504000000 -0.81141615 0.076236621 -0.00067275023 -0.00053606904 0.00044518229 -0.0014269435 -0.81839651 0.070655771
505000000 -0.80955833 0.076378532 0.00028501896 -0.0010986149 4.0334908e-005 -0.00061567104 -0.81690371 0.07084927
506000000 -0.80974936 0.075889401 0.0014253028 -0.00048465439 0.00099626533 -0.0016481307 -0.81842697 0.070145994
507000000 -0.81080818 0.076074995 -0.00074526301 -0.0010458425 -0.00041783685 -0.00090783968 -0.8172974 0.070971578
508000000 -0.81170148 0.076656103 -0.00026193302 -0.0016235218 0.00012020322 -0.0012552143 -0.815642 0.072026953
509000000 -0.81189692 0.076606035 -0.00059439946 -0.0019941018 -0.00043384716 -0.0018745399 -0.81818938 0.07169687
510000000 -0.81119227 0.078746475 0.00013580811 -0.0023156051 -0.00050024997 -0.0013357914 -0.81647247 0.073425457
511000000 -0.81057453 0.076978639 -0.00043565137 -0.00051159045 0.00043386803 -0.00099549699 -0.81740177 0.071237653
512000000 -0.81179231 0.078097478 -0.0010571257 -0.0018930968 -0.0001185826 -0.0003779784 -0.81792301 0.071985655
513000000 -0.81145233 0.078225382 -0.0009573765 -0.0010583535 1.450225e-005 -0.0015585908 -0.81819326 0.0731683
514000000 -0.81164771 0.078237705 -0.00011089507 -0.0014695519 0.00037963977 -0.00052067864 -0.81838661 0.073136218
515000000 -0.81075525 0.077530101 -0.00016890668 -0.0020909882 -0.00021272452 -0.0023214398 -0.81674093 0.073250607
516000000 -0.81082034 0.077842765 -0.0010846187 -0.0018150927 0.00012367126 -0.0015003877 -0.81775302 0.074229702
517000000 -0.81066406 0.077686064 -0.00039912373 -0.001116677 -0.00026282837 -0.00061116501 -0.81713772 0.072205782
518000000 -0.81136441 0.078362279 -0.00034055763 -0.0013810772 -0.00064515864 -0.0012272951 -0.81813532 0.073763601
519000000 -0.81110036 0.077413991 -0.00041733362 -0.0016010964 0.0002293513 -0.0024328197 -0.81690979 0.073157623
520000000 -0.8119415 0.078711979 0.00098833628 -0.00082457042 -0.00067365961 -0.0014619338 -0.81746846 0.073084205
521000000 -0.81185323 0.078581423 4.7973997e-005 -0.0010028339 -1.0369929e-005 -0.0017854339 -0.81735677 0.073315069
522000000 -0.81151968 0.078781374 -0.00031253355 -0.001414196 -0.00044405143 -0.0014157211 -0.8160463 0.074329026
523000000 -0.80942452 0.078549311 -0.00063667749 -0.0011592021 -0.0013009207 -2.165845e-005 -0.81535304 0.074398652
524000000 -0.81122649 0.079156585 -0.00075991917 -0.0017938035 0.00022045228 -0.0018395355 -0.816594 0.075449318
525000000 -0.80939418 0.078668021 4.0631072e-005 -0.0009064133 -0.00061067997 -0.00022056031 -0.81628317 0.075368926
526000000 -0.81075799 0.079271205 -7.6582219e-005 -0.0012734835 -0.00088200765 -0.0014016898 -0.81804973 0.074623264
527000000 -0.81345898 0.078837417 -0.00080448546 -0.0018209395 -0.00053389248 -0.0014428851 -0.81752151 0.074533492
528000000 -0.81077403 0.080714412 -0.00055149745 -0.00079725153 5.3356238e-005 -0.002251019 -0.81681275 0.075062998
529000000 -0.81080234 0.080295436 0.00026686772 -0.00041448537 -0.00086603221 -0.0013668565 -0.81650901 0.073811702
530000000 -0.81021667 0.081282198 0.00012289046 -0.0013732101 -0.00076809083 -0.0011918513 -0.81741768 0.074155137
531000000 -0.81177694 0.080388233 -0.00045255397 -0.00071708264 -0.00072335795 -0.0021490296 -0.81739825 0.075214505
532000000 -0.81092465 0.079409651 -0.00030101879 -0.0013375421 0.00017574563 -0.0015381185 -0.81639135 0.074657194
533000000 -0.81185323 0.081446528 -0.00040301509 -0.0013747829 -0.001394271 -0.0015604029 -0.81625599 0.07489711
534000000 -0.81139922 0.079958081 0.00026798356 -0.0012949443 -0.0015774491 -0.00075118453 -0.81665713 0.075081989
535000000 -0.81221938 0.080998532 0.0012901952 -0.0015058146 -0.00036290177 -0.0012498674 -0.81665355 0.075781994
536000000 -0.81085724 0.080896787 -0.00075942907 -0.001446242 -0.00094245706 -0.0010254406 -0.8156656 0.074543126
537000000 -0.80919957 0.080062956 0.00036228282 -0.0013537375 -0.00038460799 -0.0014069527 -0.81670767 0.076374345
538000000 -0.81164283 0.08097332 0.00045667539 -0.0025176841 -0.00077115186 -0.0021403311 -0.81757379 0.077104539
539000000 -0.81064481 0.080904961 -4.3647055e-005 -0.0027049386 -7.4802687e-005 -0.00043120247 -0.81733644 0.076702751
540000000 -0.81046993 0.081137396 0.00024335916 -0.0021665853 1.1736706e-005 -0.00082699355 -0.81653333 0.077300295
541000000 -0.81099975 0.081678219 0.00067996391 -0.0010624784 0.00054615794 -0.00092579063 -0.81783038 0.075588375
542000000 -0.81055623 0.081213601 8.8375782e-005 -0.00073237176 -0.0010597303 -0.0021325084 -0.81551188 0.07780946
543000000 -0.81055397 0.081027567 -0.00023099993 -0.0017241618 -0.00024672897 -0.00094478723 -0.81626683 0.077817343
544000000 -0.81133878 0.080897078 1.3546286e-006 -0.00031951413 -0.00085219776 -0.0010134781 -0.81802613 0.077075392
545000000 -0.81186414 0.081987388 -0.0011464694 -0.00068885973 -0.00065652718 -0.0024225398 -0.81742513 0.077466488
546000000 -0.81055832 0.081971027 0.00078139669 -0.0022453675 6.9768255e-005 -0.0017626063 -0.817101 0.078048512
547000000 -0.81216234 0.082857579 -0.00040582585 -0.0010205893 -0.00061897875 -0.0016617159 -0.81605506 0.077155806
548000000 -0.81120634 0.082010686 -0.00077411771 -0.00021059139 -0.00025821701 -0.00085299427 -0.81738895 0.078693718
549000000 -0.81077707 0.081846125 -0.0004090945 -0.001141791 -0.00010903583 -0.0023169764 -0.81786585 0.07868772
550000000 -0.80946112 0.082207173 0.00094689865 -0.00095989218 -0.00046513104 -0.0017318767 -0.81679434 0.07833045
551000000 -0.81131434 0.083037823 -0.00044186832 -0.0017856536 -0.00011804962 -0.0022085207 -0.81803191 0.077644669
552000000 -0.81105042 0.082609177 -0.0010982379 -0.0017278083 -0.0006130159 -0.0017006948 -0.81618965 0.079824977
553000000 -0.81053466 0.083305277 -0.00079757167 -0.0011328412 -0.00017481769 -0.001860638 -0.81701583 0.07791058
554000000 -0.81080681 0.082288682 0.00054306252 -0.0013758186 -0.00051161053 -0.00089941581 -0.81773949 0.077593461
555000000 -0.81050265 0.081689209 -0.00050293049 -0.0013022262 -0.00095762382 -0.00036960194 -0.8176316 0.079040274
556000000 -0.80928594 0.08374548 -0.00036658946 -0.00059557636 -0.00093627884 -0.0014254333 -0.81802255 0.077513166
557000000 -0.81174654 0.083028533 0.0008562982 -0.00091246521 -0.00039806202 -0.0018951091 -0.81613481 0.077478416
558000000 -0.81030411 0.08390075 -4.866844e-005 -0.0015538946 -0.00033456474 -0.0017987494 -0.81670558 0.078839466
559000000 -0.8107025 0.083441019 -0.00064280996 -0.0023618748 -0.00058733876 -0.0014875748 -0.81805259 0.079466105
560000000 -0.81145871 0.08361312 5.2334526e-005 -0.00085260445 0.00024160322 -0.0019196246 -0.81664193 0.079740092
561000000 -0.81083786 0.082791463 -0.00017826066 -0.00054646656 -0.00051091687 -0.001467492 -0.81562889 0.078585409
562000000 -0.80927515 0.0840021 -4.1909323e-005 -0.0016795081 0.00070420856 -0.00078525383 -0.81717074 0.080633171
563000000 -0.81012511 0.08413472 -2.3123548e-005 -0.0013603226 0.00043633807 -0.0015548615 -0.8182357 0.080119342
564000000 -0.81028283 0.082649335 0.0012122183 -0.0017261445 -0.0011678545 -0.001498421 -0.81717527 0.078889832
565000000 -0.81097919 0.083391391 -0.00037624943 -0.0012589974 -0.00066878845 -0.0014227604 -0.81772095 0.080113113
566000000 -0.80897534 0.084094003 -0.00059598306 -0.0007746974 0.00013264423 -0.0013130908 -0.81775028 0.079285838
567000000 -0.81111813 0.083995104 -0.00053080323 -0.0015234102 -0.00015653481 -0.0018097355 -0.81599349 0.078330718
568000000 -0.81065625 0.08224047 -0.00017430296 -0.00028037024 -0.001480586 -0.0019625605 -0.81691539 0.079494342
569000000 -0.81044924 0.084194042 -0.0010568438 -0.001761684 0.00029235482 -0.0014137706 -0.81587863 0.078289382
570000000 -0.81060892 0.084535033 -0.00057256885 -0.0014882996 -0.0012114306 -0.0010885322 -0.81712174 0.080364779
571000000 -0.81040788 0.084763296 -0.00030385176 -0.0015999686 0.00064314826 -0.001482191 -0.81608111 0.079527147
572000000 -0.80889493 0.084428348 0.00021357651 -0.0013780664 0.00037430794 -0.0018104028 -0.81673253 0.079723209
573000000 -0.81019557 0.084068492 0.00061581266 -0.001681701 -0.0013788135 0.00019516872 -0.81571579 0.079086557
574000000 -0.81010747 0.084062658 2.6347312e-005 -0.001795406 -0.00065615971 -0.00089909381 -0.81687444 0.078684047
575000000 -0.80936253 0.084458224 -0.0011905622 -0.0022294922 -0.00080860138 -0.0026560479 -0.81667858 0.079940997
576000000 -0.80912864 0.084038891 -0.00061277306 -0.00081189087 -0.0010629412 -0.002785539 -0.81614 0.081881203
577000000 -0.81020075 0.084874131 -0.00069967599 -0.0011546724 -0.00016876365 -0.0017431043 -0.81712329 0.081689082
578000000 -0.80968463 0.085651673 -0.00053165713 -0.001812994 -4.0465235e-005 -0.0018070247 -0.81713688 0.080938816
579000000 -0.81046617 0.085087992 -0.0012425521 -0.001750947 -4.8070651e-005 -0.0015809997 -0.81696677 0.078994468
580000000 -0.80966258 0.084364742 -0.0011965629 -0.0014073482 -0.00052750192 -0.00082928344 -0.81633466 0.08131706
581000000 -0.80906552 0.085156411 -0.00074612617 -0.0024640942 0.00046472249 -0.00091275078 -0.81643015 0.080158994
582000000 -0.80943131 0.085592598 0.00080583978 -0.0025245626 -0.00065152755 -0.0013481955 -0.81668305 0.081780516
583000000 -0.80888718 0.085500062 -0.0012552524 -0.0010832456 0.00015746985 -0.0014576537 -0.81711805 0.080786511
584000000 -0.80939591 0.085127078 0.00038271752 -0.0010812366 -0.00067926146 -0.0016815806 -0.81669652 0.082356982
585000000 -0.81042987 0.087226339 -0.0010665497 -0.0006642933 -0.00028842993 -0.0016506561 -0.81732482 0.082331449
586000000 -0.81077361 0.086618289 -0.00052418356 -0.0018465979 -0.00022616143 -0.0016433974 -0.81699979 0.082708038
587000000 -0.8105076 0.086954176 0.00093385665 -0.00076103152 -0.00046159927 -0.00070576079 -0.8172878 0.081937775
588000000 -0.81073689 0.086180218 -1.933171e-005 -0.0012814305 1.6014608e-005 -0.0017675001 -0.81683564 0.081347302
589000000 -0.80893862 0.086729631 0.000325303 -0.0020408377 -0.0007187564 -0.0013507861 -0.81712377 0.082807392
590000000 -0.80903041 0.087419651 -0.00040111787 -0.0017812365 -5.3741318e-005 -0.0015448513 -0.8172307 0.082043745
591000000 -0.81019616 0.087749436 -0.00086051039 -0.0022085034 -0.00070522563 -0.0022333113 -0.81710243 0.081231542
592000000 -0.81094873 0.087088808 -0.00025709634 -0.0021239829 0.00028673231 -0.0012642213 -0.81681126 0.082393676
593000000 -0.80922174 0.087119423 -0.00061657868 -0.0016005472 -0.00051224156 -0.0013487809 -0.81711018 0.08210367
594000000 -0.80997354 0.086792976 -0.00027233645 -0.0014647979 -0.00045962996 0.00049883156 -0.81681603 0.082490519
595000000 -0.80755115 0.087568246 -0.0010531835 -0.0019306325 -0.001160118 -0.0012529852 -0.81754178 0.081997767
596000000 -0.80963892 0.087515935 -0.0010373131 -0.0017256868 -0.00036946559 -0.0020292155 -0.81798911 0.082689233
597000000 -0.809439 0.087988593 0.00014520713 -0.0010991072 0.00024289417 2.4796105e-005 -0.81542832 0.08233624
598000000 -0.80959427 0.088422753 -0.00084834103 -0.0006084927 -1.7341141e-005 -0.0019728416 -0.81581461 0.083196364
599000000 -0.80971855 0.087946445 -0.00038862927 -0.0012606076 -0.00045197719 -0.00083941408 -0.81676275 0.084679917
600000000 -0.81071377 0.089875102 -0.00030907581 -0.0015464505 1.9476664e-005 -0.0019272072 -0.81770962 0.083638094
601000000 -0.80901021 0.088801555 6.9230198e-005 -0.0010157077 0.00072380737 -0.001300641 -0.81729019 0.083905585
602000000 -0.80957872 0.087805115 -0.00031745361 -0.0015108769 7.9431062e-005 -0.00096760347 -0.8153584 0.084089808
603000000 -0.80839586 0.088439196 -0.0012532469 -0.0021429174 0.00031125199 -0.0012597353 -0.81594872 0.084299222
604000000 -0.80920172 0.090724275 -0.0011232797 -0.00095117366 -0.0011990299 -0.00089440116 -0.81669867 0.086290598
605000000 -0.80909294 0.089235969 0.0001401484 -0.0018252401 -0.00059518788 -0.0013119059 -0.81744254 0.083232671
606000000 -0.80909109 0.089098096 -8.2115577e-005 -0.0012409789 -0.00079445675 -0.0023946383 -0.81621236 0.086281352
607000000 -0.80875677 0.089090548 -1.5256143e-005 -0.0014446519 -0.00036424611 -0.0019662513 -0.81612134 0.083834969
608000000 -0.80982172 0.089094974 -9.8816181e-006 -0.0023800326 0.001187595 -0.00070469303 -0.81631452 0.083447985
609000000 -0.81016409 0.090039395 -0.00020064194 -0.0030153252 0.00024056199 -0.0011508375 -0.81577981 0.085179739
610000000 -0.80891693 0.09040451 -6.906475e-005 -0.0013712419 -0.00063622656 -0.001671331 -0.81679469 0.085264117
611000000 -0.80892444 0.090322718 0.00019607817 -0.00152013 -0.00046711508 -0.0017920024 -0.81576115 0.085561685
612000000 -0.80868822 0.091798544 6.4738156e-006 -0.00044830373 -0.00029695331 -0.0021214092 -0.81624156 0.085714802
613000000 -0.80879271 0.090229459 -0.00029288465 -0.0014294655 -0.00027330979 -0.0018213985 -0.81575441 0.084903844
614000000 -0.80940557 0.090820208 -0.00021255515 -0.001353514 0.00037999562 -0.0019185746 -0.81659645 0.086226046
615000000 -0.80858463 0.090183064 0.00011492925 -0.0012365923 -0.00189835 -0.00091901509 -0.81648177 0.084833652
616000000 -0.80910873 0.091913193 -0.00081936357 -0.0011209142 -0.0007460239 -0.0011468042 -0.81447059 0.086714827
617000000 -0.80885124 0.091003895 0.0001517474 -0.0015087646 -0.00075760268 -0.0015095476 -0.81636602 0.087654777
618000000 -0.80915058 0.092068054 -1.6987498e-007 -0.0011250194 -0.0016934149 -0.0025704384 -0.81540179 0.087230399
619000000 -0.80771017 0.092718288 -0.00058730616 -0.00080785865 -0.0016760598 -0.0015327983 -0.81552905 0.086258017
620000000 -0.80732006 0.091631152 0.00047680092 -0.0020007298 0.00016439699 -0.0034098185 -0.81422663 0.087798171
621000000 -0.80827379 0.094140768 -0.00077188126 -0.0010307917 -0.00016736772 -0.0018681668 -0.81443667 0.086099215
622000000 -0.80833149 0.093120947 -2.3799466e-005 -0.0015953581 0.00029276655 -0.0021451523 -0.81501478 0.08623933
623000000 -0.80880368 0.091927402 -0.00086837134 -0.001518943 0.00063792279 -0.0012596748 -0.81587231 0.087283432
624000000 -0.80876827 0.094407044 -0.00056926056 -0.00097021414 0.00026609955 -0.0021835503 -0.81566483 0.086882964
625000000 -0.8071115 0.093077525 -0.00011104012 -0.00079582894 0.00071501924 -0.0016463363 -0.81478292 0.086744733
626000000 -0.80918407 0.094582178 -0.00074636878 -0.0012176072 -0.00044960133 -0.0009328578 -0.81525499 0.087559946
627000000 -0.80832916 0.092662387 0.00030053192 -0.0010002825 -0.00043507892 -0.0016453873 -0.81492227 0.088343248
628000000 -0.80900156 0.09448716 -0.00054241723 -0.0015172655 -0.00041956341 -0.0012799065 -0.81695169 0.088662893
629000000 -0.80920577 0.094578184 -0.00030544185 -0.0021099346 -0.0005667595 -0.0012930837 -0.81594706 0.088920265
630000000 -0.80788177 0.094683267 -0.0005415504 -0.0014852202 -0.0010880673 -0.0018657992 -0.81628108 0.089069128
631000000 -0.8092128 0.093840927 0.00021273505 -0.0013941933 6.5952248e-005 -0.0014388119 -0.81587356 0.089455515
632000000 -0.80735439 0.096161418 0.00088810327 -0.0023630688 0.00042985872 -0.0014493485 -0.81471175 0.088055693
633000000 -0.80796969 0.095624164 -0.00029093536 -0.0018883799 -0.00021088691 -0.0014192713 -0.81533134 0.088095926
634000000 -0.80830687 0.096081316 -0.00079823128 -0.0017362102 -0.0005116043 -0.0012218357 -0.8155393 0.087362587
635000000 -0.80935699 0.095192209 -0.00096611457 -0.0015718506 -5.2981177e-005 -0.0025830115 -0.81421494 0.089533523
636000000 -0.80820423 0.094270542 0.00039642924 -0.0019504239 0.00050740095 -0.0020010255 -0.8168062 0.089107849
637000000 -0.80882955 0.095755801 -0.0004693986 -0.0021034554 -0.00092951715 -0.001291586 -0.815153 0.089311853
638000000 -0.80704623 0.096857786 -0.00023900096 -0.0011171149 -0.0010940696 -0.0015697704 -0.8155399 0.088988669
639000000 -0.80914295 0.096900158 0.00039497091 -0.0016233515 -0.00062689255 -0.0019065518 -0.81371063 0.090785779
640000000 -0.80750519 0.09614668 -0.00038590704 -0.0005412887 -0.00011288632 -0.0020337503 -0.81426394 0.089591362
641000000 -0.80917346 0.096619159 -0.00063330424 -0.0024500194 -0.00040444674 -0.0012222097 -0.81425589 0.088313051
642000000 -0.80717367 0.096708171 -0.00039207621 -0.0010738437 -0.00085632992 -0.0013140969 -0.81457615 0.090086251
643000000 -0.80881995 0.097416878 0.00016669738 -0.001998649 -0.0007632678 -0.0014363866 -0.81487674 0.090666004
644000000 -0.80846578 0.096939176 0.00036112062 -0.0017816641 -0.00015219547 -0.0011217303 -0.8152864 0.09121263
645000000 -0.80868286 0.096770108 -0.00087399577 -0.0019312453 -3.7426922e-005 -0.0020493485 -0.81567478 0.090823814
646000000 -0.809156 0.096387692 -0.00020023603 -0.0013502862 -0.00068749423 -0.0019393286 -0.81452727 0.09054748
647000000 -0.80945408 0.097983167 -0.00078348501 -0.0023165771 0.00031412684 -0.0013163206 -0.81499827 0.09037365
648000000 -0.80776644 0.098080099 0.00049002562 -0.0020543353 -0.00039062259 -0.0010899712 -0.81518495 0.09099745
649000000 -0.80863065 0.096725978 -0.00038366445 -0.0016465585 -0.00059029955 -0.0012479593 -0.81495559 0.090294309
650000000 -0.80657887 0.096961789 -0.00048690336 -0.0026265427 0.0005850977 -0.0014055177 -0.81511545 0.091111474
651000000 -0.80804121 0.098368108 0.00013476462 -0.0015782667 -0.00039586701 -0.0012848123 -0.81565148 0.089717023
652000000 -0.80699843 0.098475456 -0.00062970968 -0.00079765543 0.00046397318 -0.0024249367 -0.81465626 0.089832231
653000000 -0.80786675 0.099575512 0.00043564834 -0.0012467969 -0.0012387141 -0.00090677035 -0.81469375 0.09091571
654000000 -0.80796468 0.098290682 -0.00081388134 -0.001223482 -0.00033905913 -0.0013538948 -0.81669033 0.091441639
655000000 -0.80672234 0.099017568 -8.6454238e-005 -0.002339669 0.0004364551 -0.00067607302 -0.81491578 0.091797926
656000000 -0.80726379 0.1001418 -0.00040663552 -0.002761282 -0.000638492 -0.0015269652 -0.81470597 0.091263629
657000000 -0.80828112 0.09912388 -0.0005665858 -0.0014391885 -3.6308236e-005 -0.0026592587 -0.81495732 0.092512377
658000000 -0.80667865 0.09828385 -0.0005735936 -0.00035772429 -0.0006533612 -0.0017941436 -0.81613421 0.092528276
659000000 -0.80854654 0.099852651 -0.00089303922 -0.0010115686 -0.00050374179 -0.0011703824 -0.81508058 0.091930702
660000000 -0.80766398 0.09847872 -0.00075738592 -0.00099867152 -0.0010511385 -0.00074591691 -0.81398767 0.092470169
661000000 -0.80924886 0.099936984 -0.00054973626 -0.0019365335 -5.2129733e-005 -0.0016240765 -0.8146168 0.092411175
662000000 -0.80700541 0.099392094 4.3113036e-005 -0.0020495595 0.0013204453 -0.0014720099 -0.81541353 0.092490032
663000000 -0.80720514 0.099269487 -0.0012340307 -0.0016523704 0.0010125476 -0.0011657532 -0.81375557 0.091199763
664000000 -0.80813444 0.098495558 -0.00064914755 -0.0016550455 0.00086377742 -0.0021391842 -0.81546646 0.091824614
665000000 -0.80762941 0.1008869 0.00061344425 -0.00074057293 0.00013014331 -0.0028019156 -0.8154375 0.093966745
666000000 -0.80785185 0.10030646 -0.00078079209 -0.0024381289 -0.00059712632 -0.0012627586 -0.81511462 0.093301333
667000000 -0.80755627 0.099397272 0.00027078096 -0.0018363841 -0.00028612494 -0.0012565525 -0.81426489 0.092031732
668000000 -0.80887938 0.10004306 -0.00023834153 -0.00083005847 -0.00029374292 -0.0017046916 -0.81358641 0.093834557
669000000 -0.80814725 0.10086453 -0.00038986627 -0.0021350845 -0.00033753031 -0.0021159826 -0.81363064 0.092925832
670000000 -0.80849713 0.10011751 0.00041650457 -0.0021894851 -0.00066009955 -0.001949258 -0.81526846 0.093378142
