!Keysight Technologies,M9374A,MY55442783,A.12.55.05
!Date: Wednesday, May 19, 2021 19:24:48
!Correction: S11(Full 2 Port(1,2)) 
!S21(Full 2 Port(1,2)) 
!S12(Full 2 Port(1,2)) 
!S22(Full 2 Port(1,2)) 
!S2P File: Measurements: S11, S21, S12, S22:
# Hz S  RI   R 50
500000000 -0.81291485 0.06914518 -0.00023908487 -0.00063111237 0.00061761827 -0.00084421318 -0.81784779 0.065190159
501000000 -0.81428599 0.068358265 -0.00022659832 -0.001100641 0.00057303812 -0.00097460201 -0.81867045 0.065434694
502000000 -0.81414682 0.070301749 0.00010926071 -0.0018434809 -0.00032833393 -0.0014988717 -0.81876308 0.066734411
503000000 -0.81244475 0.070346303 0.00062101957 -0.001525433 -0.00083960779 -0.0014401346 -0.81890875 0.065639593
504000000 -0.81335813 0.072514258 -9.4477531e-005 -0.00059486605 -9.7441822e-005 -0.0015196934 -0.81907237 0.066734605
505000000 -0.81322747 0.070376366 -0.00067291019 -0.0014702128 -0.00079197064 -0.0005505567 -0.81710082 0.066090427
506000000 -0.8148163 0.071535721 -2.4689407e-005 -0.0017103712 -0.00016230225 -5.4081283e-005 -0.81802565 0.066034153
507000000 -0.81409281 0.071080603 -0.00044161725 -0.00024721128 -0.00067563966 -0.0013723088 -0.81869262 0.066106871
508000000 -0.81495214 0.071184017 -0.0010403887 -0.0010052506 -5.9021739e-005 -0.001183813 -0.81872725 0.066454686
509000000 -0.81389993 0.072303981 -0.0013489998 -0.0012116255 0.0004102423 -0.0010506201 -0.81830382 0.067496121
510000000 -0.81430966 0.07290978 0.00025408663 -0.0011043466 -0.0004235658 -0.0012303833 -0.81756449 0.06720794
511000000 -0.81501532 0.073184878 0.00058136473 -0.00088339369 5.5061089e-005 -0.001230299 -0.81749862 0.068165094
512000000 -0.81391388 0.072790757 -0.00063238735 -0.0010470729 0.00071673159 -0.0014628794 -0.81799227 0.068772122
513000000 -0.81400841 0.07279975 -0.00084688386 -0.0015203664 -0.00053880975 -0.0011223092 -0.81817752 0.066626474
514000000 -0.81395584 0.072213881 0.00064041594 -0.0022950312 0.00064930762 -0.00096071087 -0.81796569 0.068800017
515000000 -0.8134653 0.072409183 -0.00052429654 -0.00019762338 -0.00053147395 -0.00094972545 -0.81643319 0.067480899
516000000 -0.81367993 0.073026784 -0.00063733466 -0.0013993584 -0.00014301302 -0.0016101863 -0.81926388 0.067488939
517000000 -0.81327182 0.07145115 9.0380308e-005 -0.00071272178 -0.0013445207 -0.0017221438 -0.81820172 0.069174342
518000000 -0.81510639 0.072455734 -0.00021507531 -0.0015290144 0.00045418512 -0.00050442765 -0.81903875 0.068145216
519000000 -0.81425071 0.074664041 0.00022903591 -0.0013542341 -0.00012746199 -0.0017523069 -0.81749821 0.067924961
520000000 -0.81392229 0.07427641 -0.00015311901 -0.0012001649 -0.00011534507 -0.00096248696 -0.8177076 0.068708479
521000000 -0.81429011 0.074567579 0.00022029062 -0.0013721823 0.00031464561 -0.0012520242 -0.81975806 0.068123102
522000000 -0.81515336 0.072753243 -6.2186657e-005 -0.0011407956 -0.0004498552 -0.00095963909 -0.81668442 0.069362774
523000000 -0.81442004 0.073172279 0.00033723391 -0.0010322948 -0.00094848103 -0.0022325122 -0.81887621 0.069646783
524000000 -0.81360358 0.074525118 0.00010718089 -0.0010816678 -0.00049672445 -0.0018096658 -0.81839067 0.069949269
525000000 -0.8126502 0.073296778 -0.00096769922 -0.00099036121 0.00060472288 -0.0018278019 -0.81836867 0.069789179
526000000 -0.81351858 0.074380755 -7.858e-005 -0.0011556607 -0.00037215039 -0.0017501145 -0.81889987 0.069852054
527000000 -0.81434864 0.07391794 -0.00034688995 -0.00029218287 -0.00025088002 -0.0013032613 -0.81885523 0.068939127
528000000 -0.81415993 0.073985755 0.00012728521 -0.00019509929 -0.0007404763 -0.0015302403 -0.81735086 0.071097121
529000000 -0.81452298 0.074392825 0.0011065513 -0.0013316942 4.9966802e-005 -0.0019863409 -0.81632537 0.068144105
530000000 -0.81374151 0.075782537 6.5710687e-005 -0.0020256678 -0.0014259159 -0.0012333558 -0.81981856 0.071217068
531000000 -0.81317437 0.07319589 0.00073608547 -0.0012307084 -0.00032223156 -0.0014078324 -0.81676936 0.069327228
532000000 -0.81385553 0.075949304 -0.0013207352 -0.0019799436 -0.00082613085 -0.0012670796 -0.81812984 0.070409961
533000000 -0.81324899 0.075879313 -3.8896542e-005 -0.0015964339 -0.00070802012 -0.0010713123 -0.81808287 0.069032706
534000000 -0.81363124 0.075232945 -0.00082444353 -0.0017567716 -0.00033225314 -0.00078425213 -0.81707329 0.071113802
535000000 -0.81411994 0.075895876 -0.00073778053 -0.0012553848 -0.00068228634 -0.0016838716 -0.81814694 0.072167449
536000000 -0.81385481 0.075529344 -5.988908e-005 -0.0029543596 -0.00038665868 -0.0015118237 -0.81705838 0.071173802
537000000 -0.81374961 0.076857589 0.00040886924 -0.00056077936 0.00014218317 -0.0011923771 -0.81818521 0.070843086
538000000 -0.81239682 0.076916285 -0.00055711553 -0.001790138 -3.938255e-005 -0.0013384102 -0.81793588 0.07264147
539000000 -0.81433702 0.076599851 -0.00049780635 -0.0017517149 -0.00026550682 -0.0016328623 -0.81768996 0.071993902
540000000 -0.81299448 0.075743288 -0.00052345602 -0.0018292085 0.00056290423 -0.0024926797 -0.81725281 0.072166689
541000000 -0.81312007 0.075757332 -0.00035309841 -0.0012584262 0.00069135457 -0.0011744773 -0.81769753 0.071302444
542000000 -0.81341004 0.076043755 -0.00036903936 -0.0011377707 0.00070418848 -0.0019818647 -0.81773996 0.072338872
543000000 -0.8143869 0.076258659 0.00030097234 -0.0018499888 -7.5860735e-005 -0.0017735336 -0.81695461 0.072344907
544000000 -0.81290054 0.078474082 -0.00034344938 -0.0016789668 -0.001153959 -0.0015030487 -0.81855673 0.072365709
545000000 -0.81364119 0.07712023 -7.4814838e-005 -0.001789698 -0.000468724 -0.00020173541 -0.81797272 0.072249077
546000000 -0.81279743 0.075152799 -0.00051615259 -0.0020762323 0.00051243335 -0.0003689997 -0.81760317 0.073352568
547000000 -0.81401849 0.077505432 -0.0014141058 -0.0016614802 6.9375907e-005 -0.00033742411 -0.81716621 0.072583973
548000000 -0.8143729 0.07705047 -0.00055936642 -0.0016177378 -0.0011162926 -0.0017519996 -0.81779385 0.0740804
549000000 -0.81390899 0.077649355 0.0006691225 -0.00026751758 0.00027049775 -0.0027047279 -0.81787497 0.073788613
550000000 -0.81297767 0.077606916 -0.00094313384 -0.0012919559 -2.743822e-005 -0.0012311098 -0.81723922 0.073937044
551000000 -0.8136642 0.077210113 -0.00039674013 -0.0014749727 -0.00046536096 -0.0009934993 -0.81819808 0.072198525
552000000 -0.81428951 0.076873384 0.00025611997 -0.0014080555 -0.00085875345 -0.0026571457 -0.81618112 0.07306461
553000000 -0.81313634 0.077110514 -0.00015791492 -0.0015287562 0.00010322747 -0.0011742846 -0.81828845 0.074290872
554000000 -0.81484932 0.076061383 -0.00033072344 -0.0016379213 0.00033265734 -0.0010816354 -0.81789559 0.073578082
555000000 -0.81213647 0.077359475 -0.00060581742 -0.0013235544 0.00027458227 -0.00093816448 -0.81784827 0.073889308
556000000 -0.81288612 0.078519672 0.00054125657 -0.0020463173 0.00077616255 -0.0016286254 -0.81792814 0.073308006
557000000 -0.81478864 0.079518825 4.1515443e-005 -0.00095563632 -0.00027654067 -0.00076068804 -0.81695676 0.073461838
558000000 -0.81310207 0.077815741 -0.00025202698 -0.00072125153 6.8417146e-005 -0.0014470489 -0.81759566 0.074137427
559000000 -0.81455564 0.077456273 -0.00024137503 -0.00181609 0.0004513468 -0.0010643058 -0.81805182 0.073732883
560000000 -0.81272626 0.078801669 -0.00048149054 -0.0022585294 0.00030820581 -0.0012883997 -0.81626654 0.073388785
561000000 -0.81396854 0.07803081 -0.00015472935 -0.0010948011 6.7262222e-006 -0.0019694092 -0.81659788 0.073356859
562000000 -0.81226122 0.079853974 -0.00042341684 -0.0020061932 -0.00031606422 -0.00090018893 -0.81747222 0.075418167
563000000 -0.81383252 0.078463934 5.9713657e-005 -0.0012524731 4.8493523e-005 -0.002381606 -0.8173247 0.074720226
564000000 -0.81281155 0.078628421 -0.00045642338 -0.0017626201 -0.00034685247 -0.0013842529 -0.81879151 0.071868449
565000000 -0.81284773 0.077842385 -0.00077410886 -0.0021239177 -7.7698249e-005 -0.0011719286 -0.81757969 0.073945992
566000000 -0.81319052 0.077717021 0.00036266967 -0.00066176098 -0.00034015178 -0.00093163253 -0.81779259 0.073997997
567000000 -0.81277299 0.078601718 -0.0002136129 -0.00029811761 0.00039410024 -0.0019919286 -0.81748933 0.074391581
568000000 -0.81270134 0.079416633 -0.00010783293 -0.00084173278 -0.00065986853 -0.0017029457 -0.81830615 0.074549295
569000000 -0.81245089 0.080303095 0.00062023959 -0.0012000146 1.2322963e-005 -0.001453385 -0.81857449 0.075737834
570000000 -0.81251156 0.077865973 -0.00052234676 -0.0017886919 -0.00079675735 -0.0020007053 -0.81670755 0.075495526
571000000 -0.81344551 0.079960667 0.0012040631 -0.0015178408 -0.00071923336 -0.0016876173 -0.81914771 0.076276578
572000000 -0.81329232 0.078845553 -6.4106192e-005 -0.0025415379 -0.00020820645 -0.0010634663 -0.81878042 0.074618034
573000000 -0.81275928 0.078329131 -0.0015701893 -0.0024946292 -0.00081469916 -0.0015389154 -0.81801629 0.076726086
574000000 -0.813214 0.079083771 0.00017768661 -0.0018643718 -0.00020255952 -0.0015730674 -0.818367 0.075796805
575000000 -0.81276494 0.080926195 -0.0010772471 -0.0012131891 -0.00032581575 -0.0015771445 -0.81766331 0.075231738
576000000 -0.81310147 0.077635616 -0.00087683805 -0.0018504078 0.00045808582 -0.0018405772 -0.81526321 0.075470231
577000000 -0.81261414 0.079173274 0.00052769319 -0.00095722801 -0.00038589633 -0.00061412231 -0.81719536 0.075611405
578000000 -0.81361282 0.078527287 0.0010841305 -0.0015599314 -0.00031064308 -0.0017192367 -0.8178829 0.076121897
579000000 -0.81258291 0.080404401 0.00017668729 -0.0017661985 -0.00082383823 -0.001387925 -0.81755656 0.076129794
580000000 -0.81089616 0.080116652 -9.3533217e-006 -0.0017594837 -0.00081775495 -0.00055680616 -0.8177585 0.076446414
581000000 -0.814044 0.079837792 -0.0010622182 -0.0014396135 -0.00041374375 -0.00074724364 -0.8164131 0.074459791
582000000 -0.81258488 0.080576487 0.00061477587 -0.001885267 -0.0008356442 -0.0012266809 -0.81662005 0.074296825
583000000 -0.81204003 0.080477193 0.00014257735 -0.0012327816 0.00036549306 -0.0011833084 -0.81780732 0.075570866
584000000 -0.81135678 0.079498261 -0.00022445931 -0.0001875304 -0.00049233 -0.0012501102 -0.81624341 0.077506036
585000000 -0.81364793 0.080519453 -0.00023830328 -0.00087890599 -0.0010891807 -0.0011011668 -0.81730914 0.077980913
586000000 -0.81202459 0.080042511 -0.00078036689 -0.00046999531 -0.00043648874 -0.0016364382 -0.8163178 0.076220922
587000000 -0.81270498 0.081482768 0.00030845316 -0.001847476 -0.00091233215 -0.0013354347 -0.81733638 0.077105775
588000000 -0.81258726 0.078536525 0.0007268691 -0.00061629101 0.00012226675 -0.00042572926 -0.81950647 0.076260611
589000000 -0.81172448 0.079936802 -0.00059502723 -0.0014616234 -0.0003724508 -0.00065681495 -0.81719989 0.075139694
590000000 -0.81251001 0.08041136 -0.00049190951 -0.0017730331 0.00012687377 -0.0024528573 -0.81573087 0.076971002
591000000 -0.81264031 0.081209533 -0.00082359632 -0.0016745427 -4.4616161e-005 -0.00092199876 -0.81648755 0.077167459
592000000 -0.81211615 0.083079584 -0.00071580784 -0.00093556166 -7.0323418e-005 -0.0018765177 -0.81674355 0.076801978
593000000 -0.81235558 0.08238095 -0.00086000172 -0.00088042335 -7.0299e-005 -0.0010009726 -0.81769663 0.075739443
594000000 -0.81223238 0.08176589 -0.00042110094 -0.00064184354 -0.00039119116 -0.0027586685 -0.81739825 0.078046449
595000000 -0.81210333 0.083751485 -0.00052720791 -0.0019088908 -0.00023115952 -0.00055109436 -0.81680179 0.077850148
596000000 -0.81250113 0.081963196 0.00039378539 -0.0010883533 9.1845075e-005 -0.0014294662 -0.81709814 0.078789592
597000000 -0.81219095 0.083938077 -0.00025255868 -0.0011957957 -0.00050902186 -0.00078718812 -0.81672645 0.078267157
598000000 -0.81277817 0.083575375 -0.00084592018 -0.0019143965 -0.00084318814 -0.0023635689 -0.81727207 0.078295149
599000000 -0.81221902 0.083119892 8.5908003e-005 -0.0013646091 -0.00048504432 -0.0022189729 -0.81591207 0.078139879
600000000 -0.8124221 0.081676282 0.00041707544 -0.0022500595 -0.00016699302 -0.0011154112 -0.81600499 0.07786832
601000000 -0.81254458 0.084213473 -0.00073346245 -0.0021666058 -0.0015776418 -0.00096815854 -0.81849825 0.079976983
602000000 -0.81140584 0.082718201 -0.00069887511 -0.0011123207 -0.00023701665 -0.00069399772 -0.81700736 0.078090623
603000000 -0.81190473 0.082591057 -0.00095722219 -0.001645767 -0.00058089808 -0.002314378 -0.81727612 0.078443423
604000000 -0.81117582 0.08345101 -0.00095262768 -0.0021090172 5.8245845e-005 -0.0023472174 -0.81674933 0.079027578
605000000 -0.81234485 0.085356012 0.00063807832 -0.0016335986 -0.00056517788 -0.0011437946 -0.81755054 0.079713069
606000000 -0.81310356 0.083625697 0.00041460249 -0.0010216695 0.00080585585 -0.0011052591 -0.81696057 0.078058995
607000000 -0.81184763 0.085503899 -0.00085952017 -0.0015440912 -0.00026043621 -0.001179058 -0.81713408 0.078639217
608000000 -0.81186205 0.085862704 -0.00058625836 -0.00051222683 0.0005960422 -0.0030416693 -0.81677973 0.079862684
609000000 -0.81207114 0.083922818 -0.00065944425 -0.0016608306 0.00029721556 -0.0017657443 -0.81649286 0.079381801
610000000 -0.81132406 0.08583685 -0.00060092343 -0.0010423 -0.0011084428 -0.0021053033 -0.8145141 0.0792059
611000000 -0.81078029 0.083831467 -0.00046032734 -0.0019623302 0.00014694362 -0.0015741817 -0.81601387 0.080091678
612000000 -0.81071144 0.084588006 0.00033718473 -0.001605318 0.0009871996 -0.0010254922 -0.81880814 0.08066345
613000000 -0.81097639 0.086071789 -0.0010728665 -0.0011776953 -0.00036340329 -0.00090151018 -0.81626964 0.077826075
614000000 -0.81071568 0.086615965 -0.0011274023 -0.001131404 -0.0010392355 -0.0022046317 -0.81644142 0.080678396
615000000 -0.81226939 0.084807314 7.8076155e-005 -0.0015792614 -0.0012823076 -0.0016005922 -0.81664026 0.08025685
616000000 -0.81323045 0.085533634 -0.00010276344 -0.0019715675 -0.00061979063 -0.0014961911 -0.8143726 0.080718644
617000000 -0.80982572 0.08726991 0.00029732863 -0.0016949316 -6.6191984e-005 -0.0016043532 -0.81584024 0.079632819
618000000 -0.81092149 0.086661085 -0.00024147156 -0.0014015713 -0.00054722914 -0.0018693339 -0.81755841 0.079566829
619000000 -0.81089669 0.08643648 -7.0474103e-005 -0.0015126923 0.00019523205 -0.0015557158 -0.81694269 0.081184447
620000000 -0.81109548 0.086980917 -0.00057361013 -0.0012354159 0.00075557857 -0.00062888261 -0.8155269 0.081177965
621000000 -0.81189114 0.086313799 -0.00021694694 -0.00042846103 -0.00093115977 -0.0021320265 -0.81662154 0.081774369
622000000 -0.81140137 0.087144285 -3.3123666e-005 -0.001424562 -0.00021933268 -0.0015545092 -0.81572276 0.081683539
623000000 -0.81182778 0.087551542 -0.00022839045 -0.00057552307 -0.0011658383 -0.00085071166 -0.81674975 0.082150169
624000000 -0.81060016 0.087554306 -0.0003239566 -0.0020764056 3.7049744e-005 -0.0013141958 -0.81674147 0.08185529
625000000 -0.81110704 0.088309564 -0.00048452386 -0.0018148458 -0.0012122551 -0.0021058442 -0.81594527 0.082902052
626000000 -0.81055218 0.089394115 -0.00086072943 -0.0010807368 0.00074477552 -0.0016487918 -0.81429225 0.081344917
627000000 -0.81048781 0.08866559 -0.00037447797 -0.0022919141 -0.00072886178 -0.0015865442 -0.81599951 0.080532074
628000000 -0.81006515 0.087158479 -0.00061106449 -0.0025794338 -0.00061147509 -0.0013551621 -0.81623673 0.083032675
629000000 -0.81047523 0.088664949 -0.00063558377 -0.0020708491 0.00029264757 -0.0021289822 -0.81700528 0.082172647
630000000 -0.81133646 0.089856744 -0.00085770129 -0.0017264278 0.00047396863 -0.0009904633 -0.81632566 0.081957929
631000000 -0.81098908 0.089400537 -0.00020128106 -0.00094474852 -0.00062163238 -0.0015961605 -0.81505722 0.082341135
632000000 -0.81010103 0.088910595 -0.00083734817 -0.0020359869 0.00015804417 -0.0019969307 -0.81593359 0.083615042
633000000 -0.81110281 0.089749925 -0.00050949416 -0.0015296473 -0.0011271855 -0.002683874 -0.81653821 0.082867585
634000000 -0.81180054 0.091264538 -0.0011310221 -0.0018167488 -0.00088405301 -0.0017519868 -0.81629777 0.082660824
635000000 -0.81114066 0.089738615 0.00023400455 -0.0020475022 -0.00032830029 -0.0021026395 -0.81624043 0.083762504
636000000 -0.81084806 0.089799143 -0.00028474996 -0.0020610257 -0.0013579641 -0.0015690259 -0.8167761 0.083184198
637000000 -0.81217933 0.091209114 -0.00034684455 -0.0023232934 -0.00016947437 -0.0018791052 -0.8169027 0.082618788
638000000 -0.81114489 0.090371653 -0.00064520683 -0.0013452196 -0.00077532243 -0.0016150489 -0.81630766 0.083484419
639000000 -0.8112675 0.090753987 -0.0014541601 -0.0021932512 -0.00025263231 -0.0020821311 -0.8154217 0.083694167
640000000 -0.81075835 0.090531826 0.00015550254 -0.0012627671 -0.00056137459 -0.0014971731 -0.81546444 0.081632122
641000000 -0.81251299 0.089471243 0.00023010702 -0.0017815836 -0.00061884732 -0.0018115755 -0.81665099 0.083175577
642000000 -0.81004602 0.090390466 -6.3608561e-005 -0.0015397472 9.7059994e-005 -0.0017212239 -0.8164497 0.085179359
643000000 -0.81153667 0.092285417 7.0006376e-005 -0.0021584455 -0.0010797384 -0.001607363 -0.81612271 0.084278487
644000000 -0.81048179 0.09105628 -0.00022641718 -0.0017859868 -2.8415403e-005 -0.00090619962 -0.81621128 0.083488196
645000000 -0.81185764 0.090504847 -0.0010849916 -0.0024841886 -0.00063039415 -0.0014663689 -0.81637549 0.083553694
646000000 -0.81225568 0.092389576 5.4710581e-005 -0.0012187543 -0.00012996834 -0.0007679626 -0.81409812 0.083544075
647000000 -0.81092322 0.09154062 -0.00069747103 -0.00078027393 -0.00071531074 -0.0014277037 -0.81607193 0.085837863
648000000 -0.81050634 0.092784554 -0.0011014638 -0.0010099511 -0.00011262966 -0.0015924858 -0.81517816 0.085021369
649000000 -0.81091285 0.091779932 -2.6193269e-005 -0.0017906671 0.00029078711 -0.0010176527 -0.81735671 0.085446991
650000000 -0.81121087 0.092357971 -7.6158445e-005 -0.00078820216 -0.00060625543 -0.0025869063 -0.81476986 0.08575917
651000000 -0.81125116 0.09057086 -0.00097678939 -0.0020617407 -0.00041658024 -0.00093737378 -0.81644374 0.085385971
652000000 -0.81190383 0.092158318 0.00013357787 -0.0015838877 -0.00031850609 -0.0020353817 -0.81552368 0.0842086
653000000 -0.81052577 0.091984764 -0.0016447266 -0.0016704832 -0.00022600545 -0.0013413726 -0.81572956 0.084848292
654000000 -0.80958259 0.091919258 -0.00032135766 -0.0020016411 -0.00043259497 -0.0025988782 -0.81789148 0.084227152
655000000 -0.80971503 0.092915699 -0.001566768 -0.0018918207 2.8789187e-005 -0.0018819383 -0.81522518 0.085920364
656000000 -0.81033218 0.092969723 0.0004487985 -0.0017772564 0.00027881228 -0.0013667594 -0.81571865 0.086432956
657000000 -0.81166351 0.093012586 -0.00050733122 -0.0018636918 0.00088085275 -0.0020333277 -0.81549442 0.085708991
658000000 -0.81063706 0.092933133 0.00011528051 -0.00087678124 0.00044881005 -0.0020152025 -0.81654292 0.086504735
659000000 -0.81034827 0.092615217 0.00016703158 -0.0017534021 -0.0001039713 -0.0017580681 -0.81495982 0.085100628
660000000 -0.81176102 0.094092458 0.00027383812 -0.0017939324 -0.00022355898 -0.00051555899 -0.81472653 0.084403001
661000000 -0.81133282 0.092999913 0.00049119053 -0.0009400202 -0.0002414248 -0.0019320614 -0.81445748 0.08536426
662000000 -0.81147736 0.094416551 -0.0011392008 -0.0019400187 0.0011743914 -0.0024555672 -0.81573927 0.087771088
663000000 -0.81171215 0.093124226 -0.00022941448 -0.001728654 -0.00085030345 -0.0012900711 -0.81482148 0.085278042
664000000 -0.80998582 0.094520338 2.4572386e-005 -0.0013849934 -0.00019081193 -0.0024520126 -0.815552 0.085597612
665000000 -0.81141979 0.095025234 -0.00081333838 -0.0016360084 -0.00017923809 -0.00096931675 -0.81510162 0.086794302
666000000 -0.81222475 0.093315721 -0.00045130038 -0.00094605197 -0.00014564954 -0.0021307154 -0.8159954 0.087010734
667000000 -0.81077075 0.09273468 -9.0824738e-005 -0.001321202 -0.00074201374 -0.0011906013 -0.8157047 0.08719261
668000000 -0.8107878 0.094957985 0.00027829959 -0.0024794291 -0.00031840013 -0.0023053305 -0.8151083 0.086800024
669000000 -0.81168002 0.093944311 0.00013038372 -0.0012003646 -9.1869821e-005 -0.0011880037 -0.81588864 0.086717203
670000000 -0.81069928 0.094384015 0.00054642733 -0.0017566808 0.00070798636 -0.0030142392 -0.81654018 0.088425674
