!Keysight Technologies,M9374A,MY55442783,A.12.55.05
!Date: Wednesday, May 19, 2021 19:18:23
!Correction: S11(Full 2 Port(1,2)) 
!S21(Full 2 Port(1,2)) 
!S12(Full 2 Port(1,2)) 
!S22(Full 2 Port(1,2)) 
!S2P File: Measurements: S11, S21, S12, S22:
# Hz S  RI   R 50
500000000 -0.81531996 0.070687614 0.00032534773 -0.00021632032 -0.00088831468 -0.00087419339 -0.81896287 0.066088058
501000000 -0.81577003 0.07054694 -0.00026447448 -0.0018893745 0.0009878393 -0.0010283802 -0.81834638 0.066276208
502000000 -0.81483221 0.071560808 0.0005639611 -0.00084178953 0.00064313627 -0.0012551863 -0.81805032 0.065947406
503000000 -0.81348872 0.073056191 0.00062964216 -0.0019095265 0.00027660382 -0.0016333897 -0.81892192 0.066158585
504000000 -0.81427413 0.07320448 -0.00097970024 -0.0022644072 -0.0012624118 -0.002078814 -0.81804633 0.065865792
505000000 -0.81432563 0.072614841 0.00036871072 -0.001931655 -0.00022496445 -0.00017712805 -0.81822222 0.066633686
506000000 -0.81282979 0.070458934 0.00052830274 -0.00086759892 0.00012378088 -0.0009097936 -0.81805021 0.067114383
507000000 -0.81316555 0.072634801 -0.00060830649 -0.0014615409 0.00053018588 -0.0022986881 -0.8182233 0.068401672
508000000 -0.81402147 0.071571074 -0.00049638626 -0.0019233173 0.00023720533 -0.0020780603 -0.81793952 0.067794614
509000000 -0.81612742 0.073284291 0.00079672254 -0.0014073466 -0.00022085906 -0.0018594192 -0.81726629 0.066278607
510000000 -0.81371766 0.073820323 -3.3559714e-005 -0.001571405 7.6644712e-005 -0.00092114572 -0.81717771 0.068156913
511000000 -0.81263244 0.072867505 0.00035819528 -0.00071850471 -0.00064341049 -0.0010308306 -0.81734025 0.067543924
512000000 -0.81326008 0.074570499 -0.00085573207 -0.00050081679 -0.00059571379 -0.0018935553 -0.81788826 0.067125358
513000000 -0.81519258 0.073088124 0.00027439243 -0.00048226575 0.00040919441 -0.0011162449 -0.81724781 0.068122379
514000000 -0.81422788 0.072875239 0.00043489333 -0.00081387459 -0.0011198424 -0.0022591215 -0.81781471 0.067599736
515000000 -0.81490272 0.07368394 0.00054482307 -0.0013752047 -0.0010430772 -0.0020592981 -0.81678975 0.069676153
516000000 -0.81391561 0.074562356 -0.00079201296 -0.0011020044 -7.9590187e-005 -0.0016795389 -0.81837058 0.069247685
517000000 -0.81405407 0.073587656 0.0003471238 -0.0017645593 0.00018075322 -0.0007303037 -0.81714416 0.070167243
518000000 -0.8135854 0.07371562 0.0004301038 -0.00095144485 -0.00051148288 -0.00078149361 -0.81751865 0.068514891
519000000 -0.81346887 0.074900426 -0.00073177961 -0.00058677496 0.00078887399 -0.0015298686 -0.81679213 0.070028216
520000000 -0.81340182 0.073323563 -0.00049952458 -0.001822087 -0.00092043635 -0.0011400357 -0.81798631 0.068473414
521000000 -0.81238627 0.075148508 0.00056514854 -0.00077112881 0.00042432995 -0.00087636546 -0.81832367 0.069475025
522000000 -0.81316006 0.075943381 0.00020742262 -0.0017485495 0.00067346415 -0.0019671628 -0.81776839 0.070192136
523000000 -0.81395674 0.074785322 -0.00047603666 -0.00068875623 -0.00029674935 -0.00060269661 -0.81818157 0.070567481
524000000 -0.81356519 0.07577353 -0.00053578767 -0.00027442689 -0.00034224548 -0.001467198 -0.81685895 0.070835426
525000000 -0.8142159 0.075260594 0.00011164101 -0.0014193314 -0.00061568827 -0.00087701215 -0.81673181 0.071495488
526000000 -0.81305808 0.0751651 -0.00031098622 -0.0017487785 0.00036832481 -0.00090940687 -0.81775534 0.071406864
527000000 -0.81345588 0.075124681 -0.0002371655 -0.0014779131 -0.00055262441 -0.0012680369 -0.81874698 0.070471115
528000000 -0.81358242 0.075881541 -0.0007473646 -0.0010594015 0.00039818531 -0.0018202133 -0.81760639 0.07032717
529000000 -0.81443065 0.074609116 0.00043812406 -0.0010961945 -0.00039534501 -0.0011849235 -0.81692666 0.072386183
530000000 -0.8136642 0.076214753 -0.0012610366 -0.0017142459 -0.00097292179 -0.00079493178 -0.81818497 0.071315259
531000000 -0.81356484 0.075414412 -0.00017287351 -0.0015775104 0.00021072025 -0.0021612411 -0.81854641 0.071696945
532000000 -0.81320959 0.076628134 0.00029215869 -0.0015359488 -0.00036302154 -0.00084981357 -0.81739306 0.071045823
533000000 -0.81282896 0.076402672 -0.0005320296 -0.00068752392 -1.7959686e-005 -0.0013251257 -0.81838673 0.071654491
534000000 -0.81206244 0.076579042 0.00029278203 -0.0020699645 5.5106506e-005 -0.0010405659 -0.81733793 0.070675999
535000000 -0.81213969 0.077124126 -0.0005410689 -0.0012683856 7.8284662e-005 -0.0020858676 -0.81978631 0.070390448
536000000 -0.8138845 0.077374078 -0.00024701684 -0.0010085857 -0.0001615503 -0.00074251276 -0.81650895 0.070358306
537000000 -0.81373626 0.076049492 0.00022261278 -0.0011911575 -0.00013132497 -0.0011660914 -0.81598061 0.072721146
538000000 -0.81311816 0.077762462 -0.00052608451 -0.0017093668 -0.00026904835 -0.00017650719 -0.81743908 0.070771515
539000000 -0.81347787 0.077795729 0.00010625335 -0.0004344359 -0.001312766 -0.0020637189 -0.81817693 0.071664326
540000000 -0.81385547 0.077451736 0.00011544551 -0.00083127897 -0.00046915392 -0.0016821409 -0.81675154 0.074258193
541000000 -0.81276983 0.075864837 -0.00090260297 -0.0015306484 -0.0001580048 -0.001208688 -0.81791651 0.072251678
542000000 -0.81429738 0.076577023 -0.0013509942 -0.00078285026 -0.00076267996 -0.0011054815 -0.81724638 0.072241977
543000000 -0.8147437 0.077872105 0.00026136063 -0.0014726309 -0.00054246688 -0.0010846468 -0.81692129 0.073453881
544000000 -0.81185406 0.077617347 -0.00031426075 -0.00076179806 -0.00015914169 -5.4365886e-005 -0.81759226 0.073582493
545000000 -0.81428826 0.077247083 0.00055777433 -0.0024542557 -4.5747689e-005 -0.0017799756 -0.81749815 0.07357534
546000000 -0.81451428 0.077862643 -0.00030435176 -5.4657092e-005 -0.00075792964 -0.0017295262 -0.81862366 0.0727676
547000000 -0.81352675 0.077942736 -0.00024636029 -0.00098620169 0.00025112534 -0.00060252531 -0.81756061 0.073555842
548000000 -0.81167322 0.078199834 0.00121972 -0.0014015568 0.00027747321 -0.00077944674 -0.81788379 0.073307656
549000000 -0.81147397 0.077940136 -0.00071191054 -0.0010964182 -0.00032824118 -0.0020565977 -0.81623447 0.074729934
550000000 -0.8131023 0.077487633 -0.0012998268 -0.0018042478 0.00055419299 -0.0018750078 -0.81724548 0.074581049
551000000 -0.81251514 0.078139924 -6.6669945e-006 -0.0008702281 -0.00038487787 -0.0010641423 -0.81742311 0.07448028
552000000 -0.81332976 0.078795746 0.00068063149 -0.0011501519 5.8283182e-005 -0.00029060108 -0.81768668 0.074480742
553000000 -0.81334591 0.077976801 -0.0005093572 -0.001286024 -0.0010486374 -0.0019747997 -0.81755674 0.072901718
554000000 -0.81151271 0.077746488 0.00029149416 -0.0014913977 -0.00028009457 -0.0012395299 -0.81838846 0.073228195
555000000 -0.81135595 0.078023396 -0.00055320043 -0.0026584638 -0.00042008614 -0.00051047828 -0.81638539 0.073953167
556000000 -0.81225026 0.078666084 -0.0010918498 -0.00053685979 -0.0005642926 -0.00162634 -0.81879556 0.074749596
557000000 -0.81243855 0.077678978 -0.00017535758 -0.00055684353 -0.0007858586 -0.0016852543 -0.81868684 0.073460385
558000000 -0.81447035 0.079432733 -0.00012952241 -0.001409694 -0.00073989929 -0.0010066445 -0.81746262 0.075165778
559000000 -0.81407475 0.079026237 -0.00055006903 -0.0011563801 -0.00051828095 -0.0016596037 -0.81797671 0.07635586
560000000 -0.81241602 0.079943649 0.00030370589 -0.0020877067 0.00059369166 -0.0017938713 -0.81685126 0.074945986
561000000 -0.81400311 0.079076096 4.3944172e-005 -0.0019541697 0.00047166401 -0.00057875115 -0.81796569 0.074078001
562000000 -0.81227541 0.07970804 0.00043247547 -0.00065966009 -0.00079109723 -0.001768812 -0.81749797 0.075730756
563000000 -0.81348604 0.07888709 -0.0017169779 -0.0014102737 0.0010713399 -0.0015386642 -0.81829882 0.075485423
564000000 -0.81433374 0.079388432 -3.9942253e-005 -0.0022630282 -0.00083267887 -0.00063113455 -0.81609213 0.073478937
565000000 -0.81429917 0.080025449 -0.00078585505 -0.0005738904 -4.0324674e-005 -0.0014382732 -0.81853455 0.074811406
566000000 -0.81230688 0.078834534 -0.00091758138 -0.00196752 -0.00040743509 -0.00044403248 -0.81721723 0.074551456
567000000 -0.81246722 0.080632582 -0.00062418159 -0.0020345945 -0.00045846615 -0.0014122408 -0.81747139 0.075017571
568000000 -0.81173855 0.07990934 0.00026762747 -0.0014835591 -0.00083787279 -0.0024992398 -0.81822854 0.076673403
569000000 -0.81300229 0.080668405 -0.00041667547 -0.0016067412 -0.0010373178 -0.00029409188 -0.81740993 0.074317202
570000000 -0.81335181 0.080727294 -0.00067116378 -0.0016752536 0.00026670055 -0.001181636 -0.81790185 0.075078696
571000000 -0.81376523 0.080354795 -0.00034315561 -0.0015348061 0.00080297759 -0.001814583 -0.81831551 0.076124914
572000000 -0.8123005 0.079806648 -0.00019988313 -0.0020160021 0.00092317333 -0.0019507979 -0.8174206 0.075983316
573000000 -0.81243932 0.079976268 -0.00093840586 -0.0010327707 0.00026471974 -0.0018531868 -0.81909621 0.076633245
574000000 -0.81054431 0.07855954 0.00054316339 -0.0014189316 -5.2911044e-005 -0.00039072684 -0.81632882 0.075578548
575000000 -0.81212914 0.08060021 0.00088333013 -0.00092940667 -0.00021017094 -0.001177137 -0.81699693 0.07721813
576000000 -0.81260949 0.08116281 -5.9869941e-005 -0.0005315161 0.0005632785 -0.0029456757 -0.81921059 0.076768316
577000000 -0.81158316 0.080016278 0.00052259944 -0.0026337425 0.0001968022 -0.00051029189 -0.8175801 0.075903073
578000000 -0.81234437 0.08139991 -0.00080009131 -0.0018091758 -0.00013361112 -0.0011717837 -0.81776452 0.077908397
579000000 -0.81255084 0.081113942 -0.0010328701 -0.0015399255 0.00025743377 -0.002829181 -0.81826222 0.076155156
580000000 -0.81318396 0.081185669 -0.0010484713 -0.0016364628 -0.00059350464 -0.0016283148 -0.81577682 0.076920986
581000000 -0.81329948 0.080611184 3.3587326e-005 -0.00080872077 0.00087656867 -0.0015239943 -0.81769788 0.076908506
582000000 -0.81240851 0.081562527 -0.00024790756 -0.0015863015 -0.00020060275 -0.0010279783 -0.81728524 0.077229433
583000000 -0.81142002 0.080992632 0.00012611591 -0.0012119516 0.00083390082 -0.00120709 -0.8170386 0.07797204
584000000 -0.81344086 0.081382848 -0.00092521711 -0.0014889203 -0.00040699175 -0.0014341689 -0.81797147 0.07785558
585000000 -0.81196964 0.080648884 -0.0011234425 -0.001407844 -0.00022046173 -0.0014189202 -0.81843305 0.077591248
586000000 -0.81184638 0.08191216 -0.00030104665 -0.0011682792 -8.6155895e-005 -0.00058674236 -0.81728584 0.07592725
587000000 -0.81347495 0.081555076 0.00038996336 -0.0021282004 -0.0011401757 -0.00094839255 -0.81652534 0.0788569
588000000 -0.81111801 0.081845649 0.00029131843 -0.00090230175 -0.00046546376 -0.0019231396 -0.81631881 0.07699953
589000000 -0.81247669 0.080978394 -0.00024107519 -0.00085396861 0.00041644077 -0.0013685884 -0.81824571 0.078385547
590000000 -0.81228882 0.081304133 -0.00083018932 -0.0015174482 -0.0012815906 -0.0008223824 -0.81688058 0.07704182
591000000 -0.8122164 0.082494311 7.9520352e-005 -0.002890673 -0.00045287621 -0.001300048 -0.81792551 0.076000221
592000000 -0.81231701 0.083115861 -0.00056824222 -0.0015173588 0.00014563509 -0.0020234862 -0.81778741 0.07793358
593000000 -0.81103742 0.083924197 -0.00088759034 -0.0020046744 -0.0011355912 -0.00094365288 -0.8170439 0.078264482
594000000 -0.81254584 0.082653619 -0.00038217707 -0.0017560225 0.00022677689 -0.0017140072 -0.81682396 0.078294806
595000000 -0.81309116 0.082960442 -0.00092827814 -0.0017911082 9.4245452e-006 -0.0020632525 -0.81934321 0.079442531
596000000 -0.81144214 0.08480911 -0.0002477626 -0.0018708251 -0.0005730947 -0.0016570296 -0.81694716 0.078243323
597000000 -0.81319475 0.082396448 0.00079489109 -0.0020594259 0.00035299573 -0.0015556988 -0.81767815 0.078789301
598000000 -0.8119784 0.084345624 -0.00016853823 -0.00076779054 -0.00015577151 -0.0024168016 -0.81965345 0.079258114
599000000 -0.8109197 0.083327055 -0.00043704803 -0.0017734081 0.00042966811 -0.0015667934 -0.81722265 0.077499896
600000000 -0.81280828 0.084248036 -0.00017464561 -0.00079191331 -0.00044714296 -0.001426752 -0.81694973 0.077093855
601000000 -0.81244451 0.085317038 -0.00052247144 -0.0022848023 0.00031519041 -0.00051437155 -0.81744027 0.07873109
602000000 -0.81107008 0.083141334 0.00042822515 -0.0012448871 0.00094475871 -0.0010391359 -0.81825119 0.079503797
603000000 -0.81206304 0.083736986 -4.0050971e-008 -0.0029796662 -2.0860558e-005 -0.0023692884 -0.81570578 0.080317102
604000000 -0.81230563 0.085074425 -0.00088818528 -0.0016129445 0.00028524356 -0.0012616158 -0.81752831 0.08090122
605000000 -0.81136757 0.085220933 -7.2008494e-005 -0.0012361314 0.00025528131 -0.0012008395 -0.81742316 0.080259755
606000000 -0.81099504 0.084534705 -0.0013512766 -0.0014079873 1.0838448e-006 -0.002449109 -0.81663334 0.07961721
607000000 -0.81401569 0.084916763 -1.5390458e-005 -0.002802093 0.00024721667 -0.00067270081 -0.81676036 0.078902751
608000000 -0.81195152 0.086786777 -0.00062278035 -0.001568761 5.0833896e-005 -0.00098042551 -0.81750774 0.079008721
609000000 -0.81126517 0.083392389 -0.00063803815 -0.0018678242 0.0006645784 -0.0017153404 -0.81561655 0.079532832
610000000 -0.81135786 0.085923329 -0.00035610757 -0.002585236 -0.00041289802 -0.0017289058 -0.81561625 0.080079548
611000000 -0.81114072 0.085089475 -0.00017662752 -0.0012719813 0.00061039196 -0.00017745068 -0.81713873 0.079037331
612000000 -0.81179661 0.086127236 -0.00078012224 -0.00086997787 -0.0010264012 -0.0021921105 -0.81546926 0.0812921
613000000 -0.81129867 0.086013496 0.00021734399 -0.0012998721 -0.0020328215 -0.0017733058 -0.81718951 0.080542862
614000000 -0.81181282 0.087477148 -0.0007105401 -0.0018498866 -0.00080995809 -0.0014856674 -0.81663632 0.079887494
615000000 -0.81214637 0.085675374 -0.00079083937 -0.0021425805 0.00010435908 -0.0012330747 -0.81734079 0.081605986
616000000 -0.81072938 0.088458233 -0.00053612946 -0.0009174908 -0.00025688941 -0.0016630092 -0.81722414 0.082496911
617000000 -0.81023502 0.087239452 0.00013464043 -0.0018976339 -0.00084925443 -0.00071798608 -0.81627774 0.080119483
618000000 -0.81042111 0.088054948 0.00012475786 -0.0013079596 -0.0010089685 -0.0028394361 -0.81631035 0.081025161
619000000 -0.8120535 0.089112267 0.0002364394 -0.0012095971 -0.00039068607 -0.0012668221 -0.81670535 0.081479907
620000000 -0.81134003 0.088719368 -0.00032799636 -0.0024510112 -0.00066610094 -0.0017632355 -0.81649435 0.082774408
621000000 -0.81260842 0.088520452 -0.0011129959 -0.0015355608 -0.00085276022 -0.0014597082 -0.81549591 0.0812039
622000000 -0.81024611 0.087514646 -0.00059363892 -0.0017865776 -0.0011133683 -0.0010606765 -0.81638908 0.083727792
623000000 -0.81122988 0.087368347 0.00041747742 -0.00088867586 -0.0006568344 -0.0019334533 -0.8166604 0.080365404
624000000 -0.81178623 0.0876652 -0.00061510049 -0.0017505025 -0.00050685753 -0.0016866471 -0.81663597 0.081021845
625000000 -0.81034833 0.089799456 -0.00050748204 -0.0003673124 0.00026219728 -0.00099867547 -0.81671453 0.081967153
626000000 -0.81098491 0.088856041 -0.00067738572 -0.0020575486 -0.0013243331 -0.0025996028 -0.81625998 0.083655916
627000000 -0.81086022 0.088431984 -9.1040492e-005 -0.0025044614 -0.00013134844 -0.0012819164 -0.81563109 0.083395019
628000000 -0.81019485 0.089256287 -0.00076348649 -0.0019394642 -0.0014724737 -0.0020975901 -0.81594902 0.08311905
629000000 -0.81165397 0.090308227 -0.00076155661 -0.0016203498 0.00040057258 -0.0016887081 -0.81575823 0.083930686
630000000 -0.81078893 0.091100372 -0.001213645 -0.0023851395 -0.0010514036 -0.0020462878 -0.81636298 0.084576562
631000000 -0.81179434 0.090103954 0.00049429014 -0.0027457513 0.0011449194 -0.0017604148 -0.81654143 0.083031729
632000000 -0.81069881 0.091267794 -0.00020595898 -0.0013912434 0.00027691724 -0.0017367543 -0.81412089 0.083638616
633000000 -0.81089598 0.090565622 -0.00057015743 -0.0031958597 -0.00035025613 -0.00016358925 -0.81576252 0.08419086
634000000 -0.81142664 0.090363435 -0.00018012922 -0.0019068801 -0.00059515517 -0.001659308 -0.81607711 0.083609335
635000000 -0.81032103 0.090367734 -0.00016787264 -0.001236193 -0.0010914197 -0.0019676946 -0.81520939 0.08302366
636000000 -0.81160253 0.090818882 3.9940704e-005 -0.0011738751 -0.0012869688 -0.001886858 -0.81655449 0.083090104
637000000 -0.81235123 0.091143712 -0.00020490614 -0.0021902791 -0.00056101196 -0.0024623782 -0.81652945 0.08323992
638000000 -0.80961984 0.09045282 -0.00012898011 -0.00094172283 0.0014578855 -0.0013567273 -0.81485236 0.084079333
639000000 -0.81126559 0.092997171 0.00018430482 -0.00099479232 -0.00035845154 -0.0014604382 -0.81469864 0.084662125
640000000 -0.80938476 0.092829123 0.00026743388 -0.0012558771 -9.6442549e-005 -0.0018230845 -0.81568813 0.084673919
641000000 -0.81028521 0.091563575 -0.00034193229 -0.0011514069 -0.0015483501 -0.0015233748 -0.81695032 0.084310867
642000000 -0.8102845 0.09225446 -0.00090549467 -0.0016963121 -0.00016459159 -0.0015116881 -0.81605309 0.083139248
643000000 -0.81003159 0.093196966 -0.00066740555 -0.0021112305 -0.00070080213 -0.0012750247 -0.81555206 0.084304757
644000000 -0.81170309 0.092924811 0.00034238945 -0.0017062287 -0.0003035446 -0.0019141469 -0.81568235 0.085102394
645000000 -0.8100186 0.091401592 -0.0013426761 -0.0019859641 -0.00034891348 -0.0017390808 -0.81750232 0.085803576
646000000 -0.80929941 0.092487514 0.00052011549 -0.0013630224 0.0001208748 -0.0003303597 -0.81633514 0.086034298
647000000 -0.81022507 0.091758959 0.00056685088 -0.0018785832 -0.0004342075 -0.0012487402 -0.81655359 0.084978253
648000000 -0.81095159 0.092191517 0.0004865067 -0.0013883585 -0.00035814848 -0.0017392682 -0.81644899 0.084991947
649000000 -0.81012577 0.09320277 -0.00045836324 -0.00111888 -0.00018015876 -0.0011756755 -0.8161909 0.085065156
650000000 -0.80922753 0.092393324 -0.00078962644 -0.0019675421 -0.00011930471 -0.0016431761 -0.81699514 0.085641675
651000000 -0.80980998 0.093880966 -0.0008781245 -0.0010121861 -0.00070792076 -0.0013506468 -0.81553048 0.085746832
652000000 -0.81021595 0.094368301 -0.00032839528 -0.0021545601 -0.00019775204 -0.0010169374 -0.8170507 0.086798526
653000000 -0.81082755 0.092896037 -0.00079080748 -0.0021938875 -2.5130992e-005 -0.0026398052 -0.81444532 0.084939159
654000000 -0.81083733 0.093447804 -0.00094057748 -0.0022424799 0.00020368783 -0.001577782 -0.81513399 0.086946167
655000000 -0.81096894 0.09389247 0.00018803665 -0.0023824109 -0.0014831579 -0.00088916713 -0.81561154 0.0870355
656000000 -0.81026626 0.093235791 -0.00098630169 -0.0014613357 6.8977963e-005 -0.0011093024 -0.81568015 0.086203739
657000000 -0.81007457 0.092531897 -0.00047865027 -0.0015253654 -0.00048515951 -0.0014283959 -0.81598383 0.086345389
658000000 -0.80952281 0.094397835 6.4022519e-005 -0.0017015347 -3.925242e-005 -0.0010935566 -0.81492156 0.086611077
659000000 -0.81104881 0.094235957 0.00029366466 -0.0015178651 -0.00056225265 -0.0016418326 -0.81640732 0.085460916
660000000 -0.81056213 0.093285784 -0.00087076897 -0.0018271091 -0.00025246918 -0.0014434919 -0.81542748 0.088014282
661000000 -0.81035662 0.094576962 -0.00086123985 -0.0015420881 -0.00026199131 -0.0022602333 -0.81702971 0.087508298
662000000 -0.81125724 0.094620973 6.6003427e-005 -0.0013926101 0.00010243204 -0.0016561769 -0.81585634 0.087158501
663000000 -0.81093395 0.093434773 0.00031193972 -0.0020861544 -0.00040958077 -0.0023740896 -0.81639636 0.087993979
664000000 -0.80967802 0.09354198 0.00033668193 -0.0025123192 -0.00074428285 -0.001504331 -0.81581956 0.087922886
665000000 -0.81030244 0.094249897 0.00014089291 -0.0012223582 7.3307815e-006 -0.0010301486 -0.81482249 0.086861156
666000000 -0.81109762 0.094567113 -0.00020766383 -0.0021957273 0.00033475173 -0.0025077397 -0.81628412 0.088431701
667000000 -0.80960292 0.09431839 -6.4607462e-005 -0.00138729 -8.3371873e-005 -0.0011353061 -0.81589401 0.087099932
668000000 -0.81189191 0.094616935 -0.0005285489 -0.0014890218 -3.6810393e-006 -0.0007935788 -0.81633985 0.089216106
669000000 -0.81110573 0.095758632 -0.00014223497 -0.00094327261 0.00036711289 -0.0015639823 -0.81510806 0.087310731
670000000 -0.81034583 0.09483926 -0.0010095603 -0.0016028342 -0.00046915768 -0.001957322 -0.81635529 0.088327989
