!Keysight Technologies,M9374A,MY55442783,A.12.55.05
!Date: Wednesday, May 19, 2021 19:05:33
!Correction: S11(Full 2 Port(1,2)) 
!S21(Full 2 Port(1,2)) 
!S12(Full 2 Port(1,2)) 
!S22(Full 2 Port(1,2)) 
!S2P File: Measurements: S11, S21, S12, S22:
# Hz S  RI   R 50
500000000 -0.81258011 0.074187174 -0.00093440717 -0.0018116608 0.0012163909 -0.00051643851 -0.81730545 0.067970097
501000000 -0.81256223 0.073865309 -0.00059445127 -0.00097592676 -0.00067685894 -3.2664855e-005 -0.81656754 0.068154894
502000000 -0.81322002 0.073851883 0.0010327824 -0.00086268387 -0.000493381 -0.00099790283 -0.81696934 0.069540396
503000000 -0.81299818 0.074127696 -0.00012027401 -0.0016513519 -0.00039751321 -0.0017282235 -0.81803405 0.069320545
504000000 -0.81301343 0.074534386 -0.00054804282 -0.0017473905 0.00078155653 -0.00019525846 -0.81806284 0.068357259
505000000 -0.81279016 0.075365901 0.00067222142 -0.00013555078 -0.00029489899 -0.0020025887 -0.81753564 0.070386432
506000000 -0.81116802 0.073832735 -0.00087287137 -0.0022404422 -0.00025760639 -0.00047680622 -0.8170163 0.06957297
507000000 -0.81122392 0.075466886 0.00038132767 -0.0016496384 -0.00067895424 -0.00023161298 -0.81655437 0.070978567
508000000 -0.81214118 0.075294726 -0.00093287294 -0.0012010713 0.00024482029 -0.0018745876 -0.81692052 0.070872702
509000000 -0.81361592 0.075486414 -0.00048741119 -0.0016576106 -0.0003890412 -0.00083271042 -0.81829649 0.070951372
510000000 -0.81297559 0.075107165 -0.00038017338 -0.0019059987 -0.00010018305 -0.00072772766 -0.81599903 0.070024811
511000000 -0.81154114 0.076532885 0.00029698218 -0.0013158559 -0.00073800888 -0.00010111235 -0.81849581 0.071797796
512000000 -0.81185931 0.076335706 0.00017177986 4.7282385e-005 -0.00039658969 -0.0011284286 -0.81821138 0.070396014
513000000 -0.81123799 0.074494824 -0.0006631671 -0.0016733722 -0.00018190124 -0.00049086893 -0.81769687 0.071776941
514000000 -0.81166071 0.076024868 -0.00048971042 -0.0009709007 0.00015655317 -0.0014145651 -0.81830281 0.070824131
515000000 -0.81167871 0.077125423 0.00070015632 -0.0014616037 0.00038554738 -0.0018658976 -0.81838518 0.070505582
516000000 -0.81252354 0.077046283 6.1801155e-005 -0.0015217375 -0.0011875891 -0.0012055808 -0.81781626 0.070600361
517000000 -0.81210637 0.0775223 0.00018743784 -0.00079425651 -5.4371423e-005 -0.00085977238 -0.81772298 0.071255267
518000000 -0.81176156 0.075668611 -3.1057436e-005 -0.0010243304 0.00010211243 -0.00066647551 -0.8180601 0.071152762
519000000 -0.81166202 0.076223299 0.0001017422 -0.0018047363 0.00013367362 -0.0021786145 -0.8151747 0.071503349
520000000 -0.81192476 0.077026263 -0.00020943786 -0.0014378572 0.00021729709 -0.0017541478 -0.81769335 0.071220405
521000000 -0.81124574 0.076769434 0.000455487 -0.0011005359 0.00012300345 -0.00083688868 -0.81767899 0.072797135
522000000 -0.81287861 0.076547064 -0.00069870357 -0.0018421224 -0.00086039002 -0.00068526552 -0.81693399 0.072821133
523000000 -0.81234318 0.07606487 -0.00059514691 -0.0014449856 -0.0012106262 -0.00071612786 -0.81541008 0.072988711
524000000 -0.81123066 0.077818938 0.00035264579 -0.00176635 -0.00045388733 -0.0015932388 -0.81733483 0.072185591
525000000 -0.81274009 0.078162715 0.00027872279 -0.0010150524 -0.00011258518 -0.0023387524 -0.81786138 0.07351619
526000000 -0.81041974 0.07723102 -0.0012801597 -0.0016714588 -0.00075978198 -0.0018684202 -0.81689274 0.073475152
527000000 -0.8126325 0.077855431 0.00059643062 0.00010306426 -1.9680487e-005 -0.0016562613 -0.81774801 0.072376095
528000000 -0.8126145 0.078789979 0.00018025833 -0.0017162827 -1.6479253e-006 -0.0012385746 -0.8161276 0.074408174
529000000 -0.8131215 0.07785105 -0.00038734311 -0.0013756986 -0.00051590247 -0.0011942287 -0.81646675 0.074292101
530000000 -0.81359947 0.079690479 -0.0003269999 -0.00094928755 0.00067219941 -0.0021988268 -0.81802249 0.07305491
531000000 -0.81191415 0.078990363 -0.00046572453 -0.0019190913 -0.00033391712 -0.0012307027 -0.81829935 0.073444016
532000000 -0.81207818 0.077947684 -0.00030733022 -0.0012262954 -0.00027478268 -0.0011037907 -0.81679499 0.074238829
533000000 -0.81124222 0.078393921 -0.00074374746 -0.0016715667 0.0010171414 -0.0012408586 -0.8169592 0.074933596
534000000 -0.80978829 0.078127772 -3.5872741e-005 -0.0018120279 -0.0002256795 -0.00066764106 -0.81709808 0.074909225
535000000 -0.81235898 0.080257975 -0.00051232975 -0.0013932242 -0.00057336892 -0.0015997925 -0.81790692 0.075693615
536000000 -0.81243634 0.079337336 5.1697418e-005 -0.0017141807 0.00031003015 -0.0013123589 -0.8181935 0.075310379
537000000 -0.81209528 0.078814805 -0.00071383565 -0.0020264026 -0.00072754966 -0.0013713803 -0.81851244 0.075824074
538000000 -0.81164992 0.079387389 -0.0010418943 -0.0011046809 0.00016557911 -0.0013358832 -0.81784421 0.073642097
539000000 -0.81143707 0.080594175 -0.00064096443 -0.0012645021 5.5699653e-005 -0.00090657786 -0.81698328 0.074702151
540000000 -0.81150401 0.080421925 -0.00079281221 -0.00082003872 -0.00030697038 -0.00076850195 -0.81678265 0.075421527
541000000 -0.81186563 0.079068169 -0.00045854461 -0.00050218886 -0.00048743977 -0.0011052139 -0.81835276 0.076001547
542000000 -0.81251281 0.080043949 -0.00063404109 0.00014748522 0.00093880872 -0.0012721167 -0.81778318 0.07627628
543000000 -0.81296957 0.080783129 0.00038867744 -0.0010164155 0.00075714529 -0.0010847831 -0.81755966 0.077210911
544000000 -0.81102902 0.080792315 0.00055740052 -0.0022382254 -0.00019431286 -0.0018360937 -0.81659561 0.076880887
545000000 -0.81218475 0.080012456 -0.00014055162 -0.00063066266 -0.00039645404 -0.0011732543 -0.81632048 0.076493882
546000000 -0.8105796 0.081434362 0.00019162949 -0.0025841619 -0.00041411875 -0.0012767303 -0.81748194 0.076617301
547000000 -0.8118006 0.080846928 0.00051213626 -0.0014030668 -4.0323517e-005 -0.0013235434 -0.81689072 0.076755464
548000000 -0.81076598 0.08105123 -0.00020864284 -0.0018386833 -0.00011648829 -0.0014173734 -0.81735712 0.077532589
549000000 -0.8107118 0.080328971 -0.00029898674 -0.0015274932 -7.717064e-005 -0.00080781319 -0.81701696 0.076917619
550000000 -0.81047094 0.080874763 -0.00038856309 -0.0019842812 -5.4981378e-005 -0.00081918709 -0.81693983 0.077489629
551000000 -0.8104887 0.082151987 -0.00041631976 -0.00093681732 -0.00090701721 -0.0010582273 -0.81645161 0.077557616
552000000 -0.81179827 0.081198983 -0.00036997924 -0.0015063797 0.00026913485 -0.0009185989 -0.81688619 0.075934052
553000000 -0.81223464 0.081396803 -0.00029021018 -0.0013907225 -0.00034139521 -0.0018023725 -0.81614423 0.076712608
554000000 -0.81238174 0.081228733 -0.00070677738 -0.0015524235 -0.00038049853 -0.0017610678 -0.81735903 0.076705851
555000000 -0.81128144 0.081894174 -2.9007369e-005 -0.00033717975 -0.00023423377 -0.0013809459 -0.81603867 0.076988839
556000000 -0.81128335 0.080873474 -0.00040377502 -0.0014119091 -0.0010494653 -0.001352845 -0.81672364 0.077921003
557000000 -0.81178916 0.081709608 -0.0012753411 -0.00084417965 -0.00076864078 -0.0014266337 -0.81715071 0.076905489
558000000 -0.80981505 0.080372103 -0.00090323255 -0.0021759195 0.0010245958 -0.0015995128 -0.81641084 0.078004241
559000000 -0.80983198 0.080830805 2.656469e-005 -0.00098147697 -0.00017805226 -0.00060504768 -0.81756902 0.07740692
560000000 -0.80992192 0.083267331 -0.00022291999 -0.0012267333 -0.00078185898 -0.0011179226 -0.81740862 0.078117803
561000000 -0.81106061 0.083200231 -0.0019714227 -0.001439434 0.00022703237 -0.0008814024 -0.81577569 0.077575013
562000000 -0.81164867 0.083249658 -0.00025973548 -0.0007308154 8.7496788e-005 -0.0019273912 -0.81635469 0.078588381
563000000 -0.81207132 0.081414975 -5.9027865e-005 -0.0011870797 -0.00041730539 -0.0016707786 -0.81808996 0.077996619
564000000 -0.8112129 0.080994703 -0.00018537353 -0.0024089844 -0.00039671705 -0.0024845575 -0.81720448 0.07836017
565000000 -0.81226712 0.082570009 0.00018755038 -0.0014028575 -0.00064386241 -0.0019124408 -0.81784952 0.077753812
566000000 -0.81234467 0.082075931 -0.0009487088 -0.0021509181 -0.00021762353 -0.0016852475 -0.81777149 0.078809217
567000000 -0.81136245 0.082988873 -0.00014810039 -0.0013698683 -0.00032287222 -0.0016108449 -0.8180384 0.076653138
568000000 -0.81003165 0.083711423 -0.00065921579 -0.0012322508 0.00044072286 -0.00093573879 -0.81723601 0.078308381
569000000 -0.81151932 0.081132717 -0.00053877023 -0.00069058157 0.00086800335 -0.002505302 -0.81531531 0.078105442
570000000 -0.8100428 0.082074091 0.00016154116 -0.0013110283 -0.00016597252 -0.0010859275 -0.81833184 0.079215743
571000000 -0.81087762 0.082308888 9.3914627e-005 -0.0024358782 -6.6497792e-005 -0.0014623048 -0.81734627 0.077280872
572000000 -0.81074739 0.083377793 0.00026745125 -0.0020498426 -0.00034301833 -0.0008590162 -0.81586599 0.08012303
573000000 -0.81133038 0.083773516 -0.0002981443 -0.0011597823 9.9525118e-005 -0.0024153728 -0.81815726 0.079438843
574000000 -0.81059188 0.083373114 -0.00014525629 -0.0019074823 -0.0014068077 -0.00092435058 -0.81743431 0.079006754
575000000 -0.81043798 0.082436316 -2.6077481e-005 -0.001644506 0.00055980828 -0.0011886035 -0.81699634 0.077931874
576000000 -0.81069088 0.08267989 -0.00045728785 -0.0015530351 -0.00067587325 -0.0010346511 -0.81624818 0.080920734
577000000 -0.81108165 0.084136285 0.00065084978 -0.00078408903 -0.00021468256 -0.001414481 -0.81731671 0.078129806
578000000 -0.81141669 0.084307 -0.00018148588 -0.0011158359 0.00032594407 -0.0012867817 -0.81768674 0.079747915
579000000 -0.81028634 0.08374349 0.00014908865 -0.00056135992 -0.0007213623 -0.00062318973 -0.81666023 0.0805896
580000000 -0.81153244 0.083956756 -0.0002172237 -0.0013674941 -0.0001100683 -0.0019729743 -0.81631297 0.081225961
581000000 -0.81026065 0.083146639 -2.1276337e-005 -0.0010319699 0.0014496996 -0.0017956179 -0.81750059 0.080460459
582000000 -0.81141275 0.084221847 0.00078489084 -0.00078215805 -0.00081241189 -0.0016148366 -0.81675553 0.078994773
583000000 -0.8096416 0.084676437 -0.00013621898 -0.0011208985 -0.0003009366 -0.0019004111 -0.81627792 0.079794489
584000000 -0.81093448 0.084559307 -0.00028049294 -0.0013975154 -0.000298267 -0.0011502136 -0.81697565 0.079543136
585000000 -0.81157809 0.082236513 -0.00083253998 -0.0023771534 -0.00069127843 -0.00055949483 -0.8164264 0.080408514
586000000 -0.8108483 0.085373282 0.00024166532 -0.0016044418 -0.00077515707 -0.00097854901 -0.81653142 0.079845048
587000000 -0.80959332 0.086549357 -0.00091327692 -0.0024911356 -4.9189115e-005 -0.0017761603 -0.81614405 0.080191873
588000000 -0.81155795 0.084598035 -0.00075132347 -0.001210758 -0.00061111373 -0.0019632264 -0.81798583 0.081266172
589000000 -0.81094164 0.085813127 0.00035965611 -0.0029309087 0.00073529896 -0.0015350602 -0.81807846 0.080559298
590000000 -0.80951005 0.084334061 -0.00026263029 -0.00075662736 -0.00030767723 -0.0015516315 -0.81704313 0.080751576
591000000 -0.80969602 0.085962839 -0.0011295002 -0.001683126 0.00014111171 -0.0019053899 -0.8157379 0.080953188
592000000 -0.80934364 0.084102124 -0.0013036215 -0.0013929083 1.5663603e-005 -0.0011602178 -0.81573254 0.07956779
593000000 -0.81107002 0.085522421 0.00082552072 -0.0010381035 -9.2994138e-005 -0.0022491235 -0.81840611 0.079055369
594000000 -0.80886841 0.086070426 -0.0010485065 -0.00076823798 -0.00053205044 -0.0017088085 -0.81709057 0.080156043
595000000 -0.80987257 0.085778363 -0.00058004033 -0.0012072443 0.00011637157 -0.0019252655 -0.8178212 0.082014948
596000000 -0.81182897 0.084941253 0.00030516705 -0.0019033491 0.00044112452 -0.0020943615 -0.81524748 0.080727927
597000000 -0.80935615 0.087257311 -0.00016113982 -0.0005830467 0.00018725119 -0.0024380409 -0.81781131 0.082750961
598000000 -0.80970252 0.087199427 -2.7487062e-005 -0.0018956176 0.00084870087 -0.0012206157 -0.81649613 0.081588231
599000000 -0.81004786 0.087460741 -0.00029434988 -0.0011970184 -0.00032646829 -0.00168108 -0.81630772 0.082475945
600000000 -0.81032705 0.086858138 -0.00080754532 -0.0015074748 -0.00062101876 -0.0007800876 -0.81713504 0.082140975
601000000 -0.81057048 0.086365171 -0.00064301933 -0.0020292187 0.00077361614 -0.0014029898 -0.81656009 0.081127167
602000000 -0.81000644 0.088444993 0.00055016571 -0.001323145 0.00033433439 -0.00061506993 -0.81706476 0.082276285
603000000 -0.80999142 0.088747375 0.00027245327 -0.0021416012 -0.00054651068 -0.00077939662 -0.81691134 0.082822368
604000000 -0.809358 0.088085368 -0.00033826381 -0.0017607792 0.00048027438 -0.0012015797 -0.8154127 0.082806818
605000000 -0.80929494 0.089279674 0.00063015014 -0.0018925392 -0.00053255848 -0.0019341628 -0.81556934 0.082690589
606000000 -0.81167352 0.087210983 -0.00050554454 -0.0014250063 0.00073464378 0.00016864741 -0.81602103 0.083577953
607000000 -0.80941933 0.088336959 -0.0010533967 -0.001818186 0.00067167997 -0.0012230552 -0.81706303 0.083378874
608000000 -0.81003398 0.089797206 4.4654229e-005 -0.0024879533 1.2597698e-006 -0.0017180602 -0.81656826 0.082471393
609000000 -0.80886936 0.088915609 -0.0002015861 -0.0021180261 -0.0010597525 -0.001387524 -0.81518286 0.083409756
610000000 -0.80980223 0.088173836 -0.0012270501 -0.0022925471 -0.0012235036 -0.0023325826 -0.81478584 0.082736999
611000000 -0.81114179 0.088974655 0.00016279935 -0.0018242524 -9.43341e-005 -0.0015622168 -0.81449771 0.084125794
612000000 -0.81046176 0.089702331 -0.0012317479 -0.0017214452 -0.00014204436 -0.0013962311 -0.81528217 0.085752487
613000000 -0.81034184 0.088584512 0.00045858225 -0.0010952104 -0.00016543541 -0.0017037106 -0.81517535 0.083875738
614000000 -0.810018 0.088418752 0.0012613516 -0.001011664 -0.0008601048 -0.0022629984 -0.81822145 0.084413223
615000000 -0.81013775 0.089986272 -0.00011344817 -0.00067033205 0.00092832098 -0.0021805102 -0.81490833 0.083850533
616000000 -0.81039727 0.089021586 -0.00041888989 -0.00164097 -0.00072317867 -0.0016013266 -0.81604737 0.086143203
617000000 -0.8091324 0.089723028 -0.00039811566 -0.0012136451 -0.00090117491 -0.0012677975 -0.8170141 0.087165087
618000000 -0.80951071 0.089829355 0.00039238596 -0.00056718028 -0.00077930186 -0.0014023274 -0.81600678 0.084399238
619000000 -0.80999684 0.090853862 0.00018700879 -0.0018319462 -0.00041325155 -0.00053491601 -0.81728774 0.083868511
620000000 -0.81020659 0.090901658 5.5999873e-005 -0.0019555641 0.00035920204 -0.001338818 -0.81525367 0.085352257
621000000 -0.81077451 0.090696312 -0.00061317411 -0.00073091331 -0.00035125608 -0.00093712064 -0.81480193 0.084101006
622000000 -0.80963832 0.091698535 -0.00020974496 -0.0016928257 -0.00057760376 -0.0016220706 -0.81715441 0.08575131
623000000 -0.80947191 0.091324762 -7.7019176e-005 -0.0021271179 -0.00073608174 -0.001366118 -0.81595355 0.085078292
624000000 -0.81012803 0.092325367 0.00079866225 -0.0019831315 0.0016079709 -0.0015375389 -0.81494677 0.085942119
625000000 -0.80895013 0.09219563 4.0677151e-005 -0.0020476319 -0.0007054772 -0.00083306385 -0.81624454 0.085048266
626000000 -0.81024098 0.090374842 -0.00041982441 -0.0010151643 0.0010332888 -0.00090806262 -0.81524354 0.086184949
627000000 -0.80910522 0.092610933 -0.00074701139 -0.0016298068 -3.6352038e-005 -0.0024437685 -0.81481618 0.085511632
628000000 -0.80957186 0.092203595 6.9079288e-005 -0.0013011434 0.00030634602 -0.0021474231 -0.8153553 0.086583182
629000000 -0.80894333 0.094423741 -0.001203611 -0.0013087565 0.0002083859 -0.0014250389 -0.81538844 0.086166441
630000000 -0.80908167 0.093486153 -0.00072450232 -0.0016461597 0.0012280325 -0.0017422113 -0.81560111 0.087527633
631000000 -0.80951625 0.092867851 0.00013375827 -0.0016565681 -0.00085547013 -0.0026621378 -0.81614608 0.086981431
632000000 -0.81037027 0.093327962 -0.00058199605 -0.0020886613 -0.00022084889 -0.0013064324 -0.81569558 0.086511195
633000000 -0.80764741 0.093646772 -0.0014432758 -0.0011968295 -0.00070396665 -0.0018870807 -0.81536561 0.086750634
634000000 -0.80954891 0.094375648 -0.0015467228 -0.0014373888 -0.00072244101 -0.001355854 -0.81530958 0.08724086
635000000 -0.80840582 0.093866907 0.00042171354 -0.0022759277 -0.00051808107 -0.0013310014 -0.81775236 0.087556794
636000000 -0.80885178 0.092814833 -0.00033472345 -0.0012647631 -0.0010132908 -0.0028584441 -0.8166821 0.086838484
637000000 -0.80806983 0.094648063 -0.0009324915 -0.0006192404 -0.00046035409 -0.00060917152 -0.81572086 0.088045456
638000000 -0.80953556 0.094564781 -0.00089999259 -0.0014661336 -0.00045655511 -0.0024437963 -0.8151049 0.085864842
639000000 -0.80956906 0.09494666 -0.00083753769 -0.0022682352 -0.00098516373 -0.0018149201 -0.81535363 0.088395238
640000000 -0.80682278 0.095528521 4.0343439e-006 -0.00097840116 -0.00035272056 -0.0019891248 -0.81551164 0.08814463
641000000 -0.80955154 0.094817787 -0.0011278172 -0.0021967427 -0.00075546507 -0.00084969692 -0.8150112 0.089600667
642000000 -0.80864012 0.095527895 -0.00057220907 -0.0015842521 0.00020164529 -0.0012490923 -0.81543756 0.08911702
643000000 -0.80914032 0.095582612 0.00014466519 -0.00086580304 -0.00044517426 -0.0018961338 -0.81465292 0.087730892
644000000 -0.80799323 0.092867866 0.00040057147 -0.0018786064 -0.00059804472 -0.001867322 -0.81429666 0.09033189
645000000 -0.81018066 0.094099596 -0.00049819937 -0.0020815535 0.00033810432 -0.0022608056 -0.81635761 0.088948898
646000000 -0.80859303 0.09668041 -0.0015877127 -0.0014284855 0.00064492569 -0.0014572376 -0.81582725 0.088190228
647000000 -0.80746603 0.09619008 -0.0010673474 -0.0012560227 -8.6122694e-005 -0.0024501551 -0.81504464 0.087737784
648000000 -0.80784053 0.09629301 -0.0012504071 -0.0015158363 -9.7138742e-005 -0.001786303 -0.81489956 0.089343145
649000000 -0.80993921 0.097602531 -0.0004064636 -0.0024057245 -0.00041205052 -0.0010557804 -0.81584698 0.09053798
650000000 -0.80916613 0.095093995 0.00031316045 -0.0012877515 0.00013382532 -0.0012073584 -0.81512666 0.089842655
651000000 -0.80852842 0.09644784 -0.00073210261 -0.00062713271 -0.00093551609 -0.0014791361 -0.81459659 0.089182585
652000000 -0.80824494 0.096158676 -0.0012399824 -0.0026076259 -0.0010853488 -0.0020143713 -0.81389755 0.091245972
653000000 -0.810615 0.096435241 -0.00090589089 -0.00067038991 0.00045402104 -0.0027067519 -0.81533873 0.089467846
654000000 -0.80897033 0.097400323 -0.00071944762 -0.0018020752 4.9333958e-005 -0.001394705 -0.81695354 0.088678204
655000000 -0.80781686 0.09706299 0.00024145556 -0.0015645648 0.00017368751 -0.002083522 -0.81548822 0.08992216
656000000 -0.80805278 0.097440064 0.00031015632 -0.0013910442 9.2507202e-005 -0.002000923 -0.81565571 0.089826256
657000000 -0.80883169 0.096957333 9.8970151e-005 -0.00092943636 -0.00062289648 -0.0016121209 -0.81569928 0.090807535
658000000 -0.8092339 0.097427189 -0.00034400422 -0.0012968088 -0.00062074017 -0.0011304156 -0.8147043 0.089972958
659000000 -0.80836958 0.097761624 -0.00063637557 -0.0015461234 0.00019743491 -0.001844817 -0.81601095 0.090219148
660000000 -0.80959266 0.09734755 -0.0010762183 -0.00163821 -0.00050373626 -0.0013107546 -0.81346005 0.090528749
661000000 -0.80911756 0.098420262 -0.00013599887 -0.0020916648 -0.00038429335 -0.0030166763 -0.81511605 0.090865247
662000000 -0.8082512 0.097775899 -0.00065417105 -0.0013206089 -2.4161654e-005 -0.00099162839 -0.81584185 0.089709595
663000000 -0.81004894 0.097226255 -0.00099912332 -0.002022947 -0.00064036518 -0.0016480297 -0.81418395 0.090905227
664000000 -0.80876845 0.096890919 -0.0005000722 -0.0015627784 -0.00076741929 -0.0025947669 -0.81589711 0.090210773
665000000 -0.80819476 0.099404737 -0.00017906414 -0.0013975453 -0.00028789681 -0.0021681748 -0.81450415 0.089666694
666000000 -0.8089385 0.098181494 -0.00096992136 -0.00083660492 -0.00077244843 -0.0016635533 -0.81570196 0.091389954
667000000 -0.80853361 0.097494602 0.00042754805 -0.0011309622 0.0002285135 -0.0019577842 -0.81429231 0.089235172
668000000 -0.80950922 0.09673968 -0.00097142451 -0.0017000472 -0.00044688903 -0.0015597786 -0.81469399 0.091616757
669000000 -0.80903792 0.097292297 -0.00070004544 -0.0023212191 -0.00013579347 -0.001306694 -0.81549853 0.090136841
670000000 -0.81072855 0.097623497 -0.00094047788 -0.0013286399 6.0408944e-005 -0.001647907 -0.81402296 0.093158588
