!Keysight Technologies,M9374A,MY55442783,A.12.55.05
!Date: Wednesday, May 19, 2021 19:28:00
!Correction: S11(Full 2 Port(1,2)) 
!S21(Full 2 Port(1,2)) 
!S12(Full 2 Port(1,2)) 
!S22(Full 2 Port(1,2)) 
!S2P File: Measurements: S11, S21, S12, S22:
# Hz S  RI   R 50
500000000 -0.81365657 0.069775872 -0.00049861276 -0.001592294 -0.00061174337 -0.0018407517 -0.81861597 0.065586336
501000000 -0.81226587 0.070169806 -0.00028986559 -0.0016413114 -0.00021324167 -0.0017062197 -0.81803268 0.065039255
502000000 -0.81326038 0.070332035 -0.00038352518 -0.0010761555 -0.00012070003 -0.0014737806 -0.81974369 0.066003084
503000000 -0.81422842 0.070566699 -0.00025608428 -0.0017436536 -0.00095856719 -0.0015779535 -0.81921732 0.066795751
504000000 -0.81319213 0.069775388 0.0012896913 -0.0010861343 -0.0011924804 -0.00057087943 -0.81840742 0.065802611
505000000 -0.81288517 0.07069274 -0.00055725162 -0.0011453484 -0.00013320956 -0.00067644403 -0.82049251 0.064728208
506000000 -0.81250149 0.071099333 -0.00070644211 -0.00053736981 -2.4614281e-005 -0.00062852079 -0.81792426 0.065845951
507000000 -0.812374 0.070198439 0.00056677911 -0.0021840618 0.00060430315 -0.0011746186 -0.81959283 0.06719631
508000000 -0.81251752 0.072944269 0.00040046332 -0.0019606079 -0.00059176149 -0.0017524449 -0.81842309 0.066095166
509000000 -0.81491804 0.072940685 0.00019384187 -0.00073560211 0.00045179427 -0.00078932551 -0.81869262 0.066505298
510000000 -0.8140412 0.071871534 -0.00070171716 -0.00092401722 -0.00059457991 -0.0014664802 -0.81876516 0.067172535
511000000 -0.81232709 0.072398633 1.1224063e-005 -0.0014557538 -0.00064075249 -0.0020626814 -0.81792444 0.067508087
512000000 -0.81338358 0.072160497 6.171612e-005 -0.0013616584 0.00010447795 -0.0013670329 -0.81680149 0.066767462
513000000 -0.8118214 0.071940705 0.00087206613 -0.0013668905 0.00039044584 -0.0016795922 -0.8182348 0.065746449
514000000 -0.81341279 0.072934382 -0.0012075179 -0.00073436846 -0.00080369273 -0.0012793154 -0.81730962 0.066365749
515000000 -0.81203103 0.07452713 -0.0012616462 -0.0013515241 7.7758516e-005 -0.0014135753 -0.81794971 0.068492033
516000000 -0.8125366 0.072698869 -3.1181596e-006 -0.0013195457 -2.9929117e-005 -0.00084940047 -0.8167997 0.066950068
517000000 -0.81261659 0.073023818 0.0007815648 -0.0017230677 -0.00022375054 -0.0019759659 -0.81874907 0.068202041
518000000 -0.81283963 0.073625311 -0.00071634434 -0.00068767153 -0.00080766575 -0.0011722408 -0.81882828 0.067068942
519000000 -0.81231624 0.073114701 -0.00034056723 -0.00099386927 -9.7619362e-005 -0.0015893229 -0.81707531 0.068577453
520000000 -0.81356776 0.072602466 -0.00042492224 -0.0014117352 -0.0001657798 -0.0016254121 -0.81636244 0.067733847
521000000 -0.81204683 0.073909521 1.1291559e-005 -0.0020888189 0.00047601052 -0.0012960758 -0.8174932 0.069771394
522000000 -0.81447613 0.073424876 -0.00056197611 -0.00048365517 -0.0010708582 -0.00031229621 -0.8173371 0.069231421
523000000 -0.81243855 0.073408462 -0.0010777633 -0.002361502 -0.00098162726 -0.0013530579 -0.81827098 0.068265334
524000000 -0.8113777 0.073294133 -0.0011925356 -0.0012582726 0.00079571822 -0.00129013 -0.81843442 0.068898045
525000000 -0.81299615 0.073820524 -0.00054330239 -0.0021682414 -0.00061793183 -0.0010864774 -0.81729722 0.070218913
526000000 -0.81225789 0.075479217 0.00040103731 -0.00138465 0.00018553533 -0.00051864784 -0.8177945 0.06931638
527000000 -0.81110919 0.075083628 -0.0013454432 -0.0024428107 -0.00049500406 -0.002068853 -0.81862777 0.069295168
528000000 -0.81267756 0.073941864 0.00091788126 -0.0011662109 -0.00011443631 -0.00093210244 -0.81773835 0.069901153
529000000 -0.81368828 0.075019553 -0.00099794415 -0.0021636297 -0.00082432985 -0.001345866 -0.81664556 0.070559464
530000000 -0.81345457 0.075207047 -0.00029890085 -0.0019545392 0.00048894831 -0.0016110473 -0.81814492 0.070139006
531000000 -0.81085819 0.074031681 -0.00077648589 -0.0010733905 -0.0001430023 -0.0019534477 -0.81711119 0.069897078
532000000 -0.81252342 0.075052917 -0.00081456697 -0.0013563806 -0.00026038711 -0.00056323322 -0.81601709 0.068838373
533000000 -0.81359005 0.074618198 -0.00043079312 -0.0011158036 -0.0004858553 -0.00065778819 -0.81807405 0.069773369
534000000 -0.81472546 0.075893648 -0.00062685105 -0.0023933325 -3.3659631e-005 -0.00099060999 -0.81658715 0.070631564
535000000 -0.81284136 0.074105829 -0.00035332752 -0.0011810366 0.00044684837 -0.0020178966 -0.8169781 0.069172874
536000000 -0.81326407 0.075132661 0.00055672467 -0.0026157813 -0.0002450766 -0.0012233388 -0.81658506 0.069940925
537000000 -0.81232715 0.076159999 -0.00020978818 -0.0021728403 -0.00083325955 -0.0026985703 -0.8181271 0.072201148
538000000 -0.81214654 0.07651718 -0.0003658479 -0.00090226816 -0.0004680487 -0.00055862917 -0.81668293 0.070956782
539000000 -0.8122797 0.07688944 -1.9298228e-005 -0.00094756449 0.00035200943 -0.0026515862 -0.81722152 0.071123883
540000000 -0.81393129 0.077440187 6.1331707e-006 -0.0015722039 -0.00037987594 -0.00092935498 -0.81745982 0.072402783
541000000 -0.81125563 0.075555257 -1.3528437e-005 -0.00094394997 -0.00081409805 -0.0020553437 -0.81753451 0.071745798
542000000 -0.81101036 0.076412909 -0.00051769096 -0.0012234865 -0.00015250995 -0.00073247222 -0.81755745 0.073331095
543000000 -0.81144583 0.075848795 0.00037919148 -0.0011830506 -0.00015946421 -0.0015645949 -0.81808567 0.072577149
544000000 -0.81330347 0.075884275 -0.00085537793 -0.00060250226 0.00016081006 -0.0012889857 -0.81835353 0.071361154
545000000 -0.81184095 0.077097073 -0.00012892131 -0.0010608417 -6.8557878e-005 -0.0024349538 -0.81816828 0.072054096
546000000 -0.81194466 0.076508552 -0.0012117337 -0.0013176842 -0.00077729963 -0.00076803059 -0.81809527 0.073101632
547000000 -0.81301504 0.0768639 -0.00091540837 -0.0017028096 -0.00042067262 -0.00219263 -0.81818193 0.071775019
548000000 -0.81158543 0.077810086 -0.00052703539 -0.0017445089 -0.00034363437 -0.00094158243 -0.81753832 0.073733822
549000000 -0.81234783 0.078035623 -0.00062057428 -0.0015691969 -0.0014639428 -0.0019242849 -0.81907535 0.073388644
550000000 -0.81104612 0.076204218 0.00053759583 -0.0015787439 -0.00049199333 -0.00056953402 -0.81847191 0.074422166
551000000 -0.81286108 0.076996438 -0.00031743254 -0.0012554844 -2.6160604e-005 -0.00076853903 -0.81736243 0.072532587
552000000 -0.81288475 0.077292413 0.00047887416 -0.0011224217 0.00021895905 -0.0020680916 -0.81788617 0.073021784
553000000 -0.81241554 0.076931342 0.00098811323 -0.0011280001 -0.0007962783 -0.0011949792 -0.81810731 0.073574618
554000000 -0.8116799 0.076781616 -0.00055446546 -0.00070743298 0.00020163688 -0.0015111907 -0.81792521 0.073517092
555000000 -0.81166363 0.078283273 6.1210754e-005 -0.001506576 -0.00059356849 -0.0017117726 -0.81669289 0.074045382
556000000 -0.81267083 0.077493802 0.00025205751 -0.0012739712 -0.00064929447 -0.00067043398 -0.8185547 0.073261574
557000000 -0.81335747 0.077081233 -0.0002067832 -0.00084305281 -0.00080040924 -0.0019377496 -0.8164975 0.073971406
558000000 -0.81248873 0.077401571 -0.00058394088 -0.0019571665 0.00021445171 -0.0021517875 -0.81828636 0.073837288
559000000 -0.81336802 0.078452483 7.0873728e-005 -0.0013900767 0.0001468288 -0.0010378652 -0.81750429 0.074550308
560000000 -0.81162059 0.077026099 -6.1160754e-006 -0.0026277504 -0.00015008679 -0.0010284919 -0.8185401 0.072802931
561000000 -0.81123954 0.0772027 -0.00023675982 -0.0012319541 0.00017033362 -0.0020161283 -0.81703764 0.072366677
562000000 -0.81175345 0.076444097 8.6840781e-005 -0.0022376124 -0.00027162422 -0.0011345377 -0.81671965 0.073734082
563000000 -0.8103711 0.078057952 1.4706131e-005 -0.0022484555 -0.0008850568 -0.0013149615 -0.818151 0.073193111
564000000 -0.81319857 0.077020749 -0.0012701444 -0.0010429539 -0.00026435143 -0.0019146792 -0.81731039 0.072521381
565000000 -0.81434327 0.078268699 -0.001770693 -0.0013122476 -0.00044625363 -0.0014361489 -0.81668222 0.07513538
566000000 -0.81215876 0.0776994 -0.00061255938 -0.0016690003 -0.0003271141 -0.0016556748 -0.81671894 0.075108774
567000000 -0.81190538 0.077848218 0.0003766616 -0.00042718244 -0.00083116168 -0.0015083164 -0.81892908 0.0742741
568000000 -0.811445 0.079667814 -0.00073495239 -0.0018804931 -0.0012121047 -0.0019786048 -0.81779224 0.074095644
569000000 -0.81254315 0.079756588 0.00074257504 -0.00066749169 -0.00019735665 -0.0010842104 -0.81756723 0.075559631
570000000 -0.81273001 0.07824529 -0.00041400391 -0.0015807562 -0.00054634799 -0.0011281284 -0.81763071 0.075228825
571000000 -0.81158072 0.078662783 -0.0012224669 -0.0011503241 -0.00050426391 -0.0017743829 -0.81783658 0.074376084
572000000 -0.80984616 0.078475654 -0.00084921991 -0.00089870673 -0.00084798993 -0.0016297984 -0.81726527 0.074476965
573000000 -0.8111726 0.077644192 -0.00046147345 -0.0011673679 -0.00018502561 -0.00095056993 -0.81778711 0.074746989
574000000 -0.81181562 0.078903392 0.0010528907 -0.0019299858 -0.00020166274 -0.0010728767 -0.8177433 0.075590253
575000000 -0.81117517 0.079211675 -0.00044782332 -0.0010872782 -0.0006539218 -0.0015557449 -0.81867146 0.075557411
576000000 -0.81077749 0.078534931 0.00038726383 -0.0013856001 0.00041411901 -0.0022991621 -0.81678426 0.07502792
577000000 -0.81274819 0.078459948 -0.0010886454 -0.00088552781 -0.00025574528 -0.0020263039 -0.81868726 0.07389801
578000000 -0.8109144 0.079995379 -0.00015539549 -0.0030892552 0.0011164329 -0.00077885849 -0.81652117 0.076103881
579000000 -0.81234485 0.08025942 -0.00041888619 -0.0010539751 4.7265326e-005 -0.0017550193 -0.81779563 0.075539961
580000000 -0.81280339 0.079831198 0.00072398677 -0.0011094433 -0.0006492305 -0.0008248681 -0.81737703 0.075536095
581000000 -0.81015247 0.080321498 -0.00020788419 -0.0013673758 0.00023278705 -0.0018492566 -0.81718177 0.075491287
582000000 -0.81146628 0.080423273 -2.5579413e-005 -0.0007151282 -0.00061672152 -0.0013606718 -0.81824934 0.076716095
583000000 -0.81258434 0.080166847 -3.5807167e-005 -0.00058255065 -6.0185511e-007 -0.00032918705 -0.81793851 0.07500869
584000000 -0.812971 0.080712743 -0.0011754551 -0.0017259202 0.0003237896 -0.0012477254 -0.81702644 0.076888211
585000000 -0.81048918 0.079639569 -6.6697517e-005 -0.00040726512 -0.00054247462 -0.0015572718 -0.818151 0.075401403
586000000 -0.81095195 0.079747878 -0.00038568489 -0.0017836113 -0.00010976961 -0.0011424106 -0.81653321 0.076120555
587000000 -0.81218153 0.078919083 1.0178147e-005 -0.0015064576 2.061138e-005 -0.0018826585 -0.81657231 0.076014169
588000000 -0.81055748 0.07994844 0.00088298105 -0.0022654498 0.00047867329 -0.0023933861 -0.81799185 0.078841306
589000000 -0.81181681 0.080733873 0.000419683 -0.00175484 0.00051355682 -0.001882533 -0.81613237 0.077193357
590000000 -0.81155717 0.081487969 -0.00024374308 -0.00077235885 -0.0008307019 -0.0016706937 -0.81573457 0.077205375
591000000 -0.81164896 0.081617415 -0.00013522456 -0.00066615373 -0.00030547931 -0.0020732 -0.81712645 0.077240795
592000000 -0.81239653 0.082310461 -0.00047494401 -0.0015752638 -0.0009603193 -0.0018610392 -0.81669492 0.07589592
593000000 -0.81039661 0.081586704 -0.00044421869 -0.0016872865 0.00061170844 -0.0015447979 -0.81660134 0.076390557
594000000 -0.81143409 0.082687393 -2.9508588e-005 -0.0020234257 -0.00077355938 -0.0016984701 -0.81495577 0.076841205
595000000 -0.81210315 0.08039476 0.00053735846 -0.0018392961 -0.0012468792 -0.0014353846 -0.81741041 0.076581016
596000000 -0.81039375 0.082931034 0.00052798603 -0.0016100476 0.00054955651 -0.0022866444 -0.81820393 0.076776959
597000000 -0.81209421 0.080951259 4.0045156e-006 -0.0013619694 -0.00035631293 -0.00091757783 -0.81663561 0.07548812
598000000 -0.81080085 0.084007062 -5.6300993e-005 -0.00060928595 -0.0010559505 -0.00095876871 -0.81615889 0.078332596
599000000 -0.8119815 0.082410932 -0.00070823962 -0.0011645081 0.00035909787 -0.0017257549 -0.81712759 0.077159196
600000000 -0.81258398 0.081927061 -0.00032704111 -0.0018059375 -0.00033505665 -0.001075528 -0.81728417 0.077481784
601000000 -0.81117594 0.082406841 -8.2693718e-005 -0.0015079515 -0.0012532159 -0.0018232106 -0.81736964 0.077420622
602000000 -0.81129366 0.082377411 -0.00039224455 -0.0007112262 -0.0009868684 -0.0015572759 -0.81787449 0.07852152
603000000 -0.81140858 0.082139455 0.00034444238 -0.0020831195 -0.0013111334 -0.0015892544 -0.81742907 0.077664472
604000000 -0.81184119 0.084328718 -0.00046258842 -0.0020749751 -0.0010691001 -0.0013726717 -0.81572717 0.076937944
605000000 -0.81150138 0.08484304 -0.00031855266 -0.001078228 -0.0013137625 -0.0010640324 -0.81628859 0.079138756
606000000 -0.81058496 0.082879633 0.00058667007 -0.0017827665 -0.00053371274 -0.0013961573 -0.81492043 0.078788631
607000000 -0.81154776 0.083783962 -0.0012301226 -0.0022050776 0.00062651944 -0.0016400678 -0.81717908 0.078566171
608000000 -0.8111977 0.083526984 -0.00025964872 -0.0015752597 -0.00046351494 -0.00045222606 -0.81654358 0.0784216
609000000 -0.81112874 0.084374078 0.00019532225 -0.0014948557 0.0003277768 -0.0015446554 -0.81733948 0.077800758
610000000 -0.81142664 0.085042752 -0.00042819322 -0.0010398949 -0.00013575473 -0.0010461457 -0.8163445 0.07909476
611000000 -0.81073803 0.084237166 -0.00036018266 -0.0024170282 -0.00020228684 -0.0025264379 -0.81695884 0.079198077
612000000 -0.81128335 0.084892057 -0.00034429051 -0.0013374353 -0.00047330634 -0.0018781472 -0.81753993 0.078709498
613000000 -0.81183612 0.086873472 -9.124224e-005 -0.0015297959 0.0003590385 -0.0023160703 -0.81583303 0.078319572
614000000 -0.81094027 0.083409443 -0.00013314681 -0.0027969924 -0.00037081024 -0.0022399444 -0.81638479 0.079707712
615000000 -0.8109923 0.085414499 0.00036693588 -0.0013658936 3.3931705e-005 -0.00043416908 -0.81791925 0.079419255
616000000 -0.81016779 0.08439412 -0.0001547195 -0.0013442453 -0.00040941607 -0.00073653326 -0.81698006 0.080721937
617000000 -0.81098115 0.08644785 -0.00030446521 -0.00056179095 -0.00028319066 -0.0014132174 -0.81654966 0.079904638
618000000 -0.81079841 0.088357016 -0.00023478286 -0.0023767804 0.00014534114 -0.001733968 -0.81564897 0.082033604
619000000 -0.81114471 0.088072762 -0.00064176827 -0.0015436928 -8.9614434e-005 -0.0013982855 -0.81615746 0.08004529
620000000 -0.80983192 0.087444291 -0.0011890872 -0.001102261 -0.0008349414 -0.0023036515 -0.81701118 0.080288924
621000000 -0.81171656 0.087707862 -0.00045005203 -0.0019320144 -0.0010277935 -0.0017993567 -0.81671983 0.080884017
622000000 -0.81075662 0.087219603 -0.00052572222 -0.0016220363 -0.00080939993 -0.0024058889 -0.81524324 0.079865456
623000000 -0.81071782 0.088101439 -0.0012516006 -0.00096484332 -0.00040935152 -0.0017628762 -0.81494826 0.08191552
624000000 -0.81112325 0.086657919 -0.0015111045 -0.0013585349 -0.00017999859 -0.0021687883 -0.81584364 0.081672639
625000000 -0.80994481 0.088447839 -0.0010796766 -0.00083325926 -0.0012634331 -0.00079019589 -0.81607908 0.081016518
626000000 -0.8107928 0.089158364 -0.00026298492 -0.0017211365 0.00014602716 -0.0012302146 -0.81555772 0.082209677
627000000 -0.81124258 0.088397071 -0.00091090164 -0.00094683457 -0.0011565355 -0.0011469916 -0.81630301 0.081373148
628000000 -0.81187475 0.088065147 -0.0012495226 -0.001200067 -0.00056895782 -0.0020806314 -0.81695819 0.082331434
629000000 -0.81099665 0.088756055 -0.00057767302 -0.002058984 -0.00026883633 -0.001029173 -0.81646401 0.081919655
630000000 -0.80898887 0.087890059 0.00046226929 -0.0025787 -0.0010121987 -0.00095531938 -0.81614047 0.082518801
631000000 -0.80982494 0.08902017 -0.0013702301 -0.0011792853 -0.00086987473 -0.0014211232 -0.81694263 0.082640141
632000000 -0.81117779 0.088804431 0.00054673984 -0.0012600119 -0.00074341887 -0.0015807927 -0.8170684 0.082185529
633000000 -0.81069994 0.08751139 0.0008556493 -0.0013434306 6.1232276e-005 -0.001126405 -0.81628859 0.081282839
634000000 -0.80914789 0.090182707 -0.00051083276 -0.0023532952 0.00068555388 -0.0012406926 -0.81715137 0.082200378
635000000 -0.81125462 0.088832393 -0.00037399813 -0.0018348288 -0.0003057998 -0.0012923356 -0.81751931 0.082994089
636000000 -0.80961627 0.089223064 -5.9307866e-005 -0.0018111311 -0.00011287061 -0.0011584341 -0.81614602 0.08505179
637000000 -0.81016064 0.088387974 -0.00044160784 -0.001919997 -0.00031962013 -0.0014995963 -0.81587148 0.082829773
638000000 -0.81002885 0.089051425 -0.00077656534 -0.0022035495 -0.0003608414 -0.0019114744 -0.81604153 0.082588248
639000000 -0.81083935 0.091063209 -0.00078939652 -0.0019657137 0.00080630271 -0.00055909815 -0.81547469 0.083688967
640000000 -0.8111791 0.090439364 -7.8986282e-005 -0.0011394479 -0.00052026351 -0.00196775 -0.81591874 0.083161294
641000000 -0.80947417 0.091351368 -0.00035027717 -0.0014551873 -0.0010212002 -0.0015013769 -0.81556344 0.083242759
642000000 -0.80880713 0.091407768 -0.00063371623 -0.0018477103 -0.00039914611 -0.0012557402 -0.81622618 0.082837753
643000000 -0.80960095 0.089683406 -0.00052653765 -0.0018989474 -0.00074931403 -0.0024787067 -0.815373 0.083687566
644000000 -0.81038493 0.090503782 8.9027213e-005 -0.00089404534 3.6173242e-006 -0.0010847133 -0.81554079 0.082913369
645000000 -0.81029588 0.089983098 -0.00026530129 -0.00064886804 7.8253979e-005 -0.0021033196 -0.81583023 0.084380321
646000000 -0.80989105 0.091532759 8.8225803e-005 -0.0013172782 -0.0014405829 -0.0018559444 -0.81581217 0.083826497
647000000 -0.80934483 0.091843501 -3.6400463e-005 -0.0010376127 -0.00058649346 -0.00041440167 -0.81657439 0.083904237
648000000 -0.81145686 0.091751069 0.00075518037 -0.0022625353 6.3387859e-005 -0.0012902832 -0.81567299 0.084338278
649000000 -0.81005108 0.091934763 -0.00013703492 -0.0014110254 -0.00097936532 -0.0010071383 -0.81528884 0.08447925
650000000 -0.81013232 0.091493845 -0.00038738767 -0.0018929784 9.3303759e-005 -0.0012084442 -0.81552321 0.084659919
651000000 -0.80958897 0.092398353 -0.00076658092 -0.0013634526 -0.00028829291 -0.0012690541 -0.81604213 0.085130878
652000000 -0.80997682 0.092258267 -0.00078517705 -0.00149272 -0.00041941274 -0.0024234974 -0.81520063 0.085439019
653000000 -0.80850905 0.092224181 -0.00052370166 -0.0009019245 0.0005341848 -0.0017920142 -0.81702495 0.084942967
654000000 -0.8105877 0.092736274 -0.00089002016 -0.0017546654 -0.00030577488 -0.0018684111 -0.8166728 0.084666871
655000000 -0.80975497 0.090855531 -0.00027117951 -0.00087669806 -0.00044929783 -0.0016077374 -0.81552535 0.085407563
656000000 -0.81007457 0.093037121 -0.00092206791 -0.001441645 -0.00047035885 -0.0020862347 -0.81741381 0.08546593
657000000 -0.81014025 0.0923253 -0.0010548014 -0.0022081973 -0.00025825921 -0.0013212514 -0.81569052 0.084962569
658000000 -0.8106395 0.093396977 -3.5267497e-006 -0.0017046323 -0.00050263829 -0.0015781629 -0.81592423 0.084662162
659000000 -0.81026959 0.090982296 0.00063597696 -0.0017647825 -0.00026192405 -0.002029855 -0.81626415 0.085991427
660000000 -0.81056452 0.092202716 -0.00020303401 -0.0016874664 0.0003932004 -0.0024346339 -0.81547081 0.086184412
661000000 -0.81045997 0.095060669 -0.00087965193 -0.0011986031 -0.0011059819 -0.0017499381 -0.81547302 0.086037174
662000000 -0.80877554 0.092240535 0.00057170022 -0.0018356561 -0.00080232177 -0.00076931965 -0.81659412 0.086469114
663000000 -0.80986977 0.093163729 -0.00078087271 -0.0012313407 0.00021434826 -0.0017945321 -0.81652337 0.08531753
664000000 -0.80924457 0.093446679 -0.00016453567 -0.0016617657 -0.0010100373 -0.0013208285 -0.81672513 0.086157553
665000000 -0.80903071 0.093261532 -0.00055403501 -0.0016392494 -0.0014308839 -0.0019222164 -0.81695151 0.087087892
666000000 -0.80966496 0.093721263 -0.00015840202 -0.0022934068 -0.00012069011 -0.0025499004 -0.81525111 0.086908206
667000000 -0.80882287 0.094110891 -4.4371438e-005 -0.0011766618 -0.0011204415 -0.0013364912 -0.81533271 0.086148359
668000000 -0.80940622 0.093247198 -0.00023120966 -0.0021751779 5.3548949e-005 -0.0017040381 -0.81584305 0.085957997
669000000 -0.80883998 0.092520304 -0.0001014308 -0.0011657199 -0.0011394602 -0.001533357 -0.81529397 0.086923048
670000000 -0.81052166 0.092831314 -0.001661082 -0.0019112924 0.0010573791 -0.0038842349 -0.81570715 0.089182243
