!Keysight Technologies,M9374A,MY55442783,A.12.55.05
!Date: Wednesday, May 19, 2021 18:52:44
!Correction: S11(Full 2 Port(1,2)) 
!S21(Full 2 Port(1,2)) 
!S12(Full 2 Port(1,2)) 
!S22(Full 2 Port(1,2)) 
!S2P File: Measurements: S11, S21, S12, S22:
# Hz S  RI   R 50
500000000 -0.8093065 0.082976885 -5.9677623e-005 -0.0013094817 -0.00097332103 -0.0018144485 -0.8163715 0.078536578
501000000 -0.80965525 0.084279507 -2.5749156e-005 -0.0011229565 -0.00038556568 -0.0022996631 -0.81577671 0.078930534
502000000 -0.810655 0.084947489 -0.00011029959 -0.00143499 -0.00026754176 -0.00086228969 -0.81732184 0.080195934
503000000 -0.81107348 0.085365295 0.00012342232 -0.00096462714 -0.00012287142 -0.002551053 -0.81749535 0.080419071
504000000 -0.80859238 0.085741408 -0.000532131 -0.0012976743 0.00024898487 -0.0010544467 -0.81683928 0.080085941
505000000 -0.8094703 0.083603933 -0.00035603499 -0.0011958345 -5.4976754e-005 -0.00096743071 -0.81649387 0.079761207
506000000 -0.81054211 0.083776228 0.00010069447 -0.00042040207 0.00031533683 -0.0014105382 -0.81496143 0.07961645
507000000 -0.80878669 0.085098594 -0.00037565542 -0.0013789183 -0.0013426497 -0.00068432372 -0.81633627 0.080435239
508000000 -0.8107236 0.085773751 -0.00093729683 -0.0013780695 -0.00016815192 -0.0014230213 -0.81748861 0.080666602
509000000 -0.81086439 0.085422948 -0.00029668171 -0.0011459733 -3.7121979e-005 -0.00039861354 -0.81545985 0.082063563
510000000 -0.81136644 0.086272851 -0.00012325331 -0.0015704093 -0.00070994633 -0.0013744201 -0.81503904 0.08086241
511000000 -0.80998558 0.086180262 0.00020063926 -0.0029429144 -0.00060558261 -0.0014219956 -0.81579232 0.081912436
512000000 -0.81062704 0.085076876 0.0003985769 -0.00088805123 -0.00032816059 -0.00088750257 -0.81596297 0.081701078
513000000 -0.80918276 0.086472169 0.00069385307 -0.0025830753 2.4097768e-005 0.00014407712 -0.81693929 0.080848284
514000000 -0.810045 0.087044016 -0.00082732755 -0.0007360655 0.00019671055 -0.0010335122 -0.81676322 0.083205856
515000000 -0.81061673 0.085839219 -0.00019224224 -0.00074657297 0.00020108791 -0.0013410518 -0.81730503 0.082398251
516000000 -0.80967855 0.087809891 -0.0014649552 -0.00092946185 -0.00032907125 -0.0012325406 -0.81732821 0.082186043
517000000 -0.81131387 0.087512232 -0.00053065235 -0.00084191124 -0.00067451998 -0.0015975216 -0.81619775 0.081687137
518000000 -0.81012577 0.089212216 7.5169461e-005 -0.0017795152 -0.0003008171 -0.0010950495 -0.8158015 0.080925547
519000000 -0.81019008 0.087127551 0.0001911939 -0.001070252 -0.00098447036 -0.0011420691 -0.81569088 0.083276078
520000000 -0.80942655 0.087174095 -0.00025286534 -0.0010853041 -0.00061780098 -0.00066910841 -0.81593257 0.082711607
521000000 -0.8100962 0.087485984 -0.0010169084 -0.00081819802 -0.00083919038 -0.00078467466 -0.81609696 0.083486699
522000000 -0.81143087 0.08944121 -0.00068315613 -0.00086126773 0.00053771381 -0.00082408078 -0.81767964 0.083813921
523000000 -0.81045753 0.087794572 0.00027881857 -0.0012883026 8.9384012e-005 -0.0011873912 -0.81569624 0.083342798
524000000 -0.80992311 0.087115593 -6.4575506e-005 -0.0015167714 -0.00057743466 -0.00094504259 -0.81593132 0.082871437
525000000 -0.80814171 0.088645764 -0.00031375748 -0.0019258044 -0.00041680384 -0.00088165543 -0.81611329 0.08381252
526000000 -0.81009585 0.089866683 0.00016833567 -0.00227827 -0.00060195621 -0.00065751612 -0.8149327 0.082164243
527000000 -0.81108606 0.090198584 -0.00039666213 -0.0009410794 0.00035521761 -0.00049394235 -0.81652594 0.083931312
528000000 -0.80885088 0.090920843 -4.4847286e-005 -0.0020063829 8.9604735e-005 -0.0017330401 -0.81552804 0.085408159
529000000 -0.80835462 0.088634901 -0.00065624953 -0.0017620613 -0.00051072275 -0.001760773 -0.81504905 0.084698431
530000000 -0.80806333 0.088634714 -0.00036096203 -0.0012126603 -0.00024155865 -0.00058046472 -0.81626707 0.084688097
531000000 -0.80984777 0.088868603 -0.00063188636 -0.00069225836 0.00081641978 -0.0017160276 -0.81433839 0.083826959
532000000 -0.80895191 0.090167269 3.4387929e-005 -0.0015228246 -0.00021415384 -0.0015626007 -0.81486058 0.084507078
533000000 -0.81034106 0.091285795 0.00060051831 -0.0020809914 0.00054463797 -0.0016175598 -0.81397498 0.086180054
534000000 -0.80992526 0.089008823 0.0004573146 -0.0023329887 -1.6014994e-005 -0.0019539194 -0.81539011 0.085151501
535000000 -0.80950707 0.090745702 7.3475137e-005 -0.0020391571 0.00029816118 -0.0022966899 -0.81553459 0.085964866
536000000 -0.80943924 0.090047136 -0.00037751565 -0.0010581168 0.0008621249 -0.00047021045 -0.81411612 0.085183874
537000000 -0.8104704 0.090579659 -0.0011295144 -0.001091798 -8.3356594e-005 -0.0022083246 -0.81552351 0.086845174
538000000 -0.80870509 0.08953771 0.00060374691 -0.001337857 -5.7509937e-005 -0.0017170031 -0.81610113 0.085748628
539000000 -0.80998737 0.090322427 -8.0639911e-005 -0.0017173277 -0.00048653016 -0.00086696423 -0.81653225 0.086025894
540000000 -0.8086884 0.092494234 -0.00029521584 -0.0017320331 -0.0002746853 -0.0020875426 -0.81532806 0.086637728
541000000 -0.80965561 0.090486854 -0.00040281835 -0.0012175 -0.00039854791 -0.0018472581 -0.81531358 0.086802937
542000000 -0.80897695 0.092344187 0.00042527728 -0.0005829212 0.00044214365 -0.00048556787 -0.81487268 0.085522905
543000000 -0.80889541 0.091318563 -0.00078087003 -0.0017055916 0.00015485981 -0.0013410999 -0.81484568 0.086470164
544000000 -0.81017429 0.091768757 4.7194935e-005 -0.0011821832 -0.00064190454 -0.0012995045 -0.81627113 0.086225651
545000000 -0.81021297 0.090573125 -0.00011459564 -0.00045464622 0.00053668348 -0.0012736294 -0.81561464 0.088023938
546000000 -0.81012791 0.092522204 -0.00066695828 -0.0018101681 8.5013235e-005 -0.001004952 -0.81548774 0.087236054
547000000 -0.80960023 0.091981761 -0.00039147076 -0.0018193022 0.00057653367 -0.0017846179 -0.81557983 0.087286115
548000000 -0.8090086 0.091829658 0.0014795678 -0.00065453904 -0.00036677779 -0.00053946162 -0.8140704 0.08769697
549000000 -0.81066984 0.091570631 -0.00064396614 -0.00062665757 -0.0005468179 -0.0013464266 -0.81584972 0.088055469
550000000 -0.8092171 0.09357588 0.00044497533 -0.0024318541 -0.00062320341 -0.0020587672 -0.81442797 0.088950031
551000000 -0.80943674 0.092118479 -7.4331649e-005 -0.0017671222 -0.00010266287 -0.00099571771 -0.81599402 0.087213434
552000000 -0.81028545 0.091789216 -1.8210736e-005 -0.0018591831 -0.000685926 -0.001648399 -0.81475079 0.087464638
553000000 -0.80930549 0.093738183 -0.00045327775 -0.0015267268 -0.0010504994 -0.0021331147 -0.8157075 0.088337325
554000000 -0.80972713 0.091696076 0.00039505993 -0.00063455297 4.0070121e-005 -0.0023082029 -0.81398141 0.089913666
555000000 -0.80796778 0.093254216 6.5349974e-005 -0.0013661267 -0.00012969585 -0.00087002059 -0.81553584 0.088017531
556000000 -0.80935568 0.093544617 6.9394977e-005 -0.0012244773 -0.00046756855 -5.4493492e-005 -0.81486893 0.089197345
557000000 -0.81048298 0.092294365 0.00043261121 -0.0019357685 0.00023578058 -0.00095700042 -0.81602752 0.088260502
558000000 -0.81017023 0.093360879 0.00019048661 -0.001049695 -0.00074523635 -0.0015722413 -0.81543994 0.089619815
559000000 -0.80850393 0.092792295 0.0002906922 -0.001639285 -0.00046005216 -0.00096541824 -0.81525141 0.090744436
560000000 -0.8089928 0.094840221 -0.00024452774 -0.0021411711 -0.0011060355 -0.0014199746 -0.81401491 0.089400277
561000000 -0.80720532 0.093547158 -0.00024660732 -0.0021844206 -0.00053882791 -0.0013848231 -0.8147946 0.088537507
562000000 -0.8096453 0.094849959 -0.0004182618 -0.0022619378 9.2752787e-005 -0.0020570864 -0.81523544 0.090928957
563000000 -0.80849797 0.093845159 -0.0015319946 -0.0021593031 2.8059994e-005 -0.00086740236 -0.81583178 0.09034048
564000000 -0.80754203 0.093117811 0.00052020332 -0.0014749074 0.000152084 -0.00013983437 -0.81532896 0.090055011
565000000 -0.80856079 0.094362363 0.000493748 -0.0010817802 -0.00086628675 -0.0021989148 -0.81505406 0.089154795
566000000 -0.80835366 0.092932694 -0.0001571828 -0.0012390534 -0.001119814 -0.00081986713 -0.81393737 0.091173485
567000000 -0.80853534 0.092839688 -0.00060378952 -0.00079417735 -0.00020885417 -0.0013576588 -0.81562108 0.090295009
568000000 -0.80719906 0.094476879 0.00041526172 -0.001869126 -3.8108774e-005 -0.0012740202 -0.81575179 0.089436121
569000000 -0.80849248 0.095499858 -0.0010805043 -0.0005772197 -0.00023906061 -0.0012741227 -0.81568003 0.09034057
570000000 -0.80768895 0.094407901 -0.00045110879 -0.0024940923 -3.6300447e-005 -0.0020640467 -0.81467575 0.091032103
571000000 -0.80793381 0.094500177 0.00076526892 -0.0014702962 -0.00070280273 -0.0015356489 -0.81607407 0.091220282
572000000 -0.80909097 0.096109465 -0.00025046506 -0.0010915914 -0.00064532657 -0.0014443129 -0.81369555 0.090570316
573000000 -0.80828357 0.094709352 -0.00027210114 -0.00092619716 0.00022162868 -0.0014126434 -0.81351697 0.090784423
574000000 -0.8078354 0.095089525 -0.00027677277 -0.0013366903 -0.0012666591 -0.0022185636 -0.81503922 0.091581285
575000000 -0.81021804 0.095307626 0.00031173692 -0.0016835339 3.0455165e-005 -0.00091181131 -0.81675911 0.090808675
576000000 -0.80670667 0.094488285 0.00052347517 -0.0020193225 0.00016321958 -0.0026754178 -0.81551075 0.092502519
577000000 -0.80811656 0.094687499 0.00013332303 -0.0006246288 0.0010062264 -0.0010801621 -0.81437725 0.091013342
578000000 -0.8087306 0.096252024 -0.00044088965 -0.00093840854 -0.00061478274 -0.0016832429 -0.81556296 0.09230189
579000000 -0.8086012 0.094666064 -0.00036098534 -0.0013516085 -0.0012388688 -0.0010732583 -0.81643391 0.091529183
580000000 -0.80866611 0.095622249 -0.00038492662 -0.0013237578 -0.00077088427 -0.0013094306 -0.8166067 0.091758572
581000000 -0.80717927 0.094706103 -0.00082983868 -0.0018977992 0.00041014157 -0.001338058 -0.81522846 0.092209741
582000000 -0.80884391 0.095525332 -0.00011478971 -0.00046139219 -0.00053010246 -0.0030908068 -0.81491643 0.09310665
583000000 -0.80882931 0.096398078 -0.00061769516 -0.002141274 -0.00029394627 -0.0018618938 -0.81503755 0.091271587
584000000 -0.8084408 0.096431874 -0.0012272241 -0.0018382651 -0.00020606723 -0.00070136884 -0.81544292 0.092507333
585000000 -0.80822408 0.096569449 -0.0001193431 -0.0019849006 -0.00075934536 -0.0015246024 -0.81463695 0.093091905
586000000 -0.80966663 0.096438274 0.00014001418 -0.0007791231 0.00041819501 -0.0024394803 -0.81383389 0.092009448
587000000 -0.81029803 0.097749345 -4.3130924e-005 -0.00065503916 -0.00052112545 -0.0010450025 -0.81329966 0.09294609
588000000 -0.80795896 0.097185485 -0.00078574376 -0.0012772683 -0.00067129632 -0.0012053403 -0.81518042 0.093049899
589000000 -0.80728114 0.09655568 0.001048623 -0.0019800046 0.0003260576 -0.0013010196 -0.81507647 0.092279732
590000000 -0.80779999 0.097970814 -0.0011783435 -0.0017817969 -0.0011636631 -0.0012578875 -0.81403357 0.092632584
591000000 -0.8081212 0.098622441 0.0001509781 -0.0011503582 0.00036407961 -0.0013419758 -0.81380284 0.093690716
592000000 -0.80837619 0.096586175 -0.0007990399 -0.0015151353 -0.00017056058 -0.0012716107 -0.81521463 0.093108766
593000000 -0.80919427 0.099174321 -0.00032482651 -0.002008107 -0.0012710914 -0.0016967929 -0.81578398 0.09239962
594000000 -0.80724627 0.1001279 0.0005195344 -0.0016535544 0.00026087381 -0.00061319693 -0.8152343 0.09297467
595000000 -0.80836928 0.097414039 -0.00087291718 -0.0010163083 0.00032102744 -0.0021760515 -0.8132208 0.094502196
596000000 -0.80782247 0.099607974 -0.00017048794 -0.0019293664 0.00068812282 -0.0015303132 -0.81501418 0.093618155
597000000 -0.80795276 0.099910796 7.1583971e-005 -0.0023588862 -0.00093683478 -0.0030175482 -0.81456023 0.09351179
598000000 -0.80930972 0.099292345 0.00026753018 -0.001088932 -0.00050680176 -0.0014559638 -0.81512028 0.09459734
599000000 -0.80746835 0.099210538 -0.00013227294 -0.0014162241 -0.00016464405 -0.0024872937 -0.81473255 0.094081096
600000000 -0.80804563 0.097765818 -0.00054754061 -0.0015158253 0.00030024836 -0.0024484794 -0.81311125 0.094793573
601000000 -0.80710608 0.10019707 -0.001468005 -0.0019419632 4.1232383e-005 -0.0010853009 -0.81453967 0.095450886
602000000 -0.80658841 0.098188333 9.6843716e-005 -0.0017108383 0.00050236832 -0.0013948554 -0.81543118 0.094860025
603000000 -0.80581874 0.10067542 0.00062353205 -0.00052171852 -0.0010099311 -0.0018716605 -0.81484365 0.094983295
604000000 -0.80646956 0.099003978 -0.0012227915 -0.0018745612 0.00019376968 -0.00045482343 -0.81373769 0.09715645
605000000 -0.8061462 0.10140254 -7.6741402e-005 -0.0011816607 -0.00025182002 -0.0013124173 -0.8137455 0.094912432
606000000 -0.80747098 0.10051816 -8.157979e-005 -0.0010558317 -2.2481709e-005 -0.0015080476 -0.81547993 0.095753834
607000000 -0.80884266 0.10166038 0.00047040547 -0.0018898478 -0.0018919656 -0.0019645032 -0.81347096 0.09591727
608000000 -0.80715764 0.10213096 -0.00012098405 -0.0013501125 -0.00023676592 -0.00087504002 -0.81444919 0.095888227
609000000 -0.80578619 0.10011789 -0.00026363658 -0.00049131562 -0.00085239782 -0.0018548241 -0.81397313 0.096620567
610000000 -0.80733567 0.10261507 -0.00037264641 -0.00089493097 -1.186333e-005 -0.00076918415 -0.81396168 0.097596906
611000000 -0.80687267 0.10184925 5.7794688e-005 -0.0020798806 0.0001181203 -0.0016352948 -0.81329638 0.096912384
612000000 -0.80647868 0.10412324 -0.00039467224 -0.0014248544 -0.00078650727 -0.0017971568 -0.81420493 0.097687259
613000000 -0.80820137 0.10195881 -0.00025533282 -0.0026329693 -0.00067942188 -0.0022305797 -0.81423461 0.09702719
614000000 -0.80709201 0.10216971 0.00011089834 -0.0016343221 0.0002439825 -0.0014836976 -0.81497955 0.098780982
615000000 -0.80716324 0.10186537 -0.00048384196 -0.0010773314 -0.00035731783 -0.002102142 -0.81466466 0.097721435
616000000 -0.80785412 0.10442302 0.00034665197 -0.0016921601 -0.00039138994 -0.001589119 -0.81219631 0.097454563
617000000 -0.80752712 0.10342055 -0.00014978193 -0.0018064972 0.00025393325 -0.0027953046 -0.81279159 0.098129772
618000000 -0.80822074 0.10284452 -0.0012799617 -0.0012831861 0.00037520358 -0.001697929 -0.81250703 0.098970599
619000000 -0.80748183 0.10343154 -0.00039081517 -0.0015850203 -0.0010726283 -0.00080925907 -0.81443459 0.098412909
620000000 -0.80625975 0.10365047 -1.5737804e-005 -0.0017169287 -7.3443618e-005 -0.0034052259 -0.81221229 0.097887762
621000000 -0.80722159 0.10424271 -0.00067890401 -0.0010188889 -0.0012391604 -0.0019627542 -0.81450886 0.098653056
622000000 -0.80847305 0.10434627 1.6169713e-005 -0.0010500418 -0.0006135208 -0.0018072873 -0.81380522 0.098605819
623000000 -0.8059333 0.10529366 -0.00060446205 -0.00037949029 -0.0005151126 -0.00170582 -0.81287009 0.099827476
624000000 -0.80670846 0.106466 -0.0006114518 -0.0015982348 0.00030294302 -0.0015318855 -0.81405944 0.099133387
625000000 -0.80580169 0.10713175 -0.00079384289 -0.0022760064 0.00036406095 -0.001249354 -0.81268924 0.099251956
626000000 -0.80731207 0.10758439 -0.0010382028 -0.0022970976 -0.00039689126 -0.0012967074 -0.8124494 0.098751657
627000000 -0.80771607 0.10637737 0.00077365746 -0.0010912743 0.00037434025 -0.00042102771 -0.8141759 0.10143463
628000000 -0.8061223 0.10611071 8.2332685e-005 -0.0010123723 -0.0012273906 -0.002211838 -0.81252599 0.10034738
629000000 -0.80670935 0.1061185 -0.00028423758 -0.0024050749 -0.0008296647 -0.0012537619 -0.8128553 0.10025398
630000000 -0.80605137 0.10648 -0.00087481475 -0.0015444255 -0.00036130889 -0.0018856863 -0.81240898 0.10191855
631000000 -0.80775738 0.10500364 -0.0013280732 -0.0018433875 -0.0008635791 -0.0015496927 -0.81473041 0.10039671
632000000 -0.80730999 0.10753033 -0.00072839845 -0.0018117827 -0.00042831775 -0.0011912686 -0.81309634 0.099719852
633000000 -0.80589867 0.10675164 0.00058093737 -0.001695314 -0.00070516899 -0.0013251343 -0.81288767 0.10095
634000000 -0.80669653 0.10688759 0.0005229204 -0.0016825221 -0.0003749913 -0.0017150631 -0.81287277 0.10129809
635000000 -0.80609608 0.106727 -0.00026855891 -0.00096266472 -0.00074669119 -0.0011099995 -0.81374705 0.099895276
636000000 -0.80639142 0.10838588 0.00015323354 -0.0017680165 -0.00099482946 -0.0019318893 -0.81512725 0.10087642
637000000 -0.80504769 0.10698264 -0.001340112 -0.0013906489 -0.00034288151 -0.0011735313 -0.81132847 0.10163105
638000000 -0.80685019 0.10859951 -0.0003216482 -0.0014090987 -0.00072010735 -0.0014353903 -0.81232911 0.10222967
639000000 -0.80847043 0.10938756 -0.00030111708 -0.0025257678 -0.00055736804 -0.0018239341 -0.8124547 0.10166665
640000000 -0.80631256 0.1080301 -0.00078670646 -0.0016483694 0.00014215098 -0.0011022697 -0.81264645 0.10119641
641000000 -0.80574274 0.10882936 -0.00067281106 -0.0012919442 0.00046383037 -0.0020574892 -0.81380242 0.10111827
642000000 -0.80641788 0.10939316 -0.00085277011 -0.0021334889 -0.00062280515 -0.0011214993 -0.81488174 0.10270876
643000000 -0.80641466 0.10891029 -0.00016895952 -0.0028605498 -0.0014191896 -0.0013879951 -0.81316143 0.10149775
644000000 -0.80618501 0.10997958 -0.00038082228 -0.002423828 -0.0014716934 -0.0017675972 -0.81250161 0.10160644
645000000 -0.80642349 0.10899872 -0.00046919877 -0.0012801239 -7.6163771e-005 -0.0019753047 -0.81450611 0.10328342
646000000 -0.80564749 0.11071774 -0.00057162874 -0.0016559273 -0.00011668003 -0.0016924387 -0.81328565 0.10217878
647000000 -0.8076399 0.11078101 7.0141876e-005 -0.001900105 0.00033425639 -0.0018601823 -0.81340891 0.10174899
648000000 -0.80544823 0.11086631 -0.00057273678 -0.0014998815 -0.0003510518 -0.0024363392 -0.81294978 0.10482163
649000000 -0.80624861 0.11017567 -0.0015621046 -0.0013609576 -0.00023948478 -0.0010664373 -0.81342161 0.10312252
650000000 -0.8073771 0.11032485 -0.0010693904 -0.0022611299 -0.0009837246 -0.0019434241 -0.81225288 0.10330265
651000000 -0.80683172 0.10979474 -0.00069979741 -0.0014648486 -0.0007655315 -0.0020521849 -0.81256062 0.10413565
652000000 -0.80562401 0.10988784 -0.0010614715 -0.00061083923 -0.00015691941 -0.001784783 -0.81303465 0.1035289
653000000 -0.80645794 0.11093434 -0.00051958533 -0.00080266065 -4.8250586e-005 -0.0024570483 -0.81277496 0.10433692
654000000 -0.8064661 0.1106734 2.6458833e-006 -0.0022335977 -0.00031051261 -0.0020244084 -0.81294417 0.10494562
655000000 -0.80642331 0.10948036 -0.00055371801 -0.0018711364 0.00043363177 -0.0007936575 -0.81228375 0.10493174
656000000 -0.80549586 0.11236234 0.00017353253 -0.0018189237 0.00055670337 -0.0016601032 -0.81269038 0.10505289
657000000 -0.80663997 0.1115969 -0.0012461401 -0.0012169864 -0.00067053939 -0.00198246 -0.8124361 0.1046913
658000000 -0.80650198 0.11169816 -0.00046356188 -0.0018048136 -0.0006769711 -0.00082147907 -0.81164396 0.10380425
659000000 -0.80576652 0.11282157 -0.0010004261 -0.0019466025 -0.00012889014 -0.0013371535 -0.81306535 0.10520785
660000000 -0.80633247 0.1133504 -0.00024232297 -0.0012499089 -0.00072312914 -0.0012640278 -0.81210154 0.10545917
661000000 -0.80758429 0.11209408 7.148576e-005 -0.0015157255 3.7347669e-005 -0.0012418949 -0.81119949 0.10519943
662000000 -0.80698448 0.11241648 0.0003984202 -0.0018357573 -0.00078696909 -0.0020248473 -0.81328452 0.10519499
663000000 -0.80610663 0.11265225 0.00016714193 -0.0020496964 -4.6817484e-005 -0.0015721108 -0.81230336 0.10486285
664000000 -0.80599558 0.11241252 -0.0013120727 -0.0013214016 -0.00022884371 -0.0018013249 -0.81290579 0.10532954
665000000 -0.80488658 0.11324357 0.00018394785 -0.0010158026 -0.00075115514 -0.0019918992 -0.81146914 0.10566881
666000000 -0.80513597 0.11235692 -0.00071083056 -0.0018340755 0.00091204565 -0.0016029453 -0.81259352 0.10526681
667000000 -0.80499673 0.11263139 -0.0012181721 -0.0011600213 0.00035650455 -0.0024819355 -0.81290907 0.10633969
668000000 -0.80642986 0.11405136 -0.00030421795 -0.0028568141 -7.1558185e-005 -0.00076324813 -0.81215769 0.10588271
669000000 -0.80774897 0.11289837 0.00038004492 -0.0011051587 0.00031529082 -0.0012647554 -0.81312478 0.10596369
670000000 -0.80435002 0.11406494 0.0011499925 -0.0019613695 -0.00034278943 -0.0021083588 -0.81146324 0.10616067
671000000 -0.80504638 0.11290795 -0.00012101985 -0.0016335023 0.00019964018 -0.0008531413 -0.81348586 0.10649644
