!Keysight Technologies,M9374A,MY55442783,A.12.55.05
!Date: Wednesday, May 19, 2021 19:21:35
!Correction: S11(Full 2 Port(1,2)) 
!S21(Full 2 Port(1,2)) 
!S12(Full 2 Port(1,2)) 
!S22(Full 2 Port(1,2)) 
!S2P File: Measurements: S11, S21, S12, S22:
# Hz S  RI   R 50
500000000 -0.81329656 0.071384922 -0.00080228364 -0.0009061512 0.00040347007 -0.00068081147 -0.8176257 0.064161763
501000000 -0.81349766 0.070209414 -0.00047184704 -0.00018085061 0.00031250465 -0.0015724819 -0.81798643 0.065957785
502000000 -0.81374198 0.071655191 -0.00052122207 -0.0024708982 -8.0772725e-006 -0.001349687 -0.81913835 0.066272929
503000000 -0.81301582 0.069780618 -0.00022813023 -0.0016237105 -0.0011900868 -0.0014699253 -0.81774133 0.066414602
504000000 -0.81344372 0.07091888 -0.00066322123 -0.0019950666 -0.00081665907 -0.002186632 -0.81845862 0.066445313
505000000 -0.8131206 0.073360354 -0.0006446566 -0.00062798266 0.00019767835 -0.00060867454 -0.81851697 0.067970909
506000000 -0.81451142 0.07225363 -0.00016746487 -1.4105558e-005 -0.00046217255 -0.0018797664 -0.81813675 0.067487419
507000000 -0.81293923 0.072496787 -5.9841321e-005 -0.0014246188 -0.0011078784 -0.001289594 -0.81811208 0.066479087
508000000 -0.81400186 0.071344048 0.00039777311 -0.0015822217 -0.00022570592 -0.0023265898 -0.81829047 0.067597523
509000000 -0.81314451 0.071513474 -0.00042380107 -0.001712931 0.00016446075 -0.0011236534 -0.81824577 0.067366794
510000000 -0.81366992 0.072093606 -9.4673647e-005 -0.0017775518 -0.00091509393 -0.0015855754 -0.81685954 0.067800358
511000000 -0.81447864 0.073934615 0.00015645177 -0.001183273 0.00042086598 -0.0012280161 -0.81824255 0.067947045
512000000 -0.81199223 0.072403908 -0.0016864194 -0.00048023634 -0.00016450182 -8.1630445e-005 -0.81725979 0.065975554
513000000 -0.81439179 0.072724946 -0.00070583675 -0.0010134388 -0.00012163491 -0.00031429846 -0.81981313 0.067525491
514000000 -0.81491119 0.072869457 -0.00088393938 -0.0014769702 -0.00085652474 -0.0017237583 -0.81796998 0.068536699
515000000 -0.81387734 0.073233247 0.00031670788 -0.000699809 0.00013542642 -0.0018895676 -0.81691968 0.067595452
516000000 -0.81465447 0.072734162 0.00094720622 -0.0020292231 0.00056257308 -0.00085054245 -0.81791568 0.067816652
517000000 -0.81355655 0.074041374 -0.0011998246 -0.0015288905 -0.0010609059 -0.0016942705 -0.818793 0.067554809
518000000 -0.81527269 0.074815303 -0.0011638639 -0.00074472773 -0.00025798281 -0.0021121914 -0.81819069 0.067151032
519000000 -0.8136186 0.07345771 -0.00052676746 -0.0011334651 -0.0001433646 -0.00044740786 -0.8172214 0.070929095
520000000 -0.81307542 0.07338538 -7.5875578e-005 -0.0012954382 -0.0007143761 -0.00085328135 -0.81802738 0.069086723
521000000 -0.81417197 0.07584212 -0.00078305922 -0.0011459527 -0.0013745637 -0.0011022809 -0.81808293 0.068150006
522000000 -0.8152647 0.073897712 -6.0144037e-005 -0.0011217602 -0.0014670213 -0.00054436637 -0.81844741 0.069905475
523000000 -0.81306183 0.073570721 -0.00044580319 -0.0020647517 -0.00015531975 -0.00018678422 -0.8176958 0.069709212
524000000 -0.81318933 0.075921468 -0.00039542589 -0.0013168324 6.4768217e-005 -0.0017779681 -0.81844956 0.069427438
525000000 -0.81330371 0.073525019 0.0014674643 -0.0011874496 0.0002444509 -0.00089833513 -0.81823897 0.070217445
526000000 -0.81355274 0.075258769 0.00055877573 -0.00022328 8.6363172e-005 -0.00046481212 -0.81739891 0.069363229
527000000 -0.81372344 0.074990824 -3.9634189e-005 -0.0019298007 -0.00031295218 -0.0012375356 -0.81762367 0.06897895
528000000 -0.81330919 0.074762784 -9.0918933e-005 -0.0023006953 7.4179829e-005 -0.0010730218 -0.81491345 0.070309378
529000000 -0.81349981 0.074933574 -0.00049627607 -0.0020425667 -0.00071513175 -0.0010364447 -0.81740892 0.070657454
530000000 -0.81353652 0.075523399 0.00041551562 -0.0015867586 -0.00078393042 -0.00086494436 -0.81778109 0.071285911
531000000 -0.81230992 0.076198846 -0.00014725111 -0.0012150358 -0.00055371918 -0.00076481822 -0.81847644 0.06971775
532000000 -0.81373113 0.074349836 -0.00022973625 -0.0012035361 0.0002206065 -0.0018837649 -0.81673783 0.070534527
533000000 -0.81333315 0.076146491 -0.00064662239 -0.0010026518 -0.00075952499 -0.0021987578 -0.81761861 0.07159584
534000000 -0.81424588 0.075904593 -0.00053180056 -0.0012435488 -0.00054638268 -0.0019585679 -0.81701154 0.070636883
535000000 -0.81378627 0.076973937 -0.00023445851 -0.0013712817 5.0800554e-005 -0.0012227512 -0.81730026 0.070707269
536000000 -0.81425035 0.074647054 0.00010953944 -0.0023769462 -0.00019855089 -0.0014564828 -0.81769603 0.071296073
537000000 -0.81402171 0.075485677 -0.0007108429 -0.0014875121 -0.00071677915 -0.0018022411 -0.81738734 0.071930788
538000000 -0.81470615 0.07573729 -0.00085811137 -0.0013392133 -0.0011655374 -0.0010797729 -0.81761867 0.071430109
539000000 -0.813326 0.075645551 0.0005560664 -0.0014107306 -0.0007459037 -0.0015367545 -0.81753665 0.072493196
540000000 -0.81350774 0.075911224 -0.0010340398 -0.0016135541 -0.0013846882 -0.0018997416 -0.81801105 0.0718541
541000000 -0.81248897 0.077593662 -0.0005331501 -0.00072911789 2.9941284e-005 -0.00079402392 -0.81790447 0.07208585
542000000 -0.8137579 0.07765007 0.00038540392 -0.00058358046 -0.00020809089 -0.0014336518 -0.8172847 0.071553349
543000000 -0.81244349 0.077743456 0.00047369307 -0.00112528 -0.00049600849 -0.00076065224 -0.81723243 0.074258238
544000000 -0.81426501 0.076542944 -0.00085786422 -0.00093247043 -0.00090066151 -0.0022471184 -0.81702477 0.07236816
545000000 -0.81196672 0.077763759 -8.5829939e-005 -0.0011688091 0.0010635096 -0.0017157712 -0.81677288 0.072661988
546000000 -0.81334233 0.077659205 -4.1526153e-005 -0.0021397346 0.00045866496 -0.001585295 -0.81676269 0.072468467
547000000 -0.8137579 0.077133477 0.00080321444 -0.0020820363 -0.0005255398 -0.001837783 -0.81727701 0.07273028
548000000 -0.81270367 0.077788971 1.8203991e-005 -0.0013186604 -8.9167015e-006 -0.0021011964 -0.81788331 0.073934361
549000000 -0.81435341 0.078795448 -0.00088770583 -0.0014347299 -5.0257106e-005 -0.0012420344 -0.81787372 0.072813749
550000000 -0.81325418 0.07762862 -0.00026955645 -0.0020344097 0.00019754791 -0.0011061669 -0.8167032 0.073754542
551000000 -0.81380838 0.077486798 -0.00031476817 -0.0014210867 -0.00049152557 -0.0011650464 -0.81788254 0.073842719
552000000 -0.81563252 0.076390468 0.00062714593 -0.0019579122 -0.00072839845 -0.0018561528 -0.81653273 0.072790533
553000000 -0.81403583 0.078562267 0.00021990987 -0.0020517888 0.00028980899 -0.0015169389 -0.81730801 0.073477656
554000000 -0.8137607 0.077170178 -0.0011379006 -0.0010279701 -0.0004090438 -0.0013544312 -0.81793225 0.072539039
555000000 -0.81231511 0.078414381 -0.00022381188 -0.002017939 -0.00084071426 -0.0012853218 -0.8170647 0.073866203
556000000 -0.81340599 0.077225536 0.00032057241 -0.0010248829 -0.00074133667 -0.0010056387 -0.81809223 0.074511819
557000000 -0.81346059 0.076820441 -0.00027410468 -0.0017393521 -0.00066428189 -0.0009332131 -0.81820214 0.074979909
558000000 -0.81335801 0.078133576 0.00030732641 -0.0019772737 0.00027263211 -0.00060209155 -0.81820369 0.073975407
559000000 -0.81270349 0.079515651 0.00012096422 -0.00076186151 -0.00049543852 -0.00093957683 -0.81756884 0.074029602
560000000 -0.81219721 0.078214169 2.2120934e-005 -0.0011522697 -1.6106179e-006 -0.0018323935 -0.81853372 0.074575849
561000000 -0.81336349 0.077687033 0.0002374334 -0.0017011412 -0.00051712175 -0.00125371 -0.81746864 0.074192598
562000000 -0.8119939 0.079081826 -0.00020104737 -0.0013126628 0.0003778371 -0.0017636428 -0.81892407 0.073970124
563000000 -0.81258863 0.078791469 -0.00017586761 -0.00094296614 4.3448988e-005 -0.0026122753 -0.81729776 0.074056022
564000000 -0.81347245 0.079163283 -0.00028314342 -0.0013922564 0.00062879646 -0.001184359 -0.81785363 0.075309083
565000000 -0.8131851 0.078951433 -0.00051554054 -0.00093034905 -0.00071151863 -0.0016074523 -0.81783652 0.074431121
566000000 -0.81206757 0.078258254 -0.00016186635 -0.0020915221 -0.00044048674 -0.0014978353 -0.81742102 0.074992016
567000000 -0.81364071 0.079482384 -0.00020908297 -0.0017012199 2.8769696e-006 -0.002394221 -0.8182134 0.07436312
568000000 -0.81162655 0.079666823 -0.00053708005 -0.0015159257 -0.00052010157 -0.0015618964 -0.81598061 0.073332749
569000000 -0.81203026 0.0797031 2.65131e-005 -0.00086558529 -0.0014513249 -0.0017238911 -0.81843877 0.07373108
570000000 -0.81205815 0.078579769 -0.00019132468 -0.0013595835 0.00031494958 -0.0016645016 -0.81761307 0.073935047
571000000 -0.81325001 0.07981243 0.00031785955 -0.0012368967 0.00066523277 -0.0018952024 -0.81714225 0.076115608
572000000 -0.81237924 0.080435559 0.00026995785 -0.0017510956 -0.00080731796 -0.0013591615 -0.81771171 0.075046577
573000000 -0.81370741 0.079886936 -0.00016793447 -0.001730712 0.000501075 -0.0010249974 -0.81818581 0.075977288
574000000 -0.81178159 0.080279171 0.00026776784 -0.0009959446 -0.00041740036 -0.001250806 -0.81839365 0.07659851
575000000 -0.8122443 0.080667697 -0.00034333378 -0.0017556318 0.0003584997 -0.0020211982 -0.81900913 0.076564774
576000000 -0.81350774 0.079637624 -2.8956105e-005 -0.0016210862 -0.00066480442 -0.0012745271 -0.81810671 0.0764312
577000000 -0.81267428 0.080580726 -0.0013052482 -0.0014338213 -0.001164887 -0.0011771412 -0.81684595 0.075115882
578000000 -0.8130495 0.080089502 0.00057228678 -0.00079097995 0.00026721129 -0.0012079604 -0.81893831 0.078088783
579000000 -0.81319892 0.080928266 -0.0013974117 -0.00041786506 8.0536283e-006 -0.00064816826 -0.81817502 0.076726712
580000000 -0.81361628 0.079764172 -0.00011434274 -0.00098031713 3.5494264e-005 -0.0010916358 -0.81704319 0.076581046
581000000 -0.81265438 0.079801477 0.00014425674 -0.0019803285 -0.00068400981 -0.00145907 -0.81848234 0.076393031
582000000 -0.81116134 0.080620371 -0.00068127859 -0.0014411571 -0.00019351335 -0.0022620028 -0.8169387 0.078305282
583000000 -0.81296182 0.081711113 -0.00061436754 -0.0012721726 -0.00046446241 -0.00063261221 -0.81665164 0.076524064
584000000 -0.81223363 0.081305981 0.00046148832 -0.0011872766 0.00032563164 -0.0011579755 -0.81734753 0.077526286
585000000 -0.81319618 0.080957472 0.00016211286 -0.0013203106 0.0011645779 -0.0023414374 -0.81735438 0.077166453
586000000 -0.81271565 0.08123599 -0.00021635722 -0.0013597945 4.1573596e-005 -0.0012189035 -0.81706512 0.077122152
587000000 -0.81266695 0.080936082 -0.00031843878 -0.0013233001 -0.00036178899 -0.0011959117 -0.81592977 0.076249458
588000000 -0.81365913 0.082632944 -0.0003059851 -0.0019361452 -0.00055524299 -0.0013654109 -0.81778115 0.077980138
589000000 -0.81234348 0.080703206 -0.00026466881 -0.0014283236 6.9252951e-006 -0.0018279634 -0.81620133 0.077735133
590000000 -0.81099522 0.083617032 -0.00052354368 -0.0016691771 -0.00072332803 -0.0015529589 -0.81784421 0.078028575
591000000 -0.81245172 0.080749653 0.00022324419 -0.0022396646 0.00018929165 -0.0014342936 -0.8167426 0.07850033
592000000 -0.81083673 0.083274223 0.00045307048 -1.2256592e-005 0.00038755569 -0.00097559689 -0.81837893 0.078266852
593000000 -0.81104171 0.081811003 0.00023085206 -0.0017618473 0.00023485659 -0.0019277934 -0.81765133 0.078377262
594000000 -0.81256568 0.084152028 0.00018414926 -0.00095184252 -6.7629211e-005 -0.0018340381 -0.81583238 0.07661175
595000000 -0.81332517 0.081502467 -0.0003113639 -0.0019867904 -0.00012815274 -0.0018840547 -0.81603956 0.079547986
596000000 -0.81215918 0.082995683 -0.00050628232 -0.0015108181 0.00023019809 -0.00207022 -0.81681347 0.077403545
597000000 -0.81288397 0.082885727 0.00034275567 -0.0012039394 -0.0010632374 -0.001396518 -0.81712222 0.078876451
598000000 -0.81079298 0.083430476 -0.00083738472 -0.0024447727 -0.00061200251 -0.0015143441 -0.81694615 0.077461377
599000000 -0.81274348 0.083607867 -0.00029517055 -0.0012591791 -0.00047769147 -0.0019011792 -0.81608254 0.077964969
600000000 -0.81151187 0.08301302 -0.00026887664 -0.0009005774 0.00011870412 -0.0020901412 -0.81663615 0.079473101
601000000 -0.81255043 0.084283948 0.00068177632 -0.00062829512 -0.00073110266 -0.00030840401 -0.81805062 0.079293951
602000000 -0.81330776 0.084208734 -0.00074518868 -0.0021764492 -0.0012129477 -0.0015680734 -0.81680119 0.079463378
603000000 -0.81301892 0.083650559 -0.00032378279 -0.0011836586 0.00037633275 -0.0016758568 -0.81832457 0.078500435
604000000 -0.81254035 0.082802117 0.00022331616 -0.0014382701 -0.00015411389 -0.0022678638 -0.81688863 0.079007119
605000000 -0.81115472 0.084522322 0.00081739802 -0.0015286552 -0.0001358415 -0.0017184111 -0.81673044 0.078491084
606000000 -0.81166375 0.085082047 0.00076992571 -0.0021815111 -0.00024539593 -0.0014625355 -0.81624484 0.078838021
607000000 -0.81162775 0.085486948 9.4921736e-005 -0.0018989592 0.00067217823 -0.0021341401 -0.81605685 0.079904892
608000000 -0.81329679 0.085923679 -0.00039114789 -0.0016449791 4.0507504e-005 -0.0014339016 -0.81546384 0.080395252
609000000 -0.8124826 0.085427031 -0.00014169009 -0.0007011522 0.0008165511 -0.0015366595 -0.81660116 0.078482024
610000000 -0.81208622 0.08552938 -0.00064412656 -0.0011542543 -9.6166084e-005 -0.0014371919 -0.81518799 0.07976573
611000000 -0.81067079 0.084833279 -0.0004782473 -0.0018093388 0.0004379843 -0.00077663653 -0.81608492 0.079912312
612000000 -0.81110376 0.086513877 -0.00072308985 -0.0014300024 0.0001984923 -0.0021980382 -0.81708962 0.080423534
613000000 -0.81088108 0.085988045 0.00020525469 -0.0013744902 0.0011097917 -0.0019742446 -0.81634277 0.080703013
614000000 -0.81078625 0.086692572 -0.0010432552 -0.0010714411 -0.00020171251 -0.0010921619 -0.81718516 0.081076838
615000000 -0.81185734 0.086601764 0.00046362856 -0.0018388272 -0.00050308602 -0.001229539 -0.81373936 0.078494884
616000000 -0.8102684 0.086642742 -0.00010687367 -0.0015864208 -0.00017757193 -0.0019702925 -0.81541389 0.08105202
617000000 -0.81092608 0.086701386 -0.00032455678 -0.00093580427 -0.0010096363 -0.0011568269 -0.81589127 0.082207121
618000000 -0.8123284 0.086604871 -0.00044346554 -0.0016867755 0.00033899478 -0.0019877455 -0.81587309 0.080261454
619000000 -0.81051624 0.086946107 -6.3504136e-005 -0.0015099769 -0.00024519273 -0.001369571 -0.81509352 0.081763528
620000000 -0.81088501 0.087422401 -0.00030153876 -0.00096937729 -0.00085635029 -0.0015645124 -0.81587291 0.081765875
621000000 -0.8140986 0.087720506 0.0011208187 -0.0018428046 -0.00074422726 -0.0019134819 -0.81713933 0.080449432
622000000 -0.81085896 0.08859127 0.00019383444 -0.0018061621 0.00012727709 -0.0011668485 -0.81658161 0.081608303
623000000 -0.81107819 0.087917924 8.7722292e-005 -0.0013639741 -0.00061804923 -0.0017932755 -0.81742525 0.081044361
624000000 -0.81153053 0.08761204 -0.0010679249 -0.0020527681 -0.00038294389 -0.001410702 -0.81656808 0.081593111
625000000 -0.81079429 0.088992357 -0.00012245864 -0.0011304544 9.2547285e-005 -0.00037844741 -0.81648403 0.081213735
626000000 -0.81311661 0.088611826 0.0013660953 -0.0021585042 0.0001711683 -0.0015266724 -0.81575382 0.08187484
627000000 -0.81203759 0.088323765 -0.0002570264 -0.0023040301 0.00020346626 -0.0009838962 -0.81678486 0.083511069
628000000 -0.81160808 0.089977704 -0.00070825435 -0.0012085047 0.00076470803 -0.001030025 -0.81507093 0.083493464
629000000 -0.81109041 0.089300387 -0.00014609084 -0.0009242607 -0.0019304543 -0.0011711846 -0.81773627 0.083167136
630000000 -0.81165534 0.089605451 -0.00035616572 -0.0020522173 0.00029288657 -0.0014347319 -0.81651694 0.083932616
631000000 -0.81133699 0.08919248 -0.00011726984 -0.00092148257 0.00011350756 -0.0014836902 -0.81546605 0.083549239
632000000 -0.81222165 0.089020856 -0.001408556 -0.0014720119 0.00040006716 -0.00098626409 -0.81435835 0.083405152
633000000 -0.81194842 0.090010248 -0.00089431845 -0.0020330914 0.00016959103 -0.00093800743 -0.81636363 0.083561651
634000000 -0.81169575 0.091462679 -0.0010059285 -0.00030579424 0.00095236767 -0.00063425588 -0.81705582 0.08270067
635000000 -0.81173086 0.091679022 -0.00089224358 -0.0025059683 -0.00056460092 -0.0015199513 -0.81605017 0.082672223
636000000 -0.81082034 0.089607321 -0.00061601232 -0.0016991762 -0.00035227803 -0.0021057981 -0.81656528 0.083195567
637000000 -0.80979729 0.090061672 -0.00076983421 -0.0018195569 0.00015741591 -0.0018277501 -0.81462699 0.083930761
638000000 -0.81075484 0.088952191 9.6999887e-005 -0.00073686178 -0.00020772098 -0.0019998425 -0.81533533 0.083772533
639000000 -0.81285357 0.089725137 -0.00017025913 -0.0014804018 -0.0004041598 -0.001794011 -0.81560659 0.084340163
640000000 -0.80986756 0.091683641 -0.00029102861 -0.0012844133 -0.00060809666 -0.00074565405 -0.81516552 0.084799632
641000000 -0.81130499 0.090910323 -4.3238055e-005 -0.001774983 0.00033072801 -0.0010722323 -0.81538194 0.083814725
642000000 -0.81085014 0.091564238 -0.0004008128 -0.0012802825 3.8843416e-005 -0.0019585674 -0.81601214 0.084641345
643000000 -0.81075859 0.091935322 -0.00068724889 -0.002087394 0.00044206291 -0.0019963833 -0.81534326 0.084245704
644000000 -0.81107283 0.091654494 -0.00042180368 -0.00063858205 0.00056620134 -0.0015703483 -0.81785667 0.086323991
645000000 -0.81017709 0.091892689 0.00012670405 -0.0013124845 -0.00042205749 -0.0014823804 -0.816962 0.084326141
646000000 -0.8112092 0.091928676 -0.00038600326 -0.00030355371 0.00050440943 -0.0017819165 -0.81569564 0.084390469
647000000 -0.81055951 0.092396989 -0.00050231535 -0.0017072259 0.00012231823 -0.0016248837 -0.81483108 0.08346837
648000000 -0.81298172 0.092546605 0.00060828985 -0.0016008149 -0.00055567443 -0.0013312161 -0.81472266 0.084835686
649000000 -0.81171793 0.092894182 -0.0017924422 -0.0019864244 -0.00032090119 -0.00091408723 -0.8163349 0.08625301
650000000 -0.81005532 0.093180269 -0.00046285128 -0.0030883576 -0.0013514828 -0.001854519 -0.81632531 0.086445913
651000000 -0.81084943 0.092586391 -0.00037425308 -0.002067243 -5.9877566e-005 -0.0026327663 -0.81554228 0.086381003
652000000 -0.80964953 0.093206234 -0.00010242826 -0.0012474449 -0.0014915161 -0.0023223704 -0.81528372 0.085175775
653000000 -0.8113513 0.09348724 -0.00017733203 -0.0019968727 -0.00029120466 -0.0012522746 -0.81692082 0.085292071
654000000 -0.81115842 0.092426196 -0.00050111121 -0.0023685163 -0.00023775699 -0.0025051688 -0.81558895 0.086337015
655000000 -0.8110894 0.093194187 0.00037743061 -0.0010342952 0.00020679159 -0.0011627694 -0.81606954 0.086628117
656000000 -0.81030732 0.095001929 -0.00054997689 -0.0026990555 -0.00046562796 -0.0012770304 -0.81631631 0.086658992
657000000 -0.81189185 0.093623959 -0.00050303625 -0.0015002408 6.8087196e-005 -0.0025340919 -0.81681752 0.085983895
658000000 -0.81037056 0.093198441 -0.00037867684 -0.0013489567 0.0003284954 -0.0011830896 -0.81455392 0.085857928
659000000 -0.81052738 0.094544135 -0.00077904062 -0.0017354774 -0.00020750804 -0.0030669852 -0.81540143 0.086837493
660000000 -0.81011051 0.094992436 -0.00072373089 -0.0014926441 -0.00039667377 -0.0010878318 -0.8143872 0.085455388
661000000 -0.81057656 0.09539374 0.00014279981 -0.00090809329 -0.00093958934 -0.0023120914 -0.81529766 0.086436197
662000000 -0.81067938 0.094261631 8.9491987e-006 -0.0010511976 -0.0015644602 -0.002242906 -0.8161726 0.087233663
663000000 -0.81048828 0.0928891 -0.00076362013 -0.0019888112 -8.1959415e-006 -0.0016796897 -0.8148095 0.087166071
664000000 -0.80887187 0.093353771 0.00028934889 -0.00051196717 1.6077083e-005 -0.0008890169 -0.81616789 0.087966934
665000000 -0.81069696 0.094059959 -8.1126236e-005 -0.00098691788 -0.00093063014 -0.0021168068 -0.81509185 0.08860825
666000000 -0.81102717 0.093598731 -0.0006477469 -0.00068863097 -0.00048551639 -0.0019756225 -0.81594688 0.086942732
667000000 -0.80840766 0.092321113 0.00024752584 -0.0010965847 -4.9269267e-005 -0.00092682184 -0.81599844 0.086257949
668000000 -0.81097645 0.094501726 -0.00065098441 -0.0015535312 0.00060551584 -0.0012556094 -0.81617004 0.086730637
669000000 -0.8103202 0.094751738 1.8431811e-005 -0.0006859643 0.000367603 -0.0021373862 -0.81547123 0.086034924
670000000 -0.81021333 0.094572879 -0.00083593227 -0.0022564563 0.00014422687 -0.0015006978 -0.81503582 0.086401686
