!Keysight Technologies,M9374A,MY55442783,A.12.55.05
!Date: Wednesday, May 19, 2021 18:55:56
!Correction: S11(Full 2 Port(1,2)) 
!S21(Full 2 Port(1,2)) 
!S12(Full 2 Port(1,2)) 
!S22(Full 2 Port(1,2)) 
!S2P File: Measurements: S11, S21, S12, S22:
# Hz S  RI   R 50
500000000 -0.81090182 0.077943273 -5.8032707e-005 -0.00049313583 0.0002716314 -0.0013815835 -0.81530499 0.074313961
501000000 -0.81091869 0.080117881 -1.2518372e-005 -0.0019012927 -0.00034873612 -0.00092559151 -0.81687135 0.074712738
502000000 -0.81186593 0.08030615 -0.00072626822 -0.00083942374 0.00019660308 -0.00096004427 -0.81805104 0.075437434
503000000 -0.81030941 0.077445544 2.2043338e-005 -0.0012464222 -0.00014757407 -0.0012021047 -0.81565934 0.074216329
504000000 -0.80933493 0.079370335 -0.0010499591 -0.00022934124 -2.8773531e-005 -0.0010716846 -0.81743407 0.07435815
505000000 -0.80912185 0.081042826 -0.00069097319 -0.0013598036 -3.6031317e-005 -0.00065632595 -0.81688929 0.074066155
506000000 -0.81120056 0.079719447 -0.0010970415 -0.0023466223 -0.00032535481 -0.0025936449 -0.81593359 0.07548438
507000000 -0.81043708 0.080736734 0.00075356849 -0.0021171514 -0.00071480591 -0.0011647359 -0.81623757 0.076332696
508000000 -0.81015366 0.081333816 -7.3171512e-005 -0.0018912561 6.3517749e-005 -0.0016973914 -0.81716883 0.075680859
509000000 -0.81117111 0.081735775 -0.00083427189 4.238349e-005 0.0005051645 -0.0014629732 -0.81691772 0.076347791
510000000 -0.81102306 0.080550402 -3.1403313e-005 -0.0018310579 -0.00084074755 -0.00066314935 -0.81728971 0.076232575
511000000 -0.8101114 0.082393311 4.3096159e-005 -0.0019008985 4.8056532e-005 -0.00072510692 -0.81700832 0.076323479
512000000 -0.81182951 0.081488676 7.4896801e-005 -0.0010872685 0.00056275621 -0.0020406272 -0.81453526 0.076631539
513000000 -0.81062073 0.08109495 -0.0002581705 -0.0019361256 0.00010126609 -0.00094638707 -0.81804937 0.075693898
514000000 -0.81027728 0.080526903 -1.4216237e-005 -0.0019551201 -0.0012892105 -0.0013343947 -0.81686932 0.07692147
515000000 -0.8108151 0.080946892 0.00027062109 -0.0013643717 -0.00018448058 -0.00026471421 -0.81661069 0.07633692
516000000 -0.80941236 0.082800113 -0.00027267233 0.0003453104 -0.0013021454 -0.00044009346 -0.81476462 0.076643206
517000000 -0.81002504 0.082200736 -0.00039908721 -0.0018306667 -0.00075262575 -0.0008293782 -0.81729692 0.078183591
518000000 -0.80932343 0.08349584 0.0013440629 -0.0013076139 -0.00032440017 -0.00067074347 -0.81641519 0.076480679
519000000 -0.81025469 0.082337968 7.1616872e-005 -0.0013723888 -2.7100687e-005 -0.00071981765 -0.81561196 0.077554978
520000000 -0.80958849 0.080883719 0.00039405347 -0.00063669856 0.0002534533 -0.0013425587 -0.81629807 0.077019528
521000000 -0.8115105 0.08338356 -0.00039303506 -0.0016807581 -0.00041742992 -0.0007600711 -0.81776357 0.079535067
522000000 -0.81055808 0.083123036 -0.00098701706 -0.0018086504 -0.00046987322 -0.00071946124 -0.81615573 0.079627663
523000000 -0.81024581 0.082972772 0.00066262437 -0.0018478185 0.00019192744 -0.0016362701 -0.81627226 0.078838579
524000000 -0.81030416 0.084718592 0.00046382606 -0.0014848011 0.00037341507 -0.00080394605 -0.81689715 0.078864567
525000000 -0.81048298 0.084716581 -0.00020242161 -0.00078127638 -0.00040748843 -0.0015682287 -0.8152855 0.07944233
526000000 -0.81110364 0.082860157 8.924189e-005 -0.0013335103 0.00036831413 -0.00085427606 -0.8164804 0.078449957
527000000 -0.81193197 0.084971704 -0.00015153132 -0.0019614559 0.00016137448 -0.0010489483 -0.81770575 0.080248721
528000000 -0.80927014 0.08516477 0.0001381161 -0.0018880947 -0.00057085539 -0.0015579967 -0.81592828 0.079514116
529000000 -0.81090117 0.084224015 -0.00042897373 -0.0001716525 -0.00020179496 -0.00086475333 -0.81492972 0.078711569
530000000 -0.80905843 0.084447198 -0.00045956089 -0.00054071203 -0.00070434768 -0.00079711888 -0.8177855 0.078942992
531000000 -0.81022912 0.085076734 0.00029925557 -0.00057459308 2.6804726e-005 -0.0020205118 -0.81653094 0.080703698
532000000 -0.80956346 0.084771745 0.00025032024 -0.0017092256 -0.00078615849 -0.0019372773 -0.81622648 0.080442324
533000000 -0.81036234 0.085228816 -0.00033934519 -0.001460098 -0.00019295191 -0.00057862076 -0.81648678 0.079860434
534000000 -0.81058109 0.084639728 0.00078432058 -0.00062069518 -0.00047321556 -0.0013949783 -0.8165279 0.078281403
535000000 -0.81036133 0.08621981 -0.00052863185 -0.0020642043 -0.00082884671 -0.0017186938 -0.81584311 0.080624349
536000000 -0.81002629 0.084116109 7.1824856e-005 -0.0018618926 -0.0010722232 -0.0015091007 -0.81595689 0.081436418
537000000 -0.8103345 0.085335232 0.00060554122 -0.001124666 -0.00019093885 -0.00047927097 -0.81536049 0.080636889
538000000 -0.81039727 0.085206382 -0.00070412963 -0.0017557289 -0.00055505038 -0.0012657815 -0.81509441 0.078815714
539000000 -0.80962151 0.086224705 -0.00070619531 -0.0011709594 -0.00045766259 -0.0014838103 -0.81578863 0.081893981
540000000 -0.81147695 0.08616022 -4.6219953e-005 -0.0015149824 0.00019852287 -0.0017145413 -0.81544787 0.081610955
541000000 -0.80960023 0.086789645 -0.00019226519 -0.0021944249 -0.00058672996 -0.0011646195 -0.81634372 0.082289115
542000000 -0.81096637 0.086783536 0.0004098739 -0.0012270883 -0.0010020568 -0.0012640134 -0.81628931 0.081578657
543000000 -0.8088851 0.08571443 -0.00063034706 -0.0023154458 -0.00043749833 -0.0007645865 -0.81526273 0.082726486
544000000 -0.80914879 0.086917661 -0.001011229 -0.0012719467 -0.0012108176 -0.0014740813 -0.81629747 0.082242459
545000000 -0.81059092 0.086139806 0.00037617603 -0.0015380458 -0.00075432216 -0.00034297819 -0.81536323 0.081258819
546000000 -0.80981487 0.088075861 0.00010254947 -0.0014539562 -0.00086839491 -0.001560255 -0.81678861 0.083281785
547000000 -0.81073457 0.086418264 -0.00021533846 -0.0015219941 -0.00088850193 -0.00079775992 -0.8164745 0.081617884
548000000 -0.80925888 0.087829828 -0.00011421084 -0.002705337 -0.00085330877 -0.00058532343 -0.81784022 0.082494833
549000000 -0.80947828 0.085538961 -0.00044618952 -0.0010686179 0.00025586135 -0.0019768605 -0.81637925 0.08314456
550000000 -0.80954695 0.087872602 1.2719493e-005 -0.00069319829 -2.3338878e-005 -0.0010541694 -0.81663561 0.083689176
551000000 -0.81064242 0.086007141 0.00028069303 -0.0014597775 4.8123898e-006 -0.0022064059 -0.81523103 0.083303288
552000000 -0.80947071 0.088339247 4.3170268e-005 -0.0022829168 -0.00091149641 -0.0020473995 -0.81589407 0.083318867
553000000 -0.80921966 0.087009788 -0.00058075233 -0.0021680025 -0.00031881279 -0.0019835159 -0.81698447 0.081313021
554000000 -0.81180036 0.087625623 4.8921564e-005 -0.0021194618 -0.00024497556 -0.00060354889 -0.81608802 0.083393916
555000000 -0.80787331 0.086894765 -0.00023109005 -0.0017308915 0.00010823832 -0.0017282815 -0.81545556 0.082428925
556000000 -0.80927098 0.086696111 9.188291e-005 -0.0011911227 -0.001388853 -0.0013541678 -0.81690741 0.08368393
557000000 -0.80972338 0.087961406 -0.00039536762 -0.0011991489 0.00080734148 -0.0010070336 -0.81570101 0.083339386
558000000 -0.80912036 0.088975854 -0.00044067233 -0.0011679697 -0.00011184091 -0.002114655 -0.81676912 0.081910737
559000000 -0.80875486 0.087709278 -0.0011340388 -0.00095297641 0.00024712755 -0.0018643538 -0.81621623 0.083421752
560000000 -0.80960727 0.08822225 -0.0013982485 -0.0017028913 -0.00040374842 -0.00049973855 -0.81449795 0.084111989
561000000 -0.81123418 0.086975396 0.00061229151 -0.0015879323 -0.00045270377 -0.00076558109 -0.81732315 0.083870441
562000000 -0.8090542 0.08857321 -0.00042224783 -0.002035971 0.00057429879 -0.0019456372 -0.81596398 0.084930897
563000000 -0.81025076 0.087235004 -0.000177567 -0.0025338295 0.00011886198 -0.00083719974 -0.81606138 0.086245306
564000000 -0.81026417 0.087630227 -0.00091621652 -0.0012560064 -0.0010910016 -0.0010230687 -0.81677479 0.083824582
565000000 -0.80903023 0.088274136 -0.0002056949 -0.00092421623 -0.00039954673 -0.0015772412 -0.81594259 0.083647028
566000000 -0.80996019 0.085830927 0.00037107119 -0.0013451879 -0.00093133701 -0.0015191989 -0.81611603 0.083749816
567000000 -0.80700457 0.08756119 -0.00045854435 -0.00092889118 -0.00022486261 -0.0019065087 -0.81535172 0.085140854
568000000 -0.80826652 0.089180902 -0.00065611041 -0.0010501932 5.8355254e-005 -0.0013447923 -0.81613302 0.084638737
569000000 -0.81030291 0.08971519 -0.0015110844 -0.0016068103 -0.0002394004 -0.0021550655 -0.81678641 0.083027333
570000000 -0.80864698 0.088061862 -0.0012308746 -0.0018249464 0.0002878654 -0.0019638119 -0.814264 0.085585058
571000000 -0.80965441 0.088874213 0.00053660409 -0.00083983468 2.8611814e-005 -0.00033535765 -0.81596291 0.085728325
572000000 -0.80852401 0.089904867 -2.667491e-005 -0.0010146773 0.00048121507 -0.0016602137 -0.8149597 0.085206144
573000000 -0.80875885 0.089343011 0.00025406966 -0.0017501492 0.00033196394 -0.0004630333 -0.81617045 0.085882157
574000000 -0.80796051 0.089503706 0.00059172657 -0.0010819598 -1.8229927e-006 -0.00087949645 -0.81602693 0.08600498
575000000 -0.80904675 0.090025797 -0.00089101703 -2.9830961e-005 0.00023752301 -0.0020203388 -0.81554353 0.086102016
576000000 -0.80918992 0.090682298 -0.00039984571 -0.0010977502 -3.0245923e-005 -0.0022263699 -0.81657028 0.08647912
577000000 -0.80749023 0.091624588 3.6550031e-005 -0.0019836654 -0.00011144469 -0.0015885757 -0.81607485 0.086668327
578000000 -0.80592096 0.090122685 -0.00043996039 -0.00063459919 -0.0013041167 -0.0014990087 -0.81556302 0.086466968
579000000 -0.80751622 0.090495244 -0.00081585301 -0.0018720278 -0.00010074269 -0.00082777458 -0.8152284 0.087477498
580000000 -0.80941403 0.090838522 -0.00017734681 -0.0012784774 -0.00095903489 -0.0018636291 -0.81593204 0.086963661
581000000 -0.80793542 0.090948597 0.00041241129 -0.001358245 -0.0011720762 -0.0019185334 -0.81550366 0.08600384
582000000 -0.8081131 0.090747364 0.00089953578 -0.0012219014 -0.00054830418 -0.0019602925 -0.81436765 0.086437531
583000000 -0.8084771 0.091781214 0.00031740972 -0.0015670317 -0.00042912853 -0.00097588782 -0.81484318 0.086005695
584000000 -0.80861986 0.091037326 -0.00058551144 -0.001144097 -0.0007805996 -0.0012821369 -0.81496495 0.087268583
585000000 -0.80884349 0.090472005 -0.00025320982 -0.00075017713 -0.00062297366 -0.002029852 -0.81606787 0.086063027
586000000 -0.80878234 0.090573043 -0.00085064641 -0.0013592265 -0.0013001981 -0.0018956054 -0.81486553 0.087517619
587000000 -0.80841172 0.091215692 -0.0011271263 -0.0012805717 -0.00054161786 -0.0019598848 -0.81509179 0.087886997
588000000 -0.80723 0.091234095 -0.00020913004 -0.0027557435 -9.6235082e-005 -0.00018274457 -0.81694525 0.089087084
589000000 -0.80880135 0.091094308 0.00022359048 -0.001117076 -8.1539911e-005 -0.002114431 -0.81559432 0.088205963
590000000 -0.80760109 0.091998681 0.00051091856 -0.0016990937 -0.00065602834 -0.0021231016 -0.81510413 0.086383268
591000000 -0.80871016 0.09194047 0.00040352403 -0.00023162307 0.00098541565 -0.0015822263 -0.81537002 0.088904403
592000000 -0.80972481 0.092286646 6.7145011e-005 -0.0015408191 -0.00029518784 -0.0028716114 -0.81548542 0.087196387
593000000 -0.80815578 0.09151002 -9.7195671e-006 -0.0024262837 -0.0010429652 -0.00088122365 -0.81546402 0.086335011
594000000 -0.81005907 0.093648531 0.00026773181 -0.0010275178 -9.2753089e-006 -0.0015534111 -0.81280398 0.088145129
595000000 -0.80805898 0.092526227 -0.00065628899 -0.0010503953 0.00049009197 -0.0015813193 -0.81502676 0.089064993
596000000 -0.80853301 0.091482051 -0.00036550083 -0.0010759745 0.0011269725 -0.0014115375 -0.81425136 0.089370124
597000000 -0.80857819 0.092689618 -0.00019929845 -0.0015779405 -0.00050241279 -0.00045025261 -0.81458902 0.089403205
598000000 -0.80851102 0.094302982 -0.00027131167 -0.00090701215 0.0001223537 -0.00054649799 -0.81647772 0.087968141
599000000 -0.8086468 0.091868214 0.00039849358 -0.001562853 -0.00064982846 -0.0018512479 -0.81562918 0.087946638
600000000 -0.80916387 0.094259083 -0.00053377188 -0.0018160791 -0.00058478466 -0.0010766319 -0.81445056 0.089773588
601000000 -0.80780727 0.09341839 -8.1220154e-005 -0.0012192624 0.00087292312 -0.0016659945 -0.81560469 0.087991655
602000000 -0.80856413 0.094793364 -0.00026124861 -0.0011146939 -0.00039045603 -0.0012979019 -0.8146047 0.088977642
603000000 -0.80830681 0.094392128 -0.00114253 -0.0016471687 -7.78494e-005 -0.001710609 -0.81584227 0.088927068
604000000 -0.80819005 0.093913428 -0.00089739682 -0.00038355816 0.00020244335 -0.000979651 -0.81538409 0.090439513
605000000 -0.80814922 0.095642269 -0.00022233653 -0.0012782698 -0.00075806741 -0.0029012915 -0.81642282 0.091935076
606000000 -0.80767387 0.09624584 -0.00027493929 -0.0018258875 -0.0010286879 -0.0015592719 -0.81360567 0.087736607
607000000 -0.80838513 0.095679417 -0.00039079247 -0.00081897614 0.00038336564 -0.0019312437 -0.81422848 0.089127563
608000000 -0.80846626 0.095476955 2.8725264e-005 -0.0019747533 -0.00036502024 -0.0013781348 -0.81349123 0.089776583
609000000 -0.80949062 0.096734181 0.00073385803 -0.00055007037 -0.00064957258 -0.0018128672 -0.81447953 0.089181133
610000000 -0.8055681 0.095143266 0.00039730518 -0.0013031377 -1.1678167e-005 -0.00085036102 -0.81439674 0.090083063
611000000 -0.80779701 0.096826926 -0.00058418623 -0.00083762762 -0.0013795232 -0.0023430563 -0.8127864 0.090004578
612000000 -0.80694246 0.095366903 -0.00018058262 -0.00098411564 -0.00047021988 -0.0011682131 -0.81609857 0.089889549
613000000 -0.80874741 0.095705554 0.00071865111 -0.0023147801 -0.0010613368 -0.0017115804 -0.81376064 0.091684557
614000000 -0.80870336 0.096434459 -0.00014350463 -0.002165393 -6.9681082e-005 -0.0011385012 -0.81570333 0.090997152
615000000 -0.80787677 0.096808352 -0.00031018333 -0.002492795 -0.00045330831 -0.0015933932 -0.81611329 0.091383554
616000000 -0.80897588 0.098264724 0.00030604386 -0.0017350095 9.9627003e-005 -0.00090508407 -0.8152743 0.091920443
617000000 -0.80804956 0.097159892 -0.00033367256 -0.0020150503 -9.5318559e-005 -0.0013393583 -0.81450838 0.091955014
618000000 -0.80931616 0.097466767 -0.00077579252 -0.0019522356 -0.00044662019 -0.0012819915 -0.81511909 0.090231359
619000000 -0.8076337 0.098538511 -0.00033650055 -0.0017959223 -0.00046102883 -0.0013961131 -0.81475604 0.092768028
620000000 -0.80845636 0.098597601 -0.00053798634 -0.0016200937 -0.00028242668 -0.00068383187 -0.8141979 0.092032917
621000000 -0.80845273 0.098202914 -0.0015921156 -0.0020161206 -0.0015995892 -0.00028676947 -0.8141638 0.091803253
622000000 -0.80721456 0.097728744 -9.1877293e-005 -0.0024021389 -0.00024872951 -0.0010795916 -0.81644678 0.093942061
623000000 -0.80591172 0.097228572 0.0007084164 -0.0020235514 -0.00022412406 -0.001741961 -0.81381202 0.091864757
624000000 -0.80854839 0.0974489 -0.00015659809 -0.0020499751 -0.00096852361 -0.0016021575 -0.81339389 0.093587033
625000000 -0.80690521 0.09931349 0.00029094634 -0.0018952216 1.9404037e-005 -0.0011339016 -0.81469953 0.090791032
626000000 -0.80897456 0.10011236 -0.00042822625 -0.0018987081 2.3143499e-005 -0.0019375591 -0.81450123 0.09367615
627000000 -0.80743778 0.10080435 -0.0001563098 -0.0013642403 -0.00035778491 -0.0023653316 -0.81312686 0.092360571
628000000 -0.80864465 0.098973304 -0.00052373752 -0.0022800821 -0.00029088528 -0.0013698416 -0.81485707 0.094207555
629000000 -0.8087219 0.10047951 0.00027190411 -0.00083377177 -0.0006097008 -0.0019086507 -0.81454873 0.094395041
630000000 -0.80731541 0.09998554 0.00058991194 -0.001732792 -0.00043334597 -0.0028499546 -0.81460136 0.092518076
631000000 -0.80759978 0.10041272 -0.00074608438 -0.00056298327 0.00029597609 -0.001162687 -0.81443745 0.09508609
632000000 -0.80619538 0.10057429 -0.00038232584 -0.0022315222 -9.737326e-005 -0.00077743083 -0.81535733 0.094102748
633000000 -0.806647 0.10077492 -0.00013879135 -0.00066656532 -3.2568234e-005 -0.0017179346 -0.81512183 0.095406786
634000000 -0.80763435 0.10232393 0.00098547514 -0.0019400376 -0.0011681918 -0.0022018908 -0.81456435 0.094125867
635000000 -0.80801648 0.10132781 -0.00085635023 -0.0017192161 6.746759e-005 -0.0011177347 -0.81403863 0.094786197
636000000 -0.80640024 0.10270877 -0.0007636479 -0.00061288755 -0.00016520175 -0.0015778576 -0.81484056 0.094779506
637000000 -0.8073982 0.10013291 -0.00074087747 -0.0026444914 -0.00065145193 -0.0016382568 -0.81419331 0.094412908
638000000 -0.80691046 0.10100157 -0.00079826469 -0.001887838 0.00012899298 -0.0017140998 -0.81317914 0.094250843
639000000 -0.80700618 0.10199896 -0.00097384927 -0.0025787165 0.00072496262 -0.001268136 -0.81436384 0.094722845
640000000 -0.80688375 0.10405049 -0.00049169769 -0.0014099006 -0.00036020359 -0.0015567052 -0.81432235 0.096813023
641000000 -0.80714774 0.10223538 -0.00074774597 -0.0019187992 -0.00045755962 -0.0015174911 -0.81494951 0.09507817
642000000 -0.80604351 0.10244472 0.00024343742 -0.0016940052 -0.0006440854 -0.0022954261 -0.81443095 0.095094062
643000000 -0.80786246 0.10276476 -0.001592247 -0.0011710359 -0.00016321961 -0.0012688895 -0.81376994 0.095385887
644000000 -0.80776763 0.10335624 0.0003634172 -0.0026417144 0.00037042191 -0.0023486556 -0.81517899 0.096078716
645000000 -0.80700141 0.10302421 -0.00050897081 -0.0021306784 -0.00079882739 -0.0020210275 -0.81381738 0.096882403
646000000 -0.807473 0.10252054 -0.00012832164 -0.0014940755 -0.00090151228 -0.0015583254 -0.81429935 0.097207546
647000000 -0.80797815 0.10420807 -0.00026513592 -0.00088587741 -0.00018972604 -0.00149523 -0.81435728 0.096347764
648000000 -0.80661166 0.10240366 -0.0010486508 -0.002121455 -0.00041388796 -0.0018550175 -0.81376737 0.096257776
649000000 -0.80682361 0.10322719 -3.5865454e-005 -0.0017211385 0.00067546789 -0.0018159249 -0.81431365 0.097904474
650000000 -0.80646569 0.10426725 -0.00019940168 -0.0019410612 0.00064043573 -0.00070638763 -0.81280822 0.097380258
651000000 -0.80731434 0.1028955 -0.00099804334 -0.001515136 -0.00052713492 -0.00099398487 -0.81360561 0.097199336
652000000 -0.80707997 0.10389794 7.207795e-005 -0.0010047649 -0.0010766721 -0.00174814 -0.81315511 0.096826062
653000000 -0.80566883 0.10403035 0.00016831848 -0.0013194832 -0.00041546233 -0.0014668787 -0.81423569 0.09770868
654000000 -0.80648828 0.10523383 -0.00058314711 -0.0020279211 -0.00089570641 -0.002926898 -0.81372058 0.095944509
655000000 -0.80627352 0.10469216 0.00048512084 -0.0014465699 -0.00027151676 -0.0017855077 -0.81504184 0.097899668
656000000 -0.80676353 0.1031068 0.00041913002 -0.0019545855 -0.00071951025 -0.0018344583 -0.81347996 0.097896703
657000000 -0.80668473 0.10592175 5.9127873e-005 -0.00034059561 0.00053065998 -0.00015560506 -0.81305528 0.097146891
658000000 -0.80672622 0.10506204 0.00016036491 1.1112219e-005 -0.00044051683 -0.0016252575 -0.81323707 0.098624378
659000000 -0.80752432 0.10397868 -0.00063982839 -0.0010014194 -0.00050888711 -0.0019095715 -0.813146 0.098415338
660000000 -0.80596042 0.10526788 0.000122814 -0.0017566412 0.00013306353 -0.0019315911 -0.81295097 0.097589791
661000000 -0.80796188 0.10518678 0.0001762194 -0.0015772356 -0.0010599813 -0.0011224886 -0.81479043 0.099985287
662000000 -0.80761194 0.10495212 -0.00033734782 -0.0020285666 -0.00051481405 -0.00092949835 -0.81477678 0.098130815
663000000 -0.80675507 0.10668777 2.886298e-005 -0.0012007504 -0.00016332236 -0.00097601954 -0.81409103 0.098787032
664000000 -0.80721223 0.10541775 -0.00018532478 -0.0022439533 -0.00038862959 -0.0011154395 -0.81314266 0.098874219
665000000 -0.80562425 0.10544395 -0.00017340045 -0.00055440696 -8.6674096e-005 -0.0020661156 -0.8145175 0.097859129
666000000 -0.80780071 0.10465662 -0.00027097488 -0.0012048188 -0.00054387446 -0.0015473317 -0.81320322 0.099035144
667000000 -0.8072716 0.10663219 0.0010513361 -0.0020239006 -0.00054004532 -0.0010484364 -0.81313443 0.098944008
668000000 -0.80810571 0.1058694 -0.00010280576 -0.002595573 -0.00078088639 -0.0025186341 -0.81496125 0.099128298
669000000 -0.80674034 0.10516618 -0.00052822556 -0.0020008546 -0.0010516357 -0.0015266694 -0.81301481 0.099171177
670000000 -0.80671394 0.10529586 -0.00010221251 -0.0015079932 -0.0014317532 -0.0020050763 -0.81241316 0.10098823
