!Keysight Technologies,M9374A,MY55442783,A.12.55.05
!Date: Wednesday, May 19, 2021 18:59:08
!Correction: S11(Full 2 Port(1,2)) 
!S21(Full 2 Port(1,2)) 
!S12(Full 2 Port(1,2)) 
!S22(Full 2 Port(1,2)) 
!S2P File: Measurements: S11, S21, S12, S22:
# Hz S  RI   R 50
500000000 -0.80922282 0.076797582 0.00060432911 -0.0011560605 -0.00098895351 -0.0019365747 -0.8166312 0.072425105
501000000 -0.81128871 0.077403434 -0.000250588 -0.0011294752 0.0010517563 -0.00088494754 -0.81793487 0.070690595
502000000 -0.80953038 0.076365754 -0.00041981746 -0.0018223861 0.00043719646 -0.001527114 -0.81631732 0.070731178
503000000 -0.81125468 0.077504694 0.00043196339 -0.0012140512 -0.00050096266 -0.0011034559 -0.81755036 0.072655797
504000000 -0.81100309 0.077288724 0.00010766353 -0.00075422571 -2.4313182e-005 3.5275938e-005 -0.81784064 0.072856404
505000000 -0.81141579 0.07755515 0.00011773759 -0.0011153239 -0.00073193415 -0.0014317093 -0.81645316 0.072618678
506000000 -0.81106043 0.077592 -0.00054461503 -1.3017273e-005 0.00031788091 -0.001187829 -0.81731546 0.072817206
507000000 -0.81014657 0.078180201 0.00076892402 -0.0011595256 0.00056406035 -0.00083582976 -0.81601161 0.073131658
508000000 -0.81149727 0.079155557 -6.3467756e-005 -0.00064705621 8.9398935e-005 -0.0021605215 -0.81785893 0.074145682
509000000 -0.81268328 0.078269705 -0.00038334265 -0.0012228225 0.00067656761 -0.0021223056 -0.81800985 0.073629819
510000000 -0.80990463 0.078685626 -0.00016562395 -0.0023923931 -0.00037274617 -0.0013686231 -0.81778175 0.074336514
511000000 -0.81125903 0.079394929 0.00061298412 0.00030443614 0.00013677064 6.9129572e-005 -0.81623507 0.074100614
512000000 -0.80854523 0.077590823 0.00027224986 -0.0019542114 -0.0010665734 -0.00074128341 -0.81566995 0.073246695
513000000 -0.81115818 0.079148166 -0.00010840033 -0.0014821691 0.00022811208 -0.00041391724 -0.81733131 0.073152609
514000000 -0.81189048 0.079669736 -0.0012077929 -0.0019640843 -0.00022667277 -0.00033672235 -0.81661469 0.074207678
515000000 -0.8102895 0.078838319 -0.0003118134 -0.0015843587 -0.0001808587 -0.0019660967 -0.81790501 0.075269654
516000000 -0.81075352 0.079272479 -0.0010890799 -0.0014755949 -0.00061339751 -0.00098050176 -0.8177188 0.075058982
517000000 -0.81020135 0.079040192 0.00083344762 -0.0011276518 -0.00044186765 -0.0019580019 -0.8170439 0.075411193
518000000 -0.80989772 0.080619887 -0.00030888789 -0.0014140541 -0.0004154265 -0.0024358416 -0.8177433 0.074574322
519000000 -0.80947208 0.079669721 0.00070498808 -0.0019613423 0.00014791952 -0.0004122117 -0.81618869 0.075572312
520000000 -0.81087828 0.080023341 -0.00080370333 -0.0010367541 -0.00035635894 -0.00069652952 -0.81562084 0.073782124
521000000 -0.81264943 0.081600197 -0.00092060043 0.00022877657 -0.001431409 -0.001336155 -0.81573987 0.07554099
522000000 -0.8105765 0.080971248 -0.00044709651 -0.0013223096 0.00048668997 -0.0011022737 -0.81638163 0.076400846
523000000 -0.80980331 0.080301777 0.00078502065 -0.0012085211 -2.7998265e-005 -0.001887571 -0.81529784 0.074621342
524000000 -0.80907464 0.080035388 -0.00020589925 -0.00090891891 0.00043431096 -0.0019364879 -0.81677401 0.076770641
525000000 -0.81099999 0.080510728 0.00057743187 -0.0011286987 -0.00062872819 -0.0029147079 -0.81702709 0.075780146
526000000 -0.81030542 0.082202569 -0.0013031658 -0.0012098444 -3.8162838e-005 -0.00025339096 -0.8165729 0.077445976
527000000 -0.81102175 0.081791662 -0.0010466534 -0.00062499981 -0.0014898902 -0.0014156105 -0.81744456 0.075488776
528000000 -0.80859286 0.080113344 0.00094806653 -0.0018759671 -0.0004803866 -0.00065291999 -0.81596524 0.077084646
529000000 -0.80974579 0.082248233 -3.8362661e-005 -0.00090092944 -0.00077464688 -0.0013650102 -0.81667286 0.075087242
530000000 -0.81081605 0.081138484 -0.0010752035 -0.0027472903 0.00016659884 -0.001449572 -0.81674695 0.077054232
531000000 -0.81087607 0.08170642 -0.0002398557 -0.0012499278 0.00091042515 -0.0010845809 -0.81675148 0.077457882
532000000 -0.81066388 0.083249338 -0.00090185704 -0.00042291445 -0.00061540434 -0.0023026485 -0.81601697 0.077010348
533000000 -0.80944294 0.081725158 -0.00068790396 -0.0013730101 -3.1652657e-005 -0.00082142063 -0.81716114 0.078360841
534000000 -0.8104291 0.081955515 0.00041624196 -0.002078119 -0.00036231361 -0.0011149136 -0.81622732 0.07776203
535000000 -0.81063199 0.081810385 0.00018064963 -0.0004315913 -0.00065067707 -0.0011053272 -0.81458294 0.077975355
536000000 -0.81012136 0.08327914 0.00038661147 -0.0021647338 0.00029047485 -0.0012322759 -0.81558317 0.078005314
537000000 -0.8101269 0.080588236 0.00037636791 -0.0018441012 0.00023167854 -0.00066453498 -0.81756246 0.080515891
538000000 -0.80990088 0.082833461 0.00032193953 -0.00088940316 -0.00092018564 -0.0015778731 -0.81726837 0.076991081
539000000 -0.81166542 0.081959479 -0.00078227842 -0.0020205509 -0.00046827944 -0.0015473771 -0.81807762 0.078161694
540000000 -0.8096562 0.083768867 0.00012642947 -0.0019892282 0.00016055189 -0.0014410386 -0.81730378 0.078158505
541000000 -0.80985463 0.084467798 -0.00090715452 -0.0013600923 -0.0002741316 -0.0012150768 -0.81536406 0.078081019
542000000 -0.81079251 0.083787419 2.7497023e-005 -0.00055540365 -0.0015745064 -0.0015565791 -0.81785858 0.078880601
543000000 -0.81074554 0.082888789 0.0005283397 -0.001239539 0.00045478722 -0.0010514603 -0.81652284 0.078487135
544000000 -0.80933177 0.083561867 -0.00022331714 -0.0015187202 -0.00045331568 -0.00084713998 -0.81737912 0.079035334
545000000 -0.81045896 0.083664432 0.00070038514 -0.0020624304 -0.00046875523 -0.0013041805 -0.81499332 0.079549141
546000000 -0.81069535 0.082077369 -0.00021672697 -0.0013840215 0.00032611503 -0.00058202533 -0.81748861 0.079117209
547000000 -0.8095386 0.083492234 -2.006537e-005 -0.0013612462 -0.00068642193 -0.0019624115 -0.81669849 0.080456585
548000000 -0.80856228 0.083724454 -0.0012571334 -0.0014802127 -0.00020322669 -0.0014772587 -0.81529599 0.078631684
549000000 -0.8096773 0.082743861 -0.00047891657 -0.001034475 0.00092597841 -0.0013954524 -0.81741458 0.079619043
550000000 -0.80808967 0.083345324 -0.00066465896 -0.0026791007 -0.00067924982 -0.0014992825 -0.81684077 0.080820829
551000000 -0.81165344 0.083688006 -0.00085738057 -0.0012469505 -0.00056445843 -0.0016511345 -0.81567967 0.080097884
552000000 -0.81013983 0.083854742 -0.00022574255 -0.0012886632 -3.6090503e-005 -0.0018953129 -0.81543303 0.080688886
553000000 -0.80983263 0.083752513 -0.001001184 -0.0013953684 -0.0011165076 -0.0023528752 -0.81681466 0.080195904
554000000 -0.81010687 0.084036671 -0.00014283846 -0.0011333378 -0.00039108063 -0.001584002 -0.81701052 0.079052821
555000000 -0.81000221 0.083456598 -0.00092971773 -0.0017980379 -8.1740247e-005 -0.00033271566 -0.81697637 0.081230797
556000000 -0.80841529 0.083086655 0.00035487083 -0.0015116649 9.4487506e-005 -0.0019690988 -0.81738997 0.080197379
557000000 -0.80990881 0.084437326 0.00017702085 -0.0010963894 0.00036773289 -0.0017112683 -0.81626952 0.080533996
558000000 -0.80980837 0.08466775 -0.001043977 -0.0013389408 -0.00060377328 -0.0010933732 -0.81707251 0.080934361
559000000 -0.8089717 0.085379004 0.0005288031 -0.001258768 -0.001030655 -0.0017688031 -0.81656832 0.080327563
560000000 -0.80876333 0.084279776 -6.5295339e-005 -0.00078001508 0.0002455099 -0.0017322593 -0.81722784 0.080308557
561000000 -0.81052506 0.084732682 -0.00041685507 -0.0011133915 0.00025918838 -0.001511412 -0.81596273 0.081219159
562000000 -0.80957156 0.085135743 -0.0010595584 -0.0018213686 -0.00086154632 -0.0021657054 -0.816836 0.079542704
563000000 -0.8103832 0.085123956 -0.00099827838 -0.0012559736 0.00046968274 -0.0016626646 -0.81577885 0.082036808
564000000 -0.81013566 0.085720278 -0.00068230677 -0.0024675478 -0.0007128031 -0.00093304884 -0.81700146 0.082765386
565000000 -0.80941719 0.085976966 0.00016787676 -0.0013173182 -0.00065536523 -0.0016266457 -0.81693578 0.082340874
566000000 -0.80894053 0.085708648 -0.00059099385 -0.0013714024 -0.00054039079 -0.00084854563 -0.81531608 0.082116894
567000000 -0.80894929 0.085886061 -0.00017811083 -0.0010901638 0.00071434508 -0.0010810338 -0.81596416 0.079936452
568000000 -0.80929363 0.087041423 -0.00039647234 -0.0013153536 -0.00036120036 -0.0014287272 -0.81670338 0.081946023
569000000 -0.81091517 0.086126387 -0.00071255019 -0.0020897975 -4.7685509e-005 -0.0014826831 -0.81471461 0.080417529
570000000 -0.8107599 0.084228799 0.00028318979 -0.0010669561 -0.00050117559 -0.0019534684 -0.81629002 0.082800075
571000000 -0.81034142 0.086804897 -0.00032314172 -0.00095752609 -0.00011059175 -0.0015363153 -0.81799477 0.08237768
572000000 -0.80960405 0.086174808 -0.00080327049 -0.00049628434 -0.0015890732 -0.002125364 -0.81624854 0.081364699
573000000 -0.8085556 0.086517066 -0.0011050795 -0.0016575071 -0.00029936744 -0.001117327 -0.81667548 0.08352422
574000000 -0.80830044 0.086038522 -0.00027895498 -0.0011183416 0.00047087 -0.0017220428 -0.81693369 0.082123578
575000000 -0.80990922 0.08624886 -0.00037678992 -0.00089030043 -0.00036693149 -0.00096649356 -0.81670403 0.082409158
576000000 -0.80795968 0.086495288 -0.00041730973 -0.0024628318 -0.00019424886 -0.0016910004 -0.81477052 0.083686978
577000000 -0.80882537 0.08617276 -0.00087383686 -0.0019232552 0.00028431966 -0.0011698049 -0.81922716 0.082255326
578000000 -0.80857545 0.088195205 -0.00053781533 -0.0021866385 -0.00011260654 -0.001367374 -0.8160578 0.081672072
579000000 -0.80813098 0.086838052 -0.00066216127 -0.0015279476 0.00061233545 -0.00079577911 -0.81459945 0.082925126
580000000 -0.80869472 0.086325757 -0.0014957954 -0.0022989218 0.00019235909 -0.0021758098 -0.81551832 0.083949104
581000000 -0.8089475 0.086283728 -0.00025280524 -0.0015294899 -0.0015501779 -0.0024433555 -0.8165679 0.082835928
582000000 -0.80773288 0.088323236 -0.00019825113 -0.0010298707 0.00092469557 -0.0020659145 -0.81495601 0.084058203
583000000 -0.80802 0.087482564 -0.0012464423 -0.0019857935 0.0003931511 -0.0016593261 -0.81643146 0.082099237
584000000 -0.80726117 0.087526344 0.00040631561 -0.001258049 -0.00060272543 0.00012515104 -0.81653351 0.082815602
585000000 -0.80884457 0.088335127 0.00058474042 -0.0012407602 -0.00023796856 -0.0024218312 -0.81616026 0.084478915
586000000 -0.8083744 0.089061052 0.00053337071 -0.00099949026 -0.0013460215 -0.001987169 -0.81558847 0.081790663
587000000 -0.80914325 0.088847905 -0.00062653172 -0.0016515024 0.00070118264 -0.00087932026 -0.81701279 0.083885483
588000000 -0.809129 0.086801983 -0.00099506893 -0.0014480805 -0.00043780557 -0.00019045075 -0.81569511 0.084221199
589000000 -0.80833036 0.087648399 -0.00058196363 -0.0029277697 -0.0011612714 -0.0016258809 -0.8164404 0.083277903
590000000 -0.80835748 0.088263549 -0.00053989893 -0.0021661797 -0.00032747211 -0.00080803648 -0.8153528 0.082723528
591000000 -0.8080321 0.089555927 -0.0010573803 -0.0019215327 -0.00058830605 -0.00044919478 -0.81579596 0.08459872
592000000 -0.80870098 0.088726781 -0.00042566369 -0.00085690897 0.00062513334 -0.0014557159 -0.81520289 0.08564695
593000000 -0.80834621 0.088346832 -7.6500428e-006 -0.00092163432 -0.00089024601 -0.0025765907 -0.81627947 0.082640558
594000000 -0.80839074 0.088932268 -0.00037749246 -0.001342338 0.0007012962 -0.0019588028 -0.81774956 0.08575692
595000000 -0.80801749 0.088320322 -0.0017063876 -0.0022898407 -0.0011518486 -0.0012173121 -0.81653386 0.085627787
596000000 -0.80984294 0.089569025 -0.0006867937 -0.0019787736 0.00026401665 -0.0015187945 -0.81501913 0.085000552
597000000 -0.80995721 0.089857653 0.00034279987 -0.0017745999 1.8626683e-005 -0.0022112331 -0.81449229 0.083556384
598000000 -0.80938685 0.089812696 -0.00017709966 -0.0017751941 -2.5960808e-005 -0.0020591554 -0.81614131 0.086419344
599000000 -0.80810511 0.08985237 0.00091479276 -0.00093005586 7.9684669e-006 -0.0013587121 -0.81709969 0.085305914
600000000 -0.80890715 0.089133523 0.00043016198 -0.0012539101 -0.00083253236 -0.0023234838 -0.8154248 0.086892314
601000000 -0.80959076 0.090553224 0.00044762448 -0.0015619702 -0.0010045539 -0.0014864148 -0.81583726 0.086465746
602000000 -0.80728018 0.089869231 -8.0335754e-005 -0.0012789359 -1.9888244e-005 -0.0014311918 -0.81576943 0.086320065
603000000 -0.8099227 0.09040305 3.5730733e-005 -0.0017111117 -0.0010953348 -0.0025291049 -0.81731451 0.087058783
604000000 -0.80871207 0.090790972 0.00048908498 -0.0014387297 -0.00026305392 -0.0011249842 -0.81541657 0.085844681
605000000 -0.80865955 0.091352411 0.00022267991 -0.00020737833 -0.00040448294 -0.0019350498 -0.81441665 0.087336957
606000000 -0.80822527 0.092407033 -0.00055764604 -0.0022304039 0.00076391932 -0.001342128 -0.81392097 0.086555764
607000000 -0.80802566 0.092140459 -0.001275128 -0.0011512229 0.00024301042 -0.0018470252 -0.81623745 0.086283855
608000000 -0.80850589 0.092950553 -0.0011537544 -0.0020826331 -0.00048069397 -0.0015978625 -0.81697917 0.088377364
609000000 -0.80768585 0.092166618 -0.00014460164 -0.0019575199 0.00025683301 -0.0010258269 -0.81456441 0.08695206
610000000 -0.80886841 0.092309721 0.00055937236 -0.001511767 -0.00065348 -0.0021765772 -0.8147257 0.08760304
611000000 -0.80711842 0.09236481 -0.00066113967 -0.0010062621 0.00032902614 -0.0018380554 -0.81442291 0.088349506
612000000 -0.8075642 0.092289552 -0.00049605098 -0.001423886 2.735288e-005 -0.00089048065 -0.81432164 0.086605005
613000000 -0.80689436 0.092155024 -0.0006780824 -0.0019369543 -0.00054782053 -0.001515995 -0.81616199 0.085500732
614000000 -0.80749834 0.094719559 0.00060915342 -0.0023624245 -0.00035460648 2.7685364e-005 -0.81493855 0.087396495
615000000 -0.80660367 0.094392464 -4.4230601e-005 -0.0012533665 0.0002628993 -0.0017664251 -0.81570023 0.088456184
616000000 -0.80881655 0.095112003 -9.7048927e-005 -0.0023738125 -0.00066718861 -0.0012737246 -0.81540358 0.088009804
617000000 -0.80868882 0.093635961 -0.00024721981 -0.0018099661 -0.0011979202 -0.00032165996 -0.81412035 0.088493101
618000000 -0.80831337 0.09345641 -0.00087161682 -0.0022538495 -0.00085350941 -0.0013314261 -0.81507057 0.089441091
619000000 -0.80850434 0.095494233 -0.0012333957 -0.0011063532 -0.00025726407 -0.0019434153 -0.81452084 0.089559115
620000000 -0.80715507 0.094857812 -0.00014504895 -0.0018067267 -0.00079548353 -0.0020852955 -0.81498617 0.088244125
621000000 -0.80839306 0.094853975 -0.0015493822 -0.0016644724 -0.00049424486 -0.0022031907 -0.81651908 0.088325851
622000000 -0.80818713 0.094780311 -0.00071800797 -0.0015237201 -0.00014131363 -0.0020285805 -0.8146258 0.088421121
623000000 -0.80802882 0.095443584 -0.0010811043 -0.002846156 -8.9224493e-005 -0.0026567681 -0.81583744 0.090048544
624000000 -0.80856341 0.09542419 0.00057978235 -0.0023077913 8.7942855e-005 -0.0018303079 -0.81423497 0.089516021
625000000 -0.80810386 0.096728422 0.00015100445 -0.0017291423 -0.0011046673 -0.0017274781 -0.81535137 0.089804597
626000000 -0.80708981 0.096661061 -0.00016090932 -0.0014495651 -0.0001658706 -0.0021365753 -0.81536233 0.091806315
627000000 -0.8096025 0.09766537 -0.00066336658 -0.00085609482 -3.3265067e-005 -0.0015599917 -0.81574237 0.088586196
628000000 -0.80739731 0.095989421 -0.00036020484 -0.0017042834 -0.0014800311 -0.00090649229 -0.81400585 0.090235375
629000000 -0.80804819 0.097790837 -0.0012193854 -0.0022296186 6.6335138e-005 -0.0018889502 -0.81570607 0.091987737
630000000 -0.80817789 0.096186779 -0.00083314889 -0.0015125299 0.00023545256 -0.00098927435 -0.81600219 0.091071866
631000000 -0.80779147 0.097723164 -0.00015215141 -0.0015020843 6.0923529e-005 -0.0013329807 -0.81554681 0.090150476
632000000 -0.80649221 0.096464291 -0.0010062216 -0.0016906869 -0.00045110146 -0.0020324897 -0.81404555 0.090779334
633000000 -0.80835605 0.096253999 -0.00011832058 -0.0014937602 0.00020984563 -0.0020571644 -0.81564856 0.089811437
634000000 -0.80682194 0.098179355 4.0363859e-005 -0.0010204052 0.00029952041 -0.0016558903 -0.8162263 0.090865418
635000000 -0.80683547 0.097503364 -0.00047349039 -0.0013599439 0.0001076488 -0.00098679238 -0.81498104 0.090991773
636000000 -0.80638897 0.09705101 -0.00093466294 -0.0020146042 -0.00058783835 -0.0020191204 -0.81489986 0.090806633
637000000 -0.80790919 0.097681791 -0.0001173394 -0.0022880156 -5.5997647e-005 -0.0013494637 -0.81499249 0.092561841
638000000 -0.80704969 0.097250648 -0.0011758708 -0.0016920284 0.00087982148 -0.0020121685 -0.81382394 0.092706949
639000000 -0.80795568 0.098971575 0.00016571357 -0.0020088302 0.00048517642 -0.001309383 -0.81407964 0.092095651
640000000 -0.80806154 0.098672196 0.0002168155 -0.00073009654 -0.00066639594 -0.0011771471 -0.81438494 0.091052063
641000000 -0.80672544 0.098667242 -0.00089309888 -0.0015907985 -0.00041149219 -0.0024965729 -0.81404835 0.093649738
642000000 -0.80645555 0.09905602 -0.00027052805 -0.001192213 -0.00057963817 -0.0014200633 -0.81570071 0.09134198
643000000 -0.8073687 0.098953322 -0.00043277763 -0.0019776698 -7.0503069e-005 -0.0015424092 -0.814987 0.092687182
644000000 -0.80649883 0.098950416 -0.00060936867 -0.0010534384 -0.00096968038 -0.0019907379 -0.81509048 0.093158536
645000000 -0.80684757 0.099650532 -0.00049776497 -0.0018616115 -0.00077158271 -0.0015126463 -0.81425828 0.093068875
646000000 -0.80793953 0.10035093 -0.00069076824 -0.0020346676 0.0002082337 -0.00099638943 -0.81400865 0.091625579
647000000 -0.8069576 0.10069649 0.00024578485 -0.0013263037 -0.00028139722 -0.0017013117 -0.81597716 0.091411307
648000000 -0.80711991 0.099921256 -0.00050246256 -0.0018894956 -0.00046349861 -0.0014329323 -0.81570625 0.09395963
649000000 -0.80550498 0.099756762 -0.00072065677 -0.001988786 0.00018163092 -0.0025473507 -0.81416756 0.093706459
650000000 -0.80706841 0.10028092 0.00011828047 -0.0013857258 -0.00028637293 -0.0014254131 -0.81405759 0.094264671
651000000 -0.80826038 0.10129312 0.00032966846 -0.0018889405 -0.00050017668 -0.00071537774 -0.81474787 0.09342666
652000000 -0.80685782 0.10019562 -0.00027069592 -0.0022559264 3.4891433e-005 -0.0014096847 -0.81372005 0.093168415
653000000 -0.80634105 0.10106244 -0.00040155387 -0.0010554808 -9.2418486e-005 -0.0026947209 -0.81383115 0.09361802
654000000 -0.80545938 0.10066792 0.0001241432 -0.00092557207 -0.0003032707 -0.0014144738 -0.81415612 0.094131254
655000000 -0.80707914 0.10091544 -0.0015682003 -0.0015588209 -0.00033299866 -0.0021423432 -0.81416368 0.094269767
656000000 -0.80586189 0.10286529 -0.00059466623 -0.0020257148 0.00011347395 -0.0011119299 -0.81404024 0.093722507
657000000 -0.80586445 0.10089355 -0.0008159015 -0.0017924055 -1.2009103e-006 -0.0014601275 -0.81523746 0.095426328
658000000 -0.80738634 0.10160558 -0.00017023334 -0.0014408497 -0.0001556287 -0.00064597075 -0.8141377 0.095648408
659000000 -0.80737352 0.1008466 -0.00039270479 -0.0017576568 -0.00066587183 -0.00070124865 -0.81563056 0.094129644
660000000 -0.80759573 0.10298148 0.00032931936 -0.001486627 -0.0005340178 -0.0020372204 -0.81358105 0.094302565
661000000 -0.80586243 0.10301916 -0.00059272896 -0.001527181 6.635621e-005 -0.0017339836 -0.81272203 0.09606979
662000000 -0.80621141 0.10242597 -0.0011559826 -0.0014165493 -0.00085245498 -0.0029925788 -0.8159852 0.09598282
663000000 -0.80733585 0.10227847 -0.00067302387 -0.0012892166 0.00021407723 -0.00085471303 -0.8130337 0.093626723
664000000 -0.80736417 0.10159292 -0.00077464367 -0.00096562749 -7.5577744e-005 -0.0013459168 -0.8150453 0.095618725
665000000 -0.80601817 0.10065079 -0.00018592573 -0.0012143927 -0.00039938348 -0.0017168194 -0.8140223 0.095552228
666000000 -0.80690312 0.1010303 -2.5094381e-005 -0.0019440479 0.00085244863 -0.0020148181 -0.81469613 0.09614519
667000000 -0.80637097 0.10240076 -4.4082308e-006 -0.0019502146 -0.00055833947 -0.001554591 -0.8144238 0.095391437
668000000 -0.80737376 0.10371678 -0.0012916141 -0.0021927131 -0.0010489388 -0.0020467206 -0.81549883 0.094969966
669000000 -0.8063367 0.10454478 -0.0005938923 -0.0014863388 0.00015061448 -0.0011745038 -0.81415397 0.095400713
670000000 -0.80675822 0.10211486 8.485833e-005 -0.0020246273 -0.0010428991 -0.0019811459 -0.8138935 0.096477069
671000000 -0.80652934 0.10298221 0.00017617541 -0.0019216237 -0.00091899309 -0.0018976459 -0.81418467 0.096198894
