Frequency	 |S11|	 Phase(S11)	 ExtPh(S11)	 |S21|	 Phase(S21)	 ExtPh(S21)	 |S12|	 Phase(S12)	 ExtPh(S12)	 |S22|	 Phase(S22)	 ExtPh(S22) 
5.000000e-001	-1.733104e-001	-2.284271e+000	-2.284271e+000	-7.069804e+001	-6.065752e+001	-6.065752e+001	-6.552437e+001	6.841928e+001	6.841928e+001	-1.708128e-001	-2.062457e+000	-2.062457e+000	
5.010000e-001	-1.720923e-001	-2.303912e+000	-2.303912e+000	-7.306338e+001	-3.471972e+001	-3.471972e+001	-6.406874e+001	-3.660750e+001	-3.660750e+001	-1.677556e-001	-2.062798e+000	-2.062798e+000	
5.020000e-001	-1.699362e-001	-2.252667e+000	-2.252667e+000	-9.552728e+001	-8.315867e+001	-8.315867e+001	-6.917427e+001	-1.452373e+001	-1.452373e+001	-1.646622e-001	-2.072226e+000	-2.072226e+000	
5.030000e-001	-1.718600e-001	-2.288911e+000	-2.288911e+000	-6.978695e+001	-3.887737e+001	-3.887737e+001	-5.756362e+001	-3.685916e+001	-3.685916e+001	-1.743714e-001	-2.104526e+000	-2.104526e+000	
5.040000e-001	-1.846902e-001	-2.328290e+000	-2.328290e+000	-6.340846e+001	2.667648e+001	2.667648e+001	-6.465976e+001	-4.573342e+001	-4.573342e+001	-1.667816e-001	-2.020396e+000	-2.020396e+000	
5.050000e-001	-1.846555e-001	-2.288766e+000	-2.288766e+000	-6.319581e+001	1.747336e+001	1.747336e+001	-6.453189e+001	7.501372e+001	7.501372e+001	-1.637131e-001	-2.037670e+000	-2.037670e+000	
5.060000e-001	-1.647941e-001	-2.281452e+000	-2.281452e+000	-6.389287e+001	-1.376327e+001	-1.376327e+001	-6.457795e+001	-6.569555e+001	1.143045e+002	-1.871946e-001	-2.085051e+000	-2.085051e+000	
5.070000e-001	-1.678829e-001	-2.295118e+000	-2.295118e+000	-5.976363e+001	-5.453385e+001	-5.453385e+001	-6.111922e+001	7.063266e+001	2.506327e+002	-1.626584e-001	-2.149865e+000	-2.149865e+000	
5.080000e-001	-1.676682e-001	-2.323499e+000	-2.323499e+000	-6.294855e+001	2.359369e+001	2.359369e+001	-6.566461e+001	4.233019e+001	2.223302e+002	-1.644347e-001	-2.166990e+000	-2.166990e+000	
5.090000e-001	-1.596030e-001	-2.397551e+000	-2.397551e+000	-6.455739e+001	1.432271e+001	1.432271e+001	-7.217581e+001	-2.406201e+000	1.775938e+002	-1.675277e-001	-2.170400e+000	-2.170400e+000	
5.100000e-001	-1.752403e-001	-2.363353e+000	-2.363353e+000	-6.958970e+001	-4.319903e+001	-4.319903e+001	-6.220852e+001	4.442031e+001	2.244203e+002	-1.703236e-001	-2.202461e+000	-2.202461e+000	
5.110000e-001	-1.755989e-001	-2.403889e+000	-2.403889e+000	-6.410626e+001	-4.531750e+001	-4.531750e+001	-7.390884e+001	-6.309261e+001	1.169074e+002	-1.756867e-001	-2.140554e+000	-2.140554e+000	
5.120000e-001	-1.671653e-001	-2.345800e+000	-2.345800e+000	-6.282707e+001	8.607050e+001	8.607050e+001	-7.401387e+001	2.824644e+001	2.082464e+002	-1.694216e-001	-2.190867e+000	-2.190867e+000	
5.130000e-001	-1.604828e-001	-2.257426e+000	-2.257426e+000	-7.236248e+001	6.310344e+001	6.310344e+001	-6.534962e+001	-8.171021e+001	9.828979e+001	-1.785388e-001	-2.095268e+000	-2.095268e+000	
5.140000e-001	-1.617596e-001	-2.309474e+000	-2.309474e+000	-7.658183e+001	-2.932753e+001	-2.932753e+001	-6.274809e+001	6.634031e+001	6.634031e+001	-1.784240e-001	-2.093473e+000	-2.093473e+000	
5.150000e-001	-1.726859e-001	-2.355825e+000	-2.355825e+000	-6.541967e+001	-6.906913e+001	-6.906913e+001	-6.977542e+001	4.160064e+001	4.160064e+001	-1.723610e-001	-2.156896e+000	-2.156896e+000	
5.160000e-001	-1.786371e-001	-2.414595e+000	-2.414595e+000	-6.752334e+001	-6.133116e+001	-6.133116e+001	-6.461114e+001	1.131680e+001	1.131680e+001	-1.648722e-001	-2.178044e+000	-2.178044e+000	
5.170000e-001	-1.727027e-001	-2.412865e+000	-2.412865e+000	-6.498177e+001	-5.020565e+001	-5.020565e+001	-7.723717e+001	-3.879097e+001	-3.879097e+001	-1.809624e-001	-2.169358e+000	-2.169358e+000	
5.180000e-001	-1.701809e-001	-2.393559e+000	-2.393559e+000	-7.384458e+001	-4.257689e+001	-4.257689e+001	-6.939210e+001	-2.302219e+001	-2.302219e+001	-1.759638e-001	-2.128280e+000	-2.128280e+000	
5.190000e-001	-1.774063e-001	-2.369676e+000	-2.369676e+000	-7.262845e+001	-1.724081e+001	-1.724081e+001	-6.846182e+001	-7.535194e+000	-7.535194e+000	-1.780935e-001	-2.286230e+000	-2.286230e+000	
5.200000e-001	-1.679895e-001	-2.368214e+000	-2.368214e+000	-6.565269e+001	3.713011e+001	3.713011e+001	-5.958734e+001	-3.820262e+001	-3.820262e+001	-1.874840e-001	-2.209144e+000	-2.209144e+000	
5.210000e-001	-1.660473e-001	-2.447088e+000	-2.447088e+000	-7.207195e+001	1.019008e+001	1.019008e+001	-6.083360e+001	8.338587e+001	8.338587e+001	-1.815903e-001	-2.258377e+000	-2.258377e+000	
5.220000e-001	-1.628380e-001	-2.361929e+000	-2.361929e+000	-5.977548e+001	-6.512766e+001	-6.512766e+001	-6.825439e+001	1.845625e+001	1.845625e+001	-1.750954e-001	-2.217946e+000	-2.217946e+000	
5.230000e-001	-1.720869e-001	-2.341489e+000	-2.341489e+000	-7.319977e+001	5.145079e+001	5.145079e+001	-6.372744e+001	-5.384157e+001	-5.384157e+001	-1.721255e-001	-2.199202e+000	-2.199202e+000	
5.240000e-001	-1.731084e-001	-2.399140e+000	-2.399140e+000	-6.478490e+001	7.611422e+001	7.611422e+001	-8.093759e+001	7.179743e+000	7.179743e+000	-1.764211e-001	-2.195443e+000	-2.195443e+000	
5.250000e-001	-1.707945e-001	-2.461158e+000	-2.461158e+000	-6.008274e+001	2.257631e+001	2.257631e+001	-6.334754e+001	-7.828648e+000	-7.828648e+000	-1.655781e-001	-2.233684e+000	-2.233684e+000	
5.260000e-001	-1.802234e-001	-2.392845e+000	-2.392845e+000	-6.990239e+001	-3.863068e+001	-3.863068e+001	-6.589130e+001	-1.729607e+001	-1.729607e+001	-1.869283e-001	-2.173815e+000	-2.173815e+000	
5.270000e-001	-1.711365e-001	-2.435770e+000	-2.435770e+000	-6.339018e+001	1.946016e+001	1.946016e+001	-6.575631e+001	4.507960e+001	4.507960e+001	-1.722088e-001	-2.207207e+000	-2.207207e+000	
5.280000e-001	-1.773544e-001	-2.437672e+000	-2.437672e+000	-6.324868e+001	6.056136e+001	6.056136e+001	-6.260655e+001	-7.954470e+001	-7.954470e+001	-1.850658e-001	-2.250950e+000	-2.250950e+000	
5.290000e-001	-1.813770e-001	-2.453259e+000	-2.453259e+000	-6.415723e+001	1.873898e+001	1.873898e+001	-6.704448e+001	-3.443585e+001	-3.443585e+001	-1.840203e-001	-2.280817e+000	-2.280817e+000	
5.300000e-001	-1.714377e-001	-2.458713e+000	-2.458713e+000	-6.544423e+001	3.360160e+001	3.360160e+001	-6.149600e+001	8.047711e+001	8.047711e+001	-1.839571e-001	-2.232840e+000	-2.232840e+000	
5.310000e-001	-1.753741e-001	-2.440023e+000	-2.440023e+000	-6.666797e+001	4.398986e+001	4.398986e+001	-6.619812e+001	1.018160e+001	1.018160e+001	-1.835623e-001	-2.279011e+000	-2.279011e+000	
5.320000e-001	-1.748091e-001	-2.418870e+000	-2.418870e+000	-6.165734e+001	-7.832009e+000	-7.832009e+000	-7.557753e+001	-5.632287e+000	-5.632287e+000	-1.741231e-001	-2.335320e+000	-2.335320e+000	
5.330000e-001	-1.696568e-001	-2.417867e+000	-2.417867e+000	-6.398930e+001	1.765765e+000	1.765765e+000	-6.577589e+001	2.628790e+001	2.628790e+001	-1.774183e-001	-2.265667e+000	-2.265667e+000	
5.340000e-001	-1.778221e-001	-2.367382e+000	-2.367382e+000	-6.601148e+001	-4.874315e+001	-4.874315e+001	-6.417786e+001	-3.912944e+000	-3.912944e+000	-1.765689e-001	-2.295733e+000	-2.295733e+000	
5.350000e-001	-1.730184e-001	-2.457209e+000	-2.457209e+000	-6.303130e+001	-4.502063e+001	-4.502063e+001	-6.172573e+001	-8.204585e+001	-8.204585e+001	-1.911002e-001	-2.215723e+000	-2.215723e+000	
5.360000e-001	-1.748883e-001	-2.426873e+000	-2.426873e+000	-5.923718e+001	3.984481e+001	3.984481e+001	-7.497939e+001	-3.682703e+001	-3.682703e+001	-1.764461e-001	-2.257145e+000	-2.257145e+000	
5.370000e-001	-1.764998e-001	-2.423770e+000	-2.423770e+000	-8.230299e+001	4.687297e+001	4.687297e+001	-7.578391e+001	2.276797e+000	2.276797e+000	-1.757855e-001	-2.302903e+000	-2.302903e+000	
5.380000e-001	-1.737237e-001	-2.472838e+000	-2.472838e+000	-6.813343e+001	-2.753118e+001	-2.753118e+001	-5.880086e+001	2.190777e+001	2.190777e+001	-1.849173e-001	-2.247642e+000	-2.247642e+000	
5.390000e-001	-1.736128e-001	-2.479828e+000	-2.479828e+000	-7.125044e+001	-8.558868e+001	-8.558868e+001	-6.442928e+001	-6.342058e+001	-6.342058e+001	-1.781494e-001	-2.272847e+000	-2.272847e+000	
5.400000e-001	-1.764039e-001	-2.494714e+000	-2.494714e+000	-6.136877e+001	3.181965e+001	3.181965e+001	-6.507395e+001	-4.660419e+001	-4.660419e+001	-1.751051e-001	-2.241997e+000	-2.241997e+000	
5.410000e-001	-1.740421e-001	-2.489475e+000	-2.489475e+000	-7.078896e+001	7.044949e+001	7.044949e+001	-7.005440e+001	7.455135e+001	7.455135e+001	-1.784743e-001	-2.287621e+000	-2.287621e+000	
5.420000e-001	-1.747456e-001	-2.548652e+000	-2.548652e+000	-6.148053e+001	-5.319641e+001	-5.319641e+001	-6.148973e+001	2.391750e+001	2.391750e+001	-1.807315e-001	-2.324689e+000	-2.324689e+000	
5.430000e-001	-1.763278e-001	-2.453123e+000	-2.453123e+000	-6.289906e+001	-2.522269e+001	-2.522269e+001	-6.327493e+001	6.021782e+001	6.021782e+001	-1.663934e-001	-2.290846e+000	-2.290846e+000	
5.440000e-001	-1.792036e-001	-2.440771e+000	-2.440771e+000	-6.348678e+001	7.241559e+001	7.241559e+001	-6.948840e+001	8.015496e+001	8.015496e+001	-1.641783e-001	-2.340092e+000	-2.340092e+000	
5.450000e-001	-1.811181e-001	-2.413539e+000	-2.413539e+000	-6.210758e+001	-7.268340e+001	1.073166e+002	-6.813707e+001	-1.832769e+001	-1.832769e+001	-1.773340e-001	-2.284847e+000	-2.284847e+000	
5.460000e-001	-1.764286e-001	-2.441487e+000	-2.441487e+000	-6.991557e+001	-7.746250e+001	1.025375e+002	-6.598541e+001	-8.639042e+001	-8.639042e+001	-1.789160e-001	-2.282617e+000	-2.282617e+000	
5.470000e-001	-1.779616e-001	-2.547781e+000	-2.547781e+000	-6.384824e+001	3.826253e+001	2.182625e+002	-6.268512e+001	-7.489088e+000	-7.489088e+000	-1.670694e-001	-2.292421e+000	-2.292421e+000	
5.480000e-001	-1.848361e-001	-2.443882e+000	-2.443882e+000	-6.468950e+001	1.799970e+001	1.979997e+002	-6.047738e+001	-6.502736e+001	-6.502736e+001	-1.727105e-001	-2.309820e+000	-2.309820e+000	
5.490000e-001	-1.875993e-001	-2.482022e+000	-2.482022e+000	-5.962787e+001	8.434763e+001	2.643476e+002	-6.776573e+001	-7.008951e+001	-7.008951e+001	-1.825801e-001	-2.330639e+000	-2.330639e+000	
5.500000e-001	-1.797490e-001	-2.459772e+000	-2.459772e+000	-6.027642e+001	8.844827e+001	2.684483e+002	-7.708916e+001	-6.180216e+001	-6.180216e+001	-1.736522e-001	-2.259330e+000	-2.259330e+000	
5.510000e-001	-1.697696e-001	-2.462641e+000	-2.462641e+000	-7.039488e+001	1.166314e+001	1.916631e+002	-6.267452e+001	4.380979e+001	4.380979e+001	-1.721470e-001	-2.290659e+000	-2.290659e+000	
5.520000e-001	-1.843501e-001	-2.448624e+000	-2.448624e+000	-7.312602e+001	3.645113e+001	2.164511e+002	-6.780070e+001	1.907617e+001	1.907617e+001	-1.748642e-001	-2.351700e+000	-2.351700e+000	
5.530000e-001	-1.767549e-001	-2.505352e+000	-2.505352e+000	-6.352360e+001	-8.902971e+001	9.097029e+001	-6.681994e+001	1.008453e+000	1.008453e+000	-1.769437e-001	-2.287210e+000	-2.287210e+000	
5.540000e-001	-1.772255e-001	-2.490186e+000	-2.490186e+000	-7.002067e+001	-8.248371e+001	9.751629e+001	-7.524510e+001	7.977297e+001	7.977297e+001	-1.746320e-001	-2.352733e+000	-2.352733e+000	
5.550000e-001	-1.857611e-001	-2.464047e+000	-2.464047e+000	-7.297398e+001	-8.728931e+001	9.271069e+001	-6.266823e+001	4.127079e+001	4.127079e+001	-1.846044e-001	-2.255208e+000	-2.255208e+000	
5.560000e-001	-1.829781e-001	-2.494594e+000	-2.494594e+000	-6.502364e+001	-5.817955e+001	1.218204e+002	-6.192527e+001	-7.517749e+001	-7.517749e+001	-1.736139e-001	-2.326440e+000	-2.326440e+000	
5.570000e-001	-1.793227e-001	-2.532295e+000	-2.532295e+000	-6.926124e+001	-8.031616e+001	9.968384e+001	-6.191714e+001	-4.926097e+001	-4.926097e+001	-1.679943e-001	-2.333575e+000	-2.333575e+000	
5.580000e-001	-1.834497e-001	-2.446850e+000	-2.446850e+000	-6.262025e+001	-7.775718e+001	1.022428e+002	-7.916859e+001	-3.548507e+001	-3.548507e+001	-1.755060e-001	-2.343114e+000	-2.343114e+000	
5.590000e-001	-1.760523e-001	-2.479446e+000	-2.479446e+000	-7.429770e+001	6.223763e+001	2.422376e+002	-6.287018e+001	7.254185e+001	7.254185e+001	-1.728108e-001	-2.371856e+000	-2.371856e+000	
5.600000e-001	-1.847920e-001	-2.496101e+000	-2.496101e+000	-7.071987e+001	2.955773e+001	2.095577e+002	-6.507582e+001	4.662415e+001	4.662415e+001	-1.774111e-001	-2.311204e+000	-2.311204e+000	
5.610000e-001	-1.690482e-001	-2.495667e+000	-2.495667e+000	-6.179250e+001	-1.997514e+001	1.600249e+002	-7.470280e+001	7.759247e+001	7.759247e+001	-1.789471e-001	-2.290586e+000	-2.290586e+000	
5.620000e-001	-1.817971e-001	-2.529014e+000	-2.529014e+000	-7.247363e+001	-4.994002e+000	1.750060e+002	-6.755324e+001	-1.979376e+000	-1.979376e+000	-1.769743e-001	-2.307042e+000	-2.307042e+000	
5.630000e-001	-1.735323e-001	-2.452717e+000	-2.452717e+000	-6.645586e+001	-6.358348e+001	1.164165e+002	-7.588266e+001	-3.593844e+001	-3.593844e+001	-1.693802e-001	-2.382894e+000	-2.382894e+000	
5.640000e-001	-1.855612e-001	-2.359053e+000	-2.359053e+000	-6.413518e+001	-7.528520e+001	1.047148e+002	-6.275418e+001	8.568865e+001	8.568865e+001	-1.723358e-001	-2.253814e+000	-2.253814e+000	
5.650000e-001	-1.775111e-001	-2.417233e+000	-2.417233e+000	-7.519172e+001	8.121682e+001	8.121682e+001	-7.181645e+001	-8.884780e+001	9.115220e+001	-1.671199e-001	-2.383430e+000	-2.383430e+000	
5.660000e-001	-1.870781e-001	-2.514854e+000	-2.514854e+000	-6.299424e+001	2.365699e+001	2.365699e+001	-7.325194e+001	-5.609246e+001	1.239075e+002	-1.791695e-001	-2.314590e+000	-2.314590e+000	
5.670000e-001	-1.661974e-001	-2.488216e+000	-2.488216e+000	-5.871483e+001	-4.922531e+001	-4.922531e+001	-7.191152e+001	8.538695e+001	8.538695e+001	-1.729324e-001	-2.368302e+000	-2.368302e+000	
5.680000e-001	-1.826583e-001	-2.488104e+000	-2.488104e+000	-5.880829e+001	-5.499438e+000	-5.499438e+000	-7.255974e+001	-5.173477e+001	-5.173477e+001	-1.841367e-001	-2.328879e+000	-2.328879e+000	
5.690000e-001	-1.760296e-001	-2.479099e+000	-2.479099e+000	-7.112378e+001	2.731445e+001	2.731445e+001	-6.505391e+001	-7.245485e+001	-7.245485e+001	-1.705417e-001	-2.285824e+000	-2.285824e+000	
5.700000e-001	-1.844690e-001	-2.499893e+000	-2.499893e+000	-6.637261e+001	7.232617e+001	7.232617e+001	-7.676737e+001	5.627288e+001	5.627288e+001	-1.813446e-001	-2.291104e+000	-2.291104e+000	
5.710000e-001	-1.679203e-001	-2.470653e+000	-2.470653e+000	-6.398114e+001	3.539618e+001	3.539618e+001	-7.392749e+001	5.881321e+001	5.881321e+001	-1.783635e-001	-2.371041e+000	-2.371041e+000	
5.720000e-001	-1.868729e-001	-2.405318e+000	-2.405318e+000	-8.210736e+001	7.409706e+001	7.409706e+001	-6.910247e+001	6.983904e+001	6.983904e+001	-1.809329e-001	-2.310493e+000	-2.310493e+000	
5.730000e-001	-1.809678e-001	-2.475182e+000	-2.475182e+000	-6.433017e+001	4.838844e+001	4.838844e+001	-6.269912e+001	2.297931e+001	2.297931e+001	-1.722536e-001	-2.367476e+000	-2.367476e+000	
5.740000e-001	-1.881178e-001	-2.497586e+000	-2.497586e+000	-6.612908e+001	3.416420e+001	3.416420e+001	-6.572784e+001	3.165719e+001	3.165719e+001	-1.771750e-001	-2.318913e+000	-2.318913e+000	
5.750000e-001	-1.833851e-001	-2.457037e+000	-2.457037e+000	-8.620689e+001	3.398751e+001	3.398751e+001	-6.784037e+001	-7.040123e+001	-7.040123e+001	-1.682272e-001	-2.349604e+000	-2.349604e+000	
5.760000e-001	-1.884709e-001	-2.518258e+000	-2.518258e+000	-7.747199e+001	5.753328e+001	5.753328e+001	-6.182875e+001	-1.574926e+001	-1.574926e+001	-1.802644e-001	-2.357205e+000	-2.357205e+000	
5.770000e-001	-1.818656e-001	-2.465831e+000	-2.465831e+000	-7.036891e+001	-3.100379e+001	-3.100379e+001	-5.932650e+001	-5.089303e+001	-5.089303e+001	-1.788039e-001	-2.348797e+000	-2.348797e+000	
5.780000e-001	-1.811238e-001	-2.465662e+000	-2.465662e+000	-7.036571e+001	-5.256321e+001	-5.256321e+001	-6.947844e+001	4.709710e+001	4.709710e+001	-1.740131e-001	-2.279859e+000	-2.279859e+000	
5.790000e-001	-1.765391e-001	-2.499536e+000	-2.499536e+000	-7.354983e+001	3.532572e+001	3.532572e+001	-6.804927e+001	-6.328755e+001	-6.328755e+001	-1.670880e-001	-2.329103e+000	-2.329103e+000	
5.800000e-001	-1.937112e-001	-2.475045e+000	-2.475045e+000	-7.151526e+001	1.802958e+001	1.802958e+001	-6.507950e+001	-3.415755e+001	-3.415755e+001	-1.793877e-001	-2.333387e+000	-2.333387e+000	
5.810000e-001	-1.794046e-001	-2.466997e+000	-2.466997e+000	-6.164341e+001	-7.018529e+001	-7.018529e+001	-6.614952e+001	1.253012e+001	1.253012e+001	-1.802039e-001	-2.293832e+000	-2.293832e+000	
5.820000e-001	-1.928403e-001	-2.487283e+000	-2.487283e+000	-6.176243e+001	-6.646278e+001	-6.646278e+001	-6.133079e+001	6.102308e+001	6.102308e+001	-1.792071e-001	-2.302297e+000	-2.302297e+000	
5.830000e-001	-1.839019e-001	-2.460024e+000	-2.460024e+000	-6.272194e+001	7.411705e+001	-1.058829e+002	-6.533137e+001	-2.197731e+001	-2.197731e+001	-1.690670e-001	-2.328060e+000	-2.328060e+000	
5.840000e-001	-1.809142e-001	-2.418286e+000	-2.418286e+000	-6.795305e+001	-7.137433e+001	-7.137433e+001	-6.415102e+001	-1.134707e+001	-1.134707e+001	-1.714188e-001	-2.309741e+000	-2.309741e+000	
5.850000e-001	-1.789561e-001	-2.464631e+000	-2.464631e+000	-6.767045e+001	2.334133e+001	2.334133e+001	-6.697417e+001	2.954324e+001	2.954324e+001	-1.755534e-001	-2.382773e+000	-2.382773e+000	
5.860000e-001	-1.801028e-001	-2.484763e+000	-2.484763e+000	-6.538867e+001	-6.183292e+001	-6.183292e+001	-6.476863e+001	-2.143808e+001	-2.143808e+001	-1.737625e-001	-2.327285e+000	-2.327285e+000	
5.870000e-001	-1.825461e-001	-2.537744e+000	-2.537744e+000	-8.235879e+001	-1.253921e+001	-1.253921e+001	-6.267747e+001	2.894761e+001	2.894761e+001	-1.792715e-001	-2.442291e+000	-2.442291e+000	
5.880000e-001	-1.823694e-001	-2.520416e+000	-2.520416e+000	-6.255221e+001	-5.091519e+001	-5.091519e+001	-7.364385e+001	6.601232e+001	6.601232e+001	-1.733751e-001	-2.357614e+000	-2.357614e+000	
5.890000e-001	-1.874333e-001	-2.488731e+000	-2.488731e+000	-5.964599e+001	7.761603e-001	7.761603e-001	-6.812145e+001	-3.715999e+001	-3.715999e+001	-1.795971e-001	-2.366296e+000	-2.366296e+000	
5.900000e-001	-1.851390e-001	-2.495103e+000	-2.495103e+000	-6.355168e+001	1.442102e+000	1.442102e+000	-6.554046e+001	2.500097e+001	2.500097e+001	-1.786245e-001	-2.326588e+000	-2.326588e+000	
5.910000e-001	-1.863259e-001	-2.503508e+000	-2.503508e+000	-6.323746e+001	-6.063403e+001	-6.063403e+001	-7.657800e+001	-1.720599e+001	-1.720599e+001	-1.826166e-001	-2.369926e+000	-2.369926e+000	
5.920000e-001	-1.917530e-001	-2.470579e+000	-2.470579e+000	-7.627434e+001	4.354129e+001	4.354129e+001	-6.802389e+001	8.980714e+001	8.980714e+001	-1.760026e-001	-2.305544e+000	-2.305544e+000	
5.930000e-001	-1.937006e-001	-2.555415e+000	-2.555415e+000	-6.416421e+001	8.645770e+001	8.645770e+001	-6.652375e+001	-6.677686e+001	1.132231e+002	-1.817506e-001	-2.357802e+000	-2.357802e+000	
5.940000e-001	-1.810597e-001	-2.562020e+000	-2.562020e+000	-7.305658e+001	-4.164821e+001	-4.164821e+001	-6.413870e+001	-7.830934e+001	1.016907e+002	-1.768902e-001	-2.419046e+000	-2.419046e+000	
5.950000e-001	-1.870687e-001	-2.515882e+000	-2.515882e+000	-7.098571e+001	-7.320758e+001	-7.320758e+001	-6.888280e+001	6.824392e+001	6.824392e+001	-1.783141e-001	-2.327275e+000	-2.327275e+000	
5.960000e-001	-1.912451e-001	-2.569890e+000	-2.569890e+000	-6.060483e+001	7.647532e+001	-1.035247e+002	-5.954200e+001	-8.365355e+001	9.634645e+001	-1.836544e-001	-2.419499e+000	-2.419499e+000	
5.970000e-001	-1.851790e-001	-2.528960e+000	-2.528960e+000	-6.767905e+001	4.984717e+001	-1.301528e+002	-6.146110e+001	4.757830e+001	2.275783e+002	-1.802697e-001	-2.394961e+000	-2.394961e+000	
5.980000e-001	-1.816350e-001	-2.571356e+000	-2.571356e+000	-6.757410e+001	9.825464e+000	-1.701745e+002	-6.445432e+001	-5.262107e+001	1.273789e+002	-1.743060e-001	-2.384149e+000	-2.384149e+000	
5.990000e-001	-1.862982e-001	-2.600779e+000	-2.600779e+000	-6.898558e+001	2.043271e+001	-1.595673e+002	-6.308971e+001	7.890020e+001	2.589002e+002	-1.741325e-001	-2.381566e+000	-2.381566e+000	
6.000000e-001	-1.889970e-001	-2.544379e+000	-2.544379e+000	-7.130531e+001	2.811853e+001	-1.518815e+002	-6.564288e+001	6.369138e+000	1.863691e+002	-1.772526e-001	-2.379059e+000	-2.379059e+000	
6.010000e-001	-1.844675e-001	-2.618160e+000	-2.618160e+000	-7.208227e+001	1.007756e+001	-1.699224e+002	-6.060888e+001	-1.371184e+001	1.662882e+002	-1.802591e-001	-2.498613e+000	-2.498613e+000	
6.020000e-001	-1.816944e-001	-2.627615e+000	-2.627615e+000	-6.858660e+001	-2.831596e+001	-2.083160e+002	-6.465645e+001	-8.461510e+001	9.538490e+001	-1.738926e-001	-2.417839e+000	-2.417839e+000	
