Frequency	 |S11|	 Phase(S11)	 ExtPh(S11)	 |S21|	 Phase(S21)	 ExtPh(S21)	 |S12|	 Phase(S12)	 ExtPh(S12)	 |S22|	 Phase(S22)	 ExtPh(S22) 
5.000000e-001	-1.694337e-001	-2.207841e+000	-2.207841e+000	-6.685804e+001	8.629553e+001	8.629553e+001	-6.490730e+001	-6.722868e+001	-6.722868e+001	-1.678038e-001	-1.943622e+000	-1.943622e+000	
5.010000e-001	-1.652238e-001	-2.185283e+000	-2.185283e+000	-6.092633e+001	6.490769e+001	6.490769e+001	-6.630179e+001	3.380222e+001	3.380222e+001	-1.708400e-001	-2.027074e+000	-2.027074e+000	
5.020000e-001	-1.674552e-001	-2.272368e+000	-2.272368e+000	-6.629534e+001	-8.679785e+001	9.320215e+001	-5.950985e+001	-7.623781e+001	-7.623781e+001	-1.607347e-001	-2.039605e+000	-2.039605e+000	
5.030000e-001	-1.726058e-001	-2.255417e+000	-2.255417e+000	-6.987741e+001	3.439944e+001	2.143994e+002	-7.315596e+001	-5.683685e+001	-5.683685e+001	-1.620560e-001	-2.038573e+000	-2.038573e+000	
5.040000e-001	-1.661078e-001	-2.293863e+000	-2.293863e+000	-6.713555e+001	3.235719e+001	2.123572e+002	-6.111430e+001	3.194074e+001	3.194074e+001	-1.623959e-001	-2.032410e+000	-2.032410e+000	
5.050000e-001	-1.645657e-001	-2.279664e+000	-2.279664e+000	-6.394638e+001	3.872008e+001	2.187201e+002	-7.355537e+001	-3.529473e+001	-3.529473e+001	-1.702378e-001	-2.036880e+000	-2.036880e+000	
5.060000e-001	-1.665921e-001	-2.251996e+000	-2.251996e+000	-6.549144e+001	-7.621082e+001	1.037892e+002	-6.970732e+001	4.047331e+000	4.047331e+000	-1.724167e-001	-2.053592e+000	-2.053592e+000	
5.070000e-001	-1.642128e-001	-2.273903e+000	-2.273903e+000	-6.158673e+001	-3.267237e+001	1.473276e+002	-6.621555e+001	4.692396e+001	4.692396e+001	-1.620488e-001	-2.074029e+000	-2.074029e+000	
5.080000e-001	-1.688792e-001	-2.271880e+000	-2.271880e+000	-7.238400e+001	1.877065e+001	1.987706e+002	-7.106047e+001	-1.424044e+001	-1.424044e+001	-1.665210e-001	-2.133690e+000	-2.133690e+000	
5.090000e-001	-1.726463e-001	-2.353622e+000	-2.353622e+000	-6.585708e+001	7.967082e+001	2.596708e+002	-7.634479e+001	-7.584295e+001	-7.584295e+001	-1.725765e-001	-2.074537e+000	-2.074537e+000	
5.100000e-001	-1.696334e-001	-2.327022e+000	-2.327022e+000	-6.540396e+001	-4.362175e+001	1.363782e+002	-8.304412e+001	3.239370e+001	3.239370e+001	-1.770220e-001	-2.088347e+000	-2.088347e+000	
5.110000e-001	-1.760744e-001	-2.309804e+000	-2.309804e+000	-6.852829e+001	2.359243e+001	2.035924e+002	-6.086667e+001	7.299247e+001	7.299247e+001	-1.713657e-001	-2.118836e+000	-2.118836e+000	
5.120000e-001	-1.720051e-001	-2.282578e+000	-2.282578e+000	-6.093263e+001	8.175397e+001	2.617540e+002	-6.645163e+001	2.874455e+001	2.874455e+001	-1.667128e-001	-2.138442e+000	-2.138442e+000	
5.130000e-001	-1.603841e-001	-2.321689e+000	-2.321689e+000	-7.884799e+001	-5.079932e+001	1.292007e+002	-6.326125e+001	2.686794e+001	2.686794e+001	-1.700297e-001	-2.076177e+000	-2.076177e+000	
5.140000e-001	-1.675199e-001	-2.246980e+000	-2.246980e+000	-6.977312e+001	6.270101e+001	2.427010e+002	-6.595870e+001	4.754521e+001	4.754521e+001	-1.608819e-001	-1.973235e+000	-1.973235e+000	
5.150000e-001	-1.773853e-001	-2.334752e+000	-2.334752e+000	-6.129682e+001	2.084118e+001	2.008412e+002	-6.324923e+001	-3.498176e+001	-3.498176e+001	-1.691410e-001	-2.101896e+000	-2.101896e+000	
5.160000e-001	-1.666923e-001	-2.411031e+000	-2.411031e+000	-6.499618e+001	-5.873273e+001	1.212673e+002	-6.273938e+001	3.771597e+001	3.771597e+001	-1.650571e-001	-2.162133e+000	-2.162133e+000	
5.170000e-001	-1.685196e-001	-2.343536e+000	-2.343536e+000	-6.313342e+001	-8.132056e+000	1.718679e+002	-6.720499e+001	4.241274e+001	4.241274e+001	-1.634218e-001	-2.148361e+000	-2.148361e+000	
5.180000e-001	-1.801601e-001	-2.352117e+000	-2.352117e+000	-6.113193e+001	-6.394020e+001	1.160598e+002	-8.084088e+001	1.654545e+001	1.654545e+001	-1.758951e-001	-2.150771e+000	-2.150771e+000	
5.190000e-001	-1.638915e-001	-2.344348e+000	-2.344348e+000	-7.339978e+001	-3.574974e+001	1.442503e+002	-7.311030e+001	1.975007e+001	1.975007e+001	-1.615097e-001	-2.109916e+000	-2.109916e+000	
5.200000e-001	-1.794733e-001	-2.356408e+000	-2.356408e+000	-6.638428e+001	-3.720130e+001	1.427987e+002	-7.129404e+001	8.215377e+000	8.215377e+000	-1.868109e-001	-2.147774e+000	-2.147774e+000	
5.210000e-001	-1.677144e-001	-2.395754e+000	-2.395754e+000	-6.413693e+001	7.195965e+001	2.519597e+002	-6.376309e+001	-8.230325e+001	-8.230325e+001	-1.669611e-001	-2.153383e+000	-2.153383e+000	
5.220000e-001	-1.652932e-001	-2.372311e+000	-2.372311e+000	-6.768029e+001	-7.793867e+001	2.820613e+002	-7.639497e+001	-3.460282e+001	-3.460282e+001	-1.668389e-001	-2.251441e+000	-2.251441e+000	
5.230000e-001	-1.698070e-001	-2.339135e+000	-2.339135e+000	-7.563306e+001	7.088961e+001	2.508896e+002	-6.599182e+001	8.509427e+001	8.509427e+001	-1.747266e-001	-2.171503e+000	-2.171503e+000	
5.240000e-001	-1.786302e-001	-2.478144e+000	-2.478144e+000	-6.864495e+001	3.636965e+001	2.163696e+002	-6.915152e+001	8.624713e+001	8.624713e+001	-1.681613e-001	-2.202372e+000	-2.202372e+000	
5.250000e-001	-1.891848e-001	-2.383181e+000	-2.383181e+000	-7.338149e+001	-5.024215e+001	1.297579e+002	-6.413948e+001	-3.235586e+001	-3.235586e+001	-1.706479e-001	-2.206750e+000	-2.206750e+000	
5.260000e-001	-1.646104e-001	-2.462578e+000	-2.462578e+000	-7.644498e+001	3.617093e+001	2.161709e+002	-7.094527e+001	2.937165e+001	2.937165e+001	-1.647988e-001	-2.179613e+000	-2.179613e+000	
5.270000e-001	-1.652081e-001	-2.379131e+000	-2.379131e+000	-6.253386e+001	-8.957086e+001	9.042914e+001	-7.564316e+001	3.923831e+001	3.923831e+001	-1.649389e-001	-2.201973e+000	-2.201973e+000	
5.280000e-001	-1.747723e-001	-2.452295e+000	-2.452295e+000	-7.686107e+001	8.886196e-001	1.808886e+002	-6.499377e+001	-6.219168e+001	-6.219168e+001	-1.692474e-001	-2.209352e+000	-2.209352e+000	
5.290000e-001	-1.676812e-001	-2.420758e+000	-2.420758e+000	-6.572306e+001	-5.963795e+001	1.203620e+002	-6.513103e+001	-8.263906e+001	-8.263906e+001	-1.715377e-001	-2.272280e+000	-2.272280e+000	
5.300000e-001	-1.746137e-001	-2.411388e+000	-2.411388e+000	-6.212815e+001	-1.160134e+001	1.683987e+002	-7.763917e+001	-5.242716e+000	-5.242716e+000	-1.587749e-001	-2.240795e+000	-2.240795e+000	
5.310000e-001	-1.718887e-001	-2.418902e+000	-2.418902e+000	-6.145426e+001	-4.131629e+000	1.758684e+002	-6.777352e+001	-5.759574e+001	-5.759574e+001	-1.701781e-001	-2.236310e+000	-2.236310e+000	
5.320000e-001	-1.717037e-001	-2.497596e+000	-2.497596e+000	-6.408173e+001	6.691402e+001	2.469140e+002	-5.890874e+001	-4.903916e+001	-4.903916e+001	-1.751187e-001	-2.270961e+000	-2.270961e+000	
5.330000e-001	-1.709562e-001	-2.368487e+000	-2.368487e+000	-6.211517e+001	-6.278661e+001	1.172134e+002	-6.508402e+001	-1.880582e+001	-1.880582e+001	-1.784780e-001	-2.257284e+000	-2.257284e+000	
5.340000e-001	-1.787553e-001	-2.474149e+000	-2.474149e+000	-7.467207e+001	8.337679e+001	8.337679e+001	-9.152654e+001	1.433806e+001	1.433806e+001	-1.602592e-001	-2.214149e+000	-2.214149e+000	
5.350000e-001	-1.744486e-001	-2.484259e+000	-2.484259e+000	-7.426124e+001	5.874227e+001	5.874227e+001	-6.648066e+001	4.638144e+001	4.638144e+001	-1.765331e-001	-2.250003e+000	-2.250003e+000	
5.360000e-001	-1.722073e-001	-2.418017e+000	-2.418017e+000	-6.795317e+001	5.671933e+001	5.671933e+001	-6.157146e+001	8.484046e+001	8.484046e+001	-1.733871e-001	-2.265640e+000	-2.265640e+000	
5.370000e-001	-1.621188e-001	-2.456706e+000	-2.456706e+000	-6.348495e+001	6.441019e+001	6.441019e+001	-7.462978e+001	-3.847406e+001	-3.847406e+001	-1.714705e-001	-2.249599e+000	-2.249599e+000	
5.380000e-001	-1.783424e-001	-2.423203e+000	-2.423203e+000	-6.650812e+001	4.330821e+000	4.330821e+000	-6.972113e+001	-3.627811e+001	-3.627811e+001	-1.684368e-001	-2.176266e+000	-2.176266e+000	
5.390000e-001	-1.693997e-001	-2.455748e+000	-2.455748e+000	-6.032986e+001	2.491061e+001	2.491061e+001	-6.730195e+001	-1.082447e+001	-1.082447e+001	-1.673732e-001	-2.251837e+000	-2.251837e+000	
5.400000e-001	-1.768199e-001	-2.436154e+000	-2.436154e+000	-6.581326e+001	-3.434328e+001	-3.434328e+001	-6.708476e+001	3.107767e+001	3.107767e+001	-1.694583e-001	-2.260685e+000	-2.260685e+000	
5.410000e-001	-1.620218e-001	-2.443341e+000	-2.443341e+000	-6.825453e+001	1.329988e+001	1.329988e+001	-6.154521e+001	-4.290623e+001	-4.290623e+001	-1.677047e-001	-2.238897e+000	-2.238897e+000	
5.420000e-001	-1.716922e-001	-2.490855e+000	-2.490855e+000	-6.664791e+001	1.509741e+001	1.509741e+001	-6.471186e+001	-1.175791e+001	-1.175791e+001	-1.724779e-001	-2.256929e+000	-2.256929e+000	
5.430000e-001	-1.836496e-001	-2.383465e+000	-2.383465e+000	-6.808233e+001	7.127100e+001	7.127100e+001	-6.256245e+001	7.598642e+001	7.598642e+001	-1.747182e-001	-2.337571e+000	-2.337571e+000	
5.440000e-001	-1.834026e-001	-2.486876e+000	-2.486876e+000	-6.310953e+001	-5.348881e+001	-5.348881e+001	-6.775950e+001	7.449129e+001	7.449129e+001	-1.745420e-001	-2.362154e+000	-2.362154e+000	
5.450000e-001	-1.770470e-001	-2.484930e+000	-2.484930e+000	-7.025136e+001	-2.478684e+001	-2.478684e+001	-6.153827e+001	-1.929932e+001	-1.929932e+001	-1.772892e-001	-2.247803e+000	-2.247803e+000	
5.460000e-001	-1.732129e-001	-2.493430e+000	-2.493430e+000	-7.261510e+001	-6.547402e+001	-6.547402e+001	-6.171127e+001	5.467597e+001	5.467597e+001	-1.691181e-001	-2.217431e+000	-2.217431e+000	
5.470000e-001	-1.591753e-001	-2.482967e+000	-2.482967e+000	-6.208920e+001	-1.021558e+001	-1.021558e+001	-6.214611e+001	-8.046819e+001	-8.046819e+001	-1.744625e-001	-2.288512e+000	-2.288512e+000	
5.480000e-001	-1.795271e-001	-2.508558e+000	-2.508558e+000	-6.984313e+001	-6.678358e+000	-6.678358e+000	-8.178119e+001	-5.692357e+000	-5.692357e+000	-1.792770e-001	-2.289393e+000	-2.289393e+000	
5.490000e-001	-1.756152e-001	-2.424585e+000	-2.424585e+000	-6.134643e+001	-7.537667e+001	-7.537667e+001	-7.311274e+001	-5.884231e+000	-5.884231e+000	-1.689973e-001	-2.294902e+000	-2.294902e+000	
5.500000e-001	-1.705791e-001	-2.441254e+000	-2.441254e+000	-8.374187e+001	-7.359984e+001	-7.359984e+001	-6.722760e+001	-8.744432e+001	-8.744432e+001	-1.678039e-001	-2.327276e+000	-2.327276e+000	
5.510000e-001	-1.781251e-001	-2.406052e+000	-2.406052e+000	-6.780157e+001	-4.258305e+001	-4.258305e+001	-7.093441e+001	-3.942497e+001	-3.942497e+001	-1.770265e-001	-2.289340e+000	-2.289340e+000	
5.520000e-001	-1.710018e-001	-2.388350e+000	-2.388350e+000	-6.795289e+001	-2.902980e+001	-2.902980e+001	-7.133195e+001	-7.381926e+001	-7.381926e+001	-1.639991e-001	-2.299706e+000	-2.299706e+000	
5.530000e-001	-1.724071e-001	-2.453915e+000	-2.453915e+000	-6.831793e+001	-7.019013e+001	-7.019013e+001	-6.737021e+001	6.775398e+000	6.775398e+000	-1.669576e-001	-2.262166e+000	-2.262166e+000	
5.540000e-001	-1.848738e-001	-2.380533e+000	-2.380533e+000	-8.628065e+001	7.504709e+001	-1.049529e+002	-6.880476e+001	3.823470e+001	3.823470e+001	-1.711364e-001	-2.261576e+000	-2.261576e+000	
5.550000e-001	-1.797348e-001	-2.403380e+000	-2.403380e+000	-5.940161e+001	-8.432114e+001	-8.432114e+001	-6.204001e+001	7.245314e+001	7.245314e+001	-1.652227e-001	-2.256602e+000	-2.256602e+000	
5.560000e-001	-1.853868e-001	-2.371254e+000	-2.371254e+000	-6.538521e+001	-1.311646e+001	-1.311646e+001	-6.474293e+001	-8.075032e+000	-8.075032e+000	-1.663290e-001	-2.265358e+000	-2.265358e+000	
5.570000e-001	-1.740727e-001	-2.429976e+000	-2.429976e+000	-7.205520e+001	-5.807454e+001	-5.807454e+001	-6.873822e+001	3.509220e+001	3.509220e+001	-1.747425e-001	-2.264761e+000	-2.264761e+000	
5.580000e-001	-1.729877e-001	-2.423512e+000	-2.423512e+000	-6.742180e+001	-4.704894e+001	-4.704894e+001	-6.793686e+001	-4.367951e+001	-4.367951e+001	-1.685509e-001	-2.271215e+000	-2.271215e+000	
5.590000e-001	-1.780841e-001	-2.376437e+000	-2.376437e+000	-6.860484e+001	5.123940e+001	5.123940e+001	-7.528505e+001	-7.093359e+001	-7.093359e+001	-1.693107e-001	-2.301909e+000	-2.301909e+000	
5.600000e-001	-1.715010e-001	-2.493480e+000	-2.493480e+000	-6.313247e+001	1.099379e+001	1.099379e+001	-7.176055e+001	5.183703e+001	5.183703e+001	-1.730786e-001	-2.381195e+000	-2.381195e+000	
5.610000e-001	-1.784674e-001	-2.500754e+000	-2.500754e+000	-6.336804e+001	5.731052e+001	5.731052e+001	-6.855437e+001	2.155794e+001	2.155794e+001	-1.695397e-001	-2.340051e+000	-2.340051e+000	
5.620000e-001	-1.721617e-001	-2.540591e+000	-2.540591e+000	-6.847787e+001	4.493407e+001	4.493407e+001	-6.579929e+001	8.069588e+001	8.069588e+001	-1.705549e-001	-2.317838e+000	-2.317838e+000	
5.630000e-001	-1.732859e-001	-2.422420e+000	-2.422420e+000	-6.993956e+001	-2.785435e+001	-2.785435e+001	-6.947730e+001	-5.628528e+001	-5.628528e+001	-1.698254e-001	-2.386101e+000	-2.386101e+000	
5.640000e-001	-1.733256e-001	-2.418705e+000	-2.418705e+000	-6.444683e+001	5.136142e+001	5.136142e+001	-6.993172e+001	-4.793187e+000	-4.793187e+000	-1.725132e-001	-2.208575e+000	-2.208575e+000	
5.650000e-001	-1.857334e-001	-2.410913e+000	-2.410913e+000	-6.709381e+001	8.845829e+001	8.845829e+001	-6.424539e+001	-1.203332e+001	-1.203332e+001	-1.729870e-001	-2.316711e+000	-2.316711e+000	
5.660000e-001	-1.860745e-001	-2.425940e+000	-2.425940e+000	-6.258171e+001	7.818340e+001	7.818340e+001	-6.032165e+001	5.261617e+001	5.261617e+001	-1.642526e-001	-2.316713e+000	-2.316713e+000	
5.670000e-001	-1.739320e-001	-2.491172e+000	-2.491172e+000	-6.612911e+001	-6.823850e+001	1.117615e+002	-7.335473e+001	-4.875912e+001	-4.875912e+001	-1.615468e-001	-2.269954e+000	-2.269954e+000	
5.680000e-001	-1.824236e-001	-2.446517e+000	-2.446517e+000	-6.342268e+001	-6.276309e+001	1.172369e+002	-5.921245e+001	-1.767160e+001	-1.767160e+001	-1.734089e-001	-2.259291e+000	-2.259291e+000	
5.690000e-001	-1.735547e-001	-2.471992e+000	-2.471992e+000	-6.588658e+001	6.094909e+001	2.409491e+002	-7.114063e+001	4.475017e+001	4.475017e+001	-1.694764e-001	-2.288889e+000	-2.288889e+000	
5.700000e-001	-1.856445e-001	-2.488370e+000	-2.488370e+000	-6.261772e+001	4.457019e+001	2.245702e+002	-6.423465e+001	-2.229649e+001	-2.229649e+001	-1.682293e-001	-2.303804e+000	-2.303804e+000	
5.710000e-001	-1.669595e-001	-2.500400e+000	-2.500400e+000	-6.726509e+001	5.937065e+001	2.393707e+002	-6.895097e+001	-5.124771e+001	-5.124771e+001	-1.710865e-001	-2.315597e+000	-2.315597e+000	
5.720000e-001	-1.698739e-001	-2.429978e+000	-2.429978e+000	-7.165977e+001	-8.835463e+001	2.716454e+002	-6.874156e+001	8.093782e+001	8.093782e+001	-1.766609e-001	-2.310219e+000	-2.310219e+000	
5.730000e-001	-1.794882e-001	-2.427219e+000	-2.427219e+000	-6.386386e+001	-2.274464e+001	3.372554e+002	-5.911201e+001	-7.872636e+001	1.012736e+002	-1.715507e-001	-2.285628e+000	-2.285628e+000	
5.740000e-001	-1.754174e-001	-2.413861e+000	-2.413861e+000	-6.117127e+001	6.894606e+001	4.289461e+002	-7.306245e+001	-1.366727e+001	1.663327e+002	-1.507066e-001	-2.297352e+000	-2.297352e+000	
5.750000e-001	-1.851059e-001	-2.514541e+000	-2.514541e+000	-6.698619e+001	4.482670e+001	4.048267e+002	-6.789524e+001	2.606114e+000	1.826061e+002	-1.573497e-001	-2.292424e+000	-2.292424e+000	
5.760000e-001	-1.805874e-001	-2.433746e+000	-2.433746e+000	-7.507907e+001	-5.290458e+001	3.070954e+002	-6.725938e+001	-8.467880e+001	9.532120e+001	-1.690352e-001	-2.376005e+000	-2.376005e+000	
5.770000e-001	-1.795636e-001	-2.448335e+000	-2.448335e+000	-6.582281e+001	5.769465e+001	4.176947e+002	-8.021468e+001	-1.963777e+001	1.603622e+002	-1.700836e-001	-2.275854e+000	-2.275854e+000	
5.780000e-001	-1.874299e-001	-2.477006e+000	-2.477006e+000	-6.088876e+001	-5.040917e+001	3.095908e+002	-6.603480e+001	3.231928e+001	2.123193e+002	-1.766114e-001	-2.277708e+000	-2.277708e+000	
5.790000e-001	-1.837372e-001	-2.427220e+000	-2.427220e+000	-6.363042e+001	8.037549e+001	4.403755e+002	-7.050738e+001	2.518158e+001	2.051816e+002	-1.655297e-001	-2.320815e+000	-2.320815e+000	
5.800000e-001	-1.697376e-001	-2.434073e+000	-2.434073e+000	-7.279754e+001	3.274408e+001	3.927441e+002	-6.257573e+001	8.473078e+001	2.647308e+002	-1.770045e-001	-2.370996e+000	-2.370996e+000	
5.810000e-001	-1.886839e-001	-2.474981e+000	-2.474981e+000	-5.989036e+001	5.708955e+001	4.170895e+002	-6.412492e+001	5.310626e+001	2.331063e+002	-1.632372e-001	-2.258568e+000	-2.258568e+000	
5.820000e-001	-1.775580e-001	-2.464486e+000	-2.464486e+000	-6.276530e+001	8.513708e+000	3.685137e+002	-6.299600e+001	1.213738e+001	1.921374e+002	-1.717062e-001	-2.399027e+000	-2.399027e+000	
5.830000e-001	-1.858569e-001	-2.449241e+000	-2.449241e+000	-6.555155e+001	3.778331e+001	3.977833e+002	-6.451648e+001	5.922473e+001	2.392247e+002	-1.711216e-001	-2.341095e+000	-2.341095e+000	
5.840000e-001	-1.698040e-001	-2.415417e+000	-2.415417e+000	-5.887830e+001	-2.806772e+001	3.319323e+002	-5.993681e+001	5.877707e+001	2.387771e+002	-1.691766e-001	-2.298674e+000	-2.298674e+000	
5.850000e-001	-1.763216e-001	-2.410214e+000	-2.410214e+000	-6.556521e+001	-5.479061e+001	3.052094e+002	-7.788396e+001	-3.129249e+001	1.487075e+002	-1.637685e-001	-2.342121e+000	-2.342121e+000	
5.860000e-001	-1.793846e-001	-2.464634e+000	-2.464634e+000	-5.896161e+001	6.598618e+001	4.259862e+002	-6.844595e+001	-4.052492e+001	1.394751e+002	-1.694252e-001	-2.285838e+000	-2.285838e+000	
5.870000e-001	-1.764634e-001	-2.575593e+000	-2.575593e+000	-6.732465e+001	7.130759e+001	4.313076e+002	-6.494204e+001	6.072869e+001	2.407287e+002	-1.805747e-001	-2.310591e+000	-2.310591e+000	
5.880000e-001	-1.907240e-001	-2.436939e+000	-2.436939e+000	-6.507723e+001	-3.305304e+001	3.269470e+002	-6.434348e+001	-1.962283e+001	1.603772e+002	-1.560631e-001	-2.322702e+000	-2.322702e+000	
5.890000e-001	-1.729893e-001	-2.471554e+000	-2.471554e+000	-7.552519e+001	-4.960742e+001	3.103926e+002	-6.740526e+001	-3.593011e+001	1.440699e+002	-1.744438e-001	-2.326956e+000	-2.326956e+000	
5.900000e-001	-1.955330e-001	-2.511518e+000	-2.511518e+000	-7.111520e+001	3.124834e+000	3.631248e+002	-7.323014e+001	4.994377e+001	2.299438e+002	-1.818547e-001	-2.390564e+000	-2.390564e+000	
5.910000e-001	-1.863589e-001	-2.490594e+000	-2.490594e+000	-6.389141e+001	5.169264e+001	4.116926e+002	-6.049729e+001	8.576380e+001	2.657638e+002	-1.714277e-001	-2.339199e+000	-2.339199e+000	
5.920000e-001	-1.734836e-001	-2.441969e+000	-2.441969e+000	-6.278180e+001	2.072028e+001	3.807203e+002	-9.004851e+001	4.805561e+001	2.280556e+002	-1.717370e-001	-2.303233e+000	-2.303233e+000	
5.930000e-001	-1.868201e-001	-2.479805e+000	-2.479805e+000	-6.696824e+001	-3.517564e+001	3.248244e+002	-6.281989e+001	3.868122e+001	2.186812e+002	-1.785724e-001	-2.251049e+000	-2.251049e+000	
5.940000e-001	-1.861868e-001	-2.492519e+000	-2.492519e+000	-6.808800e+001	-1.957262e+001	3.404274e+002	-6.546472e+001	-5.190069e+000	1.748099e+002	-1.727432e-001	-2.365091e+000	-2.365091e+000	
5.950000e-001	-1.853285e-001	-2.496549e+000	-2.496549e+000	-6.783558e+001	5.446224e+001	4.144622e+002	-7.019904e+001	-7.726520e+001	1.027348e+002	-1.654899e-001	-2.354306e+000	-2.354306e+000	
5.960000e-001	-1.815855e-001	-2.454718e+000	-2.454718e+000	-6.512794e+001	5.195481e+001	4.119548e+002	-6.414613e+001	-3.873194e+001	1.412681e+002	-1.683432e-001	-2.348800e+000	-2.348800e+000	
5.970000e-001	-1.799011e-001	-2.530920e+000	-2.530920e+000	-7.416287e+001	-2.330364e+001	3.366964e+002	-6.490124e+001	1.442061e+001	1.944206e+002	-1.716354e-001	-2.466892e+000	-2.466892e+000	
5.980000e-001	-1.834552e-001	-2.554174e+000	-2.554174e+000	-6.342174e+001	3.868194e+001	3.986819e+002	-6.949594e+001	-5.775341e+001	1.222466e+002	-1.638903e-001	-2.372784e+000	-2.372784e+000	
5.990000e-001	-1.784777e-001	-2.511087e+000	-2.511087e+000	-6.249488e+001	-8.007728e+001	2.799227e+002	-8.282456e+001	6.010174e+001	2.401017e+002	-1.698567e-001	-2.329702e+000	-2.329702e+000	
6.000000e-001	-1.820044e-001	-2.589408e+000	-2.589408e+000	-6.647835e+001	2.001773e+001	3.800177e+002	-7.025456e+001	3.641652e+001	2.164165e+002	-1.701961e-001	-2.390576e+000	-2.390576e+000	
6.010000e-001	-1.853717e-001	-2.650948e+000	-2.650948e+000	-6.443057e+001	7.423447e+000	3.674234e+002	-6.494144e+001	1.338082e+001	1.933808e+002	-1.739681e-001	-2.370640e+000	-2.370640e+000	
6.020000e-001	-1.871728e-001	-2.488006e+000	-2.488006e+000	-6.662348e+001	1.558444e+001	3.755844e+002	-7.403555e+001	7.143706e+001	2.514371e+002	-1.719519e-001	-2.391876e+000	-2.391876e+000	
