Frequency	 |S11|	 Phase(S11)	 ExtPh(S11)	 |S21|	 Phase(S21)	 ExtPh(S21)	 |S12|	 Phase(S12)	 ExtPh(S12)	 |S22|	 Phase(S22)	 ExtPh(S22) 
5.000000e-001	-1.690849e-001	-2.271317e+000	-2.271317e+000	-6.809763e+001	-1.774349e-001	-1.774349e-001	-7.508223e+001	1.466710e+001	1.466710e+001	-1.767991e-001	-1.950026e+000	-1.950026e+000	
5.010000e-001	-1.683011e-001	-2.247612e+000	-2.247612e+000	-7.135511e+001	3.323940e+001	3.323940e+001	-7.803214e+001	-5.648064e+001	-5.648064e+001	-1.625823e-001	-2.050266e+000	-2.050266e+000	
5.020000e-001	-1.621180e-001	-2.212462e+000	-2.212462e+000	-6.265010e+001	2.749420e+001	2.749420e+001	-7.574434e+001	-4.137137e+001	-4.137137e+001	-1.493421e-001	-2.054133e+000	-2.054133e+000	
5.030000e-001	-1.710005e-001	-2.208428e+000	-2.208428e+000	-6.322291e+001	4.036522e+000	4.036522e+000	-7.173563e+001	3.405673e+000	3.405673e+000	-1.663435e-001	-1.984606e+000	-1.984606e+000	
5.040000e-001	-1.839519e-001	-2.218193e+000	-2.218193e+000	-6.587203e+001	-6.090964e+001	-6.090964e+001	-7.741919e+001	-1.392876e+001	-1.392876e+001	-1.682985e-001	-2.049992e+000	-2.049992e+000	
5.050000e-001	-1.806652e-001	-2.273349e+000	-2.273349e+000	-6.419732e+001	6.536299e+001	6.536299e+001	-6.617126e+001	-1.644729e+001	-1.644729e+001	-1.714653e-001	-2.045065e+000	-2.045065e+000	
5.060000e-001	-1.688918e-001	-2.274605e+000	-2.274605e+000	-7.111300e+001	2.067028e+000	2.067028e+000	-5.909146e+001	7.966717e+000	7.966717e+000	-1.701484e-001	-2.015731e+000	-2.015731e+000	
5.070000e-001	-1.643337e-001	-2.301809e+000	-2.301809e+000	-6.510090e+001	-6.646727e+001	-6.646727e+001	-6.395703e+001	-2.962578e+001	-2.962578e+001	-1.670254e-001	-2.147483e+000	-2.147483e+000	
5.080000e-001	-1.672195e-001	-2.202021e+000	-2.202021e+000	-6.689451e+001	2.546626e+001	2.546626e+001	-7.767718e+001	-3.507609e+001	-3.507609e+001	-1.662228e-001	-2.113454e+000	-2.113454e+000	
5.090000e-001	-1.645447e-001	-2.307558e+000	-2.307558e+000	-6.681334e+001	-3.393002e+001	-3.393002e+001	-8.550584e+001	7.301741e+001	7.301741e+001	-1.601993e-001	-2.069271e+000	-2.069271e+000	
5.100000e-001	-1.699470e-001	-2.280889e+000	-2.280889e+000	-6.507151e+001	-1.493818e+001	-1.493818e+001	-6.132749e+001	3.342372e+001	3.342372e+001	-1.740624e-001	-2.186391e+000	-2.186391e+000	
5.110000e-001	-1.730361e-001	-2.340555e+000	-2.340555e+000	-6.120675e+001	2.191569e+001	2.191569e+001	-6.260029e+001	7.596788e+001	7.596788e+001	-1.674822e-001	-2.062257e+000	-2.062257e+000	
5.120000e-001	-1.651920e-001	-2.281578e+000	-2.281578e+000	-7.939073e+001	-8.628314e+001	-8.628314e+001	-6.649889e+001	-3.947332e+001	-3.947332e+001	-1.579881e-001	-2.092039e+000	-2.092039e+000	
5.130000e-001	-1.585889e-001	-2.314866e+000	-2.314866e+000	-6.215178e+001	-3.302825e+001	-3.302825e+001	-7.572563e+001	1.272536e+001	1.272536e+001	-1.653750e-001	-2.042381e+000	-2.042381e+000	
5.140000e-001	-1.708304e-001	-2.308909e+000	-2.308909e+000	-6.593584e+001	-5.946815e+001	-5.946815e+001	-6.617716e+001	2.470982e+001	2.470982e+001	-1.598452e-001	-2.063481e+000	-2.063481e+000	
5.150000e-001	-1.762921e-001	-2.400233e+000	-2.400233e+000	-6.331705e+001	7.805283e+001	7.805283e+001	-6.476433e+001	-2.626559e+001	-2.626559e+001	-1.756656e-001	-2.143803e+000	-2.143803e+000	
5.160000e-001	-1.664026e-001	-2.292200e+000	-2.292200e+000	-6.966288e+001	-2.330416e-001	-2.330416e-001	-6.719003e+001	-1.209756e+001	-1.209756e+001	-1.679704e-001	-2.137309e+000	-2.137309e+000	
5.170000e-001	-1.584847e-001	-2.346639e+000	-2.346639e+000	-6.491473e+001	1.718524e+001	1.718524e+001	-6.227573e+001	4.981192e+001	4.981192e+001	-1.709591e-001	-2.130547e+000	-2.130547e+000	
5.180000e-001	-1.781160e-001	-2.334341e+000	-2.334341e+000	-6.160690e+001	4.899218e+001	4.899218e+001	-7.485708e+001	-6.281675e+000	-6.281675e+000	-1.697228e-001	-2.165752e+000	-2.165752e+000	
5.190000e-001	-1.710317e-001	-2.362495e+000	-2.362495e+000	-7.126727e+001	-6.494076e+001	-6.494076e+001	-6.646979e+001	4.158357e+001	4.158357e+001	-1.633028e-001	-2.149241e+000	-2.149241e+000	
5.200000e-001	-1.792267e-001	-2.311819e+000	-2.311819e+000	-6.427995e+001	-6.038931e+001	-6.038931e+001	-6.853808e+001	-6.011992e+001	-6.011992e+001	-1.776760e-001	-2.209496e+000	-2.209496e+000	
5.210000e-001	-1.734657e-001	-2.434083e+000	-2.434083e+000	-6.317718e+001	-7.987421e+000	-7.987421e+000	-6.218372e+001	-1.905550e+001	-1.905550e+001	-1.645006e-001	-2.188175e+000	-2.188175e+000	
5.220000e-001	-1.624312e-001	-2.319534e+000	-2.319534e+000	-6.751869e+001	5.705657e+001	5.705657e+001	-6.571422e+001	3.283061e+001	3.283061e+001	-1.633334e-001	-2.190701e+000	-2.190701e+000	
5.230000e-001	-1.692864e-001	-2.309703e+000	-2.309703e+000	-6.465777e+001	7.083311e+001	7.083311e+001	-6.468573e+001	3.436818e+001	3.436818e+001	-1.633910e-001	-2.144217e+000	-2.144217e+000	
5.240000e-001	-1.752366e-001	-2.380272e+000	-2.380272e+000	-7.027149e+001	-7.276137e+001	1.072386e+002	-6.817893e+001	5.644181e+001	5.644181e+001	-1.488625e-001	-2.176047e+000	-2.176047e+000	
5.250000e-001	-1.748134e-001	-2.439410e+000	-2.439410e+000	-5.940373e+001	-4.350087e+001	1.364991e+002	-6.390529e+001	3.456377e+001	3.456377e+001	-1.727401e-001	-2.182175e+000	-2.182175e+000	
5.260000e-001	-1.597648e-001	-2.405972e+000	-2.405972e+000	-8.151283e+001	-3.539494e+001	1.446051e+002	-6.108729e+001	5.567474e+001	5.567474e+001	-1.565438e-001	-2.177986e+000	-2.177986e+000	
5.270000e-001	-1.655441e-001	-2.362713e+000	-2.362713e+000	-6.864231e+001	-6.899084e+001	1.110092e+002	-6.540694e+001	1.304389e+001	1.304389e+001	-1.698508e-001	-2.144808e+000	-2.144808e+000	
5.280000e-001	-1.594627e-001	-2.456269e+000	-2.456269e+000	-6.480164e+001	7.507642e+001	7.507642e+001	-6.119795e+001	7.331401e+001	7.331401e+001	-1.819850e-001	-2.174336e+000	-2.174336e+000	
5.290000e-001	-1.798144e-001	-2.335640e+000	-2.335640e+000	-6.442380e+001	-8.259978e+001	9.740022e+001	-6.220676e+001	-1.632998e+001	-1.632998e+001	-1.696999e-001	-2.295609e+000	-2.295609e+000	
5.300000e-001	-1.715389e-001	-2.429754e+000	-2.429754e+000	-6.977667e+001	2.832930e+001	2.083293e+002	-7.421848e+001	4.261155e+001	4.261155e+001	-1.649006e-001	-2.221591e+000	-2.221591e+000	
5.310000e-001	-1.638500e-001	-2.431111e+000	-2.431111e+000	-7.415280e+001	-7.920619e+001	1.007938e+002	-6.643194e+001	4.502070e+001	4.502070e+001	-1.710627e-001	-2.212169e+000	-2.212169e+000	
5.320000e-001	-1.741222e-001	-2.447204e+000	-2.447204e+000	-6.744020e+001	3.694573e+001	2.169457e+002	-7.031699e+001	-5.791422e+001	-5.791422e+001	-1.670406e-001	-2.252160e+000	-2.252160e+000	
5.330000e-001	-1.773010e-001	-2.416770e+000	-2.416770e+000	-7.041092e+001	-7.345371e+001	1.065463e+002	-6.755240e+001	3.632804e+001	3.632804e+001	-1.737211e-001	-2.260113e+000	-2.260113e+000	
5.340000e-001	-1.743346e-001	-2.445910e+000	-2.445910e+000	-7.217553e+001	-3.117415e+001	1.488259e+002	-7.153618e+001	-1.766560e+001	-1.766560e+001	-1.740589e-001	-2.205186e+000	-2.205186e+000	
5.350000e-001	-1.711824e-001	-2.429386e+000	-2.429386e+000	-7.968576e+001	-3.850810e+001	1.414919e+002	-6.696213e+001	1.062975e+001	1.062975e+001	-1.734521e-001	-2.207173e+000	-2.207173e+000	
5.360000e-001	-1.741178e-001	-2.435935e+000	-2.435935e+000	-6.560169e+001	2.297158e+000	1.822972e+002	-6.525548e+001	1.518566e+001	1.518566e+001	-1.692181e-001	-2.188793e+000	-2.188793e+000	
5.370000e-001	-1.822580e-001	-2.383269e+000	-2.383269e+000	-6.507556e+001	4.322185e+001	2.232219e+002	-6.992779e+001	6.283632e+001	6.283632e+001	-1.710643e-001	-2.199862e+000	-2.199862e+000	
5.380000e-001	-1.702403e-001	-2.457630e+000	-2.457630e+000	-6.892439e+001	-6.302032e+001	1.169797e+002	-6.142300e+001	4.551587e+000	4.551587e+000	-1.683281e-001	-2.225923e+000	-2.225923e+000	
5.390000e-001	-1.664354e-001	-2.383083e+000	-2.383083e+000	-7.046838e+001	2.671227e+001	2.067123e+002	-6.341669e+001	7.145210e+001	7.145210e+001	-1.669393e-001	-2.303742e+000	-2.303742e+000	
5.400000e-001	-1.615235e-001	-2.462596e+000	-2.462596e+000	-7.880216e+001	-7.871800e+001	1.012820e+002	-6.969555e+001	-7.126733e+001	1.087327e+002	-1.777248e-001	-2.218569e+000	-2.218569e+000	
5.410000e-001	-1.806037e-001	-2.394285e+000	-2.394285e+000	-7.295926e+001	7.528418e+001	7.528418e+001	-6.587037e+001	-5.101798e+001	1.289820e+002	-1.700805e-001	-2.254611e+000	-2.254611e+000	
5.420000e-001	-1.758122e-001	-2.461171e+000	-2.461171e+000	-6.208813e+001	-7.032853e+001	1.096715e+002	-6.568318e+001	-3.987151e+001	1.401285e+002	-1.700869e-001	-2.223751e+000	-2.223751e+000	
5.430000e-001	-1.692410e-001	-2.442157e+000	-2.442157e+000	-7.094987e+001	7.143290e+001	7.143290e+001	-6.517992e+001	-6.244149e+001	1.175585e+002	-1.697750e-001	-2.314802e+000	-2.314802e+000	
5.440000e-001	-1.573768e-001	-2.431363e+000	-2.431363e+000	-6.190486e+001	7.498964e+001	7.498964e+001	-6.455324e+001	-4.783678e+001	1.321632e+002	-1.610470e-001	-2.249009e+000	-2.249009e+000	
5.450000e-001	-1.661257e-001	-2.449750e+000	-2.449750e+000	-6.793457e+001	-6.985019e+001	1.101498e+002	-6.799475e+001	7.502246e+000	1.875022e+002	-1.844090e-001	-2.211885e+000	-2.211885e+000	
5.460000e-001	-1.695804e-001	-2.473959e+000	-2.473959e+000	-6.286907e+001	4.002348e+001	2.200235e+002	-7.333840e+001	-8.061811e+001	9.938189e+001	-1.695424e-001	-2.240883e+000	-2.240883e+000	
5.470000e-001	-1.775714e-001	-2.413268e+000	-2.413268e+000	-6.462644e+001	-5.002578e+001	1.299742e+002	-7.206346e+001	4.352797e+001	2.235280e+002	-1.758071e-001	-2.233095e+000	-2.233095e+000	
5.480000e-001	-1.772046e-001	-2.439896e+000	-2.439896e+000	-5.995664e+001	-7.246611e+001	1.075339e+002	-6.974168e+001	2.974715e+001	2.097472e+002	-1.680571e-001	-2.183834e+000	-2.183834e+000	
5.490000e-001	-1.707425e-001	-2.407624e+000	-2.407624e+000	-6.343772e+001	-4.432085e+001	1.356791e+002	-6.354851e+001	-1.224583e+001	1.677542e+002	-1.678007e-001	-2.319301e+000	-2.319301e+000	
5.500000e-001	-1.843809e-001	-2.404937e+000	-2.404937e+000	-6.365199e+001	-3.195473e+001	1.480453e+002	-6.333021e+001	2.405831e+001	2.040583e+002	-1.656989e-001	-2.220723e+000	-2.220723e+000	
5.510000e-001	-1.700750e-001	-2.414429e+000	-2.414429e+000	-6.419257e+001	1.210065e+001	1.921007e+002	-7.214248e+001	5.003200e+001	2.300320e+002	-1.755201e-001	-2.237199e+000	-2.237199e+000	
5.520000e-001	-1.721706e-001	-2.466276e+000	-2.466276e+000	-6.595768e+001	6.116628e+001	2.411663e+002	-6.300726e+001	-1.246628e+000	1.787534e+002	-1.713809e-001	-2.358292e+000	-2.358292e+000	
5.530000e-001	-1.757318e-001	-2.409348e+000	-2.409348e+000	-7.088282e+001	-7.925330e+001	2.807467e+002	-6.230524e+001	9.617710e+000	1.896177e+002	-1.714416e-001	-2.233452e+000	-2.233452e+000	
5.540000e-001	-1.744432e-001	-2.395638e+000	-2.395638e+000	-6.215006e+001	-5.858775e+001	3.014123e+002	-7.556747e+001	-4.557522e+001	1.344248e+002	-1.653407e-001	-2.250538e+000	-2.250538e+000	
5.550000e-001	-1.738618e-001	-2.374103e+000	-2.374103e+000	-6.902153e+001	-3.442165e+001	3.255783e+002	-6.732853e+001	-5.395344e+001	1.260466e+002	-1.751811e-001	-2.225834e+000	-2.225834e+000	
5.560000e-001	-1.783609e-001	-2.447567e+000	-2.447567e+000	-6.406509e+001	3.826155e+001	3.982616e+002	-5.823031e+001	-4.217084e+001	1.378292e+002	-1.709422e-001	-2.262404e+000	-2.262404e+000	
5.570000e-001	-1.765412e-001	-2.406887e+000	-2.406887e+000	-6.980662e+001	-3.650777e+001	3.234922e+002	-6.709723e+001	-2.732563e+001	1.526744e+002	-1.683265e-001	-2.249379e+000	-2.249379e+000	
5.580000e-001	-1.665999e-001	-2.430221e+000	-2.430221e+000	-6.737751e+001	-6.920476e+001	2.907952e+002	-7.063709e+001	7.855820e+001	2.585582e+002	-1.710406e-001	-2.285385e+000	-2.285385e+000	
5.590000e-001	-1.782304e-001	-2.439040e+000	-2.439040e+000	-7.086915e+001	8.397535e+001	2.639754e+002	-7.034009e+001	4.407922e+001	2.240792e+002	-1.665525e-001	-2.364693e+000	-2.364693e+000	
5.600000e-001	-1.729965e-001	-2.457986e+000	-2.457986e+000	-9.013094e+001	-2.409818e+001	1.559018e+002	-7.378388e+001	-2.405377e+000	1.775946e+002	-1.743588e-001	-2.274081e+000	-2.274081e+000	
5.610000e-001	-1.789721e-001	-2.378549e+000	-2.378549e+000	-6.904117e+001	5.684773e+001	2.368477e+002	-6.690663e+001	-1.884438e+001	1.611556e+002	-1.685311e-001	-2.296772e+000	-2.296772e+000	
5.620000e-001	-1.834141e-001	-2.561963e+000	-2.561963e+000	-6.346180e+001	-4.964969e+000	1.750350e+002	-6.329692e+001	7.614883e+001	2.561488e+002	-1.632599e-001	-2.300557e+000	-2.300557e+000	
5.630000e-001	-1.733930e-001	-2.479479e+000	-2.479479e+000	-7.424951e+001	-3.308693e+001	1.469131e+002	-6.303729e+001	-5.049487e+001	1.295051e+002	-1.733644e-001	-2.267763e+000	-2.267763e+000	
5.640000e-001	-1.743575e-001	-2.437964e+000	-2.437964e+000	-7.690770e+001	7.851607e+001	2.585161e+002	-6.242877e+001	-7.145326e+001	1.085467e+002	-1.695156e-001	-2.292987e+000	-2.292987e+000	
5.650000e-001	-1.779973e-001	-2.372503e+000	-2.372503e+000	-6.316134e+001	1.359456e+001	1.935946e+002	-6.921167e+001	3.735600e+001	2.173560e+002	-1.771812e-001	-2.306159e+000	-2.306159e+000	
5.660000e-001	-1.734127e-001	-2.412606e+000	-2.412606e+000	-6.523856e+001	-3.760441e+001	1.423956e+002	-6.294761e+001	3.116741e+001	2.111674e+002	-1.728866e-001	-2.247330e+000	-2.247330e+000	
5.670000e-001	-1.780961e-001	-2.419546e+000	-2.419546e+000	-7.189372e+001	7.492976e+001	2.549298e+002	-6.210779e+001	6.605596e+001	2.460560e+002	-1.760814e-001	-2.221628e+000	-2.221628e+000	
5.680000e-001	-1.855823e-001	-2.471724e+000	-2.471724e+000	-6.447021e+001	-3.416532e+001	1.458347e+002	-6.812787e+001	-8.955004e+000	1.710450e+002	-1.614668e-001	-2.285676e+000	-2.285676e+000	
5.690000e-001	-1.747998e-001	-2.402342e+000	-2.402342e+000	-6.430582e+001	4.070226e+001	2.207023e+002	-7.401965e+001	7.170040e+001	2.517004e+002	-1.654946e-001	-2.249794e+000	-2.249794e+000	
5.700000e-001	-1.903569e-001	-2.422305e+000	-2.422305e+000	-6.640519e+001	7.118409e+001	2.511841e+002	-6.138940e+001	-8.778922e+001	2.722108e+002	-1.734362e-001	-2.267608e+000	-2.267608e+000	
5.710000e-001	-1.738127e-001	-2.452369e+000	-2.452369e+000	-6.980055e+001	3.246800e+001	2.124680e+002	-6.502751e+001	8.792161e+000	3.687922e+002	-1.676181e-001	-2.323981e+000	-2.323981e+000	
5.720000e-001	-1.809517e-001	-2.455358e+000	-2.455358e+000	-6.565837e+001	-1.031346e+001	1.696865e+002	-8.020532e+001	-8.917768e+001	2.708223e+002	-1.771029e-001	-2.228102e+000	-2.228102e+000	
5.730000e-001	-1.775801e-001	-2.366166e+000	-2.366166e+000	-7.302084e+001	-1.604806e+001	1.639519e+002	-6.350929e+001	7.453710e+001	2.545371e+002	-1.632715e-001	-2.324892e+000	-2.324892e+000	
5.740000e-001	-1.838523e-001	-2.440245e+000	-2.440245e+000	-5.896197e+001	-6.323217e+001	1.167678e+002	-6.720460e+001	7.702044e+001	2.570204e+002	-1.692964e-001	-2.349458e+000	-2.349458e+000	
5.750000e-001	-1.816480e-001	-2.445095e+000	-2.445095e+000	-6.413920e+001	5.780193e+001	2.378019e+002	-6.257710e+001	2.276654e+001	2.027665e+002	-1.668584e-001	-2.328211e+000	-2.328211e+000	
5.760000e-001	-1.869885e-001	-2.470024e+000	-2.470024e+000	-5.825126e+001	5.169307e+001	2.316931e+002	-5.897184e+001	-4.516773e+001	1.348323e+002	-1.670317e-001	-2.339571e+000	-2.339571e+000	
5.770000e-001	-1.878330e-001	-2.456224e+000	-2.456224e+000	-6.648654e+001	7.265504e+001	2.526550e+002	-5.767148e+001	-2.311025e+001	1.568898e+002	-1.663984e-001	-2.290444e+000	-2.290444e+000	
5.780000e-001	-1.821043e-001	-2.428004e+000	-2.428004e+000	-7.250430e+001	-2.173685e+001	1.582632e+002	-6.870439e+001	3.585665e+001	2.158567e+002	-1.793028e-001	-2.222816e+000	-2.222816e+000	
5.790000e-001	-1.865666e-001	-2.452132e+000	-2.452132e+000	-6.848867e+001	-7.535518e+001	1.046448e+002	-6.987375e+001	6.035635e+001	2.403564e+002	-1.590238e-001	-2.203585e+000	-2.203585e+000	
5.800000e-001	-1.810386e-001	-2.471655e+000	-2.471655e+000	-6.640685e+001	9.829482e+000	1.898295e+002	-6.862832e+001	7.547736e+001	2.554774e+002	-1.831920e-001	-2.279783e+000	-2.279783e+000	
5.810000e-001	-1.788598e-001	-2.402658e+000	-2.402658e+000	-7.584470e+001	8.401633e+001	2.640163e+002	-6.414695e+001	2.133781e+001	2.013378e+002	-1.594927e-001	-2.328288e+000	-2.328288e+000	
5.820000e-001	-1.840319e-001	-2.407383e+000	-2.407383e+000	-6.418481e+001	-1.615176e+001	1.638482e+002	-6.696400e+001	-4.052396e+000	1.759476e+002	-1.642699e-001	-2.268192e+000	-2.268192e+000	
5.830000e-001	-1.838658e-001	-2.430507e+000	-2.430507e+000	-6.516834e+001	2.103592e+001	2.010359e+002	-6.951131e+001	8.072270e+001	2.607227e+002	-1.674151e-001	-2.253501e+000	-2.253501e+000	
5.840000e-001	-1.792678e-001	-2.413567e+000	-2.413567e+000	-6.812257e+001	-3.439460e+001	1.456054e+002	-7.170025e+001	-1.004507e+001	1.699549e+002	-1.730919e-001	-2.365952e+000	-2.365952e+000	
5.850000e-001	-1.761685e-001	-2.431634e+000	-2.431634e+000	-6.845796e+001	3.734197e+001	2.173420e+002	-6.419995e+001	-7.639652e+001	1.036035e+002	-1.739847e-001	-2.301367e+000	-2.301367e+000	
5.860000e-001	-1.806990e-001	-2.525318e+000	-2.525318e+000	-6.474950e+001	4.817280e+001	2.281728e+002	-7.240666e+001	-8.165105e+001	9.834895e+001	-1.756492e-001	-2.236719e+000	-2.236719e+000	
5.870000e-001	-1.794191e-001	-2.511752e+000	-2.511752e+000	-6.610484e+001	-8.992060e+001	9.007940e+001	-5.905521e+001	4.338789e+001	2.233879e+002	-1.701306e-001	-2.360077e+000	-2.360077e+000	
5.880000e-001	-1.933879e-001	-2.507271e+000	-2.507271e+000	-6.111107e+001	-8.792578e+001	9.207422e+001	-6.697515e+001	8.305172e+001	2.630517e+002	-1.714310e-001	-2.358738e+000	-2.358738e+000	
5.890000e-001	-1.744802e-001	-2.547534e+000	-2.547534e+000	-6.810184e+001	-3.302991e+001	1.469701e+002	-6.126796e+001	6.791371e+001	2.479137e+002	-1.636412e-001	-2.379143e+000	-2.379143e+000	
5.900000e-001	-1.707718e-001	-2.415558e+000	-2.415558e+000	-7.267222e+001	-3.691956e+001	1.430804e+002	-7.156909e+001	7.509877e+001	2.550988e+002	-1.641975e-001	-2.297553e+000	-2.297553e+000	
5.910000e-001	-1.786309e-001	-2.533213e+000	-2.533213e+000	-6.412114e+001	-7.079739e+000	1.729203e+002	-7.502418e+001	-6.174241e+001	1.182576e+002	-1.659122e-001	-2.409198e+000	-2.409198e+000	
5.920000e-001	-1.755339e-001	-2.466941e+000	-2.466941e+000	-6.762524e+001	-9.194813e+000	1.708052e+002	-6.457038e+001	6.662884e+001	2.466288e+002	-1.675412e-001	-2.294587e+000	-2.294587e+000	
5.930000e-001	-1.715097e-001	-2.403345e+000	-2.403345e+000	-6.230138e+001	-2.655693e+001	1.534431e+002	-6.625575e+001	-1.374953e+000	1.786250e+002	-1.649447e-001	-2.287112e+000	-2.287112e+000	
5.940000e-001	-1.738211e-001	-2.491865e+000	-2.491865e+000	-6.088595e+001	3.354841e+001	2.135484e+002	-7.180948e+001	2.606572e+001	2.060657e+002	-1.600958e-001	-2.328911e+000	-2.328911e+000	
5.950000e-001	-1.667317e-001	-2.445553e+000	-2.445553e+000	-6.811438e+001	-4.916358e+001	1.308364e+002	-7.509223e+001	-5.799791e+001	1.220021e+002	-1.646798e-001	-2.317576e+000	-2.317576e+000	
5.960000e-001	-1.850077e-001	-2.414215e+000	-2.414215e+000	-7.811797e+001	4.119363e+001	2.211936e+002	-7.209344e+001	7.628748e+001	2.562875e+002	-1.762506e-001	-2.361088e+000	-2.361088e+000	
5.970000e-001	-1.745531e-001	-2.479867e+000	-2.479867e+000	-6.299606e+001	-5.831882e+001	1.216812e+002	-7.141515e+001	6.404846e+001	2.440485e+002	-1.746198e-001	-2.360113e+000	-2.360113e+000	
5.980000e-001	-1.826015e-001	-2.540523e+000	-2.540523e+000	-7.755642e+001	-5.337839e+000	1.746622e+002	-7.268730e+001	2.333897e+001	2.033390e+002	-1.663336e-001	-2.365085e+000	-2.365085e+000	
5.990000e-001	-1.831001e-001	-2.509166e+000	-2.509166e+000	-7.946703e+001	5.241053e+001	2.324105e+002	-6.494126e+001	-7.934238e+001	1.006576e+002	-1.673067e-001	-2.365319e+000	-2.365319e+000	
6.000000e-001	-1.719071e-001	-2.500893e+000	-2.500893e+000	-6.184198e+001	-2.187036e+001	1.581296e+002	-6.571180e+001	-6.158529e+001	1.184147e+002	-1.824720e-001	-2.366557e+000	-2.366557e+000	
6.010000e-001	-1.833533e-001	-2.537814e+000	-2.537814e+000	-6.662458e+001	1.987554e+001	1.998755e+002	-6.526798e+001	-5.599150e+001	1.240085e+002	-1.625368e-001	-2.359503e+000	-2.359503e+000	
6.020000e-001	-1.781338e-001	-2.589595e+000	-2.589595e+000	-6.084848e+001	-1.490300e+001	1.650970e+002	-6.429021e+001	-4.014966e+001	1.398503e+002	-1.638129e-001	-2.392338e+000	-2.392338e+000	
