Frequency	 |S11|	 Phase(S11)	 ExtPh(S11)	 |S21|	 Phase(S21)	 ExtPh(S21)	 |S12|	 Phase(S12)	 ExtPh(S12)	 |S22|	 Phase(S22)	 ExtPh(S22) 
5.000000e-001	-1.688997e-001	-2.284512e+000	-2.284512e+000	-6.464780e+001	5.105184e+000	5.105184e+000	-6.376086e+001	4.709396e+001	4.709396e+001	-1.564024e-001	-2.034576e+000	-2.034576e+000	
5.010000e-001	-1.719924e-001	-2.272424e+000	-2.272424e+000	-6.502462e+001	-1.463723e+001	-1.463723e+001	-7.004815e+001	5.187749e+000	5.187749e+000	-1.641900e-001	-2.046708e+000	-2.046708e+000	
5.020000e-001	-1.738768e-001	-2.256698e+000	-2.256698e+000	-6.441791e+001	-6.922199e+001	-6.922199e+001	-7.827342e+001	9.524783e-001	9.524783e-001	-1.665486e-001	-2.008148e+000	-2.008148e+000	
5.030000e-001	-1.728494e-001	-2.253220e+000	-2.253220e+000	-6.378743e+001	-7.454500e+001	-7.454500e+001	-6.123699e+001	5.091529e+001	5.091529e+001	-1.795429e-001	-2.077695e+000	-2.077695e+000	
5.040000e-001	-1.645634e-001	-2.235427e+000	-2.235427e+000	-6.500509e+001	8.207589e+001	-9.792411e+001	-7.260221e+001	2.783733e+001	2.783733e+001	-1.734035e-001	-2.103508e+000	-2.103508e+000	
5.050000e-001	-1.714410e-001	-2.314135e+000	-2.314135e+000	-6.335105e+001	-7.609712e+000	-1.876097e+002	-6.567900e+001	6.867269e+001	6.867269e+001	-1.693981e-001	-2.019806e+000	-2.019806e+000	
5.060000e-001	-1.691533e-001	-2.273214e+000	-2.273214e+000	-6.244527e+001	-3.846757e+001	-2.184676e+002	-7.347021e+001	-6.860174e+001	-6.860174e+001	-1.783610e-001	-2.068811e+000	-2.068811e+000	
5.070000e-001	-1.718936e-001	-2.327009e+000	-2.327009e+000	-6.770265e+001	-5.842348e+001	-2.384235e+002	-8.978928e+001	5.112948e+001	5.112948e+001	-1.640228e-001	-2.159993e+000	-2.159993e+000	
5.080000e-001	-1.705420e-001	-2.283413e+000	-2.283413e+000	-5.831787e+001	-7.803255e+001	-2.580326e+002	-7.134332e+001	-6.420466e+001	-6.420466e+001	-1.670665e-001	-2.113493e+000	-2.113493e+000	
5.090000e-001	-1.692522e-001	-2.382746e+000	-2.382746e+000	-6.812218e+001	-2.602205e+000	-1.826022e+002	-6.236207e+001	2.236067e+000	2.236067e+000	-1.668126e-001	-2.130863e+000	-2.130863e+000	
5.100000e-001	-1.696713e-001	-2.364308e+000	-2.364308e+000	-6.599656e+001	-6.207923e+001	-2.420792e+002	-6.247836e+001	-2.104643e+001	-2.104643e+001	-1.774888e-001	-2.129096e+000	-2.129096e+000	
5.110000e-001	-1.716509e-001	-2.411635e+000	-2.411635e+000	-6.236665e+001	-1.702269e+001	-1.970227e+002	-6.824233e+001	-8.898233e+001	-8.898233e+001	-1.754670e-001	-2.142466e+000	-2.142466e+000	
5.120000e-001	-1.799199e-001	-2.259226e+000	-2.259226e+000	-6.686138e+001	7.921100e+001	-1.007890e+002	-6.150567e+001	-2.117792e+000	-2.117792e+000	-1.639655e-001	-2.074429e+000	-2.074429e+000	
5.130000e-001	-1.745640e-001	-2.325644e+000	-2.325644e+000	-6.099157e+001	1.932538e+001	-1.606746e+002	-7.236041e+001	7.495391e+001	7.495391e+001	-1.724205e-001	-2.185889e+000	-2.185889e+000	
5.140000e-001	-1.911384e-001	-2.315411e+000	-2.315411e+000	-6.712910e+001	5.236368e+001	-1.276363e+002	-7.127601e+001	-5.804653e+001	-5.804653e+001	-1.671998e-001	-2.138616e+000	-2.138616e+000	
5.150000e-001	-1.705062e-001	-2.325159e+000	-2.325159e+000	-6.520223e+001	7.918079e+001	-1.008192e+002	-6.436323e+001	3.885000e+001	3.885000e+001	-1.667691e-001	-2.162508e+000	-2.162508e+000	
5.160000e-001	-1.770431e-001	-2.372097e+000	-2.372097e+000	-6.299997e+001	-4.767349e+001	-2.276735e+002	-8.447578e+001	1.422556e+001	1.422556e+001	-1.729567e-001	-2.175587e+000	-2.175587e+000	
5.170000e-001	-1.739524e-001	-2.390088e+000	-2.390088e+000	-6.416620e+001	-2.074913e+001	-2.007491e+002	-7.632130e+001	-7.737644e+001	-7.737644e+001	-1.714221e-001	-2.082951e+000	-2.082951e+000	
5.180000e-001	-1.806739e-001	-2.334032e+000	-2.334032e+000	-6.451760e+001	7.201588e+001	-1.079841e+002	-6.086879e+001	4.828263e+001	4.828263e+001	-1.806016e-001	-2.200198e+000	-2.200198e+000	
5.190000e-001	-1.842906e-001	-2.308369e+000	-2.308369e+000	-6.634942e+001	1.287763e+000	-1.787122e+002	-7.335338e+001	-7.718689e+001	-7.718689e+001	-1.826923e-001	-2.191469e+000	-2.191469e+000	
5.200000e-001	-1.709219e-001	-2.385444e+000	-2.385444e+000	-6.445188e+001	8.126610e+001	-9.873390e+001	-6.832777e+001	-9.499188e+000	-9.499188e+000	-1.620135e-001	-2.185075e+000	-2.185075e+000	
5.210000e-001	-1.846883e-001	-2.500172e+000	-2.500172e+000	-7.702269e+001	4.567102e+001	-1.343290e+002	-6.604712e+001	1.314618e+001	1.314618e+001	-1.727327e-001	-2.217745e+000	-2.217745e+000	
5.220000e-001	-1.553419e-001	-2.448189e+000	-2.448189e+000	-6.269769e+001	-6.626084e+001	-2.462608e+002	-6.624767e+001	4.329784e+001	4.329784e+001	-1.660046e-001	-2.165417e+000	-2.165417e+000	
5.230000e-001	-1.686672e-001	-2.359287e+000	-2.359287e+000	-6.280369e+001	8.146575e+000	-1.718534e+002	-6.903050e+001	-8.537904e+001	-8.537904e+001	-1.745287e-001	-2.209453e+000	-2.209453e+000	
5.240000e-001	-1.718757e-001	-2.379762e+000	-2.379762e+000	-7.627985e+001	4.617775e+001	-1.338222e+002	-6.343272e+001	-7.740886e+001	-7.740886e+001	-1.777817e-001	-2.224543e+000	-2.224543e+000	
5.250000e-001	-1.798160e-001	-2.417264e+000	-2.417264e+000	-6.292470e+001	3.933784e+000	-1.760662e+002	-6.512743e+001	-7.472494e+001	-7.472494e+001	-1.702041e-001	-2.208370e+000	-2.208370e+000	
5.260000e-001	-1.776354e-001	-2.409863e+000	-2.409863e+000	-7.436266e+001	-5.974230e+001	-2.397423e+002	-6.357222e+001	2.941452e+001	2.941452e+001	-1.807956e-001	-2.278039e+000	-2.278039e+000	
5.270000e-001	-1.799066e-001	-2.420802e+000	-2.420802e+000	-6.615804e+001	6.561156e+001	-1.143884e+002	-6.847087e+001	-6.804586e+000	-6.804586e+000	-1.680196e-001	-2.279789e+000	-2.279789e+000	
5.280000e-001	-1.758271e-001	-2.483613e+000	-2.483613e+000	-6.888306e+001	1.558002e+001	-1.644200e+002	-6.902990e+001	-5.195372e+001	-5.195372e+001	-1.856076e-001	-2.184459e+000	-2.184459e+000	
5.290000e-001	-1.795086e-001	-2.488970e+000	-2.488970e+000	-6.233662e+001	-4.067952e+001	-2.206795e+002	-6.327523e+001	4.993806e+001	4.993806e+001	-1.826351e-001	-2.267334e+000	-2.267334e+000	
5.300000e-001	-1.746243e-001	-2.470542e+000	-2.470542e+000	-6.870051e+001	5.694353e+001	-1.230565e+002	-6.513522e+001	-6.161645e+001	-6.161645e+001	-1.759721e-001	-2.258775e+000	-2.258775e+000	
5.310000e-001	-1.816240e-001	-2.459379e+000	-2.459379e+000	-6.615504e+001	-4.806304e+001	-2.280630e+002	-6.518360e+001	-6.285398e+001	-6.285398e+001	-1.754498e-001	-2.283649e+000	-2.283649e+000	
5.320000e-001	-1.714042e-001	-2.446862e+000	-2.446862e+000	-6.624015e+001	-4.314863e+001	-2.231486e+002	-6.595226e+001	8.706755e+001	-9.293245e+001	-1.815619e-001	-2.246196e+000	-2.246196e+000	
5.330000e-001	-1.767270e-001	-2.442194e+000	-2.442194e+000	-6.700070e+001	5.399363e+001	-1.260064e+002	-6.064087e+001	8.548213e+001	-9.451787e+001	-1.788545e-001	-2.253323e+000	-2.253323e+000	
5.340000e-001	-1.838583e-001	-2.382432e+000	-2.382432e+000	-7.336732e+001	5.958582e+000	-1.740414e+002	-6.491919e+001	5.662267e+001	-1.233773e+002	-1.702181e-001	-2.180685e+000	-2.180685e+000	
5.350000e-001	-1.698492e-001	-2.453981e+000	-2.453981e+000	-6.977860e+001	7.403363e+000	-1.725966e+002	-6.429853e+001	-3.846407e+001	-2.184641e+002	-1.774094e-001	-2.274892e+000	-2.274892e+000	
5.360000e-001	-1.783127e-001	-2.476713e+000	-2.476713e+000	-7.737930e+001	-4.406589e+001	-2.240659e+002	-6.576293e+001	3.784389e+001	-1.421561e+002	-1.786267e-001	-2.240847e+000	-2.240847e+000	
5.370000e-001	-1.706569e-001	-2.470967e+000	-2.470967e+000	-7.386942e+001	3.283569e+001	-1.471643e+002	-7.221312e+001	-6.798594e+001	-2.479859e+002	-1.768123e-001	-2.280346e+000	-2.280346e+000	
5.380000e-001	-1.709521e-001	-2.419493e+000	-2.419493e+000	-6.478759e+001	1.191049e+001	-1.680895e+002	-6.493765e+001	7.827413e+001	-2.817259e+002	-1.793122e-001	-2.298845e+000	-2.298845e+000	
5.390000e-001	-1.720798e-001	-2.466586e+000	-2.466586e+000	-6.870229e+001	-6.182205e+001	-2.418220e+002	-6.965471e+001	-6.218827e+001	-2.421883e+002	-1.723686e-001	-2.326781e+000	-2.326781e+000	
5.400000e-001	-1.725248e-001	-2.430308e+000	-2.430308e+000	-6.643733e+001	8.026351e+001	-2.797365e+002	-6.718820e+001	-6.968229e+000	-1.869682e+002	-1.769335e-001	-2.329892e+000	-2.329892e+000	
5.410000e-001	-1.724822e-001	-2.484395e+000	-2.484395e+000	-5.818966e+001	4.275804e+001	-3.172420e+002	-7.065054e+001	-3.732807e+000	-1.837328e+002	-1.749739e-001	-2.344594e+000	-2.344594e+000	
5.420000e-001	-1.702492e-001	-2.508845e+000	-2.508845e+000	-6.421510e+001	-4.165133e+001	-4.016513e+002	-6.529021e+001	7.173057e+000	-1.728269e+002	-1.700880e-001	-2.220598e+000	-2.220598e+000	
5.430000e-001	-1.789683e-001	-2.462676e+000	-2.462676e+000	-6.688196e+001	3.741824e+001	-3.225818e+002	-6.173644e+001	-8.716048e+001	-2.671605e+002	-1.740205e-001	-2.324869e+000	-2.324869e+000	
5.440000e-001	-1.714927e-001	-2.490173e+000	-2.490173e+000	-6.391575e+001	7.517071e+001	-2.848293e+002	-6.586190e+001	3.632657e+001	-1.436734e+002	-1.727670e-001	-2.303597e+000	-2.303597e+000	
5.450000e-001	-1.664699e-001	-2.476996e+000	-2.476996e+000	-6.884752e+001	8.379366e+001	-2.762063e+002	-6.543533e+001	-8.551192e+000	-1.885512e+002	-1.855853e-001	-2.288438e+000	-2.288438e+000	
5.460000e-001	-1.834855e-001	-2.485450e+000	-2.485450e+000	-6.799156e+001	-6.413555e+001	-2.441356e+002	-6.882902e+001	-1.225244e+001	-1.922524e+002	-1.749499e-001	-2.296522e+000	-2.296522e+000	
5.470000e-001	-1.785169e-001	-2.517517e+000	-2.517517e+000	-6.713659e+001	8.693777e+001	-2.730622e+002	-6.691756e+001	6.735697e+001	-1.126430e+002	-1.710525e-001	-2.306627e+000	-2.306627e+000	
5.480000e-001	-1.940719e-001	-2.504565e+000	-2.504565e+000	-6.792195e+001	-6.929160e+001	-2.492916e+002	-6.592729e+001	7.721172e+001	-1.027883e+002	-1.809861e-001	-2.335725e+000	-2.335725e+000	
5.490000e-001	-1.823387e-001	-2.465592e+000	-2.465592e+000	-7.212896e+001	3.511604e+001	-1.448840e+002	-6.036870e+001	6.486914e+001	-1.151309e+002	-1.798443e-001	-2.346767e+000	-2.346767e+000	
5.500000e-001	-1.857937e-001	-2.505369e+000	-2.505369e+000	-5.980582e+001	-4.048826e+001	-2.204883e+002	-6.501604e+001	5.793704e+001	-1.220630e+002	-1.790367e-001	-2.301525e+000	-2.301525e+000	
5.510000e-001	-1.838000e-001	-2.479246e+000	-2.479246e+000	-5.853334e+001	-8.824071e+001	-2.682407e+002	-7.303014e+001	-7.768360e+001	-2.576836e+002	-1.772263e-001	-2.327855e+000	-2.327855e+000	
5.520000e-001	-1.628364e-001	-2.495594e+000	-2.495594e+000	-6.168213e+001	5.610118e+001	-3.038988e+002	-5.782064e+001	-2.712621e+001	-2.071262e+002	-1.799544e-001	-2.349655e+000	-2.349655e+000	
5.530000e-001	-1.765105e-001	-2.513491e+000	-2.513491e+000	-7.622788e+001	-3.592918e+001	-3.959292e+002	-6.407822e+001	7.180935e+001	-1.081907e+002	-1.781610e-001	-2.293761e+000	-2.293761e+000	
5.540000e-001	-1.774358e-001	-2.418931e+000	-2.418931e+000	-6.302870e+001	-8.234679e+001	-4.423468e+002	-7.120313e+001	1.676353e+000	-1.783236e+002	-1.826483e-001	-2.268403e+000	-2.268403e+000	
5.550000e-001	-1.867707e-001	-2.438355e+000	-2.438355e+000	-6.056961e+001	6.131084e+001	-4.786892e+002	-6.641941e+001	5.342532e+001	-1.265747e+002	-1.794056e-001	-2.308078e+000	-2.308078e+000	
5.560000e-001	-1.801667e-001	-2.467685e+000	-2.467685e+000	-6.621653e+001	1.579481e+001	-5.242052e+002	-6.448502e+001	6.333953e+001	-1.166605e+002	-1.647026e-001	-2.327345e+000	-2.327345e+000	
5.570000e-001	-1.836242e-001	-2.496055e+000	-2.496055e+000	-6.455853e+001	8.176762e+001	-4.582324e+002	-6.243452e+001	9.886476e-001	-1.790114e+002	-1.735505e-001	-2.346504e+000	-2.346504e+000	
5.580000e-001	-1.789449e-001	-2.476856e+000	-2.476856e+000	-7.447492e+001	-7.157017e+001	-4.315702e+002	-6.441247e+001	-1.097137e+000	-1.810971e+002	-1.749809e-001	-2.259821e+000	-2.259821e+000	
5.590000e-001	-1.847333e-001	-2.400300e+000	-2.400300e+000	-6.210375e+001	-5.087256e+001	-4.108726e+002	-6.494846e+001	-5.198268e+001	-2.319827e+002	-1.756532e-001	-2.400520e+000	-2.400520e+000	
5.600000e-001	-1.866232e-001	-2.452543e+000	-2.452543e+000	-6.859766e+001	-1.580836e+001	-3.758084e+002	-6.533912e+001	2.934145e+001	-1.506586e+002	-1.742921e-001	-2.319480e+000	-2.319480e+000	
5.610000e-001	-1.815083e-001	-2.427210e+000	-2.427210e+000	-7.467873e+001	-8.791587e+001	-4.479159e+002	-7.190797e+001	3.028239e+000	-1.769718e+002	-1.758923e-001	-2.266379e+000	-2.266379e+000	
5.620000e-001	-1.851721e-001	-2.522320e+000	-2.522320e+000	-6.228896e+001	-8.345671e+001	-4.434567e+002	-6.785003e+001	-1.248127e+000	-1.812481e+002	-1.764066e-001	-2.335995e+000	-2.335995e+000	
5.630000e-001	-1.751321e-001	-2.472113e+000	-2.472113e+000	-6.493036e+001	7.357267e-001	-3.592643e+002	-6.940474e+001	-6.481992e+000	-1.864820e+002	-1.769669e-001	-2.311888e+000	-2.311888e+000	
5.640000e-001	-1.756992e-001	-2.463507e+000	-2.463507e+000	-6.193869e+001	-7.766951e+001	-4.376695e+002	-7.188917e+001	-5.886088e+000	-1.858861e+002	-1.665255e-001	-2.299962e+000	-2.299962e+000	
5.650000e-001	-1.744042e-001	-2.449610e+000	-2.449610e+000	-6.916467e+001	-7.230653e+001	-4.323065e+002	-6.738676e+001	1.288573e+001	-1.671143e+002	-1.771804e-001	-2.254617e+000	-2.254617e+000	
5.660000e-001	-1.750976e-001	-2.405976e+000	-2.405976e+000	-6.188124e+001	7.932566e+001	-4.606743e+002	-6.708111e+001	1.403825e+001	-1.659618e+002	-1.696600e-001	-2.309250e+000	-2.309250e+000	
5.670000e-001	-1.789627e-001	-2.435560e+000	-2.435560e+000	-6.587773e+001	7.061606e+001	-4.693839e+002	-6.995411e+001	-6.653042e+001	-2.465304e+002	-1.698998e-001	-2.256810e+000	-2.256810e+000	
5.680000e-001	-1.964428e-001	-2.367863e+000	-2.367863e+000	-6.402123e+001	5.919487e+001	-4.808051e+002	-6.412190e+001	-3.559584e+001	-2.155958e+002	-1.788556e-001	-2.314538e+000	-2.314538e+000	
5.690000e-001	-1.804722e-001	-2.423596e+000	-2.423596e+000	-6.425287e+001	-8.180169e+000	-5.481802e+002	-7.061388e+001	3.812965e+001	-1.418703e+002	-1.817740e-001	-2.297588e+000	-2.297588e+000	
5.700000e-001	-1.789597e-001	-2.453352e+000	-2.453352e+000	-7.145235e+001	8.535183e+001	-4.546482e+002	-7.682394e+001	-6.732296e+001	-2.473230e+002	-1.851817e-001	-2.327814e+000	-2.327814e+000	
5.710000e-001	-1.789581e-001	-2.482991e+000	-2.482991e+000	-6.382064e+001	5.748457e+001	-4.825154e+002	-6.551099e+001	5.610461e+001	-1.238954e+002	-1.747646e-001	-2.349608e+000	-2.349608e+000	
5.720000e-001	-2.004242e-001	-2.522764e+000	-2.522764e+000	-6.965193e+001	-5.098864e+001	-5.909886e+002	-6.246280e+001	7.405512e+001	-1.059449e+002	-1.733649e-001	-2.327471e+000	-2.327471e+000	
5.730000e-001	-1.768892e-001	-2.454614e+000	-2.454614e+000	-7.381194e+001	4.515270e+001	-4.948473e+002	-6.532856e+001	3.946333e+001	-1.405367e+002	-1.692735e-001	-2.379881e+000	-2.379881e+000	
5.740000e-001	-1.854696e-001	-2.452306e+000	-2.452306e+000	-6.685648e+001	6.825745e+001	-4.717425e+002	-6.890337e+001	-8.527583e+001	-2.652758e+002	-1.726877e-001	-2.300823e+000	-2.300823e+000	
5.750000e-001	-1.886123e-001	-2.481124e+000	-2.481124e+000	-6.162281e+001	-7.224810e+001	-4.322481e+002	-6.950943e+001	-1.936555e+001	-1.993656e+002	-1.691420e-001	-2.295088e+000	-2.295088e+000	
5.760000e-001	-1.887132e-001	-2.429021e+000	-2.429021e+000	-7.173023e+001	-8.012071e+001	-4.401207e+002	-5.819331e+001	-6.231495e+001	-2.423150e+002	-1.797414e-001	-2.314757e+000	-2.314757e+000	
5.770000e-001	-1.783897e-001	-2.440498e+000	-2.440498e+000	-6.645736e+001	2.372348e+001	-3.362765e+002	-7.282327e+001	-6.314222e+001	-2.431422e+002	-1.707911e-001	-2.335598e+000	-2.335598e+000	
5.780000e-001	-1.790731e-001	-2.564657e+000	-2.564657e+000	-6.759528e+001	-6.197949e+001	-4.219795e+002	-6.775996e+001	3.227843e+001	-1.477216e+002	-1.726923e-001	-2.282304e+000	-2.282304e+000	
5.790000e-001	-1.830319e-001	-2.453073e+000	-2.453073e+000	-6.772069e+001	4.889061e-001	-3.595111e+002	-6.758291e+001	8.886950e+001	-9.113050e+001	-1.746202e-001	-2.240225e+000	-2.240225e+000	
5.800000e-001	-1.861937e-001	-2.481097e+000	-2.481097e+000	-6.259380e+001	7.503603e+000	-3.524964e+002	-6.508560e+001	2.719462e+001	-1.528054e+002	-1.715845e-001	-2.370593e+000	-2.370593e+000	
5.810000e-001	-1.844905e-001	-2.419688e+000	-2.419688e+000	-6.035057e+001	6.342838e+001	-2.965716e+002	-7.051323e+001	3.010736e+001	-1.498926e+002	-1.725085e-001	-2.372092e+000	-2.372092e+000	
5.820000e-001	-1.844236e-001	-2.412200e+000	-2.412200e+000	-6.392114e+001	-6.778619e+001	-4.277862e+002	-6.344806e+001	8.879656e+001	-9.120344e+001	-1.625676e-001	-2.308043e+000	-2.308043e+000	
5.830000e-001	-1.800321e-001	-2.538054e+000	-2.538054e+000	-5.873246e+001	-6.545862e+001	-4.254586e+002	-6.227389e+001	-8.486679e+001	-8.486679e+001	-1.766024e-001	-2.298402e+000	-2.298402e+000	
5.840000e-001	-1.899106e-001	-2.451162e+000	-2.451162e+000	-6.890795e+001	1.493190e+001	-3.450681e+002	-7.514360e+001	4.441506e+001	4.441506e+001	-1.778922e-001	-2.380725e+000	-2.380725e+000	
5.850000e-001	-1.830453e-001	-2.399498e+000	-2.399498e+000	-6.272928e+001	4.051459e+001	-3.194854e+002	-6.480781e+001	7.855362e+001	7.855362e+001	-1.789504e-001	-2.282182e+000	-2.282182e+000	
5.860000e-001	-1.876203e-001	-2.489440e+000	-2.489440e+000	-6.294592e+001	6.381125e+001	-2.961888e+002	-6.234789e+001	-4.703353e+000	-4.703353e+000	-1.839362e-001	-2.352426e+000	-2.352426e+000	
5.870000e-001	-1.811928e-001	-2.437088e+000	-2.437088e+000	-6.752742e+001	-9.580062e-001	-3.609580e+002	-7.028989e+001	-9.970151e+000	-9.970151e+000	-1.685306e-001	-2.354075e+000	-2.354075e+000	
5.880000e-001	-1.825833e-001	-2.501704e+000	-2.501704e+000	-6.173409e+001	7.711863e+001	-2.828814e+002	-6.161607e+001	5.204625e+001	5.204625e+001	-1.740816e-001	-2.293520e+000	-2.293520e+000	
5.890000e-001	-1.752472e-001	-2.533508e+000	-2.533508e+000	-6.899327e+001	7.489692e+000	-3.525103e+002	-6.344213e+001	1.142180e+001	1.142180e+001	-1.634240e-001	-2.339869e+000	-2.339869e+000	
5.900000e-001	-1.831521e-001	-2.496292e+000	-2.496292e+000	-6.962256e+001	-7.153131e+000	-3.671531e+002	-7.125960e+001	-2.427297e+001	-2.427297e+001	-1.800606e-001	-2.491015e+000	-2.491015e+000	
5.910000e-001	-1.801613e-001	-2.490426e+000	-2.490426e+000	-6.706664e+001	3.655619e+000	-3.563444e+002	-7.821065e+001	-3.363520e+001	-3.363520e+001	-1.719277e-001	-2.388280e+000	-2.388280e+000	
5.920000e-001	-1.890662e-001	-2.440304e+000	-2.440304e+000	-6.392436e+001	-5.872751e+001	-4.187275e+002	-7.674751e+001	5.389226e+001	5.389226e+001	-1.803096e-001	-2.289476e+000	-2.289476e+000	
5.930000e-001	-1.958359e-001	-2.507094e+000	-2.507094e+000	-6.714314e+001	9.928418e+000	-3.500716e+002	-6.464529e+001	4.136506e+000	4.136506e+000	-1.785189e-001	-2.375931e+000	-2.375931e+000	
5.940000e-001	-1.874582e-001	-2.448704e+000	-2.448704e+000	-6.771259e+001	-7.485729e+001	-4.348573e+002	-6.564883e+001	-1.711590e+001	-1.711590e+001	-1.758837e-001	-2.419995e+000	-2.419995e+000	
5.950000e-001	-1.881958e-001	-2.527662e+000	-2.527662e+000	-6.761827e+001	8.480504e+001	-4.551950e+002	-6.649060e+001	-9.993929e+000	-9.993929e+000	-1.737074e-001	-2.287588e+000	-2.287588e+000	
5.960000e-001	-1.846820e-001	-2.500257e+000	-2.500257e+000	-6.584562e+001	-6.308517e+001	-4.230852e+002	-6.600423e+001	6.305876e+001	6.305876e+001	-1.682828e-001	-2.400677e+000	-2.400677e+000	
5.970000e-001	-1.850174e-001	-2.563075e+000	-2.563075e+000	-5.953690e+001	4.694247e+001	-3.130575e+002	-7.184714e+001	6.282970e+001	6.282970e+001	-1.876673e-001	-2.441038e+000	-2.441038e+000	
5.980000e-001	-1.846172e-001	-2.542382e+000	-2.542382e+000	-6.784964e+001	8.558581e+001	-2.744142e+002	-6.104289e+001	6.220907e+001	6.220907e+001	-1.718052e-001	-2.397095e+000	-2.397095e+000	
5.990000e-001	-1.830730e-001	-2.512686e+000	-2.512686e+000	-6.325802e+001	3.030998e+000	-3.569690e+002	-7.133151e+001	-2.395628e+001	-2.395628e+001	-1.713647e-001	-2.329726e+000	-2.329726e+000	
6.000000e-001	-1.829142e-001	-2.592102e+000	-2.592102e+000	-6.989108e+001	-1.844329e+001	-3.784433e+002	-8.105873e+001	-6.250715e+001	-6.250715e+001	-1.792201e-001	-2.483453e+000	-2.483453e+000	
6.010000e-001	-1.894839e-001	-2.566132e+000	-2.566132e+000	-6.493073e+001	-6.313085e+001	-4.231308e+002	-6.299805e+001	5.477085e+001	5.477085e+001	-1.730738e-001	-2.434534e+000	-2.434534e+000	
