Frequency	 |S11|	 Phase(S11)	 ExtPh(S11)	 |S21|	 Phase(S21)	 ExtPh(S21)	 |S12|	 Phase(S12)	 ExtPh(S12)	 |S22|	 Phase(S22)	 ExtPh(S22) 
5.000000e-001	-1.622007e-001	-2.203191e+000	-2.203191e+000	-8.691404e+001	-4.302996e+001	-4.302996e+001	-6.241457e+001	6.801584e+001	6.801584e+001	-1.732562e-001	-2.034592e+000	-2.034592e+000	
5.010000e-001	-1.536265e-001	-2.184670e+000	-2.184670e+000	-6.729793e+001	-1.650880e+001	-1.650880e+001	-6.655501e+001	-5.036833e+001	-5.036833e+001	-1.668451e-001	-2.036901e+000	-2.036901e+000	
5.020000e-001	-1.702158e-001	-2.180150e+000	-2.180150e+000	-5.949013e+001	-8.353778e+001	-8.353778e+001	-6.542764e+001	5.589231e+001	5.589231e+001	-1.674933e-001	-2.038527e+000	-2.038527e+000	
5.030000e-001	-1.717749e-001	-2.166333e+000	-2.166333e+000	-6.959983e+001	4.142897e+001	4.142897e+001	-6.274691e+001	7.127743e+001	7.127743e+001	-1.743611e-001	-2.012120e+000	-2.012120e+000	
5.040000e-001	-1.608414e-001	-2.276046e+000	-2.276046e+000	-6.706868e+001	-8.742648e+001	-8.742648e+001	-6.921169e+001	6.880330e+001	6.880330e+001	-1.641750e-001	-2.042360e+000	-2.042360e+000	
5.050000e-001	-1.720682e-001	-2.257312e+000	-2.257312e+000	-6.797124e+001	1.408070e+001	1.408070e+001	-6.378256e+001	-5.024118e+001	-5.024118e+001	-1.660601e-001	-1.973679e+000	-1.973679e+000	
5.060000e-001	-1.566862e-001	-2.254254e+000	-2.254254e+000	-5.958070e+001	4.726297e+000	4.726297e+000	-6.162290e+001	3.588942e+001	3.588942e+001	-1.642857e-001	-2.010617e+000	-2.010617e+000	
5.070000e-001	-1.688714e-001	-2.337572e+000	-2.337572e+000	-7.783381e+001	3.443720e+001	3.443720e+001	-6.425560e+001	7.741641e+000	7.741641e+000	-1.656036e-001	-2.116998e+000	-2.116998e+000	
5.080000e-001	-1.671640e-001	-2.283259e+000	-2.283259e+000	-7.150624e+001	4.324087e+001	4.324087e+001	-6.378134e+001	-1.340708e+001	-1.340708e+001	-1.637975e-001	-2.073782e+000	-2.073782e+000	
5.090000e-001	-1.687791e-001	-2.290897e+000	-2.290897e+000	-6.309846e+001	-4.429943e+001	-4.429943e+001	-6.603949e+001	5.465277e+001	5.465277e+001	-1.692720e-001	-2.112332e+000	-2.112332e+000	
5.100000e-001	-1.609032e-001	-2.350836e+000	-2.350836e+000	-7.346345e+001	2.541107e+001	2.541107e+001	-7.149911e+001	1.598380e+001	1.598380e+001	-1.676261e-001	-2.122683e+000	-2.122683e+000	
5.110000e-001	-1.742345e-001	-2.329180e+000	-2.329180e+000	-6.381765e+001	7.854070e+001	7.854070e+001	-6.584225e+001	-2.409924e+001	-2.409924e+001	-1.836113e-001	-2.106187e+000	-2.106187e+000	
5.120000e-001	-1.784072e-001	-2.280966e+000	-2.280966e+000	-6.855641e+001	-6.692527e+001	1.130747e+002	-6.552499e+001	-7.936569e+001	-7.936569e+001	-1.680642e-001	-2.146015e+000	-2.146015e+000	
5.130000e-001	-1.651268e-001	-2.318322e+000	-2.318322e+000	-7.041248e+001	1.088918e-001	1.801089e+002	-7.023962e+001	6.832278e+001	-1.116772e+002	-1.556309e-001	-2.090853e+000	-2.090853e+000	
5.140000e-001	-1.666597e-001	-2.337733e+000	-2.337733e+000	-7.471070e+001	-3.453981e+001	1.454602e+002	-6.119342e+001	-5.301235e+001	-2.330123e+002	-1.706627e-001	-2.102543e+000	-2.102543e+000	
5.150000e-001	-1.564262e-001	-2.349048e+000	-2.349048e+000	-5.877967e+001	7.614316e+001	2.561432e+002	-6.952670e+001	-2.333574e+001	-2.033357e+002	-1.764768e-001	-2.191232e+000	-2.191232e+000	
5.160000e-001	-1.753072e-001	-2.310843e+000	-2.310843e+000	-6.891359e+001	-3.482007e+001	1.451799e+002	-6.145321e+001	-3.279143e+001	-2.127914e+002	-1.597399e-001	-2.160099e+000	-2.160099e+000	
5.170000e-001	-1.683607e-001	-2.378834e+000	-2.378834e+000	-6.287290e+001	6.331726e+001	2.433173e+002	-6.592162e+001	-4.423526e+001	-2.242353e+002	-1.751726e-001	-2.100849e+000	-2.100849e+000	
5.180000e-001	-1.662994e-001	-2.298928e+000	-2.298928e+000	-6.310609e+001	1.849839e+001	1.984984e+002	-6.248983e+001	-7.840522e+001	-2.584052e+002	-1.725525e-001	-2.114991e+000	-2.114991e+000	
5.190000e-001	-1.631930e-001	-2.399742e+000	-2.399742e+000	-7.432460e+001	2.991614e+001	2.099161e+002	-6.537047e+001	-2.577470e+001	-2.057747e+002	-1.625644e-001	-2.183372e+000	-2.183372e+000	
5.200000e-001	-1.758881e-001	-2.387130e+000	-2.387130e+000	-6.281439e+001	7.642212e+001	2.564221e+002	-6.562592e+001	8.449156e+001	-9.550844e+001	-1.724460e-001	-2.128390e+000	-2.128390e+000	
5.210000e-001	-1.673882e-001	-2.441492e+000	-2.441492e+000	-6.720498e+001	-6.530574e+001	2.946943e+002	-7.165813e+001	8.119992e+001	-9.880008e+001	-1.521447e-001	-2.158738e+000	-2.158738e+000	
5.220000e-001	-1.588461e-001	-2.301013e+000	-2.301013e+000	-6.201171e+001	-7.737200e+001	2.826280e+002	-6.645863e+001	4.641207e+001	-1.335879e+002	-1.641715e-001	-2.197833e+000	-2.197833e+000	
5.230000e-001	-1.647336e-001	-2.383365e+000	-2.383365e+000	-6.110405e+001	6.097620e+001	4.209762e+002	-6.720182e+001	6.798894e+001	-1.120111e+002	-1.701125e-001	-2.234457e+000	-2.234457e+000	
5.240000e-001	-1.662345e-001	-2.423206e+000	-2.423206e+000	-6.899997e+001	4.423461e+001	4.042346e+002	-6.592908e+001	7.886702e+000	-1.721133e+002	-1.648304e-001	-2.082178e+000	-2.082178e+000	
5.250000e-001	-1.788615e-001	-2.487376e+000	-2.487376e+000	-6.925692e+001	7.465260e+001	4.346526e+002	-6.832236e+001	4.495196e+001	-1.350480e+002	-1.685360e-001	-2.176911e+000	-2.176911e+000	
5.260000e-001	-1.621802e-001	-2.459678e+000	-2.459678e+000	-6.668142e+001	4.367430e+001	4.036743e+002	-5.952783e+001	1.860375e+001	-1.613962e+002	-1.678763e-001	-2.177195e+000	-2.177195e+000	
5.270000e-001	-1.517657e-001	-2.453506e+000	-2.453506e+000	-6.026294e+001	-2.506249e+001	3.349375e+002	-6.435245e+001	6.465101e+001	-1.153490e+002	-1.572571e-001	-2.157651e+000	-2.157651e+000	
5.280000e-001	-1.732537e-001	-2.390985e+000	-2.390985e+000	-6.571092e+001	6.959702e+001	4.295970e+002	-6.850395e+001	-8.857797e+001	-8.857797e+001	-1.746443e-001	-2.272568e+000	-2.272568e+000	
5.290000e-001	-1.652944e-001	-2.417763e+000	-2.417763e+000	-6.830153e+001	-7.050053e+001	4.694995e+002	-6.034144e+001	-1.333473e+001	-1.333473e+001	-1.825465e-001	-2.209411e+000	-2.209411e+000	
5.300000e-001	-1.619480e-001	-2.429730e+000	-2.429730e+000	-6.209917e+001	1.313617e+001	5.531362e+002	-6.322562e+001	3.164244e+001	3.164244e+001	-1.763407e-001	-2.165677e+000	-2.165677e+000	
5.310000e-001	-1.732429e-001	-2.353904e+000	-2.353904e+000	-5.907411e+001	1.168511e+001	5.516851e+002	-6.492644e+001	-6.847153e+001	-6.847153e+001	-1.645665e-001	-2.203999e+000	-2.203999e+000	
5.320000e-001	-1.745153e-001	-2.415768e+000	-2.415768e+000	-6.997291e+001	3.743748e+001	5.774375e+002	-6.521108e+001	-8.688058e+000	-8.688058e+000	-1.692464e-001	-2.213296e+000	-2.213296e+000	
5.330000e-001	-1.647185e-001	-2.379385e+000	-2.379385e+000	-6.514597e+001	-6.971815e+001	4.702819e+002	-6.824674e+001	-4.173265e+001	-4.173265e+001	-1.777364e-001	-2.249075e+000	-2.249075e+000	
5.340000e-001	-1.571327e-001	-2.458978e+000	-2.458978e+000	-6.516742e+001	-1.447210e+001	5.255279e+002	-6.364643e+001	-8.879425e+001	-8.879425e+001	-1.663682e-001	-2.267185e+000	-2.267185e+000	
5.350000e-001	-1.610564e-001	-2.429318e+000	-2.429318e+000	-6.114923e+001	7.055299e+000	5.470553e+002	-6.090948e+001	-5.106634e+001	-5.106634e+001	-1.670107e-001	-2.238354e+000	-2.238354e+000	
5.360000e-001	-1.699813e-001	-2.403036e+000	-2.403036e+000	-6.623082e+001	3.787942e+001	5.778794e+002	-6.232593e+001	-8.539661e+000	-8.539661e+000	-1.804493e-001	-2.313858e+000	-2.313858e+000	
5.370000e-001	-1.750560e-001	-2.426618e+000	-2.426618e+000	-7.186072e+001	-2.856165e+001	5.114384e+002	-6.813424e+001	-2.917537e+001	-2.917537e+001	-1.728986e-001	-2.200933e+000	-2.200933e+000	
5.380000e-001	-1.647177e-001	-2.457539e+000	-2.457539e+000	-6.979096e+001	-4.012538e+001	4.998746e+002	-9.104380e+001	1.044077e+001	1.044077e+001	-1.685938e-001	-2.237992e+000	-2.237992e+000	
5.390000e-001	-1.692787e-001	-2.443849e+000	-2.443849e+000	-6.947913e+001	-7.366695e+001	4.663330e+002	-6.138314e+001	8.345491e+000	8.345491e+000	-1.755381e-001	-2.261231e+000	-2.261231e+000	
5.400000e-001	-1.664762e-001	-2.430820e+000	-2.430820e+000	-6.315059e+001	-3.078597e+000	5.369214e+002	-6.466081e+001	-9.860528e+000	-9.860528e+000	-1.705763e-001	-2.196551e+000	-2.196551e+000	
5.410000e-001	-1.783680e-001	-2.467614e+000	-2.467614e+000	-6.032861e+001	9.139037e+000	5.491390e+002	-7.036258e+001	3.671366e+001	3.671366e+001	-1.692771e-001	-2.250589e+000	-2.250589e+000	
5.420000e-001	-1.716287e-001	-2.485096e+000	-2.485096e+000	-6.498755e+001	-8.041651e+001	4.595835e+002	-6.364719e+001	2.787816e+001	2.787816e+001	-1.849671e-001	-2.252426e+000	-2.252426e+000	
5.430000e-001	-1.744116e-001	-2.435138e+000	-2.435138e+000	-7.668382e+001	-8.422686e+001	4.557731e+002	-6.471228e+001	4.846818e+001	4.846818e+001	-1.755771e-001	-2.290827e+000	-2.290827e+000	
5.440000e-001	-1.629637e-001	-2.434349e+000	-2.434349e+000	-5.759129e+001	7.357396e+001	4.335740e+002	-6.620777e+001	-2.532824e+001	-2.532824e+001	-1.669330e-001	-2.209378e+000	-2.209378e+000	
5.450000e-001	-1.707199e-001	-2.440468e+000	-2.440468e+000	-6.779434e+001	8.575861e+001	4.457586e+002	-6.920622e+001	8.296376e+001	8.296376e+001	-1.874283e-001	-2.254952e+000	-2.254952e+000	
5.460000e-001	-1.621413e-001	-2.439806e+000	-2.439806e+000	-6.159753e+001	-2.526892e+001	3.347311e+002	-6.582371e+001	-4.570636e+001	-4.570636e+001	-1.681993e-001	-2.333402e+000	-2.333402e+000	
5.470000e-001	-1.638547e-001	-2.441847e+000	-2.441847e+000	-6.532089e+001	3.201007e+001	3.920101e+002	-6.572647e+001	6.225253e+001	6.225253e+001	-1.640679e-001	-2.315659e+000	-2.315659e+000	
5.480000e-001	-1.681883e-001	-2.470148e+000	-2.470148e+000	-6.644464e+001	-1.662747e+001	3.433725e+002	-6.460533e+001	-6.102310e+000	-6.102310e+000	-1.750571e-001	-2.258227e+000	-2.258227e+000	
5.490000e-001	-1.683312e-001	-2.424120e+000	-2.424120e+000	-6.804247e+001	3.154213e+001	3.915421e+002	-7.323788e+001	7.940326e+001	7.940326e+001	-1.829389e-001	-2.290040e+000	-2.290040e+000	
5.500000e-001	-1.772909e-001	-2.477751e+000	-2.477751e+000	-7.125299e+001	2.910800e+001	3.891080e+002	-7.836810e+001	-2.897561e+001	-2.897561e+001	-1.762030e-001	-2.345560e+000	-2.345560e+000	
5.510000e-001	-1.759995e-001	-2.462534e+000	-2.462534e+000	-5.783054e+001	7.396230e+001	4.339623e+002	-6.797092e+001	-6.685105e+001	-6.685105e+001	-1.614248e-001	-2.205798e+000	-2.205798e+000	
5.520000e-001	-1.839210e-001	-2.448193e+000	-2.448193e+000	-6.125167e+001	5.961336e+001	4.196134e+002	-6.326559e+001	8.470773e+001	-9.529227e+001	-1.746815e-001	-2.273153e+000	-2.273153e+000	
5.530000e-001	-1.696656e-001	-2.446036e+000	-2.446036e+000	-7.125394e+001	-2.965593e+001	3.303441e+002	-6.172204e+001	-2.783948e+001	-2.078395e+002	-1.732566e-001	-2.298631e+000	-2.298631e+000	
5.540000e-001	-1.639556e-001	-2.413811e+000	-2.413811e+000	-6.523602e+001	2.441571e+001	3.844157e+002	-6.191851e+001	4.978644e+001	-1.302136e+002	-1.617644e-001	-2.290656e+000	-2.290656e+000	
5.550000e-001	-1.722985e-001	-2.437623e+000	-2.437623e+000	-6.638786e+001	8.760460e+001	4.476046e+002	-6.393146e+001	-6.472202e-002	-1.800647e+002	-1.753188e-001	-2.283017e+000	-2.283017e+000	
5.560000e-001	-1.745925e-001	-2.488501e+000	-2.488501e+000	-6.899310e+001	-5.029633e+001	3.097037e+002	-6.400525e+001	-5.233111e+001	-2.323311e+002	-1.702993e-001	-2.301383e+000	-2.301383e+000	
5.570000e-001	-1.745388e-001	-2.425471e+000	-2.425471e+000	-7.641574e+001	8.756707e+001	4.475671e+002	-8.119910e+001	3.068780e+001	-1.493122e+002	-1.717953e-001	-2.282323e+000	-2.282323e+000	
5.580000e-001	-1.794130e-001	-2.401916e+000	-2.401916e+000	-8.279648e+001	3.765849e+001	3.976585e+002	-6.415930e+001	2.045682e+001	-1.595432e+002	-1.750942e-001	-2.303901e+000	-2.303901e+000	
5.590000e-001	-1.801731e-001	-2.441207e+000	-2.441207e+000	-6.754428e+001	2.149703e+001	3.814970e+002	-6.699986e+001	5.971930e+001	-1.202807e+002	-1.652349e-001	-2.355471e+000	-2.355471e+000	
5.600000e-001	-1.617238e-001	-2.432085e+000	-2.432085e+000	-6.732744e+001	-8.571285e+001	2.742872e+002	-6.851986e+001	-3.851360e+001	-2.185136e+002	-1.663111e-001	-2.331137e+000	-2.331137e+000	
5.610000e-001	-1.727546e-001	-2.469131e+000	-2.469131e+000	-6.665241e+001	3.174852e+001	3.917485e+002	-6.441931e+001	4.284294e+001	-1.371571e+002	-1.680387e-001	-2.245543e+000	-2.245543e+000	
5.620000e-001	-1.823276e-001	-2.476580e+000	-2.476580e+000	-6.654761e+001	-3.690731e+001	3.230927e+002	-7.060648e+001	5.048392e+001	-1.295161e+002	-1.706480e-001	-2.301737e+000	-2.301737e+000	
5.630000e-001	-1.700259e-001	-2.460454e+000	-2.460454e+000	-6.476009e+001	4.266450e+001	4.026645e+002	-7.811977e+001	5.360265e+001	-1.263973e+002	-1.737566e-001	-2.332857e+000	-2.332857e+000	
5.640000e-001	-1.728928e-001	-2.442423e+000	-2.442423e+000	-6.425972e+001	3.219171e+001	3.921917e+002	-8.085462e+001	8.964587e+001	-9.035413e+001	-1.648109e-001	-2.287137e+000	-2.287137e+000	
5.650000e-001	-1.631164e-001	-2.421519e+000	-2.421519e+000	-6.393335e+001	7.872436e+001	4.387244e+002	-8.718535e+001	2.459471e+001	-1.554053e+002	-1.678985e-001	-2.304604e+000	-2.304604e+000	
5.660000e-001	-1.746702e-001	-2.410649e+000	-2.410649e+000	-7.466477e+001	-1.066631e+000	3.589334e+002	-6.933472e+001	6.561587e+001	-1.143841e+002	-1.712624e-001	-2.283573e+000	-2.283573e+000	
5.670000e-001	-1.740112e-001	-2.471707e+000	-2.471707e+000	-6.298912e+001	1.500382e+001	3.750038e+002	-6.598616e+001	-8.572934e+001	-8.572934e+001	-1.799146e-001	-2.286664e+000	-2.286664e+000	
5.680000e-001	-1.755439e-001	-2.509108e+000	-2.509108e+000	-6.811033e+001	7.629220e+001	4.362922e+002	-6.176087e+001	-8.976407e+001	-8.976407e+001	-1.655393e-001	-2.279603e+000	-2.279603e+000	
5.690000e-001	-1.794947e-001	-2.423818e+000	-2.423818e+000	-6.056143e+001	-6.761733e+001	4.723827e+002	-6.577023e+001	-5.592460e+000	-5.592460e+000	-1.724621e-001	-2.303317e+000	-2.303317e+000	
5.700000e-001	-1.769687e-001	-2.456463e+000	-2.456463e+000	-6.447715e+001	-2.345750e+001	5.165425e+002	-6.674128e+001	-1.661370e+001	-1.661370e+001	-1.781796e-001	-2.290787e+000	-2.290787e+000	
5.710000e-001	-1.795253e-001	-2.350258e+000	-2.350258e+000	-7.156457e+001	-7.631315e+001	4.636869e+002	-7.431193e+001	7.388126e+001	7.388126e+001	-1.716520e-001	-2.284939e+000	-2.284939e+000	
5.720000e-001	-1.783409e-001	-2.484173e+000	-2.484173e+000	-6.377501e+001	-3.182166e+001	5.081783e+002	-6.109870e+001	-7.149485e+001	1.085052e+002	-1.742985e-001	-2.278368e+000	-2.278368e+000	
5.730000e-001	-1.785960e-001	-2.396305e+000	-2.396305e+000	-6.689320e+001	5.234299e+001	5.923430e+002	-6.956159e+001	8.856121e+001	8.856121e+001	-1.731820e-001	-2.274196e+000	-2.274196e+000	
5.740000e-001	-1.852461e-001	-2.422784e+000	-2.422784e+000	-8.089189e+001	3.711823e+001	5.771182e+002	-7.077881e+001	4.659883e+001	4.659883e+001	-1.674843e-001	-2.284003e+000	-2.284003e+000	
5.750000e-001	-1.775208e-001	-2.502245e+000	-2.502245e+000	-7.516910e+001	-2.373594e+001	5.162641e+002	-6.260727e+001	2.367275e+001	2.367275e+001	-1.702386e-001	-2.338966e+000	-2.338966e+000	
5.760000e-001	-1.753865e-001	-2.425626e+000	-2.425626e+000	-6.299072e+001	-8.474237e-001	5.391526e+002	-6.204569e+001	6.921944e+000	6.921944e+000	-1.616301e-001	-2.347264e+000	-2.347264e+000	
5.770000e-001	-1.783464e-001	-2.457297e+000	-2.457297e+000	-6.430416e+001	8.106407e+001	6.210641e+002	-6.247546e+001	-1.186711e+001	-1.186711e+001	-1.632559e-001	-2.198952e+000	-2.198952e+000	
5.780000e-001	-1.818215e-001	-2.433628e+000	-2.433628e+000	-6.476728e+001	-5.473787e+001	4.852621e+002	-6.516211e+001	7.933500e+001	7.933500e+001	-1.677202e-001	-2.281336e+000	-2.281336e+000	
5.790000e-001	-1.723320e-001	-2.492265e+000	-2.492265e+000	-6.471886e+001	4.984865e+001	5.898487e+002	-6.215708e+001	8.826375e+000	8.826375e+000	-1.652653e-001	-2.258846e+000	-2.258846e+000	
5.800000e-001	-1.822023e-001	-2.448564e+000	-2.448564e+000	-6.989650e+001	-8.755762e+001	4.524424e+002	-6.195471e+001	-1.081921e+001	-1.081921e+001	-1.714674e-001	-2.348315e+000	-2.348315e+000	
5.810000e-001	-1.800510e-001	-2.393157e+000	-2.393157e+000	-7.731206e+001	7.436817e+001	4.343682e+002	-6.942187e+001	-5.642307e+001	-5.642307e+001	-1.627561e-001	-2.289549e+000	-2.289549e+000	
5.820000e-001	-1.754894e-001	-2.404568e+000	-2.404568e+000	-6.108450e+001	-7.416948e+001	4.658305e+002	-6.145810e+001	-8.225148e+001	-8.225148e+001	-1.687451e-001	-2.242416e+000	-2.242416e+000	
5.830000e-001	-1.903702e-001	-2.479921e+000	-2.479921e+000	-5.929619e+001	8.360476e+001	4.436048e+002	-6.635292e+001	-4.100143e+001	-4.100143e+001	-1.738832e-001	-2.321409e+000	-2.321409e+000	
5.840000e-001	-1.763773e-001	-2.421936e+000	-2.421936e+000	-6.667783e+001	1.777875e+001	3.777787e+002	-7.102045e+001	-1.871617e+000	-1.871617e+000	-1.643663e-001	-2.360183e+000	-2.360183e+000	
5.850000e-001	-1.747918e-001	-2.471525e+000	-2.471525e+000	-7.427420e+001	5.509694e+001	4.150969e+002	-6.542789e+001	5.158294e+001	5.158294e+001	-1.729065e-001	-2.296219e+000	-2.296219e+000	
5.860000e-001	-1.772277e-001	-2.478024e+000	-2.478024e+000	-7.134479e+001	-6.355112e-001	3.593645e+002	-7.388261e+001	4.069667e+001	4.069667e+001	-1.634769e-001	-2.284140e+000	-2.284140e+000	
5.870000e-001	-1.761548e-001	-2.547085e+000	-2.547085e+000	-8.524551e+001	4.696095e+001	4.069609e+002	-6.973859e+001	-9.039698e+000	-9.039698e+000	-1.756361e-001	-2.324200e+000	-2.324200e+000	
5.880000e-001	-1.812712e-001	-2.433963e+000	-2.433963e+000	-6.863643e+001	-5.545855e+001	3.045414e+002	-6.240054e+001	-4.132933e+001	-4.132933e+001	-1.623476e-001	-2.351247e+000	-2.351247e+000	
5.890000e-001	-1.788153e-001	-2.515114e+000	-2.515114e+000	-6.386486e+001	6.699393e+000	3.666994e+002	-6.363932e+001	-2.945745e+001	-2.945745e+001	-1.739420e-001	-2.382433e+000	-2.382433e+000	
5.900000e-001	-1.812615e-001	-2.502730e+000	-2.502730e+000	-6.436651e+001	-3.776620e+001	3.222338e+002	-7.812941e+001	-4.076631e+001	-4.076631e+001	-1.830524e-001	-2.340507e+000	-2.340507e+000	
5.910000e-001	-1.851594e-001	-2.474067e+000	-2.474067e+000	-7.909378e+001	-6.818909e+001	2.918109e+002	-6.771001e+001	1.715180e+001	1.715180e+001	-1.693095e-001	-2.343013e+000	-2.343013e+000	
5.920000e-001	-1.622497e-001	-2.492579e+000	-2.492579e+000	-7.531178e+001	2.756022e+001	3.875602e+002	-7.084332e+001	-1.198649e+001	-1.198649e+001	-1.688676e-001	-2.369310e+000	-2.369310e+000	
5.930000e-001	-1.844519e-001	-2.493344e+000	-2.493344e+000	-6.823166e+001	3.544315e+001	3.954432e+002	-6.605114e+001	-4.125241e+000	-4.125241e+000	-1.717402e-001	-2.327980e+000	-2.327980e+000	
5.940000e-001	-1.883972e-001	-2.511434e+000	-2.511434e+000	-8.983836e+001	6.142309e+001	4.214231e+002	-6.483278e+001	4.433818e+001	4.433818e+001	-1.795674e-001	-2.360555e+000	-2.360555e+000	
5.950000e-001	-1.734533e-001	-2.487205e+000	-2.487205e+000	-6.962520e+001	-7.079146e+001	2.892085e+002	-6.643939e+001	-7.224064e+001	-7.224064e+001	-1.588613e-001	-2.338333e+000	-2.338333e+000	
5.960000e-001	-1.825377e-001	-2.509700e+000	-2.509700e+000	-5.743082e+001	8.162899e+001	2.616290e+002	-6.414871e+001	1.639355e+001	1.639355e+001	-1.745253e-001	-2.308587e+000	-2.308587e+000	
5.970000e-001	-1.718158e-001	-2.549261e+000	-2.549261e+000	-5.923909e+001	-5.601614e+001	1.239839e+002	-5.837807e+001	6.291736e+001	6.291736e+001	-1.705451e-001	-2.332312e+000	-2.332312e+000	
5.980000e-001	-1.729521e-001	-2.515623e+000	-2.515623e+000	-6.059643e+001	-3.071340e+001	1.492866e+002	-5.926663e+001	8.890601e+001	8.890601e+001	-1.678774e-001	-2.403530e+000	-2.403530e+000	
5.990000e-001	-1.834965e-001	-2.579036e+000	-2.579036e+000	-6.749202e+001	3.885286e+001	2.188529e+002	-6.295449e+001	8.015083e+001	8.015083e+001	-1.707438e-001	-2.424534e+000	-2.424534e+000	
6.000000e-001	-1.803023e-001	-2.543422e+000	-2.543422e+000	-6.572446e+001	3.583059e+001	2.158306e+002	-6.334576e+001	4.909715e+001	4.909715e+001	-1.848557e-001	-2.373982e+000	-2.373982e+000	
6.010000e-001	-1.708671e-001	-2.560817e+000	-2.560817e+000	-6.077095e+001	-8.464018e+001	9.535982e+001	-7.406897e+001	6.732405e+001	6.732405e+001	-1.822380e-001	-2.333076e+000	-2.333076e+000	
6.020000e-001	-1.794110e-001	-2.464967e+000	-2.464967e+000	-7.440583e+001	-1.344066e+001	1.665593e+002	-7.697183e+001	-1.325395e+001	-1.325395e+001	-1.733572e-001	-2.354472e+000	-2.354472e+000	
