Frequency	 |S11|	 Phase(S11)	 ExtPh(S11)	 |S21|	 Phase(S21)	 ExtPh(S21)	 |S12|	 Phase(S12)	 ExtPh(S12)	 |S22|	 Phase(S22)	 ExtPh(S22) 
5.000000e-001	-1.154088e+000	-4.435730e+000	-4.435730e+000	-5.573969e+001	6.650860e+000	6.650860e+000	-6.829214e+001	-6.801464e+001	-6.801464e+001	-1.173933e+000	-3.957503e+000	-3.957503e+000	
5.010000e-001	-1.164102e+000	-4.463898e+000	-4.463898e+000	-5.999054e+001	-1.767269e+001	-1.767269e+001	-6.393748e+001	-1.771323e+001	-1.771323e+001	-1.175089e+000	-4.008635e+000	-4.008635e+000	
5.020000e-001	-1.162090e+000	-4.327900e+000	-4.327900e+000	-6.281292e+001	2.600546e+000	2.600546e+000	-5.495554e+001	-8.053655e+001	-8.053655e+001	-1.157755e+000	-4.012642e+000	-4.012642e+000	
5.030000e-001	-1.159143e+000	-4.415682e+000	-4.415682e+000	-6.529190e+001	-8.701335e+001	-8.701335e+001	-5.584575e+001	5.705117e+001	5.705117e+001	-1.157769e+000	-3.893534e+000	-3.893534e+000	
5.040000e-001	-1.155812e+000	-4.505484e+000	-4.505484e+000	-6.351468e+001	7.414399e+001	-1.058560e+002	-5.401638e+001	8.647134e+001	8.647134e+001	-1.163536e+000	-4.067087e+000	-4.067087e+000	
5.050000e-001	-1.157770e+000	-4.424698e+000	-4.424698e+000	-5.602305e+001	6.257105e+001	-1.174290e+002	-5.689765e+001	6.957635e+001	6.957635e+001	-1.158570e+000	-4.081255e+000	-4.081255e+000	
5.060000e-001	-1.172175e+000	-4.469544e+000	-4.469544e+000	-6.002309e+001	-6.787963e+001	-2.478796e+002	-6.748347e+001	-3.614877e+001	-3.614877e+001	-1.160729e+000	-3.988668e+000	-3.988668e+000	
5.070000e-001	-1.157331e+000	-4.506496e+000	-4.506496e+000	-6.335362e+001	-8.683498e+001	-2.668350e+002	-5.650218e+001	8.498133e+001	8.498133e+001	-1.166755e+000	-4.100923e+000	-4.100923e+000	
5.080000e-001	-1.153752e+000	-4.464988e+000	-4.464988e+000	-6.088771e+001	-5.444610e+001	-2.344461e+002	-5.890979e+001	-7.610011e+001	1.038999e+002	-1.156842e+000	-4.072697e+000	-4.072697e+000	
5.090000e-001	-1.156376e+000	-4.569796e+000	-4.569796e+000	-5.558554e+001	-8.941512e+001	-2.694151e+002	-5.514994e+001	6.930001e+001	6.930001e+001	-1.155196e+000	-4.098679e+000	-4.098679e+000	
5.100000e-001	-1.142212e+000	-4.477073e+000	-4.477073e+000	-5.549693e+001	6.281153e+001	-2.971885e+002	-5.466567e+001	6.705914e+001	6.705914e+001	-1.171470e+000	-4.058424e+000	-4.058424e+000	
5.110000e-001	-1.153327e+000	-4.505837e+000	-4.505837e+000	-6.118102e+001	9.755234e+000	-3.502448e+002	-5.536521e+001	8.359076e+001	8.359076e+001	-1.161012e+000	-4.002413e+000	-4.002413e+000	
5.120000e-001	-1.164387e+000	-4.498858e+000	-4.498858e+000	-5.759245e+001	6.304527e+001	-2.969547e+002	-5.582296e+001	-6.538529e+001	1.146147e+002	-1.152550e+000	-4.144909e+000	-4.144909e+000	
5.130000e-001	-1.156672e+000	-4.419103e+000	-4.419103e+000	-6.162254e+001	3.503102e+001	-3.249690e+002	-6.093815e+001	8.823965e+001	8.823965e+001	-1.179348e+000	-4.017252e+000	-4.017252e+000	
5.140000e-001	-1.167187e+000	-4.453578e+000	-4.453578e+000	-5.833071e+001	-6.759421e+001	-4.275942e+002	-5.814103e+001	-4.997732e+001	-4.997732e+001	-1.151856e+000	-4.156718e+000	-4.156718e+000	
5.150000e-001	-1.157853e+000	-4.557949e+000	-4.557949e+000	-5.662559e+001	-7.034254e+001	-4.303425e+002	-6.012051e+001	-8.691500e+001	-8.691500e+001	-1.162189e+000	-4.171727e+000	-4.171727e+000	
5.160000e-001	-1.171710e+000	-4.473614e+000	-4.473614e+000	-6.631632e+001	-5.544309e+001	-4.154431e+002	-5.721201e+001	8.355490e+001	-9.644510e+001	-1.158254e+000	-4.115918e+000	-4.115918e+000	
5.170000e-001	-1.157367e+000	-4.566402e+000	-4.566402e+000	-5.816036e+001	-5.369459e+001	-4.136946e+002	-5.773270e+001	-3.586229e+001	-2.158623e+002	-1.155133e+000	-4.121530e+000	-4.121530e+000	
5.180000e-001	-1.161192e+000	-4.643468e+000	-4.643468e+000	-5.476333e+001	8.684472e+001	-4.531553e+002	-5.952613e+001	6.978406e+001	-1.102159e+002	-1.156102e+000	-4.163998e+000	-4.163998e+000	
5.190000e-001	-1.154310e+000	-4.676765e+000	-4.676765e+000	-5.838057e+001	-8.127064e+001	-4.412706e+002	-5.667873e+001	-8.261965e+001	-8.261965e+001	-1.158867e+000	-4.268656e+000	-4.268656e+000	
5.200000e-001	-1.168726e+000	-4.509389e+000	-4.509389e+000	-5.304185e+001	8.197396e+001	-4.580260e+002	-5.182519e+001	4.346148e+001	4.346148e+001	-1.157560e+000	-4.162708e+000	-4.162708e+000	
5.210000e-001	-1.164452e+000	-4.622916e+000	-4.622916e+000	-5.607456e+001	-8.343625e+001	-4.434363e+002	-5.489107e+001	5.531764e+001	5.531764e+001	-1.154377e+000	-4.272446e+000	-4.272446e+000	
5.220000e-001	-1.150561e+000	-4.744161e+000	-4.744161e+000	-5.647366e+001	7.351900e+001	-4.664810e+002	-5.863226e+001	-8.510403e+001	9.489597e+001	-1.171274e+000	-4.229631e+000	-4.229631e+000	
5.230000e-001	-1.157555e+000	-4.567500e+000	-4.567500e+000	-5.689136e+001	2.238883e+001	-5.176112e+002	-6.161391e+001	3.547555e+001	2.154755e+002	-1.171062e+000	-4.280960e+000	-4.280960e+000	
5.240000e-001	-1.156162e+000	-4.664058e+000	-4.664058e+000	-5.292752e+001	8.468515e+001	-4.553148e+002	-5.650162e+001	6.008301e+001	2.400830e+002	-1.159025e+000	-4.324592e+000	-4.324592e+000	
5.250000e-001	-1.161659e+000	-4.704005e+000	-4.704005e+000	-5.785738e+001	6.674568e+001	-4.732543e+002	-5.574896e+001	8.368591e+001	2.636859e+002	-1.157196e+000	-4.235621e+000	-4.235621e+000	
5.260000e-001	-1.142903e+000	-4.603876e+000	-4.603876e+000	-5.625454e+001	6.182577e+001	-4.781742e+002	-5.608726e+001	8.349542e+001	2.634954e+002	-1.167165e+000	-4.263756e+000	-4.263756e+000	
5.270000e-001	-1.159027e+000	-4.774755e+000	-4.774755e+000	-5.741443e+001	7.447326e+001	-4.655267e+002	-5.412421e+001	-8.476285e+001	2.752372e+002	-1.151056e+000	-4.337126e+000	-4.337126e+000	
5.280000e-001	-1.170380e+000	-4.750339e+000	-4.750339e+000	-5.878453e+001	-6.825273e+001	-4.282527e+002	-5.514125e+001	3.148303e+001	3.914830e+002	-1.166358e+000	-4.242484e+000	-4.242484e+000	
5.290000e-001	-1.143788e+000	-4.643757e+000	-4.643757e+000	-5.909461e+001	7.612919e+001	-4.638708e+002	-5.157226e+001	6.977581e+001	4.297758e+002	-1.161343e+000	-4.261756e+000	-4.261756e+000	
5.300000e-001	-1.152175e+000	-4.835237e+000	-4.835237e+000	-5.588807e+001	-4.294057e+001	-5.829406e+002	-5.878519e+001	8.603109e+001	4.460311e+002	-1.160152e+000	-4.281174e+000	-4.281174e+000	
5.310000e-001	-1.159111e+000	-4.701054e+000	-4.701054e+000	-5.669912e+001	-8.441904e+001	-6.244190e+002	-5.950604e+001	-7.180941e+001	4.681906e+002	-1.150513e+000	-4.309589e+000	-4.309589e+000	
5.320000e-001	-1.160955e+000	-4.660736e+000	-4.660736e+000	-6.046958e+001	-7.804082e+001	-6.180408e+002	-5.708808e+001	8.297866e+001	4.429787e+002	-1.176581e+000	-4.446911e+000	-4.446911e+000	
5.330000e-001	-1.150198e+000	-4.754609e+000	-4.754609e+000	-6.130099e+001	3.054926e+001	-5.094507e+002	-5.904780e+001	4.859763e+001	4.085976e+002	-1.171302e+000	-4.362918e+000	-4.362918e+000	
5.340000e-001	-1.151772e+000	-4.662531e+000	-4.662531e+000	-5.787345e+001	-5.744286e+001	-5.974429e+002	-5.522944e+001	8.572107e+001	4.457211e+002	-1.157790e+000	-4.299774e+000	-4.299774e+000	
5.350000e-001	-1.165189e+000	-4.782353e+000	-4.782353e+000	-5.751695e+001	-6.075844e+001	-6.007584e+002	-5.405660e+001	-8.320778e+001	4.567922e+002	-1.169907e+000	-4.376992e+000	-4.376992e+000	
5.360000e-001	-1.148935e+000	-4.744205e+000	-4.744205e+000	-5.265093e+001	6.906974e+001	-4.709303e+002	-5.397939e+001	8.775510e+001	4.477551e+002	-1.175858e+000	-4.389676e+000	-4.389676e+000	
5.370000e-001	-1.187392e+000	-4.837029e+000	-4.837029e+000	-5.324574e+001	7.722674e+001	-4.627733e+002	-5.948877e+001	4.872557e+001	4.087256e+002	-1.157519e+000	-4.446879e+000	-4.446879e+000	
5.380000e-001	-1.174558e+000	-4.663787e+000	-4.663787e+000	-5.399279e+001	4.832649e+001	-4.916735e+002	-5.566338e+001	-6.414939e+001	2.958506e+002	-1.162971e+000	-4.353911e+000	-4.353911e+000	
5.390000e-001	-1.156642e+000	-4.815491e+000	-4.815491e+000	-5.646880e+001	7.797931e+001	-4.620207e+002	-5.654523e+001	7.253898e+001	4.325390e+002	-1.163336e+000	-4.489380e+000	-4.489380e+000	
5.400000e-001	-1.153759e+000	-4.811046e+000	-4.811046e+000	-5.560987e+001	-8.998574e+001	-4.499857e+002	-5.594575e+001	8.574116e+001	4.457412e+002	-1.159878e+000	-4.405001e+000	-4.405001e+000	
5.410000e-001	-1.157246e+000	-4.684923e+000	-4.684923e+000	-5.610185e+001	6.023057e+001	-4.797694e+002	-5.441329e+001	-8.665748e+001	4.533425e+002	-1.161933e+000	-4.398225e+000	-4.398225e+000	
5.420000e-001	-1.168896e+000	-4.764774e+000	-4.764774e+000	-5.514199e+001	8.447065e+001	-4.555294e+002	-5.952549e+001	-3.602470e+001	5.039753e+002	-1.163815e+000	-4.409402e+000	-4.409402e+000	
5.430000e-001	-1.163490e+000	-4.825469e+000	-4.825469e+000	-5.873650e+001	5.739233e+001	-4.826077e+002	-5.598118e+001	-7.118100e+001	4.688190e+002	-1.173222e+000	-4.392301e+000	-4.392301e+000	
5.440000e-001	-1.168490e+000	-4.894182e+000	-4.894182e+000	-5.576790e+001	-7.810177e+001	-6.181018e+002	-6.442861e+001	5.890389e+001	5.989039e+002	-1.162419e+000	-4.361044e+000	-4.361044e+000	
5.450000e-001	-1.167921e+000	-4.765988e+000	-4.765988e+000	-5.582326e+001	-7.606514e+001	-6.160651e+002	-5.703445e+001	-3.258613e+001	5.074139e+002	-1.162705e+000	-4.515921e+000	-4.515921e+000	
5.460000e-001	-1.166631e+000	-4.914369e+000	-4.914369e+000	-6.072027e+001	8.503704e+001	-6.349630e+002	-5.860396e+001	4.275373e+001	5.827537e+002	-1.154414e+000	-4.432950e+000	-4.432950e+000	
5.470000e-001	-1.156180e+000	-4.842303e+000	-4.842303e+000	-5.670497e+001	5.402930e+001	-6.659707e+002	-5.800906e+001	3.687652e+001	5.768765e+002	-1.162160e+000	-4.367925e+000	-4.367925e+000	
5.480000e-001	-1.160603e+000	-4.809361e+000	-4.809361e+000	-5.459860e+001	6.431855e+001	-6.556815e+002	-5.634696e+001	8.154865e+001	6.215486e+002	-1.176005e+000	-4.452509e+000	-4.452509e+000	
5.490000e-001	-1.157135e+000	-4.873147e+000	-4.873147e+000	-5.642947e+001	-8.702796e+001	-6.270280e+002	-5.868848e+001	-4.171901e+001	4.982810e+002	-1.155158e+000	-4.522216e+000	-4.522216e+000	
5.500000e-001	-1.162751e+000	-4.778756e+000	-4.778756e+000	-5.618916e+001	-7.169393e+001	-6.116939e+002	-5.579179e+001	8.484640e+001	6.248464e+002	-1.157321e+000	-4.538644e+000	-4.538644e+000	
5.510000e-001	-1.166806e+000	-4.785267e+000	-4.785267e+000	-6.214721e+001	5.612816e+001	-4.838718e+002	-5.795009e+001	4.043649e+001	5.804365e+002	-1.167703e+000	-4.526562e+000	-4.526562e+000	
5.520000e-001	-1.161799e+000	-4.747455e+000	-4.747455e+000	-5.961445e+001	-6.980910e+001	-6.098091e+002	-5.471197e+001	7.200879e+001	6.120088e+002	-1.162362e+000	-4.555151e+000	-4.555151e+000	
5.530000e-001	-1.154195e+000	-4.809629e+000	-4.809629e+000	-5.267436e+001	6.780132e+001	-4.721987e+002	-5.880389e+001	7.598495e+001	6.159849e+002	-1.158129e+000	-4.493148e+000	-4.493148e+000	
5.540000e-001	-1.157141e+000	-4.687687e+000	-4.687687e+000	-5.981969e+001	2.234893e+001	-5.176511e+002	-5.240907e+001	-7.709872e+001	6.429013e+002	-1.166269e+000	-4.365863e+000	-4.365863e+000	
5.550000e-001	-1.169015e+000	-4.861587e+000	-4.861587e+000	-5.302339e+001	8.606688e+001	-4.539331e+002	-5.601817e+001	-8.593570e+001	6.340643e+002	-1.161852e+000	-4.450349e+000	-4.450349e+000	
5.560000e-001	-1.170815e+000	-4.813996e+000	-4.813996e+000	-5.733581e+001	6.940525e+001	-4.705947e+002	-6.303081e+001	6.021324e+001	6.002132e+002	-1.155239e+000	-4.598470e+000	-4.598470e+000	
5.570000e-001	-1.150753e+000	-4.861058e+000	-4.861058e+000	-5.767611e+001	5.570045e+001	-4.842995e+002	-5.786677e+001	4.987388e+001	5.898739e+002	-1.160259e+000	-4.553068e+000	-4.553068e+000	
5.580000e-001	-1.155453e+000	-4.844460e+000	-4.844460e+000	-5.960293e+001	4.924000e+001	-4.907600e+002	-5.420310e+001	5.988317e+001	5.998832e+002	-1.156666e+000	-4.400772e+000	-4.400772e+000	
5.590000e-001	-1.162228e+000	-4.773919e+000	-4.773919e+000	-6.965386e+001	-4.071628e+001	-5.807163e+002	-5.882410e+001	-6.370079e+001	4.762992e+002	-1.151501e+000	-4.506677e+000	-4.506677e+000	
5.600000e-001	-1.166753e+000	-4.865621e+000	-4.865621e+000	-5.937676e+001	-7.426961e+001	-6.142696e+002	-5.497775e+001	5.975303e+001	5.997530e+002	-1.159727e+000	-4.466616e+000	-4.466616e+000	
5.610000e-001	-1.164269e+000	-4.883850e+000	-4.883850e+000	-7.627555e+001	2.408949e+001	-5.159105e+002	-5.348847e+001	6.387300e+001	6.038730e+002	-1.152580e+000	-4.553184e+000	-4.553184e+000	
5.620000e-001	-1.156370e+000	-4.931763e+000	-4.931763e+000	-5.501958e+001	3.600455e+001	-5.039955e+002	-5.453407e+001	8.700349e+001	6.270035e+002	-1.170563e+000	-4.620978e+000	-4.620978e+000	
5.630000e-001	-1.147781e+000	-4.891871e+000	-4.891871e+000	-5.989381e+001	8.037698e+001	-4.596230e+002	-5.416898e+001	7.684934e+001	6.168493e+002	-1.153074e+000	-4.494504e+000	-4.494504e+000	
5.640000e-001	-1.152128e+000	-4.927590e+000	-4.927590e+000	-5.394530e+001	-8.837216e+001	-4.483722e+002	-5.688701e+001	8.067074e+001	6.206707e+002	-1.149549e+000	-4.507012e+000	-4.507012e+000	
5.650000e-001	-1.165567e+000	-4.780978e+000	-4.780978e+000	-6.848749e+001	7.048832e+001	-4.695117e+002	-6.357747e+001	-8.284047e+001	6.371595e+002	-1.163075e+000	-4.506548e+000	-4.506548e+000	
5.660000e-001	-1.171214e+000	-4.789632e+000	-4.789632e+000	-7.332253e+001	-4.021644e+001	-5.802164e+002	-5.617956e+001	6.503346e+001	6.050335e+002	-1.161321e+000	-4.536594e+000	-4.536594e+000	
5.670000e-001	-1.144461e+000	-4.878621e+000	-4.878621e+000	-5.629843e+001	7.610731e+001	-4.638927e+002	-5.968079e+001	8.245981e+001	6.224598e+002	-1.160203e+000	-4.529128e+000	-4.529128e+000	
5.680000e-001	-1.159705e+000	-4.886230e+000	-4.886230e+000	-5.430249e+001	4.672846e+001	-4.932715e+002	-5.780640e+001	7.373831e+001	6.137383e+002	-1.148107e+000	-4.488822e+000	-4.488822e+000	
5.690000e-001	-1.155570e+000	-4.942534e+000	-4.942534e+000	-5.839760e+001	7.326098e+001	-4.667390e+002	-5.500769e+001	-8.979816e+001	6.302018e+002	-1.159909e+000	-4.536363e+000	-4.536363e+000	
5.700000e-001	-1.179187e+000	-4.854637e+000	-4.854637e+000	-6.315697e+001	8.070339e+001	-4.592966e+002	-5.931115e+001	8.755978e+001	6.275598e+002	-1.166565e+000	-4.587943e+000	-4.587943e+000	
5.710000e-001	-1.164592e+000	-4.927150e+000	-4.927150e+000	-5.815087e+001	-8.062884e+001	-4.406288e+002	-5.657832e+001	3.048993e+001	5.704899e+002	-1.156614e+000	-4.566559e+000	-4.566559e+000	
5.720000e-001	-1.172982e+000	-4.879907e+000	-4.879907e+000	-5.325475e+001	2.911052e+001	-3.308895e+002	-5.403321e+001	7.472240e+001	6.147224e+002	-1.153681e+000	-4.594533e+000	-4.594533e+000	
5.730000e-001	-1.149728e+000	-4.871336e+000	-4.871336e+000	-6.170340e+001	6.562006e+001	-2.943799e+002	-5.573773e+001	7.318516e+001	6.131852e+002	-1.153827e+000	-4.587578e+000	-4.587578e+000	
5.740000e-001	-1.173804e+000	-4.934001e+000	-4.934001e+000	-6.438243e+001	5.317298e+001	-3.068270e+002	-5.397759e+001	8.016407e+001	6.201641e+002	-1.160044e+000	-4.557915e+000	-4.557915e+000	
5.750000e-001	-1.173304e+000	-4.859675e+000	-4.859675e+000	-5.766568e+001	6.295366e+001	-2.970463e+002	-6.966914e+001	8.217875e+001	6.221787e+002	-1.149335e+000	-4.531933e+000	-4.531933e+000	
5.760000e-001	-1.169335e+000	-4.909268e+000	-4.909268e+000	-5.403714e+001	-7.008900e+001	-4.300890e+002	-5.816031e+001	-2.227902e+001	5.177210e+002	-1.157962e+000	-4.597285e+000	-4.597285e+000	
5.770000e-001	-1.173996e+000	-5.024958e+000	-5.024958e+000	-5.338442e+001	8.089978e+001	-4.591002e+002	-5.556456e+001	8.966881e+001	6.296688e+002	-1.145642e+000	-4.515755e+000	-4.515755e+000	
5.780000e-001	-1.159467e+000	-4.954720e+000	-4.954720e+000	-5.648509e+001	8.668864e+001	-4.533114e+002	-5.853391e+001	6.055658e+001	6.005566e+002	-1.154924e+000	-4.511988e+000	-4.511988e+000	
5.790000e-001	-1.165258e+000	-4.924801e+000	-4.924801e+000	-6.182000e+001	-1.053056e+001	-5.505306e+002	-5.937371e+001	5.985136e+001	5.998514e+002	-1.158557e+000	-4.526324e+000	-4.526324e+000	
5.800000e-001	-1.148720e+000	-4.961090e+000	-4.961090e+000	-6.047299e+001	-5.490238e+001	-5.949024e+002	-6.880973e+001	1.448160e+001	5.544816e+002	-1.157502e+000	-4.635196e+000	-4.635196e+000	
5.810000e-001	-1.170001e+000	-4.880466e+000	-4.880466e+000	-6.708087e+001	-6.200446e+001	-6.020045e+002	-5.564645e+001	7.232224e+001	6.123222e+002	-1.158667e+000	-4.626817e+000	-4.626817e+000	
5.820000e-001	-1.158122e+000	-4.901458e+000	-4.901458e+000	-5.787463e+001	-8.732398e+001	-6.273240e+002	-5.251610e+001	5.561153e+001	5.956115e+002	-1.147402e+000	-4.606957e+000	-4.606957e+000	
5.830000e-001	-1.175102e+000	-4.866183e+000	-4.866183e+000	-5.317637e+001	5.147492e+001	-4.885251e+002	-6.172762e+001	3.828813e+001	5.782881e+002	-1.168065e+000	-4.547361e+000	-4.547361e+000	
5.840000e-001	-1.159604e+000	-5.027118e+000	-5.027118e+000	-5.642618e+001	-7.930625e+001	-6.193063e+002	-5.763615e+001	-7.744353e+001	4.625565e+002	-1.166336e+000	-4.605750e+000	-4.605750e+000	
5.850000e-001	-1.169029e+000	-5.055303e+000	-5.055303e+000	-5.777027e+001	6.579974e+001	-6.542003e+002	-6.020066e+001	-8.617952e+001	4.538205e+002	-1.169673e+000	-4.692975e+000	-4.692975e+000	
5.860000e-001	-1.155966e+000	-4.953895e+000	-4.953895e+000	-6.791718e+001	-8.492028e+001	-6.249203e+002	-5.434598e+001	7.618725e+001	4.361873e+002	-1.152095e+000	-4.693809e+000	-4.693809e+000	
5.870000e-001	-1.169103e+000	-4.995559e+000	-4.995559e+000	-5.770223e+001	-8.323159e+001	-6.232316e+002	-6.108494e+001	7.559784e+001	4.355978e+002	-1.176133e+000	-4.671814e+000	-4.671814e+000	
5.880000e-001	-1.173626e+000	-4.970660e+000	-4.970660e+000	-5.596099e+001	-8.509920e+001	-6.250992e+002	-7.079887e+001	7.116449e+001	4.311645e+002	-1.156741e+000	-4.758565e+000	-4.758565e+000	
5.890000e-001	-1.169686e+000	-4.986120e+000	-4.986120e+000	-5.919460e+001	7.473343e+001	-6.452666e+002	-5.528004e+001	-8.572148e+001	4.542785e+002	-1.156951e+000	-4.778277e+000	-4.778277e+000	
5.900000e-001	-1.177536e+000	-4.994357e+000	-4.994357e+000	-5.661712e+001	8.447550e+001	-6.355245e+002	-5.897976e+001	7.941582e+001	4.394158e+002	-1.155890e+000	-4.611170e+000	-4.611170e+000	
5.910000e-001	-1.151284e+000	-5.013515e+000	-5.013515e+000	-6.070681e+001	-4.395775e+000	-7.243958e+002	-5.377187e+001	8.605178e+001	4.460518e+002	-1.149576e+000	-4.614576e+000	-4.614576e+000	
5.920000e-001	-1.154714e+000	-4.932086e+000	-4.932086e+000	-5.663640e+001	-6.906095e+001	-7.890609e+002	-5.791550e+001	7.199054e+001	4.319905e+002	-1.150690e+000	-4.749495e+000	-4.749495e+000	
5.930000e-001	-1.184046e+000	-5.046900e+000	-5.046900e+000	-6.059043e+001	2.900607e+001	-6.909939e+002	-5.623561e+001	8.859339e+001	4.485934e+002	-1.156583e+000	-4.721791e+000	-4.721791e+000	
5.940000e-001	-1.165027e+000	-5.027653e+000	-5.027653e+000	-6.172881e+001	2.770788e+001	-6.922921e+002	-5.386530e+001	-4.044393e+001	3.195561e+002	-1.147352e+000	-4.746881e+000	-4.746881e+000	
5.950000e-001	-1.161602e+000	-5.072887e+000	-5.072887e+000	-5.715192e+001	-7.259747e+001	-7.925975e+002	-5.605888e+001	-5.859824e+001	3.014018e+002	-1.160071e+000	-4.682306e+000	-4.682306e+000	
5.960000e-001	-1.171623e+000	-5.219551e+000	-5.219551e+000	-5.843132e+001	8.666643e+001	-8.133336e+002	-5.939848e+001	5.630705e+001	4.163070e+002	-1.171685e+000	-4.789309e+000	-4.789309e+000	
5.970000e-001	-1.170455e+000	-5.094434e+000	-5.094434e+000	-5.654547e+001	8.243169e+001	-8.175683e+002	-5.486308e+001	7.275328e+001	4.327533e+002	-1.166655e+000	-4.778083e+000	-4.778083e+000	
5.980000e-001	-1.173915e+000	-5.214233e+000	-5.214233e+000	-5.845875e+001	-2.835889e+001	-9.283589e+002	-5.860771e+001	6.732139e+001	4.273214e+002	-1.159006e+000	-4.705714e+000	-4.705714e+000	
5.990000e-001	-1.155088e+000	-5.254729e+000	-5.254729e+000	-5.286966e+001	8.370788e+001	-8.162921e+002	-5.584865e+001	7.986805e+001	4.398681e+002	-1.159784e+000	-4.734189e+000	-4.734189e+000	
6.000000e-001	-1.169983e+000	-5.059414e+000	-5.059414e+000	-5.764311e+001	-8.938358e+001	-8.093836e+002	-5.658262e+001	8.378364e+001	4.437836e+002	-1.151467e+000	-4.794567e+000	-4.794567e+000	
6.010000e-001	-1.179437e+000	-5.178231e+000	-5.178231e+000	-5.884090e+001	-7.448001e+001	-7.944800e+002	-5.857492e+001	-5.682708e+001	4.831729e+002	-1.150871e+000	-4.792092e+000	-4.792092e+000	
6.020000e-001	-1.172203e+000	-5.175671e+000	-5.175671e+000	-6.740791e+001	-6.231006e+001	-7.823101e+002	-5.810630e+001	4.523419e+001	5.852342e+002	-1.185179e+000	-4.759611e+000	-4.759611e+000	
