Frequency	 |S11|	 Phase(S11)	 ExtPh(S11)	 |S21|	 Phase(S21)	 ExtPh(S21)	 |S12|	 Phase(S12)	 ExtPh(S12)	 |S22|	 Phase(S22)	 ExtPh(S22) 
5.000000e-001	-1.144134e+000	-4.394373e+000	-4.394373e+000	-6.354952e+001	-6.167842e+001	-6.167842e+001	-5.530487e+001	8.300675e+001	8.300675e+001	-1.167901e+000	-3.869543e+000	-3.869543e+000	
5.010000e-001	-1.129259e+000	-4.324594e+000	-4.324594e+000	-5.869654e+001	7.623208e+001	7.623208e+001	-5.597255e+001	-8.472472e+001	9.527528e+001	-1.165661e+000	-3.839090e+000	-3.839090e+000	
5.020000e-001	-1.150121e+000	-4.304108e+000	-4.304108e+000	-6.755884e+001	5.031325e+001	5.031325e+001	-5.468171e+001	-7.377938e+001	1.062206e+002	-1.161970e+000	-3.890016e+000	-3.890016e+000	
5.030000e-001	-1.135897e+000	-4.465033e+000	-4.465033e+000	-6.367515e+001	-3.260867e+001	-3.260867e+001	-5.802484e+001	-7.221351e+001	1.077865e+002	-1.169041e+000	-3.991424e+000	-3.991424e+000	
5.040000e-001	-1.151230e+000	-4.306394e+000	-4.306394e+000	-5.844741e+001	8.018970e+001	8.018970e+001	-5.900096e+001	8.412769e+001	8.412769e+001	-1.157568e+000	-4.008497e+000	-4.008497e+000	
5.050000e-001	-1.156904e+000	-4.385650e+000	-4.385650e+000	-5.183598e+001	7.834713e+001	7.834713e+001	-5.597247e+001	6.935549e+001	6.935549e+001	-1.160136e+000	-4.011727e+000	-4.011727e+000	
5.060000e-001	-1.142038e+000	-4.351177e+000	-4.351177e+000	-5.594448e+001	-8.835264e+001	9.164736e+001	-5.627658e+001	7.839282e+001	7.839282e+001	-1.164551e+000	-3.906138e+000	-3.906138e+000	
5.070000e-001	-1.140859e+000	-4.398907e+000	-4.398907e+000	-5.510558e+001	-5.458449e+001	1.254155e+002	-8.332620e+001	-7.820086e+001	1.017991e+002	-1.168483e+000	-4.067145e+000	-4.067145e+000	
5.080000e-001	-1.140096e+000	-4.519951e+000	-4.519951e+000	-5.587549e+001	7.222462e+001	2.522246e+002	-6.427555e+001	8.330063e+001	8.330063e+001	-1.150494e+000	-4.149543e+000	-4.149543e+000	
5.090000e-001	-1.141926e+000	-4.362962e+000	-4.362962e+000	-5.604232e+001	5.791364e+001	2.379136e+002	-5.796257e+001	2.327598e+001	2.327598e+001	-1.179757e+000	-4.089010e+000	-4.089010e+000	
5.100000e-001	-1.134939e+000	-4.484017e+000	-4.484017e+000	-5.730175e+001	6.116001e+001	2.411600e+002	-5.618551e+001	7.739310e+001	7.739310e+001	-1.158639e+000	-4.156151e+000	-4.156151e+000	
5.110000e-001	-1.130753e+000	-4.521671e+000	-4.521671e+000	-5.393688e+001	-5.588633e+001	1.241137e+002	-5.653117e+001	7.935119e+001	7.935119e+001	-1.158008e+000	-4.077171e+000	-4.077171e+000	
5.120000e-001	-1.146448e+000	-4.427415e+000	-4.427415e+000	-5.748022e+001	7.432266e+001	2.543227e+002	-5.450259e+001	6.088430e+001	6.088430e+001	-1.165853e+000	-4.084067e+000	-4.084067e+000	
5.130000e-001	-1.123608e+000	-4.436551e+000	-4.436551e+000	-6.617382e+001	-7.009340e+001	2.899066e+002	-6.063612e+001	-6.096914e+001	-6.096914e+001	-1.167677e+000	-4.074735e+000	-4.074735e+000	
5.140000e-001	-1.151156e+000	-4.482782e+000	-4.482782e+000	-5.971305e+001	-8.508147e+000	3.514919e+002	-5.440096e+001	3.768159e+001	3.768159e+001	-1.154102e+000	-4.032846e+000	-4.032846e+000	
5.150000e-001	-1.131722e+000	-4.459619e+000	-4.459619e+000	-5.624377e+001	4.453062e+001	4.045306e+002	-5.613668e+001	5.972314e+001	5.972314e+001	-1.166204e+000	-4.181455e+000	-4.181455e+000	
5.160000e-001	-1.122479e+000	-4.554359e+000	-4.554359e+000	-5.696224e+001	8.873934e+001	4.487393e+002	-5.553041e+001	4.507688e+001	4.507688e+001	-1.169714e+000	-4.119530e+000	-4.119530e+000	
5.170000e-001	-1.134128e+000	-4.608215e+000	-4.608215e+000	-6.964835e+001	-7.284378e+001	4.671562e+002	-5.890021e+001	-6.771005e+001	-6.771005e+001	-1.177835e+000	-4.104105e+000	-4.104105e+000	
5.180000e-001	-1.133042e+000	-4.582984e+000	-4.582984e+000	-6.416486e+001	7.763395e+001	4.376340e+002	-6.127415e+001	8.971735e+001	-9.028265e+001	-1.161760e+000	-4.160928e+000	-4.160928e+000	
5.190000e-001	-1.147419e+000	-4.500840e+000	-4.500840e+000	-5.525757e+001	8.323845e+001	4.432384e+002	-5.795867e+001	-7.782324e+001	-7.782324e+001	-1.180725e+000	-4.193891e+000	-4.193891e+000	
5.200000e-001	-1.155734e+000	-4.448799e+000	-4.448799e+000	-5.811571e+001	5.558445e+001	4.155844e+002	-6.365898e+001	8.386870e+001	-9.613130e+001	-1.169162e+000	-4.167423e+000	-4.167423e+000	
5.210000e-001	-1.155251e+000	-4.538507e+000	-4.538507e+000	-5.814824e+001	-5.057438e+001	3.094256e+002	-6.674579e+001	-3.601315e+001	-2.160131e+002	-1.156885e+000	-4.134867e+000	-4.134867e+000	
5.220000e-001	-1.141663e+000	-4.485737e+000	-4.485737e+000	-5.866287e+001	4.974171e+001	4.097417e+002	-6.114961e+001	6.749481e+001	-1.125052e+002	-1.168464e+000	-4.272178e+000	-4.272178e+000	
5.230000e-001	-1.158452e+000	-4.572862e+000	-4.572862e+000	-6.792786e+001	-2.038755e+001	3.396125e+002	-5.912836e+001	-7.717469e+001	-7.717469e+001	-1.158898e+000	-4.254495e+000	-4.254495e+000	
5.240000e-001	-1.152740e+000	-4.646915e+000	-4.646915e+000	-5.667564e+001	-4.982367e+001	3.101763e+002	-5.937342e+001	7.507236e+001	-1.049276e+002	-1.161177e+000	-4.304703e+000	-4.304703e+000	
5.250000e-001	-1.153482e+000	-4.609466e+000	-4.609466e+000	-5.891339e+001	-6.489683e+001	2.951032e+002	-7.594751e+001	-5.605588e+001	-2.360559e+002	-1.167444e+000	-4.258987e+000	-4.258987e+000	
5.260000e-001	-1.153230e+000	-4.650407e+000	-4.650407e+000	-5.744061e+001	7.186567e+001	4.318657e+002	-5.556589e+001	8.293872e+001	-9.706128e+001	-1.163022e+000	-4.224858e+000	-4.224858e+000	
5.270000e-001	-1.140361e+000	-4.597125e+000	-4.597125e+000	-5.730886e+001	-3.821179e+001	3.217882e+002	-6.505858e+001	8.600642e+001	-9.399358e+001	-1.162161e+000	-4.292058e+000	-4.292058e+000	
5.280000e-001	-1.138072e+000	-4.708787e+000	-4.708787e+000	-5.127335e+001	4.614298e+001	4.061430e+002	-5.130493e+001	-8.626690e+001	-8.626690e+001	-1.170501e+000	-4.194292e+000	-4.194292e+000	
5.290000e-001	-1.141500e+000	-4.672040e+000	-4.672040e+000	-5.881110e+001	7.559234e+001	4.355923e+002	-6.014301e+001	-8.701561e+001	-8.701561e+001	-1.173929e+000	-4.302948e+000	-4.302948e+000	
5.300000e-001	-1.142366e+000	-4.646731e+000	-4.646731e+000	-6.246026e+001	-8.685009e+001	4.531499e+002	-5.907139e+001	8.186936e+001	-9.813064e+001	-1.171232e+000	-4.301955e+000	-4.301955e+000	
5.310000e-001	-1.155904e+000	-4.512876e+000	-4.512876e+000	-6.821524e+001	7.622734e+001	4.362273e+002	-5.795869e+001	3.709353e+001	-1.429065e+002	-1.155028e+000	-4.265843e+000	-4.265843e+000	
5.320000e-001	-1.142892e+000	-4.703742e+000	-4.703742e+000	-6.086803e+001	-8.397615e+001	4.560239e+002	-6.177665e+001	-1.077232e+001	-1.907723e+002	-1.157909e+000	-4.284568e+000	-4.284568e+000	
5.330000e-001	-1.145936e+000	-4.609443e+000	-4.609443e+000	-6.283635e+001	6.760427e+001	4.276043e+002	-5.249415e+001	8.302462e+001	-9.697538e+001	-1.166618e+000	-4.387486e+000	-4.387486e+000	
5.340000e-001	-1.146256e+000	-4.611672e+000	-4.611672e+000	-6.236623e+001	-7.873336e+001	4.612666e+002	-5.850410e+001	6.504052e+001	-1.149595e+002	-1.150725e+000	-4.331652e+000	-4.331652e+000	
5.350000e-001	-1.154491e+000	-4.780038e+000	-4.780038e+000	-5.661380e+001	7.003266e+001	4.300327e+002	-5.805734e+001	8.400433e+001	-9.599567e+001	-1.179326e+000	-4.337578e+000	-4.337578e+000	
5.360000e-001	-1.156851e+000	-4.727618e+000	-4.727618e+000	-5.963249e+001	4.842426e+001	4.084243e+002	-5.399506e+001	4.484412e+001	-1.351559e+002	-1.175135e+000	-4.258285e+000	-4.258285e+000	
5.370000e-001	-1.150771e+000	-4.760620e+000	-4.760620e+000	-5.477902e+001	4.496127e+001	4.049613e+002	-6.580349e+001	-7.372209e+001	-2.537221e+002	-1.174562e+000	-4.425656e+000	-4.425656e+000	
5.380000e-001	-1.141153e+000	-4.767824e+000	-4.767824e+000	-5.712598e+001	7.193937e+001	4.319394e+002	-6.135096e+001	6.226327e+001	-1.177367e+002	-1.155693e+000	-4.337354e+000	-4.337354e+000	
5.390000e-001	-1.147931e+000	-4.726049e+000	-4.726049e+000	-5.542022e+001	4.495239e+001	4.049524e+002	-5.895220e+001	8.930848e+001	-9.069152e+001	-1.165236e+000	-4.380451e+000	-4.380451e+000	
5.400000e-001	-1.151660e+000	-4.775517e+000	-4.775517e+000	-5.885095e+001	6.500712e+001	4.250071e+002	-5.850148e+001	4.921276e+001	-1.307872e+002	-1.166766e+000	-4.369123e+000	-4.369123e+000	
5.410000e-001	-1.126844e+000	-4.725460e+000	-4.725460e+000	-6.272532e+001	7.724070e+001	4.372407e+002	-5.940387e+001	5.928164e+001	-1.207184e+002	-1.167483e+000	-4.336901e+000	-4.336901e+000	
5.420000e-001	-1.135443e+000	-4.791312e+000	-4.791312e+000	-6.931766e+001	-1.637429e+000	3.583626e+002	-5.777621e+001	8.364876e+001	-9.635124e+001	-1.178890e+000	-4.273987e+000	-4.273987e+000	
5.430000e-001	-1.143181e+000	-4.859430e+000	-4.859430e+000	-6.589382e+001	-4.493539e+001	3.150646e+002	-5.656959e+001	-7.353017e+001	-7.353017e+001	-1.156566e+000	-4.344151e+000	-4.344151e+000	
5.440000e-001	-1.139557e+000	-4.703597e+000	-4.703597e+000	-6.755648e+001	-4.879765e+001	3.112023e+002	-5.868163e+001	8.743943e+001	-9.256057e+001	-1.163427e+000	-4.396199e+000	-4.396199e+000	
5.450000e-001	-1.136495e+000	-4.803610e+000	-4.803610e+000	-5.677595e+001	6.771983e+001	4.277198e+002	-6.642373e+001	-6.521270e+001	-6.521270e+001	-1.183934e+000	-4.371359e+000	-4.371359e+000	
5.460000e-001	-1.139788e+000	-4.737125e+000	-4.737125e+000	-5.472518e+001	3.712334e+001	3.971233e+002	-6.006280e+001	5.834482e+001	5.834482e+001	-1.163520e+000	-4.369473e+000	-4.369473e+000	
5.470000e-001	-1.133147e+000	-4.767021e+000	-4.767021e+000	-5.707176e+001	8.813850e+001	4.481385e+002	-5.558429e+001	7.026446e+001	7.026446e+001	-1.169117e+000	-4.464646e+000	-4.464646e+000	
5.480000e-001	-1.151504e+000	-4.710579e+000	-4.710579e+000	-5.712464e+001	7.428740e+001	4.342874e+002	-6.311717e+001	-5.588655e+001	-5.588655e+001	-1.170972e+000	-4.352549e+000	-4.352549e+000	
5.490000e-001	-1.143577e+000	-4.761323e+000	-4.761323e+000	-6.477069e+001	6.341456e+001	4.234146e+002	-5.989913e+001	7.203314e+001	7.203314e+001	-1.152624e+000	-4.447761e+000	-4.447761e+000	
5.500000e-001	-1.151806e+000	-4.839351e+000	-4.839351e+000	-5.688723e+001	7.434680e+001	4.343468e+002	-5.970427e+001	7.138171e+001	7.138171e+001	-1.159389e+000	-4.399434e+000	-4.399434e+000	
5.510000e-001	-1.134081e+000	-4.844558e+000	-4.844558e+000	-5.534885e+001	7.426781e+001	4.342678e+002	-5.563351e+001	-5.182884e+001	-5.182884e+001	-1.169560e+000	-4.433680e+000	-4.433680e+000	
5.520000e-001	-1.129654e+000	-4.756078e+000	-4.756078e+000	-5.807740e+001	-7.976983e+001	4.602302e+002	-5.854380e+001	8.333421e+001	8.333421e+001	-1.157846e+000	-4.431944e+000	-4.431944e+000	
5.530000e-001	-1.142550e+000	-4.792056e+000	-4.792056e+000	-6.005509e+001	5.848938e+001	5.984894e+002	-5.471115e+001	8.693100e+001	8.693100e+001	-1.163866e+000	-4.356663e+000	-4.356663e+000	
5.540000e-001	-1.147669e+000	-4.823819e+000	-4.823819e+000	-5.706359e+001	6.754548e+001	6.075455e+002	-6.616316e+001	-8.960310e+001	9.039690e+001	-1.155622e+000	-4.462633e+000	-4.462633e+000	
5.550000e-001	-1.147471e+000	-4.799709e+000	-4.799709e+000	-6.130612e+001	-8.426314e+001	6.357369e+002	-5.682218e+001	-8.937297e+001	9.062703e+001	-1.174171e+000	-4.399914e+000	-4.399914e+000	
5.560000e-001	-1.132270e+000	-4.783059e+000	-4.783059e+000	-5.794935e+001	-8.464678e+001	6.353532e+002	-5.698096e+001	8.077479e+001	8.077479e+001	-1.160154e+000	-4.542211e+000	-4.542211e+000	
5.570000e-001	-1.147274e+000	-4.743134e+000	-4.743134e+000	-6.007680e+001	8.108714e+001	6.210871e+002	-5.877232e+001	8.709642e+001	8.709642e+001	-1.173015e+000	-4.392073e+000	-4.392073e+000	
5.580000e-001	-1.136864e+000	-4.738844e+000	-4.738844e+000	-5.917362e+001	5.021600e+001	5.902160e+002	-5.713480e+001	6.835328e+001	6.835328e+001	-1.172962e+000	-4.434113e+000	-4.434113e+000	
5.590000e-001	-1.137451e+000	-4.751392e+000	-4.751392e+000	-5.973311e+001	6.476193e+001	6.047619e+002	-5.638489e+001	-8.004828e+001	9.995172e+001	-1.147754e+000	-4.530817e+000	-4.530817e+000	
5.600000e-001	-1.159121e+000	-4.745064e+000	-4.745064e+000	-5.347576e+001	5.758393e+001	5.975839e+002	-5.693221e+001	5.395023e+001	2.339502e+002	-1.174017e+000	-4.479995e+000	-4.479995e+000	
5.610000e-001	-1.140357e+000	-4.879861e+000	-4.879861e+000	-6.156217e+001	7.748638e+001	6.174864e+002	-5.609407e+001	7.311931e+001	2.531193e+002	-1.160286e+000	-4.503223e+000	-4.503223e+000	
5.620000e-001	-1.140419e+000	-4.812900e+000	-4.812900e+000	-5.814555e+001	-8.747937e+001	6.325206e+002	-5.740173e+001	6.754935e+001	2.475493e+002	-1.166684e+000	-4.436791e+000	-4.436791e+000	
5.630000e-001	-1.149876e+000	-4.788969e+000	-4.788969e+000	-5.451710e+001	7.195698e+001	6.119570e+002	-6.224001e+001	-8.551726e+001	2.744827e+002	-1.160044e+000	-4.469795e+000	-4.469795e+000	
5.640000e-001	-1.140760e+000	-4.799155e+000	-4.799155e+000	-5.441110e+001	8.675827e+001	6.267583e+002	-5.682652e+001	8.842400e+001	2.684240e+002	-1.179989e+000	-4.456728e+000	-4.456728e+000	
5.650000e-001	-1.145311e+000	-4.855777e+000	-4.855777e+000	-7.357499e+001	6.556993e+001	6.055699e+002	-6.182593e+001	-1.291505e+001	1.670850e+002	-1.151220e+000	-4.506069e+000	-4.506069e+000	
5.660000e-001	-1.154733e+000	-4.846727e+000	-4.846727e+000	-5.606315e+001	5.087190e+001	5.908719e+002	-5.252968e+001	7.910644e+001	2.591064e+002	-1.163414e+000	-4.378539e+000	-4.378539e+000	
5.670000e-001	-1.161144e+000	-4.891863e+000	-4.891863e+000	-5.640563e+001	-8.696689e+001	4.530331e+002	-5.975690e+001	4.301306e+001	2.230131e+002	-1.149847e+000	-4.517619e+000	-4.517619e+000	
5.680000e-001	-1.141119e+000	-4.766124e+000	-4.766124e+000	-5.182254e+001	4.390267e+001	5.839027e+002	-5.712480e+001	7.267690e+001	2.526769e+002	-1.169961e+000	-4.447413e+000	-4.447413e+000	
5.690000e-001	-1.149134e+000	-4.904188e+000	-4.904188e+000	-5.910495e+001	-5.060244e+001	4.893976e+002	-5.491958e+001	6.647398e+001	2.464740e+002	-1.173133e+000	-4.363005e+000	-4.363005e+000	
5.700000e-001	-1.149254e+000	-4.862555e+000	-4.862555e+000	-5.807057e+001	5.760445e+001	5.976045e+002	-6.282153e+001	7.055117e+001	2.505512e+002	-1.160494e+000	-4.505165e+000	-4.505165e+000	
5.710000e-001	-1.154149e+000	-4.757309e+000	-4.757309e+000	-5.563135e+001	6.531168e+001	6.053117e+002	-5.631767e+001	-8.997489e+001	2.700251e+002	-1.162123e+000	-4.620256e+000	-4.620256e+000	
5.720000e-001	-1.141899e+000	-4.868483e+000	-4.868483e+000	-5.831580e+001	-6.189332e+001	4.781067e+002	-6.206825e+001	5.599521e+001	2.359952e+002	-1.175931e+000	-4.587948e+000	-4.587948e+000	
5.730000e-001	-1.153430e+000	-4.807440e+000	-4.807440e+000	-6.125394e+001	5.358021e+001	5.935802e+002	-5.064077e+001	8.564604e+001	2.656460e+002	-1.175269e+000	-4.544998e+000	-4.544998e+000	
5.740000e-001	-1.152471e+000	-4.897081e+000	-4.897081e+000	-5.551359e+001	-8.334846e+001	4.566515e+002	-5.524381e+001	7.689313e+001	2.568931e+002	-1.167523e+000	-4.473953e+000	-4.473953e+000	
5.750000e-001	-1.157456e+000	-4.913062e+000	-4.913062e+000	-5.985691e+001	6.896282e+001	4.289628e+002	-6.288627e+001	-8.354232e+001	2.764577e+002	-1.156616e+000	-4.590117e+000	-4.590117e+000	
5.760000e-001	-1.142942e+000	-4.937539e+000	-4.937539e+000	-6.233197e+001	-9.924466e+000	3.500755e+002	-5.704466e+001	-6.431675e+001	2.956832e+002	-1.164225e+000	-4.627805e+000	-4.627805e+000	
5.770000e-001	-1.147176e+000	-4.831992e+000	-4.831992e+000	-6.559594e+001	7.382668e+001	4.338267e+002	-5.895551e+001	-7.509952e+001	2.849005e+002	-1.161965e+000	-4.631426e+000	-4.631426e+000	
5.780000e-001	-1.155287e+000	-4.857619e+000	-4.857619e+000	-6.388347e+001	2.601390e+001	3.860139e+002	-6.013187e+001	-4.827480e+001	3.117252e+002	-1.167434e+000	-4.479660e+000	-4.479660e+000	
5.790000e-001	-1.144481e+000	-4.950555e+000	-4.950555e+000	-5.641142e+001	8.628152e+001	4.462815e+002	-5.399506e+001	8.372881e+001	4.437288e+002	-1.155936e+000	-4.566899e+000	-4.566899e+000	
5.800000e-001	-1.140999e+000	-4.897692e+000	-4.897692e+000	-5.879634e+001	-7.571163e+001	4.642884e+002	-6.445982e+001	6.686201e+001	4.268620e+002	-1.156886e+000	-4.589329e+000	-4.589329e+000	
5.810000e-001	-1.147970e+000	-4.935697e+000	-4.935697e+000	-6.097266e+001	-8.410197e+001	4.558980e+002	-6.441732e+001	3.659055e+001	3.965905e+002	-1.158723e+000	-4.595077e+000	-4.595077e+000	
5.820000e-001	-1.147461e+000	-4.851994e+000	-4.851994e+000	-5.206500e+001	8.341642e+001	4.434164e+002	-6.302530e+001	5.335973e+001	4.133597e+002	-1.169732e+000	-4.529525e+000	-4.529525e+000	
5.830000e-001	-1.149999e+000	-5.062108e+000	-5.062108e+000	-6.218589e+001	-6.664407e+001	4.733559e+002	-5.773952e+001	7.580284e+001	4.358028e+002	-1.169928e+000	-4.568184e+000	-4.568184e+000	
5.840000e-001	-1.152977e+000	-4.830059e+000	-4.830059e+000	-6.021761e+001	6.560227e+001	6.056023e+002	-5.722177e+001	-7.533515e+001	4.646649e+002	-1.177689e+000	-4.643292e+000	-4.643292e+000	
5.850000e-001	-1.137885e+000	-4.897177e+000	-4.897177e+000	-6.575653e+001	6.364097e+001	6.036410e+002	-5.483269e+001	8.274247e+001	4.427425e+002	-1.171216e+000	-4.598229e+000	-4.598229e+000	
5.860000e-001	-1.154165e+000	-4.942067e+000	-4.942067e+000	-6.021792e+001	8.993991e+001	6.299399e+002	-6.241768e+001	4.356019e+001	4.035602e+002	-1.160405e+000	-4.619184e+000	-4.619184e+000	
5.870000e-001	-1.147919e+000	-4.995804e+000	-4.995804e+000	-6.818329e+001	8.079711e+001	6.207971e+002	-5.665552e+001	6.349226e+001	4.234923e+002	-1.168752e+000	-4.656636e+000	-4.656636e+000	
5.880000e-001	-1.135745e+000	-5.022100e+000	-5.022100e+000	-5.931636e+001	5.894232e+001	5.989423e+002	-6.354790e+001	3.189159e+001	3.918916e+002	-1.163696e+000	-4.642702e+000	-4.642702e+000	
5.890000e-001	-1.153807e+000	-5.004094e+000	-5.004094e+000	-5.896205e+001	-6.483849e+001	4.751615e+002	-5.837790e+001	7.835549e+001	4.383555e+002	-1.175111e+000	-4.638346e+000	-4.638346e+000	
5.900000e-001	-1.161213e+000	-4.913343e+000	-4.913343e+000	-5.737149e+001	8.079346e+001	4.407935e+002	-5.290326e+001	8.902380e+001	4.490238e+002	-1.158372e+000	-4.619881e+000	-4.619881e+000	
5.910000e-001	-1.148162e+000	-5.061340e+000	-5.061340e+000	-5.442167e+001	-7.624839e+001	4.637516e+002	-6.175656e+001	-8.048134e+001	4.595187e+002	-1.171581e+000	-4.640706e+000	-4.640706e+000	
5.920000e-001	-1.158284e+000	-5.015064e+000	-5.015064e+000	-5.583449e+001	7.779943e+001	4.377994e+002	-5.279737e+001	4.057443e+001	5.805744e+002	-1.167212e+000	-4.649061e+000	-4.649061e+000	
5.930000e-001	-1.161247e+000	-4.874952e+000	-4.874952e+000	-5.691694e+001	6.802774e+001	4.280277e+002	-6.881090e+001	2.005249e+001	5.600525e+002	-1.184365e+000	-4.629039e+000	-4.629039e+000	
5.940000e-001	-1.157655e+000	-4.916570e+000	-4.916570e+000	-5.934783e+001	7.710998e+001	4.371100e+002	-5.366752e+001	8.373459e+001	6.237346e+002	-1.167567e+000	-4.617388e+000	-4.617388e+000	
5.950000e-001	-1.161826e+000	-5.110078e+000	-5.110078e+000	-5.488532e+001	-8.754919e+001	4.524508e+002	-5.892731e+001	7.820257e+001	6.182026e+002	-1.162121e+000	-4.677328e+000	-4.677328e+000	
5.960000e-001	-1.163646e+000	-5.007468e+000	-5.007468e+000	-5.577103e+001	-8.236467e+001	4.576353e+002	-5.705623e+001	7.896829e+001	6.189683e+002	-1.157069e+000	-4.696980e+000	-4.696980e+000	
5.970000e-001	-1.143391e+000	-4.968309e+000	-4.968309e+000	-6.542982e+001	-3.599995e+001	5.040000e+002	-5.643495e+001	-8.601532e+001	6.339847e+002	-1.166046e+000	-4.703661e+000	-4.703661e+000	
5.980000e-001	-1.131467e+000	-5.114980e+000	-5.114980e+000	-5.928990e+001	-7.235164e+001	4.676484e+002	-5.408835e+001	-6.124862e+001	6.587514e+002	-1.176090e+000	-4.685434e+000	-4.685434e+000	
5.990000e-001	-1.145128e+000	-5.046681e+000	-5.046681e+000	-5.689499e+001	-5.777379e+001	4.822262e+002	-5.534686e+001	5.949284e+001	7.794928e+002	-1.177608e+000	-4.604661e+000	-4.604661e+000	
6.000000e-001	-1.155489e+000	-5.021477e+000	-5.021477e+000	-5.297970e+001	8.096132e+001	6.209613e+002	-5.471031e+001	4.694118e+001	7.669412e+002	-1.163400e+000	-4.738530e+000	-4.738530e+000	
6.010000e-001	-1.166002e+000	-5.000007e+000	-5.000007e+000	-5.245241e+001	-8.082702e+001	6.391730e+002	-5.986099e+001	8.436705e+001	8.043671e+002	-1.176780e+000	-4.725992e+000	-4.725992e+000	
6.020000e-001	-1.153599e+000	-5.146241e+000	-5.146241e+000	-6.002130e+001	-6.540318e+001	6.545968e+002	-5.635651e+001	6.846354e+001	7.884635e+002	-1.160772e+000	-4.813055e+000	-4.813055e+000	
