Frequency	 |S11|	 Phase(S11)	 ExtPh(S11)	 |S21|	 Phase(S21)	 ExtPh(S21)	 |S12|	 Phase(S12)	 ExtPh(S12)	 |S22|	 Phase(S22)	 ExtPh(S22) 
5.000000e-001	-1.150625e+000	-4.361138e+000	-4.361138e+000	-5.347630e+001	7.313319e+001	7.313319e+001	-5.535118e+001	4.045739e+000	4.045739e+000	-1.171498e+000	-4.028148e+000	-4.028148e+000	
5.010000e-001	-1.131785e+000	-4.425011e+000	-4.425011e+000	-6.992900e+001	-8.275159e+001	9.724841e+001	-6.303735e+001	-4.426700e+000	-4.426700e+000	-1.152760e+000	-4.013823e+000	-4.013823e+000	
5.020000e-001	-1.152043e+000	-4.308599e+000	-4.308599e+000	-5.908917e+001	7.318564e+001	7.318564e+001	-5.736465e+001	7.115371e+001	7.115371e+001	-1.165529e+000	-3.990467e+000	-3.990467e+000	
5.030000e-001	-1.155272e+000	-4.368218e+000	-4.368218e+000	-5.380186e+001	-5.329566e+001	-5.329566e+001	-6.270569e+001	-4.668053e+001	-4.668053e+001	-1.165718e+000	-3.955006e+000	-3.955006e+000	
5.040000e-001	-1.156213e+000	-4.443514e+000	-4.443514e+000	-5.955993e+001	2.728354e+001	2.728354e+001	-6.582069e+001	-7.786851e+001	-7.786851e+001	-1.155475e+000	-3.962586e+000	-3.962586e+000	
5.050000e-001	-1.145029e+000	-4.404792e+000	-4.404792e+000	-5.533812e+001	6.478353e+001	6.478353e+001	-6.306520e+001	7.807962e+000	7.807962e+000	-1.165000e+000	-3.974038e+000	-3.974038e+000	
5.060000e-001	-1.160243e+000	-4.483482e+000	-4.483482e+000	-5.684575e+001	6.919283e+001	6.919283e+001	-5.411188e+001	7.624158e+001	7.624158e+001	-1.165792e+000	-4.074661e+000	-4.074661e+000	
5.070000e-001	-1.140145e+000	-4.519258e+000	-4.519258e+000	-6.714013e+001	4.106458e+001	4.106458e+001	-5.784173e+001	7.071319e+001	7.071319e+001	-1.156512e+000	-4.064601e+000	-4.064601e+000	
5.080000e-001	-1.149188e+000	-4.560725e+000	-4.560725e+000	-6.294216e+001	5.038308e+001	5.038308e+001	-5.676933e+001	7.946737e+001	7.946737e+001	-1.164870e+000	-4.000067e+000	-4.000067e+000	
5.090000e-001	-1.150166e+000	-4.352633e+000	-4.352633e+000	-5.889905e+001	2.984475e+001	2.984475e+001	-6.308777e+001	-3.404752e+001	-3.404752e+001	-1.157158e+000	-4.139918e+000	-4.139918e+000	
5.100000e-001	-1.142829e+000	-4.504724e+000	-4.504724e+000	-7.209124e+001	3.775847e+001	3.775847e+001	-5.746332e+001	-7.141579e+001	-7.141579e+001	-1.167810e+000	-4.110799e+000	-4.110799e+000	
5.110000e-001	-1.152784e+000	-4.517394e+000	-4.517394e+000	-6.111973e+001	1.747561e+001	1.747561e+001	-5.370826e+001	-5.043326e+001	-5.043326e+001	-1.171599e+000	-4.086062e+000	-4.086062e+000	
5.120000e-001	-1.146427e+000	-4.515253e+000	-4.515253e+000	-6.387988e+001	6.700593e+001	6.700593e+001	-5.657532e+001	-7.152031e+001	-7.152031e+001	-1.164761e+000	-4.065383e+000	-4.065383e+000	
5.130000e-001	-1.144466e+000	-4.604090e+000	-4.604090e+000	-5.162396e+001	8.038409e+001	8.038409e+001	-5.741732e+001	6.862857e+001	-1.113714e+002	-1.159215e+000	-4.137992e+000	-4.137992e+000	
5.140000e-001	-1.145742e+000	-4.479430e+000	-4.479430e+000	-5.555913e+001	-8.876360e+001	9.123640e+001	-6.189807e+001	4.617504e+001	-1.338250e+002	-1.160035e+000	-4.107487e+000	-4.107487e+000	
5.150000e-001	-1.141126e+000	-4.603989e+000	-4.603989e+000	-5.554971e+001	6.357603e+001	6.357603e+001	-5.484968e+001	-8.683290e+001	-2.668329e+002	-1.172751e+000	-4.120490e+000	-4.120490e+000	
5.160000e-001	-1.145392e+000	-4.490283e+000	-4.490283e+000	-5.681229e+001	-8.524074e+001	9.475926e+001	-6.219433e+001	8.732442e+001	-2.726756e+002	-1.182504e+000	-4.055564e+000	-4.055564e+000	
5.170000e-001	-1.157702e+000	-4.561533e+000	-4.561533e+000	-5.554748e+001	8.304822e+001	8.304822e+001	-5.978877e+001	-6.153422e+001	-2.415342e+002	-1.168457e+000	-4.126811e+000	-4.126811e+000	
5.180000e-001	-1.162731e+000	-4.576822e+000	-4.576822e+000	-5.911354e+001	-4.382009e+001	-4.382009e+001	-5.899085e+001	8.412483e+001	-2.758752e+002	-1.166832e+000	-4.111717e+000	-4.111717e+000	
5.190000e-001	-1.167042e+000	-4.477265e+000	-4.477265e+000	-5.598538e+001	2.500514e+001	2.500514e+001	-6.054299e+001	-6.956323e+001	-2.495632e+002	-1.157392e+000	-4.160109e+000	-4.160109e+000	
5.200000e-001	-1.139447e+000	-4.597650e+000	-4.597650e+000	-7.147762e+001	-4.219181e+001	-4.219181e+001	-6.201902e+001	-5.703719e+001	-2.370372e+002	-1.182984e+000	-4.198093e+000	-4.198093e+000	
5.210000e-001	-1.148622e+000	-4.645338e+000	-4.645338e+000	-6.098055e+001	-6.885205e+001	-6.885205e+001	-5.544579e+001	-7.675391e+001	-2.567539e+002	-1.170946e+000	-4.236816e+000	-4.236816e+000	
5.220000e-001	-1.135535e+000	-4.628893e+000	-4.628893e+000	-7.422035e+001	-3.607815e+001	-3.607815e+001	-5.156520e+001	5.390619e+001	-1.260938e+002	-1.164527e+000	-4.304644e+000	-4.304644e+000	
5.230000e-001	-1.148868e+000	-4.519768e+000	-4.519768e+000	-6.026478e+001	3.999397e+001	3.999397e+001	-5.854078e+001	8.903016e+001	-9.096984e+001	-1.167765e+000	-4.253379e+000	-4.253379e+000	
5.240000e-001	-1.146797e+000	-4.538285e+000	-4.538285e+000	-5.874452e+001	-6.447226e+001	-6.447226e+001	-5.447445e+001	8.922249e+001	-9.077751e+001	-1.155381e+000	-4.262637e+000	-4.262637e+000	
5.250000e-001	-1.150263e+000	-4.515960e+000	-4.515960e+000	-6.015680e+001	5.808968e+001	5.808968e+001	-6.954054e+001	-7.706646e+001	-7.706646e+001	-1.180192e+000	-4.180123e+000	-4.180123e+000	
5.260000e-001	-1.137463e+000	-4.663116e+000	-4.663116e+000	-5.641203e+001	-8.893295e+001	9.106705e+001	-5.601965e+001	5.154200e+001	5.154200e+001	-1.168606e+000	-4.262758e+000	-4.262758e+000	
5.270000e-001	-1.144097e+000	-4.681355e+000	-4.681355e+000	-5.587713e+001	8.064623e+001	8.064623e+001	-5.548811e+001	8.733901e+001	8.733901e+001	-1.161647e+000	-4.306084e+000	-4.306084e+000	
5.280000e-001	-1.146970e+000	-4.658193e+000	-4.658193e+000	-6.072181e+001	-4.500684e+001	-4.500684e+001	-5.796983e+001	7.525104e+001	7.525104e+001	-1.170235e+000	-4.354050e+000	-4.354050e+000	
5.290000e-001	-1.149677e+000	-4.593137e+000	-4.593137e+000	-5.444160e+001	8.561713e+001	8.561713e+001	-7.147946e+001	6.906787e+001	6.906787e+001	-1.186397e+000	-4.329439e+000	-4.329439e+000	
5.300000e-001	-1.157339e+000	-4.566911e+000	-4.566911e+000	-6.486270e+001	-5.324051e+001	-5.324051e+001	-5.718321e+001	4.455909e+001	4.455909e+001	-1.153589e+000	-4.249608e+000	-4.249608e+000	
5.310000e-001	-1.147515e+000	-4.572348e+000	-4.572348e+000	-5.319030e+001	-6.396555e+001	-6.396555e+001	-5.843794e+001	-6.936960e+001	-6.936960e+001	-1.159690e+000	-4.310234e+000	-4.310234e+000	
5.320000e-001	-1.157429e+000	-4.578965e+000	-4.578965e+000	-7.493205e+001	4.781139e+001	4.781139e+001	-5.691915e+001	8.919297e+001	-9.080703e+001	-1.174006e+000	-4.288470e+000	-4.288470e+000	
5.330000e-001	-1.144998e+000	-4.671954e+000	-4.671954e+000	-5.670313e+001	-8.474719e+001	-8.474719e+001	-5.574911e+001	7.822946e+001	-1.017705e+002	-1.175093e+000	-4.291175e+000	-4.291175e+000	
5.340000e-001	-1.143280e+000	-4.617010e+000	-4.617010e+000	-5.698154e+001	-4.377014e+001	-4.377014e+001	-5.708565e+001	6.326074e+001	-1.167393e+002	-1.157661e+000	-4.293209e+000	-4.293209e+000	
5.350000e-001	-1.145752e+000	-4.672762e+000	-4.672762e+000	-5.824249e+001	-8.292221e+001	-8.292221e+001	-5.583623e+001	8.045852e+001	-9.954148e+001	-1.187460e+000	-4.293738e+000	-4.293738e+000	
5.360000e-001	-1.147982e+000	-4.781686e+000	-4.781686e+000	-6.037400e+001	7.671234e+001	-1.032877e+002	-7.137308e+001	-3.688625e+000	-1.836886e+002	-1.171854e+000	-4.316275e+000	-4.316275e+000	
5.370000e-001	-1.162448e+000	-4.650901e+000	-4.650901e+000	-5.955482e+001	5.682106e+001	-1.231789e+002	-5.603682e+001	2.887150e+001	-1.511285e+002	-1.165449e+000	-4.240061e+000	-4.240061e+000	
5.380000e-001	-1.138382e+000	-4.660263e+000	-4.660263e+000	-5.472308e+001	8.703391e+001	-9.296609e+001	-5.586631e+001	-7.836014e+001	-2.583601e+002	-1.173343e+000	-4.321984e+000	-4.321984e+000	
5.390000e-001	-1.160572e+000	-4.720632e+000	-4.720632e+000	-5.253713e+001	-8.744106e+001	-8.744106e+001	-5.932255e+001	-6.713055e+001	-2.471305e+002	-1.170044e+000	-4.400677e+000	-4.400677e+000	
5.400000e-001	-1.146973e+000	-4.777566e+000	-4.777566e+000	-5.654704e+001	6.888138e+001	-1.111186e+002	-6.338768e+001	-3.809291e+001	-2.180929e+002	-1.176699e+000	-4.427709e+000	-4.427709e+000	
5.410000e-001	-1.167772e+000	-4.705592e+000	-4.705592e+000	-6.114943e+001	7.733845e+001	-1.026616e+002	-5.409633e+001	4.913290e+001	-1.308671e+002	-1.149865e+000	-4.356787e+000	-4.356787e+000	
5.420000e-001	-1.161979e+000	-4.787897e+000	-4.787897e+000	-5.910193e+001	-4.106771e+001	-2.210677e+002	-6.008213e+001	6.163537e+001	-1.183646e+002	-1.162516e+000	-4.330627e+000	-4.330627e+000	
5.430000e-001	-1.166853e+000	-4.628100e+000	-4.628100e+000	-6.844493e+001	-6.413539e+001	-2.441354e+002	-6.064854e+001	8.169752e+001	-9.830248e+001	-1.154821e+000	-4.492745e+000	-4.492745e+000	
5.440000e-001	-1.146325e+000	-4.820024e+000	-4.820024e+000	-5.186931e+001	5.387716e+001	-1.261228e+002	-5.988564e+001	-5.901966e+001	-5.901966e+001	-1.161370e+000	-4.434369e+000	-4.434369e+000	
5.450000e-001	-1.135928e+000	-4.643141e+000	-4.643141e+000	-5.595832e+001	-8.907455e+001	-8.907455e+001	-5.741257e+001	-6.749165e+001	-6.749165e+001	-1.170056e+000	-4.392728e+000	-4.392728e+000	
5.460000e-001	-1.144056e+000	-4.777083e+000	-4.777083e+000	-7.167293e+001	-4.865588e+001	-4.865588e+001	-5.501593e+001	-7.982118e+001	-7.982118e+001	-1.173996e+000	-4.485814e+000	-4.485814e+000	
5.470000e-001	-1.141704e+000	-4.816848e+000	-4.816848e+000	-6.485203e+001	-6.728039e+001	-6.728039e+001	-6.003765e+001	-5.946306e+001	-5.946306e+001	-1.172694e+000	-4.365951e+000	-4.365951e+000	
5.480000e-001	-1.152877e+000	-4.737534e+000	-4.737534e+000	-5.856515e+001	-6.225450e+001	-6.225450e+001	-6.105601e+001	-6.144278e+001	-6.144278e+001	-1.179193e+000	-4.437952e+000	-4.437952e+000	
5.490000e-001	-1.137018e+000	-4.800227e+000	-4.800227e+000	-6.423604e+001	8.800604e+001	-9.199396e+001	-6.033893e+001	-8.394896e+001	-8.394896e+001	-1.168194e+000	-4.402701e+000	-4.402701e+000	
5.500000e-001	-1.153063e+000	-4.922507e+000	-4.922507e+000	-6.098696e+001	4.128069e+001	-1.387193e+002	-6.167593e+001	6.291713e+001	-1.170829e+002	-1.167929e+000	-4.437598e+000	-4.437598e+000	
5.510000e-001	-1.141553e+000	-4.736394e+000	-4.736394e+000	-5.515972e+001	3.816468e+001	-1.418353e+002	-5.985294e+001	5.581227e+001	-1.241877e+002	-1.171143e+000	-4.411833e+000	-4.411833e+000	
5.520000e-001	-1.144485e+000	-4.834436e+000	-4.834436e+000	-5.460470e+001	-3.417912e+001	-2.141791e+002	-5.672390e+001	6.648802e+001	-1.135120e+002	-1.158515e+000	-4.479119e+000	-4.479119e+000	
5.530000e-001	-1.141003e+000	-4.824196e+000	-4.824196e+000	-5.418218e+001	5.510469e+001	-1.248953e+002	-5.882874e+001	-5.058993e+001	-2.305899e+002	-1.160646e+000	-4.403151e+000	-4.403151e+000	
5.540000e-001	-1.156729e+000	-4.809463e+000	-4.809463e+000	-5.826033e+001	-8.357670e+001	-2.635767e+002	-7.452320e+001	8.467232e+001	-9.532768e+001	-1.163413e+000	-4.513714e+000	-4.513714e+000	
5.550000e-001	-1.150294e+000	-4.763058e+000	-4.763058e+000	-6.012357e+001	-6.374566e+001	-2.437457e+002	-6.377150e+001	7.651094e+001	-1.034891e+002	-1.158711e+000	-4.461240e+000	-4.461240e+000	
5.560000e-001	-1.155501e+000	-4.718016e+000	-4.718016e+000	-5.796107e+001	8.578441e+001	-2.742156e+002	-6.210871e+001	8.200761e+001	-9.799239e+001	-1.176831e+000	-4.446658e+000	-4.446658e+000	
5.570000e-001	-1.137006e+000	-4.884061e+000	-4.884061e+000	-6.101350e+001	-7.524832e+001	-2.552483e+002	-5.605821e+001	4.483771e+001	-1.351623e+002	-1.144437e+000	-4.409017e+000	-4.409017e+000	
5.580000e-001	-1.157100e+000	-4.820936e+000	-4.820936e+000	-5.819390e+001	3.562776e+001	-1.443722e+002	-5.867530e+001	-8.895541e+001	-2.689554e+002	-1.171066e+000	-4.462954e+000	-4.462954e+000	
5.590000e-001	-1.157943e+000	-4.791680e+000	-4.791680e+000	-6.339119e+001	-8.736091e+001	-2.673609e+002	-6.318431e+001	-6.742457e+000	-1.867425e+002	-1.150108e+000	-4.448874e+000	-4.448874e+000	
5.600000e-001	-1.160382e+000	-4.833703e+000	-4.833703e+000	-5.876438e+001	7.748610e+001	-2.825139e+002	-5.433934e+001	8.565929e+001	-9.434071e+001	-1.172381e+000	-4.496116e+000	-4.496116e+000	
5.610000e-001	-1.142339e+000	-4.772316e+000	-4.772316e+000	-6.289470e+001	6.079721e+001	-2.992028e+002	-5.465396e+001	6.692019e+001	-1.130798e+002	-1.169845e+000	-4.420986e+000	-4.420986e+000	
5.620000e-001	-1.139939e+000	-4.861621e+000	-4.861621e+000	-6.367990e+001	4.821426e+001	-3.117857e+002	-5.900158e+001	5.235063e+001	-1.276494e+002	-1.155668e+000	-4.550563e+000	-4.550563e+000	
5.630000e-001	-1.159653e+000	-4.749683e+000	-4.749683e+000	-5.890338e+001	-8.035332e+001	-4.403533e+002	-5.543919e+001	5.550888e+001	-1.244911e+002	-1.162469e+000	-4.479342e+000	-4.479342e+000	
5.640000e-001	-1.156234e+000	-4.838779e+000	-4.838779e+000	-6.208120e+001	-2.190218e+001	-3.819022e+002	-5.336707e+001	8.390009e+001	-9.609991e+001	-1.173914e+000	-4.441575e+000	-4.441575e+000	
5.650000e-001	-1.163176e+000	-4.743769e+000	-4.743769e+000	-5.633101e+001	5.538228e+001	-3.046177e+002	-5.711712e+001	4.890168e+001	-1.310983e+002	-1.165264e+000	-4.489592e+000	-4.489592e+000	
5.660000e-001	-1.167879e+000	-4.854107e+000	-4.854107e+000	-8.247348e+001	6.920506e+001	-2.907949e+002	-5.854182e+001	-7.562116e+001	-2.556212e+002	-1.170738e+000	-4.556411e+000	-4.556411e+000	
5.670000e-001	-1.147533e+000	-4.765374e+000	-4.765374e+000	-5.609502e+001	5.340737e+001	-3.065926e+002	-5.512938e+001	8.857062e+001	-2.714294e+002	-1.155171e+000	-4.407793e+000	-4.407793e+000	
5.680000e-001	-1.159571e+000	-4.750476e+000	-4.750476e+000	-6.892507e+001	3.328783e+001	-3.267122e+002	-6.140019e+001	6.210670e+001	-2.978933e+002	-1.185549e+000	-4.554756e+000	-4.554756e+000	
5.690000e-001	-1.152257e+000	-4.899059e+000	-4.899059e+000	-5.570231e+001	-6.626448e+001	-4.262645e+002	-6.233171e+001	-5.033709e+001	-4.103371e+002	-1.156270e+000	-4.674407e+000	-4.674407e+000	
5.700000e-001	-1.159176e+000	-4.952346e+000	-4.952346e+000	-5.632050e+001	6.990407e+001	-2.900959e+002	-5.640951e+001	7.856846e+001	-2.814315e+002	-1.173982e+000	-4.557866e+000	-4.557866e+000	
5.710000e-001	-1.156889e+000	-4.854148e+000	-4.854148e+000	-5.829474e+001	4.421600e+001	-3.157840e+002	-6.020943e+001	-6.877782e+001	-2.487778e+002	-1.152753e+000	-4.510263e+000	-4.510263e+000	
5.720000e-001	-1.175800e+000	-4.865199e+000	-4.865199e+000	-5.857639e+001	-7.215282e+001	-4.321528e+002	-6.842320e+001	4.793507e+001	-1.320649e+002	-1.173702e+000	-4.608975e+000	-4.608975e+000	
5.730000e-001	-1.149504e+000	-4.865698e+000	-4.865698e+000	-5.224832e+001	-7.652595e+001	-4.365259e+002	-6.092548e+001	-8.201066e+001	-2.620107e+002	-1.160644e+000	-4.536252e+000	-4.536252e+000	
5.740000e-001	-1.139172e+000	-4.846394e+000	-4.846394e+000	-5.615173e+001	6.075380e+001	-2.992462e+002	-6.785690e+001	7.320011e+001	-2.867999e+002	-1.175672e+000	-4.528668e+000	-4.528668e+000	
5.750000e-001	-1.148693e+000	-4.879027e+000	-4.879027e+000	-5.757513e+001	6.244482e+001	-2.975552e+002	-6.110382e+001	-8.115549e+001	-2.611555e+002	-1.155736e+000	-4.499235e+000	-4.499235e+000	
5.760000e-001	-1.152859e+000	-4.908278e+000	-4.908278e+000	-5.604251e+001	-8.680524e+001	-2.668052e+002	-5.939123e+001	8.046163e+001	-2.795384e+002	-1.166332e+000	-4.505848e+000	-4.505848e+000	
5.770000e-001	-1.154320e+000	-4.886224e+000	-4.886224e+000	-5.376810e+001	8.207298e+001	-2.779270e+002	-6.277212e+001	5.776322e+001	-3.022368e+002	-1.163134e+000	-4.654615e+000	-4.654615e+000	
5.780000e-001	-1.161112e+000	-4.917172e+000	-4.917172e+000	-5.710324e+001	8.048154e+001	-2.795185e+002	-5.643253e+001	-8.987097e+001	-2.698710e+002	-1.181042e+000	-4.544296e+000	-4.544296e+000	
5.790000e-001	-1.159306e+000	-4.925179e+000	-4.925179e+000	-5.351055e+001	-8.915076e+001	-2.691508e+002	-6.219747e+001	-6.252529e+001	-2.425253e+002	-1.154538e+000	-4.481322e+000	-4.481322e+000	
5.800000e-001	-1.156150e+000	-4.936027e+000	-4.936027e+000	-5.957609e+001	5.958364e+001	-3.004164e+002	-5.255310e+001	-8.927512e+001	-2.692751e+002	-1.168846e+000	-4.662574e+000	-4.662574e+000	
5.810000e-001	-1.157688e+000	-4.857234e+000	-4.857234e+000	-6.604345e+001	3.049285e+001	-3.295072e+002	-5.970459e+001	5.500480e+001	-3.049952e+002	-1.160574e+000	-4.637968e+000	-4.637968e+000	
5.820000e-001	-1.158803e+000	-4.897619e+000	-4.897619e+000	-6.247432e+001	7.105204e+001	-2.889480e+002	-6.253381e+001	-7.232786e+001	-4.323279e+002	-1.189723e+000	-4.538605e+000	-4.538605e+000	
5.830000e-001	-1.176331e+000	-4.985158e+000	-4.985158e+000	-5.861357e+001	6.953804e+001	-2.904620e+002	-5.338607e+001	5.935783e+001	-3.006422e+002	-1.160324e+000	-4.572373e+000	-4.572373e+000	
5.840000e-001	-1.166916e+000	-4.927592e+000	-4.927592e+000	-5.645683e+001	8.175638e+001	-2.782436e+002	-5.699444e+001	-8.304770e+001	-2.630477e+002	-1.177941e+000	-4.702598e+000	-4.702598e+000	
5.850000e-001	-1.151355e+000	-4.924468e+000	-4.924468e+000	-7.762858e+001	-1.378323e+001	-3.737832e+002	-6.098799e+001	8.808033e+001	-2.719197e+002	-1.156461e+000	-4.619573e+000	-4.619573e+000	
5.860000e-001	-1.160805e+000	-4.951450e+000	-4.951450e+000	-5.738404e+001	-5.667186e+001	-4.166719e+002	-5.444173e+001	8.282750e+001	-2.771725e+002	-1.158370e+000	-4.636204e+000	-4.636204e+000	
5.870000e-001	-1.146192e+000	-5.051857e+000	-5.051857e+000	-6.407105e+001	7.913354e+001	-2.808665e+002	-5.838202e+001	-8.684894e+001	-2.668489e+002	-1.160117e+000	-4.652719e+000	-4.652719e+000	
5.880000e-001	-1.161215e+000	-5.012859e+000	-5.012859e+000	-5.667348e+001	6.470760e+001	-2.952924e+002	-5.544011e+001	6.965098e+001	-2.903490e+002	-1.143071e+000	-4.697857e+000	-4.697857e+000	
5.890000e-001	-1.163451e+000	-4.933259e+000	-4.933259e+000	-5.891795e+001	7.389920e+001	-2.861008e+002	-6.143341e+001	5.632061e+001	-3.036794e+002	-1.151873e+000	-4.674969e+000	-4.674969e+000	
5.900000e-001	-1.164648e+000	-4.991559e+000	-4.991559e+000	-6.166017e+001	-7.554115e+001	-2.555412e+002	-5.562620e+001	8.477221e+001	-2.752278e+002	-1.174388e+000	-4.710502e+000	-4.710502e+000	
5.910000e-001	-1.154363e+000	-5.016712e+000	-5.016712e+000	-5.745915e+001	-8.852275e+001	-2.685228e+002	-5.185104e+001	5.996756e+001	-3.000324e+002	-1.159105e+000	-4.626684e+000	-4.626684e+000	
5.920000e-001	-1.149008e+000	-5.018557e+000	-5.018557e+000	-5.770132e+001	4.971168e+001	-1.302883e+002	-5.278757e+001	6.205925e+001	-2.979408e+002	-1.172248e+000	-4.650985e+000	-4.650985e+000	
5.930000e-001	-1.172282e+000	-4.954276e+000	-4.954276e+000	-6.257681e+001	7.021719e+001	-1.097828e+002	-5.315963e+001	7.626572e+001	-2.837343e+002	-1.165502e+000	-4.670610e+000	-4.670610e+000	
5.940000e-001	-1.164768e+000	-5.062431e+000	-5.062431e+000	-5.885660e+001	2.106769e+001	-1.589323e+002	-6.319126e+001	-8.100343e+001	-2.610034e+002	-1.157374e+000	-4.724453e+000	-4.724453e+000	
5.950000e-001	-1.170681e+000	-5.073200e+000	-5.073200e+000	-5.497506e+001	-8.216170e+001	-2.621617e+002	-6.121185e+001	5.169958e+001	-1.283004e+002	-1.168946e+000	-4.643893e+000	-4.643893e+000	
5.960000e-001	-1.152101e+000	-5.090036e+000	-5.090036e+000	-5.862993e+001	5.421905e+001	-1.257809e+002	-5.285698e+001	-7.018877e+001	-2.501888e+002	-1.164002e+000	-4.703307e+000	-4.703307e+000	
5.970000e-001	-1.160963e+000	-5.052411e+000	-5.052411e+000	-5.990875e+001	-6.094405e+001	-2.409441e+002	-5.783746e+001	6.452645e+001	-1.154735e+002	-1.158782e+000	-4.705752e+000	-4.705752e+000	
5.980000e-001	-1.161771e+000	-5.088885e+000	-5.088885e+000	-5.467073e+001	-7.974876e+001	-2.597488e+002	-5.688947e+001	6.911443e+001	-1.108856e+002	-1.158189e+000	-4.745699e+000	-4.745699e+000	
5.990000e-001	-1.165413e+000	-5.063395e+000	-5.063395e+000	-5.640194e+001	-7.188872e+001	-2.518887e+002	-5.325411e+001	8.024898e+001	-9.975102e+001	-1.178789e+000	-4.661645e+000	-4.661645e+000	
6.000000e-001	-1.167398e+000	-5.024429e+000	-5.024429e+000	-5.766454e+001	-8.932444e+001	-2.693244e+002	-5.636202e+001	-4.813721e+001	-2.281372e+002	-1.166056e+000	-4.725513e+000	-4.725513e+000	
6.010000e-001	-1.160608e+000	-5.139113e+000	-5.139113e+000	-6.214119e+001	-8.058442e+001	-2.605844e+002	-5.977587e+001	8.092667e+001	-9.907333e+001	-1.153942e+000	-4.740120e+000	-4.740120e+000	
