!Keysight Technologies,M9374A,MY55442783,A.12.55.05
!Date: Thursday, May 20, 2021 16:12:31
!Correction: S11(Full 2 Port(1,2)) 
!S21(Full 2 Port(1,2)) 
!S12(Full 2 Port(1,2)) 
!S22(Full 2 Port(1,2)) 
!S2P File: Measurements: S11, S21, S12, S22:
# Hz S  RI   R 50
500000000 -0.48475832 0.13050523 -0.00037390931 -0.00039670861 -0.0008332826 -0.00083029445 -0.49804291 0.12737159
501000000 -0.48477697 0.13108365 -0.00080887927 -0.00089481368 -0.00029539753 -0.0012506535 -0.49865639 0.12762469
502000000 -0.48460335 0.13112213 -0.00085817871 -0.0014369503 -0.0010920491 -0.00052624347 -0.49832499 0.12915006
503000000 -0.4850927 0.13125509 -0.00069179252 -0.00068101595 -0.00043910061 -0.001103275 -0.49828526 0.12982689
504000000 -0.48407814 0.13133711 -0.00061663648 -0.00094445958 -0.00027883158 -0.0015179159 -0.49787572 0.12886564
505000000 -0.48436755 0.13109532 -0.00051711639 -0.00083988364 -0.00010308409 -0.00089039374 -0.49862301 0.12932697
506000000 -0.48423624 0.13243887 -0.00081482902 -0.0002808721 -0.00073860772 -0.00048736995 -0.4978036 0.12991972
507000000 -0.48381823 0.13180061 -0.00057198212 -0.0013707131 -0.00021803754 -0.0008869617 -0.49813223 0.12930296
508000000 -0.48506519 0.13270766 -0.00064245699 -0.00028213064 -0.0008336383 -0.00098846911 -0.4987804 0.12949039
509000000 -0.48495513 0.13232686 0.00016459412 -0.00084264763 -0.00061908126 -0.00089690526 -0.4977113 0.13092205
510000000 -0.48402756 0.13371255 -0.0009516615 -0.00090238196 -0.0010229469 -0.00042012139 -0.49766004 0.13127258
511000000 -0.48392665 0.13319679 -0.00026270052 -0.00077836338 -0.00053619122 -0.00032405125 -0.49794728 0.13188283
512000000 -0.48448098 0.1333041 -0.00084020843 -0.00082334352 -0.00054288376 -0.00080449803 -0.49812818 0.13144065
513000000 -0.4839755 0.13363649 -0.00061382103 -0.00086686463 -0.00063938333 -0.0009765916 -0.49822456 0.13117121
514000000 -0.48477015 0.13346802 -0.00080387201 -0.00097499322 -0.00053206878 -0.00087672548 -0.49769729 0.1319261
515000000 -0.48333517 0.13379681 0.00015195859 -0.0010555555 -0.0010467056 -0.00086443551 -0.49743474 0.1325094
516000000 -0.48432398 0.1354486 -0.00054659374 -0.0012998289 5.1203635e-005 -0.00085938326 -0.49672404 0.13233975
517000000 -0.484137 0.13579266 -0.00054006878 -0.00036563503 -0.00048205626 -0.00086868211 -0.49684158 0.13281345
518000000 -0.48447818 0.13479677 -0.00066595175 -0.00039609941 0.00071224151 -0.00061463768 -0.49774468 0.13246711
519000000 -0.48392111 0.13553859 -0.0005597776 -0.0013639887 -0.00035824915 -0.00044811406 -0.49699572 0.13298419
520000000 -0.48397386 0.13427253 -0.00025963527 -0.0010770727 -0.00072808733 -0.00091238343 -0.49710211 0.13293132
521000000 -0.48308581 0.13661993 -0.00036972415 -0.00054013613 -0.00086688437 -0.00081056275 -0.49745417 0.13420482
522000000 -0.48362473 0.13609131 -0.00093860534 -0.001005622 -0.00046621394 -0.00076217047 -0.49733934 0.13398254
523000000 -0.4829388 0.13591459 -0.0011514823 -0.00077045348 -0.00053442363 -0.00092621305 -0.49663275 0.13473928
524000000 -0.48354355 0.13728136 -0.0008221356 -0.00040841909 -0.00069805334 -8.4883774e-005 -0.49738103 0.13485973
525000000 -0.48252681 0.13737783 -0.00099772552 -0.0013299058 -0.00064773526 -0.00067413395 -0.49596569 0.13556908
526000000 -0.48356375 0.13813767 -0.0003756363 -0.00097794214 -0.00098750833 -0.00029244463 -0.49702886 0.13478249
527000000 -0.48352703 0.13840036 -0.0010095333 -0.00069713983 -0.00046813602 -0.0012408177 -0.49703014 0.13505459
528000000 -0.48301259 0.13876233 -0.00082093838 -0.0014326671 -0.0008383625 -0.00099537021 -0.49673432 0.1362268
529000000 -0.48263353 0.13854967 -0.00046656135 -0.00063847436 -0.00073858764 -0.00023326336 -0.49639314 0.13553937
530000000 -0.48231405 0.13906099 -0.00055589684 -0.00036243894 -0.00046582584 -0.00036866337 -0.49693269 0.13639569
531000000 -0.48294982 0.13857427 -8.6059903e-005 -0.0010394856 -0.00021832643 -0.00037608348 -0.49694744 0.13706513
532000000 -0.48278132 0.13803129 -0.00097286666 -0.00025508492 -0.00043696834 4.4705142e-005 -0.49586806 0.13652116
533000000 -0.48223034 0.13942556 -0.00085820089 -0.00064179563 -0.0002442181 -0.00011221792 -0.4953064 0.13701317
534000000 -0.48287278 0.13854463 -0.0003968231 -0.001060046 -0.0013853587 -0.00087182736 -0.49644598 0.13755761
535000000 -0.48336864 0.13932997 -0.00063192 -0.0006954798 -0.00072604051 -0.00079249858 -0.49628311 0.13739106
536000000 -0.4832029 0.13979265 -0.00049927848 -0.00068381976 -0.00015280487 -0.00096452225 -0.49671283 0.13808109
537000000 -0.48189747 0.13969989 -0.00047933179 -0.0010259656 -0.00050048594 -0.00075300247 -0.49662137 0.13842295
538000000 -0.48267201 0.14052065 -0.00015972943 -0.00035219494 -0.0008127878 -0.00077828643 -0.49669319 0.13815585
539000000 -0.48355216 0.14034778 -0.00053802255 -0.0010333523 -0.00066081178 -0.00038807339 -0.49675128 0.13847394
540000000 -0.48225474 0.14043806 -0.00045273273 -0.00069799548 -0.0011598675 -0.00064475421 -0.49691907 0.13877536
541000000 -0.48249444 0.14063074 -0.00072998082 -0.00064410182 -0.00017890704 -0.00043555489 -0.4964579 0.13948369
542000000 -0.48256621 0.1416029 -0.00018460861 -0.00079592312 -0.00099989621 -0.001013348 -0.49664119 0.13883869
543000000 -0.48211181 0.14185853 -0.0003671289 -0.0011959362 -0.00011915873 -0.0011941246 -0.49679568 0.13944605
544000000 -0.48150933 0.14170863 -0.0010951854 0.00014354364 -0.00044742422 -0.001069741 -0.49572498 0.14076194
545000000 -0.48267359 0.14043127 -0.00026165115 -0.00089028274 -0.0008554415 -0.00022458746 -0.49638391 0.14000247
546000000 -0.48197371 0.14215286 -0.0010865597 -0.00085943734 -0.00030919298 -0.00035305106 -0.49592599 0.14007956
547000000 -0.48177895 0.14230628 -0.00028872746 -0.0007742304 -0.0006049056 -0.00093832001 -0.49623173 0.14046277
548000000 -0.48236442 0.14298849 -0.00047571561 -0.00025497141 -0.00038654858 -0.0010977812 -0.4955554 0.1408208
549000000 -0.48199016 0.14208914 -0.0005987871 -0.0010953804 -0.00091271003 -0.00080609013 -0.49741259 0.14124453
550000000 -0.48193061 0.14309131 -0.00026805111 -0.0011046679 -0.00016990287 -0.0011330401 -0.49678931 0.1420477
551000000 -0.48149329 0.14233781 5.1996117e-006 -0.00098605501 -0.00094808475 -0.00044144425 -0.49621499 0.14184257
552000000 -0.48202059 0.14244331 7.6900818e-005 -0.00082123559 0.00025602037 -0.0013580993 -0.49610409 0.1420331
553000000 -0.48151311 0.14351912 -0.00075634645 -0.00031551166 -0.00038397408 -0.0014591303 -0.49625826 0.14119147
554000000 -0.48284909 0.1445813 -0.00088650233 -0.00048740927 -0.00080430723 -0.001256926 -0.49581048 0.14213353
555000000 -0.48223633 0.144188 -0.0004360897 -0.00070730312 -0.00013821111 -0.00071922399 -0.49565721 0.14255412
556000000 -0.48216778 0.14359608 -0.00014321777 -0.0011184089 -0.00092242984 -0.00052399631 -0.49565688 0.14291869
557000000 -0.4820613 0.14443178 -0.0010510676 -0.0013970265 -0.00046905468 -0.00063105708 -0.49529502 0.14325039
558000000 -0.48199037 0.14484122 -0.0006005927 -0.00091146573 -0.00065178017 -0.0012824142 -0.49548858 0.14296776
559000000 -0.48184815 0.14518294 -0.0010510228 -0.00077372312 -0.00010652829 -0.00045993068 -0.49535322 0.14369336
560000000 -0.48183247 0.14513627 -0.0013134492 -0.0010730128 -0.0011140325 -0.00042958523 -0.49486244 0.14259644
561000000 -0.48129463 0.14498599 -0.00098243635 -0.0012262367 -0.00063049456 -0.0012304456 -0.49545711 0.14386308
562000000 -0.48191249 0.14502487 -0.00053436728 -0.0015740533 -0.00029567705 -0.0013752374 -0.49591514 0.14427941
563000000 -0.48166043 0.14617583 -0.0011657142 -0.00088819821 -0.001142229 -0.00057448383 -0.49608186 0.14326033
564000000 -0.48135498 0.14578079 -0.0013968379 -0.00048970204 -0.00076215278 -0.00069975969 -0.49569479 0.14374624
565000000 -0.48151585 0.14573622 0.00015572773 -0.00016993958 -0.00012131368 -0.0012475965 -0.49637085 0.14482369
566000000 -0.48073718 0.14456131 -0.0009932234 -0.0009073519 -0.00040162899 -0.0010736561 -0.49491456 0.14433247
567000000 -0.48170376 0.14692239 -8.7344255e-005 -0.0013878989 -0.00092304096 -0.00061961066 -0.49553421 0.14467189
568000000 -0.48138857 0.14614901 -0.0002133868 -0.0010636456 -0.00082059152 -0.00082523376 -0.49497736 0.14455457
569000000 -0.48099738 0.14652535 -0.0005083881 -0.00079820567 -0.00071355334 -0.0012059628 -0.49550235 0.14566763
570000000 -0.4813458 0.14689359 -0.00068963657 -0.00059285143 -0.00028831023 -0.0014218681 -0.49447981 0.14512287
571000000 -0.48108855 0.147385 -0.00049009343 -0.00079569075 -0.00091664726 -0.00059444818 -0.4944182 0.14669788
572000000 -0.48057956 0.14735833 -0.0011989791 -0.00061276101 -0.00075402966 -0.00055880431 -0.49488565 0.14634515
573000000 -0.48077425 0.14717543 -0.00062091526 -0.00053945556 -0.00062712084 -0.00040518036 -0.49566329 0.1467641
574000000 -0.48023227 0.14799395 -0.00038412763 -0.001030512 -0.00053913286 -0.0006056049 -0.49465835 0.14625458
575000000 -0.4805856 0.14791043 -0.00049805967 -0.00052404165 -0.00072542595 -0.0011610186 -0.4957391 0.14691672
576000000 -0.48080006 0.14732282 -4.8581576e-005 -0.00068229024 -0.00094900286 -0.0017450703 -0.4950262 0.1458656
577000000 -0.48031986 0.14788575 -0.00096674211 -0.0006549377 -0.00050614332 -0.000691319 -0.49495935 0.14680396
578000000 -0.47971177 0.14881113 -0.00049298996 -0.0010875619 -0.00093480072 -0.00077146915 -0.49457714 0.14775895
579000000 -0.48001426 0.14849949 -0.00076408236 -0.00079596764 -0.00044258501 -0.0012976429 -0.49467444 0.14718392
580000000 -0.47952497 0.14843585 -0.00048845174 -0.00082145305 -0.00044500109 -0.00046618617 -0.49514824 0.147854
581000000 -0.48036134 0.14897278 -0.0012913599 -0.00080977363 -0.0010727821 -0.0010643461 -0.49442124 0.14761387
582000000 -0.47902334 0.14987502 -0.00049426121 -0.0011828589 -0.00031591774 -4.9138718e-005 -0.49436694 0.14814444
583000000 -0.4799405 0.14995687 -0.00037144526 -0.00049676141 -0.00040561674 -0.00048994017 -0.49474889 0.14832731
584000000 -0.47929046 0.1496307 -0.00041755204 -1.8429599e-005 -0.0016496858 -0.00071118528 -0.49429616 0.14928119
585000000 -0.47842786 0.15036814 -0.00065592182 -0.00046401715 0.00019584814 -0.00045244297 -0.49504331 0.14962944
586000000 -0.47987369 0.15016425 -0.00034837768 -0.0011371219 -0.00094103452 -0.00091933506 -0.49396971 0.14876315
587000000 -0.47911152 0.15052335 -0.0010840723 -0.0012299402 -0.00062810205 -0.0010369173 -0.49313113 0.15021904
588000000 -0.47842979 0.15023059 -0.00074419135 -0.00079472089 -0.00014762586 -0.0012536924 -0.49381414 0.15022974
589000000 -0.47910076 0.15100442 -0.00069530297 -0.00094720593 -2.3111126e-005 -0.0013837608 -0.49442458 0.14982603
590000000 -0.4784297 0.15127423 -0.00086362584 -0.0011235613 -0.001091596 -0.00064114062 -0.49316192 0.15018313
591000000 -0.47936219 0.15260458 -0.0014508935 -0.00035337574 -0.00053321803 -0.0012573187 -0.49344423 0.15047014
592000000 -0.47883585 0.1520436 -0.00038263027 -0.00083136692 -0.0005884018 -0.00082400336 -0.49374935 0.15130855
593000000 -0.47854969 0.15194844 -0.00020697118 -0.00086652784 -0.0012964915 -0.0006760527 -0.49395126 0.15029992
594000000 -0.47850028 0.15297216 -0.00064534496 -0.0008034957 -0.00064792891 -0.0013222491 -0.4944616 0.15093102
595000000 -0.47832501 0.15216763 -3.4372759e-005 -0.00055146712 -0.00041385676 -0.0010645448 -0.49342313 0.15037893
596000000 -0.47803691 0.15321134 -0.0011659492 -0.00071289111 -0.0010812088 -0.00050171581 -0.49325386 0.15050496
597000000 -0.47852576 0.153741 -0.000390039 -0.0012538105 -0.00090734573 -0.00097015459 -0.49331093 0.15240046
598000000 -0.47792208 0.1532851 -0.00028670905 -0.0016679097 -0.00059364061 -0.0007021263 -0.49330148 0.15237474
599000000 -0.47800538 0.15473592 -0.0005253448 -0.00068505527 -0.00091841421 -0.00044595209 -0.4931815 0.15173809
600000000 -0.47834867 0.15478519 -0.00080518518 -0.00070169807 -0.0011582919 -0.0012299793 -0.49350056 0.15304747
601000000 -0.4774926 0.15411049 -0.00096298149 -0.00082964037 -6.565723e-005 -0.00091636134 -0.49308977 0.15215248
602000000 -0.47795898 0.15452462 -0.0011142623 -0.00017441851 -0.00093822344 -0.00051115337 -0.49262261 0.15332857
603000000 -0.47787362 0.15609007 -0.00071778503 -0.00098653417 -0.00024995467 -0.00098619238 -0.4920429 0.15383297
604000000 -0.47802156 0.15499766 -0.0012910865 -0.0012937532 -0.00073015649 -0.0013374374 -0.49265814 0.15393375
605000000 -0.47640973 0.15537384 -0.0010608925 -0.0014497356 -0.00099581992 -0.0011477889 -0.49249646 0.15473792
606000000 -0.47796115 0.15521708 -0.0011159453 -0.00073017646 -0.0007936075 -0.00088790298 -0.49185702 0.15409826
607000000 -0.47730044 0.15634103 -0.00071455201 -0.00077377819 -0.00067707442 -0.00072670105 -0.4914766 0.15428858
608000000 -0.47771436 0.15656386 -0.00033003016 -0.00070707203 0.00019231404 -0.0010439353 -0.49207065 0.15489098
609000000 -0.47713718 0.15675703 -0.0010371966 -0.0006539718 -0.00039387896 -0.0010265463 -0.49207181 0.15511422
610000000 -0.47690746 0.15719897 -0.00035093963 -0.0013300426 -0.00069773092 -0.0011625664 -0.4919045 0.15490097
611000000 -0.47589433 0.15717317 -0.00099316111 -0.0005626877 -0.00056412723 -0.00066889398 -0.4922002 0.15501066
612000000 -0.47751525 0.15841562 -0.00020155439 -0.00029536168 -0.0001480552 -0.00098900194 -0.49207735 0.15568157
613000000 -0.47677433 0.15784879 -0.00098374812 -0.00076385937 -0.00051706308 -0.0013162604 -0.4924067 0.15592162
614000000 -0.475409 0.15900496 -0.0007151271 -0.0010194073 -0.00070698169 -0.0016543188 -0.49141186 0.15704393
615000000 -0.47655594 0.15821582 1.4163341e-005 -0.0008698047 -0.00057554938 -0.001163871 -0.49230006 0.15593766
616000000 -0.4753443 0.15848061 -0.0011625562 -0.00020322145 -5.2113104e-005 -0.00055699085 -0.49116221 0.15716989
617000000 -0.47600278 0.16042759 -0.0013191854 -0.00081226829 -7.7650977e-005 -0.0016508161 -0.49187547 0.15777233
618000000 -0.47641814 0.16014613 -0.00083229557 -0.0011153669 -0.00065403868 -0.001299013 -0.49115029 0.15713502
619000000 -0.47573456 0.16019765 -0.00046616909 -0.00060960581 -0.0012767833 -0.00024655185 -0.49091628 0.15779309
620000000 -0.47691509 0.16093057 -0.00087605359 -0.0012795076 -0.00038089824 -0.00099405926 -0.49200648 0.15824604
621000000 -0.47731525 0.16126528 -0.0003870246 1.2964089e-005 -0.00072432536 -0.00061201857 -0.49109375 0.1577093
622000000 -0.47620708 0.16142681 -0.000757434 -0.00045569427 -0.00079552282 -0.001270213 -0.49120596 0.15866594
623000000 -0.47538963 0.16107076 -0.00080695772 -0.0011685593 -0.00087180053 -0.00075964845 -0.49111071 0.15841693
624000000 -0.47605851 0.16233534 -0.00072357839 -0.00075652602 -0.0002761489 -0.00087433838 -0.49106076 0.15901925
625000000 -0.47562802 0.1616627 -0.00086115347 -0.0014385863 -0.00048231133 -0.001113653 -0.4917253 0.15806305
626000000 -0.47530973 0.16198294 -0.00050859962 -0.00061054976 -0.00048690906 -0.00066007802 -0.49015164 0.15954687
627000000 -0.47526196 0.16228075 -0.0009187992 -0.0013615371 -0.0006268798 -0.00074139616 -0.49085441 0.16004063
628000000 -0.47557884 0.16199967 -0.0002768191 -0.0016552419 -0.0014130264 -0.0017593715 -0.49104619 0.16051941
629000000 -0.47553515 0.1642223 -0.00079316605 -0.00080516172 -0.00081901951 -0.0010357554 -0.48955873 0.16101868
630000000 -0.47486901 0.16349369 -0.0005238094 -0.0013113113 -0.00057674776 -0.00035877089 -0.49102503 0.16135024
631000000 -0.47577485 0.16346218 -0.00053978589 -0.0012966529 -0.00065411825 -0.00066422415 -0.4908393 0.16061218
632000000 -0.47582057 0.16483963 -0.00081423274 -0.00067634886 -0.000751913 -0.00077236578 -0.49065596 0.1605501
633000000 -0.47556946 0.16322874 -0.00066141976 -0.00083854946 -0.0005099476 -0.00091701007 -0.49103439 0.16019396
634000000 -0.47515649 0.16563304 -0.00040474514 -0.00042731484 -0.00044067809 -0.00082149677 -0.49126646 0.16205147
635000000 -0.47558472 0.16465431 -0.0012833761 -0.00094488024 -0.0011593101 -0.0019965773 -0.48961547 0.16148505
636000000 -0.47482052 0.16467929 -5.8444803e-005 -0.0013025178 -0.00048660385 -0.0014234924 -0.49028274 0.16221854
637000000 -0.47543961 0.16438147 0.00035143434 -0.00076443778 -0.00051785348 -0.0011259166 -0.48899719 0.16269447
638000000 -0.47483504 0.16563486 -0.00025436221 -0.0011312225 -0.00012319619 -1.2950961e-005 -0.489544 0.16199081
639000000 -0.47579795 0.16658144 -0.00065054436 -0.00155139 -0.00084332057 -0.0012572386 -0.49039829 0.16312872
640000000 -0.47417161 0.16610235 -0.0013113304 -0.0013416988 -0.00076619367 -0.0005538988 -0.48970917 0.1633164
641000000 -0.47449765 0.16642636 -0.00064070721 -0.00081748096 -6.9378846e-005 -0.00041917624 -0.48903036 0.16333598
642000000 -0.47488159 0.16699906 3.3903009e-006 -0.00080777728 -0.0012411475 -0.00060092425 -0.48956549 0.16322246
643000000 -0.47426483 0.16691492 -0.00073396415 -0.0014419849 -0.0010441128 -0.00087311969 -0.49065685 0.16312045
644000000 -0.47503573 0.16742447 -0.0012293105 -0.0014651638 -0.00032140521 -0.00090270734 -0.48896208 0.16431765
645000000 -0.47435701 0.1677144 -0.00068587519 -0.00036835595 -0.00069411716 -0.00072120613 -0.49035975 0.16464409
646000000 -0.47478607 0.16740257 -0.00037732447 -0.0014360682 -0.0014249455 -0.0013335829 -0.4894627 0.16354215
647000000 -0.47485164 0.16775595 -0.00083943439 -0.00099003012 -0.00046979429 -0.001650402 -0.48969397 0.16477348
648000000 -0.47435412 0.1683172 -0.00071271375 -0.00013137194 -0.00053279847 -0.00088469236 -0.4898161 0.16459207
649000000 -0.47474813 0.16834626 -0.00074414723 -0.0010829276 0.00015259533 -0.00094688748 -0.48921606 0.16563714
650000000 -0.47451156 0.1677101 -0.0012636849 -0.0009065519 -0.00054509309 -0.001853 -0.48963553 0.16621123
651000000 -0.47457317 0.16880813 -0.0010820444 -0.00081156101 -0.001330304 -0.00098553323 -0.48892647 0.16520473
652000000 -0.47417483 0.16842553 -0.0008115829 -0.0011364173 -0.0008319855 -0.0012521965 -0.48901394 0.16591898
653000000 -0.4744347 0.16908085 -0.00089925155 -0.0012852194 -0.00069207943 -0.0014428819 -0.48967385 0.16677523
654000000 -0.47461775 0.16941239 -0.00055683346 -0.00085328345 -0.00086453569 -0.00082642696 -0.4891642 0.16604446
655000000 -0.4746322 0.169462 -0.0010672892 -0.001124847 -0.0007271411 -0.00085346913 -0.48917556 0.16558525
656000000 -0.47330675 0.17028482 -0.0013206064 -0.00036147964 -0.00061520305 -0.00084122282 -0.48931208 0.16653948
657000000 -0.47346598 0.17054489 -0.00049217639 -0.00074120349 -0.0010479515 -0.0011074364 -0.48940179 0.16711964
658000000 -0.47492701 0.17037079 -0.00095039315 -0.00089028716 -0.0013379969 -0.0011311771 -0.48823977 0.16679907
659000000 -0.47432333 0.17056392 -0.0010354723 -0.00082310784 -0.00073378551 -0.0007177224 -0.48904648 0.16697733
660000000 -0.47418872 0.17198613 -0.001271973 -0.0011893625 -0.00030423445 -0.0010313096 -0.48888609 0.16765404
661000000 -0.47436962 0.17150432 -0.0002066357 -0.0010557043 -0.00055592175 -0.0013731447 -0.48881277 0.16843347
662000000 -0.47447711 0.17159569 -0.00018863838 -0.0012756715 -0.00016536044 -0.00093945261 -0.48930565 0.16770098
663000000 -0.47443974 0.1716993 -0.00024675307 -0.00055029022 -0.00091354392 -0.00091971195 -0.48828784 0.1683923
664000000 -0.47441024 0.17160629 -0.0013430328 -0.0015400082 -0.00059674308 -0.0013741713 -0.48882285 0.16789289
665000000 -0.47354183 0.17208667 -0.00055048137 -0.0010434502 -0.00081532967 -0.0010890029 -0.48900875 0.168708
666000000 -0.47432044 0.17236808 -3.5689814e-006 -0.0012387983 -0.00071569643 -0.00069925468 -0.48861593 0.16780607
667000000 -0.4735783 0.17257409 -0.00034293608 -0.0010952684 -0.00094747316 -0.00074649043 -0.48934039 0.16811579
668000000 -0.47392398 0.17235814 -0.00084918487 -0.0010892595 -0.00063090521 -0.0014990983 -0.48903599 0.16922608
669000000 -0.47491506 0.17321639 -0.0008010189 -0.00063692348 -0.00045021056 -0.0010684227 -0.48804036 0.16912785
670000000 -0.473447 0.17324232 -0.00091067207 -0.0013032864 -0.0004246828 -0.001527756 -0.48833796 0.1706977
671000000 -0.47291347 0.17345235 -0.0011300975 -0.0005101111 -0.0010155573 -0.0010610517 -0.48847631 0.16997547
672000000 -0.4733029 0.17429507 -0.00062736729 -0.00060635561 -0.0012339653 -0.0013751995 -0.48901182 0.16925125
