!Keysight Technologies,M9374A,MY55442783,A.12.55.05
!Date: Thursday, May 20, 2021 15:24:34
!Correction: S11(Full 2 Port(1,2)) 
!S21(Full 2 Port(1,2)) 
!S12(Full 2 Port(1,2)) 
!S22(Full 2 Port(1,2)) 
!S2P File: Measurements: S11, S21, S12, S22:
# Hz S  RI   R 50
500000000 -0.4809289 0.14541325 5.2228035e-005 -0.00039262179 -0.00046161021 -0.0008522243 -0.49508595 0.142483
501000000 -0.48071086 0.14594658 -0.00035540684 -0.0009035918 -0.00031595482 0.00011820425 -0.49564812 0.1423644
502000000 -0.48081607 0.14594229 -0.00099896046 -0.0013652234 -0.0011141339 -0.00099530397 -0.49462071 0.14349787
503000000 -0.48071399 0.14476949 -0.00015289051 -0.00071873277 -0.00061609334 -0.001393355 -0.49390429 0.14299487
504000000 -0.47992897 0.14689313 0.00010617066 -0.0012590083 -0.00049315463 -0.00067105872 -0.49512935 0.14274788
505000000 -0.48093963 0.14616817 -0.00078966084 -0.00052773434 -0.00021186582 -0.00083235221 -0.49414551 0.1434707
506000000 -0.48052293 0.1460692 -0.00064577174 -0.00064930017 -0.0013111505 -0.00029823038 -0.49412677 0.14509404
507000000 -0.47988755 0.1477638 -0.00019181478 -0.00076325313 -0.0005426142 -0.0014511886 -0.49316016 0.14497794
508000000 -0.48013195 0.14689317 -0.00072343479 -0.001200946 0.00018730505 8.9400317e-005 -0.49452111 0.14489846
509000000 -0.48068297 0.14843094 -0.00016760344 -0.00077703735 -0.00019681302 -0.0011076321 -0.49408016 0.14541882
510000000 -0.4802103 0.14789121 -0.00058588962 -0.0007487486 0.00044360969 -0.00098459539 -0.49348179 0.14546923
511000000 -0.48036784 0.14935769 -0.00045106735 -0.00065957371 -0.00016672374 -0.00087027607 -0.49468511 0.14551745
512000000 -0.4794955 0.14834401 -0.00083092466 -0.0012151367 -0.00091444829 -4.2931388e-005 -0.49340791 0.14688219
513000000 -0.47903773 0.14903677 -0.00081274204 -0.0012890084 -0.00093260326 -0.00066827401 -0.49346143 0.14622748
514000000 -0.48040998 0.14952366 8.4051746e-005 -0.00079969654 -0.00095406664 -0.00064964977 -0.49357232 0.14656514
515000000 -0.48017034 0.1493917 -0.0009592204 -0.0010247108 -0.00066124072 -0.0011802048 -0.49393445 0.14760531
516000000 -0.48005852 0.15041134 -0.00018684707 -0.0007196833 -0.0004614919 -0.0015609679 -0.49391484 0.1471521
517000000 -0.47931361 0.15104562 -0.000870638 -0.00075497059 -0.00073648401 -0.00056180643 -0.49390939 0.14799759
518000000 -0.48064274 0.15029235 -0.00099092314 -0.0011241906 -0.0006368311 -0.00027808742 -0.49298859 0.14772065
519000000 -0.48035401 0.15018266 -0.00064086425 -0.0003902145 -0.00014123956 0.00016877014 -0.49285597 0.14977138
520000000 -0.47893709 0.15196332 -0.00062572712 -0.00070579897 -0.00059872307 -0.00098294404 -0.49360055 0.14829022
521000000 -0.47955722 0.15127045 0.00015855908 -0.00075640582 -0.00089398387 -0.00026898185 -0.49349517 0.14950758
522000000 -0.47962025 0.15203276 -0.00084461452 -0.0011621919 -0.00027762054 -0.00041167697 -0.49322698 0.15045762
523000000 -0.47913599 0.15150827 -0.00066700659 -0.0010832769 -0.0010658522 -0.00017616256 -0.49240372 0.14949401
524000000 -0.47889799 0.15244624 -0.0013020006 -0.00073789852 -0.00024140743 -0.00032786705 -0.49284792 0.14969411
525000000 -0.47844124 0.15212561 -0.00032616462 -0.00053663924 -0.00021807555 -0.00065707089 -0.49268097 0.15130287
526000000 -0.47863981 0.15262884 -0.00041186871 -0.00037356632 -0.00042334359 -0.00087438745 -0.49272183 0.1504399
527000000 -0.47941959 0.15272427 -0.00037978968 -0.0011255298 0.00021193699 -0.0012803818 -0.49347454 0.15066203
528000000 -0.47921681 0.15282971 -0.00086402264 -0.00092619751 -0.00035561269 0.00019874232 -0.49202135 0.15160416
529000000 -0.4788793 0.15390471 -0.00079486187 -0.0011594711 -0.0012581178 -0.0019066 -0.49181163 0.15124696
530000000 -0.47886878 0.15407838 -0.00077875104 -0.00057597505 -0.00088160625 -0.00097131613 -0.49293828 0.15185334
531000000 -0.47889206 0.15376 -0.00014473173 -0.00035534464 -0.00081736682 -0.00094097434 -0.49296835 0.15189542
532000000 -0.47808546 0.15378845 -0.00094972475 0.00015749945 -0.00082536967 -0.00079671119 -0.49165845 0.15199815
533000000 -0.47877955 0.15442358 -0.00040048725 -0.00065683643 -0.0010946336 -0.001119362 -0.49207354 0.1525359
534000000 -0.47872448 0.15485336 -0.00049602205 -0.00088653428 -0.00084179133 -0.00096451287 -0.49195015 0.15211919
535000000 -0.47916877 0.15526316 -0.0010996669 -0.00026582996 -0.00050727476 -0.00057886983 -0.49242267 0.15309076
536000000 -0.47849986 0.15531723 -0.00070753659 -0.0010481502 -0.0012767458 -0.0013394664 -0.49304146 0.15255006
537000000 -0.47869933 0.15566331 -0.0009117779 -0.00040622524 -0.00038724914 -0.00050611875 -0.49300182 0.15364549
538000000 -0.47783619 0.15566786 -0.00081450312 -0.00086751842 -0.00082230842 -0.0016604345 -0.49253875 0.15450515
539000000 -0.47851211 0.15577196 -0.00049595674 -0.0014261575 -0.00084579602 -0.0010243595 -0.49193829 0.15465114
540000000 -0.47814307 0.15649898 -0.00071499124 -0.00050141307 -0.00037741099 -0.00081823277 -0.49181271 0.15517087
541000000 -0.47822055 0.15695922 -0.000780528 -0.00088315149 -0.00085201644 -0.00059430441 -0.49211332 0.15456979
542000000 -0.47884598 0.15627439 -0.00095856993 -0.0012366853 -0.00057430862 -0.00046580785 -0.49234393 0.15502517
543000000 -0.47752559 0.15662195 -0.00082995533 -0.0009196818 -0.00072627724 -0.001369413 -0.49200702 0.15517609
544000000 -0.47889194 0.15817976 -0.00068643707 -0.00067643682 -0.00081151054 -0.00046894781 -0.4925302 0.15599217
545000000 -0.47800517 0.1575301 -0.00037462637 -0.0005857647 -0.00042016993 -0.00051325478 -0.49229422 0.15526175
546000000 -0.47751001 0.1575073 -0.00041062065 -0.00011232656 -0.00035930439 -0.00052363594 -0.49154776 0.15600738
547000000 -0.47729111 0.15850894 -0.00063070306 -0.00039133753 -0.00058118207 -0.00070949906 -0.49155107 0.15618262
548000000 -0.4774403 0.15912552 -0.0012654463 -0.00103661 -0.00058971031 -0.0010491612 -0.49167448 0.15702178
549000000 -0.47765023 0.15841185 -0.00034389462 -0.00012800431 -0.00041053453 -0.0004632177 -0.49145648 0.15698062
550000000 -0.47704551 0.15924948 -0.00018675665 -0.00052729272 -0.00062754657 -0.0010003533 -0.49095178 0.15740462
551000000 -0.47748208 0.15791413 -0.0015888074 -0.00087935745 -3.5003399e-005 -0.00096456386 -0.49216396 0.1577138
552000000 -0.47765461 0.15866764 -0.00082107395 -0.00070561981 -0.00019370879 -0.0010347863 -0.49157465 0.15713446
553000000 -0.47783899 0.15924911 -0.00039333277 -0.00065654184 -0.00067665515 -0.00055504311 -0.49156824 0.15749419
554000000 -0.4772796 0.1592719 -0.00062396587 -0.001210426 -0.00083034311 -0.00069495611 -0.49126405 0.15954091
555000000 -0.47789848 0.16059014 -0.00033575072 -0.00098211376 -0.00069253286 -0.00081759912 -0.49174163 0.15806113
556000000 -0.4768658 0.1604998 -0.001266094 -0.00038076998 -0.00051627896 -0.0007747155 -0.49168164 0.15949357
557000000 -0.47790343 0.16020885 -0.00080907077 -0.00092052005 -0.00093807257 -0.00025767414 -0.49064186 0.15930186
558000000 -0.47809878 0.1606632 -0.0010872937 0.00020305272 -0.0010013134 -0.0010690575 -0.49127081 0.15889092
559000000 -0.47660124 0.16089912 -0.00078094727 -0.00016600093 -0.00075472007 -0.00056728994 -0.49168387 0.15987672
560000000 -0.47619653 0.16138132 -0.0006232491 -0.00091673242 -0.00056033296 -0.0010882065 -0.49058962 0.16004349
561000000 -0.4769437 0.16063067 -0.00058459089 -0.00056870258 -0.0010331189 -0.00071399426 -0.49115619 0.15966208
562000000 -0.47721052 0.16257221 -0.00037106714 -0.0015370309 -0.00071614666 -0.00090153469 -0.49065337 0.16027288
563000000 -0.47693536 0.16142085 -0.0010271941 -0.00098382565 -0.00070287212 -0.00071156147 -0.4913258 0.16062409
564000000 -0.47679007 0.16163789 -0.00057394936 -0.00078912021 -0.00087072543 -0.00058030972 -0.49178514 0.16061024
565000000 -0.47665575 0.16318671 -0.00030479691 -0.00070017012 -0.00079998153 -0.00075856352 -0.49153048 0.16089401
566000000 -0.47605264 0.16189951 -0.00052027346 -0.00089216215 -0.0012813824 -0.00082034996 -0.49058023 0.16042151
567000000 -0.4770385 0.16284627 -0.00077529933 -0.00070128607 -0.00093918934 -0.00086661353 -0.49138021 0.16217299
568000000 -0.47587559 0.16262069 -0.00084628846 -0.0012869892 -0.00086842786 -0.00087584375 -0.49160311 0.16139139
569000000 -0.47686723 0.16371457 -0.00086970208 -0.00071207614 -0.00063726038 -0.0009053594 -0.49044541 0.1610316
570000000 -0.4764964 0.16426699 -0.00034504075 -0.0011187866 8.4448278e-005 -0.00071093539 -0.49029016 0.1616639
571000000 -0.47625017 0.16438161 -0.001079731 -0.0013087599 -0.00055236364 -0.0012047393 -0.48948294 0.16268046
572000000 -0.47621366 0.1642364 -0.00097070012 -0.0014515017 0.00035861545 -0.0018943063 -0.48990571 0.1625457
573000000 -0.47630054 0.16437809 -0.00064418418 -0.00042822017 -0.00059756369 -0.00048223691 -0.48980704 0.16351573
574000000 -0.47551727 0.16482292 -0.00062474579 -0.00040279681 -0.0012244908 -0.00067466323 -0.49031252 0.16394708
575000000 -0.47543007 0.16487765 -0.00049397955 -0.0009634046 -0.00054528069 -0.00068392418 -0.48990989 0.1638654
576000000 -0.47637817 0.16423398 -0.00072994916 -0.0009477436 -0.00059818977 -0.0011785309 -0.4905549 0.16369185
577000000 -0.47558108 0.1646986 -1.7600516e-005 -0.00097862259 -0.0012001742 -0.0011996551 -0.49024597 0.16387917
578000000 -0.47505447 0.16586795 -0.00075071718 -0.0014211014 -0.00082526117 -0.00063156895 -0.48972026 0.16391942
579000000 -0.47564465 0.1655709 -0.0010275157 -0.00033938477 -0.001272361 -0.00083720719 -0.4898113 0.16394396
580000000 -0.47517174 0.16614111 -0.00067869079 -0.0003223407 -0.0010442744 -0.00073985383 -0.48934135 0.16501775
581000000 -0.47538969 0.16557465 -0.00022996705 -0.00055726938 -0.00066107017 -0.0006716926 -0.48965022 0.16444108
582000000 -0.47461468 0.16653091 -0.00064253423 -0.00082557864 -0.00069177913 -0.0012912587 -0.48956317 0.1651668
583000000 -0.47398171 0.16740581 -0.00081725279 -0.00083608401 -0.00074672076 -0.00061390171 -0.4897134 0.166858
584000000 -0.4740766 0.16629232 -0.00017853455 -0.00094488962 5.773173e-005 -0.00071972382 -0.48930711 0.16535349
585000000 -0.47398764 0.16809013 -0.00066908373 -0.00058917498 -0.00035627108 -0.00029078178 -0.48921353 0.16599903
586000000 -0.47523952 0.16783802 -0.00055031199 -0.00048475177 -0.00039981093 -0.00065779808 -0.49021664 0.16596732
587000000 -0.47527316 0.16811647 -0.00087351899 -0.0013803594 -0.00092735788 -0.00092950813 -0.48857549 0.16594575
588000000 -0.47367924 0.1676759 -0.00099571678 -0.00072347565 -0.00039952315 -0.00025749192 -0.48934934 0.16681755
589000000 -0.47416219 0.16871762 -0.0010845553 -0.00075200479 -0.00068871147 -0.00063262205 -0.48873812 0.1670371
590000000 -0.47380772 0.16916364 -0.00027839508 -0.00085367542 -0.00098928681 -0.00062046817 -0.48907781 0.16681772
591000000 -0.4748306 0.16953133 -0.00059893733 -0.00060483126 -0.0012362639 -0.0011236917 -0.48878229 0.16803284
592000000 -0.4740923 0.16921642 -0.00028513948 -0.0010618115 -0.00082548585 -0.0009290296 -0.48830906 0.16726807
593000000 -0.47309765 0.16884749 -0.00069150655 -0.0016737198 -0.0006166331 -0.00083285337 -0.48861745 0.16841197
594000000 -0.47334635 0.16994987 -0.00064826576 -0.0009177234 -0.00083540723 -0.0011206379 -0.4884896 0.16961893
595000000 -0.47315744 0.17083259 -0.00051089691 -0.0017131191 -0.000691086 -0.00098001608 -0.4890289 0.16831294
596000000 -0.47281465 0.17068456 -0.00057652389 -0.00077298062 -0.0011818896 -0.00084680063 -0.48787001 0.16890578
597000000 -0.47348347 0.17137623 0.00022290659 -0.00063749438 -0.0012328547 -0.00082723849 -0.48827115 0.16853894
598000000 -0.47383741 0.17120096 -0.00067999738 -0.001915473 -0.00048749728 -0.00083411165 -0.48829699 0.17072695
599000000 -0.47299796 0.17150633 -0.0008593247 -0.00077894237 -0.0010771125 -0.0011476789 -0.48835427 0.16954464
600000000 -0.47303453 0.17207444 -0.00098654686 -0.0013108234 -0.0016434276 -0.00058881287 -0.48794329 0.17088035
601000000 -0.47280017 0.17199747 -0.0012092139 -0.0013917058 -0.0011916616 -0.00070030848 -0.48850748 0.17053075
602000000 -0.47348541 0.1731876 -0.00054496131 -0.0010892267 -5.6811434e-005 -0.0011810062 -0.48721614 0.17055136
603000000 -0.47265759 0.17314692 -0.0010636696 -0.001311415 -0.00085330405 -0.0013751811 -0.48806351 0.17034423
604000000 -0.47285458 0.17372505 -0.0011936011 -0.00082107296 -0.0011525031 -0.0012895988 -0.48676673 0.17236522
605000000 -0.4720985 0.17337735 -0.000668452 -0.00065836322 -0.0011245945 -0.00062594231 -0.48786476 0.17090884
606000000 -0.47232056 0.17348993 -0.00066967675 -0.00089221122 -0.00090199546 -0.00048873172 -0.48705366 0.17125249
607000000 -0.47113034 0.17426147 -0.00086994562 -0.0015048537 -0.00084825279 -0.00068363844 -0.48739898 0.17171244
608000000 -0.47240126 0.17564672 -0.001009166 -0.00079400762 -0.00063661399 -0.0010098411 -0.48681712 0.17379349
609000000 -0.47275415 0.17566602 -0.00094620377 -0.0010060458 -0.0011031323 -0.00092365564 -0.48672676 0.17212926
610000000 -0.4720434 0.17477867 -5.1928153e-005 -0.0011869355 -0.00098362926 -0.00015741249 -0.48605824 0.17416462
611000000 -0.47116375 0.17567001 -0.00073463062 -0.00077793887 -0.0007943497 -0.00083810894 -0.48775098 0.17364573
612000000 -0.47095597 0.17662117 -0.0013735497 -0.00084376213 -0.00085154816 -0.0013201162 -0.48659101 0.17291391
613000000 -0.47173977 0.17592597 -0.00078320061 -0.0012624769 -0.00045311946 -0.00098875235 -0.48692033 0.17369512
614000000 -0.47090489 0.1769595 -0.001280043 -0.001591598 -0.00078885036 -0.00090912957 -0.48714626 0.17421591
615000000 -0.47130516 0.17625965 -0.001253137 -0.00052168377 -0.00096568506 -0.0013433807 -0.48705509 0.17457359
616000000 -0.47109175 0.17793183 -0.00047403766 -0.00083836151 -0.00061472214 -0.00065089023 -0.48638502 0.17493914
617000000 -0.47103015 0.1783644 -0.0005597343 -0.00099653611 -0.00032103335 -0.0009784284 -0.48602602 0.17556164
618000000 -0.47039393 0.17792442 -0.00066221727 -0.00092553557 -0.0011094863 -0.00085435499 -0.48691481 0.17543116
619000000 -0.4710004 0.17821218 -0.00032590839 -0.0010211251 -0.0010867545 -0.00045096868 -0.48684826 0.17560226
620000000 -0.47015986 0.17802212 -0.00026161521 -0.00078927155 -0.0012170845 -0.00028114626 -0.48531887 0.17592596
621000000 -0.47145319 0.17867349 -0.00042306664 -0.0011953672 -0.0005461527 -0.0011591448 -0.48537055 0.17618336
622000000 -0.47061104 0.17870198 -9.919938e-005 -0.00064419082 -0.00046006322 -0.00051492272 -0.48614654 0.17640899
623000000 -0.4709973 0.17942582 -0.0010965632 -0.00082770368 -0.00067709573 -0.0011254509 -0.48534214 0.1764427
624000000 -0.47059065 0.17966504 -0.0006058467 -0.0011896096 -0.00041748511 -0.0021105502 -0.48549643 0.17661828
625000000 -0.47019485 0.18038706 -0.00031890871 -0.00041231926 -0.00049618562 -0.00063050265 -0.48596111 0.17682907
626000000 -0.47086507 0.17996243 -0.00054531533 -0.0012489691 -0.00089662132 -0.0011505068 -0.48525733 0.17745478
627000000 -0.46990159 0.18137118 -0.00060056214 -0.00079826859 -0.0016094571 -0.0005950699 -0.48461702 0.17756924
628000000 -0.46967047 0.18050623 -0.0015349587 -0.0012007622 0.00012914355 -0.00032221017 -0.48541701 0.1783378
629000000 -0.46959043 0.18126208 -0.00051730755 -0.0013345079 -0.00097128359 -0.00078437268 -0.48473835 0.17889145
630000000 -0.47008869 0.18137856 -0.00029215013 -0.00140949 -0.00067085779 -0.0010174827 -0.4860594 0.17847368
631000000 -0.46990463 0.18180214 -0.00041193195 -0.0010541973 -0.00071912236 -0.00099185179 -0.48546878 0.17935978
632000000 -0.47010475 0.18258893 -0.00035456798 -0.00080511416 -0.0010026072 -0.00067447621 -0.48620078 0.17937975
633000000 -0.4714838 0.18304233 -0.0011393637 -0.000808326 -0.00042254943 -0.0010502159 -0.48510027 0.18028294
634000000 -0.46990272 0.18287386 -0.0011132567 -0.0009751172 -0.00057236064 -0.0011205784 -0.48480603 0.17963402
635000000 -0.46987918 0.18310823 -0.00075487531 -0.0014326413 -0.00070476887 -0.00062435825 -0.48483878 0.17979117
636000000 -0.46889862 0.18362375 -0.0015607916 -0.0011577647 -0.00045048134 -0.00084496185 -0.48498788 0.18013605
637000000 -0.46916535 0.18338202 -0.00054424373 -0.0019737356 -0.00073408772 -0.0016952277 -0.48401505 0.18093511
638000000 -0.46869791 0.18430182 -0.00092657976 -0.001442735 -0.0011037261 -0.001055436 -0.48468342 0.1815019
639000000 -0.47026953 0.18506372 -0.0012614921 -0.00052692182 -0.00082104321 -0.00045738797 -0.48440057 0.1815788
640000000 -0.46978018 0.18488193 -0.00071333203 -0.00027814345 -0.0015622451 -0.000784698 -0.48426059 0.18159938
641000000 -0.46920213 0.18515056 -0.0010535612 -0.00029011845 -0.0011797879 -0.0012992247 -0.48442164 0.18291938
642000000 -0.4695847 0.18571627 -0.00077249727 -0.0014077292 -0.0016106762 -0.0017778623 -0.48400128 0.18291689
643000000 -0.46939847 0.18585388 -0.00089442398 -0.0011983559 -0.0013992513 -0.0011045407 -0.48478949 0.18135333
644000000 -0.46914604 0.18597232 -0.00095277221 -0.00076509133 -0.00098763185 -0.00056945847 -0.48308191 0.18275265
645000000 -0.46864024 0.18553753 -0.00065553212 -0.00092742231 -0.0004240436 -0.0015436108 -0.4839204 0.18318307
646000000 -0.46876857 0.18677118 -0.0010409169 -0.00034268925 -0.00087924127 -0.0015549007 -0.48416722 0.1839276
647000000 -0.46916747 0.18657111 -0.0010355662 -0.00038856096 -0.00050095527 -0.00059702114 -0.48390758 0.18311362
648000000 -0.46870726 0.18713148 -0.0015923374 -0.0014850623 -0.0010016852 -0.00074135233 -0.48457667 0.18363738
649000000 -0.46896943 0.18782407 -0.0002142662 -0.0010364143 -0.00096052035 -0.00078474515 -0.48339906 0.18443431
650000000 -0.46838281 0.18765739 -0.0018681744 -0.0011867933 -0.0012033017 -0.0012479608 -0.48383808 0.18438268
651000000 -0.4682183 0.18748346 -0.0012975354 -0.00042028163 -0.0013026346 -0.00076789368 -0.48375085 0.18434709
652000000 -0.46805754 0.18821016 -0.00060421706 -0.0012330757 -0.00055337092 -0.0013023862 -0.48330542 0.18430443
653000000 -0.46949795 0.18858859 -0.00052537234 -0.0013159135 -0.00077118137 -0.00041975162 -0.48332325 0.18429548
654000000 -0.46858209 0.1888473 -0.00060717022 -0.0011469778 -0.00061389105 -0.0013107223 -0.48368239 0.18517812
655000000 -0.46864688 0.18823479 -0.00067491346 -0.00094609056 -0.0005973198 -0.00089887483 -0.48374563 0.18518908
656000000 -0.46718609 0.1894929 -0.00062857603 -0.00039536884 -0.00067288044 -0.0016154062 -0.48310292 0.18553276
657000000 -0.46843404 0.18951827 -0.0011163495 -0.001092003 -0.00077388179 -0.0013627978 -0.48327368 0.18715225
658000000 -0.46836668 0.19001652 -0.00072299305 -0.0014174439 -0.00076161808 -0.00032752621 -0.48312521 0.18666534
659000000 -0.46885461 0.19011474 -0.0011311545 -0.0014121006 -0.00046797373 -0.00041320408 -0.48292032 0.1863818
660000000 -0.46700576 0.1900692 -0.00049869606 -0.00067371014 -0.00063253834 -0.0013061195 -0.48352021 0.18660124
661000000 -0.46793291 0.19086082 -0.00093980535 -0.0012738723 -0.0010367733 -0.0014141031 -0.48212403 0.18647899
662000000 -0.46810251 0.19083394 -0.00047876284 -0.0011959225 -0.00065197988 -7.643897e-005 -0.48271093 0.18796496
663000000 -0.46813229 0.1910309 -0.00060432433 -0.0010728164 -0.00057612034 -0.00086428825 -0.48350438 0.18643755
664000000 -0.46799645 0.19135374 -0.0006726142 -0.0013159849 -0.00072890375 -0.00065419776 -0.48386285 0.1878352
665000000 -0.4672251 0.1916431 -0.0015189017 -0.0017253382 -0.00072012184 -0.00080122345 -0.48268601 0.18835875
666000000 -0.46781588 0.19227017 -0.0011208445 -0.00092730485 -0.00029301387 -0.0010642213 -0.48245531 0.18829194
667000000 -0.46770725 0.19222674 -0.0013682307 -0.00097142899 -0.00091254903 -0.0012682949 -0.48274121 0.18809064
668000000 -0.46786824 0.19222203 -0.00083070737 -0.0013482925 -0.001608495 -0.00050315441 -0.48188761 0.18877685
669000000 -0.46756274 0.1915874 -0.0005205833 -0.0010869922 -0.0010046305 -0.0009392011 -0.48167968 0.18869936
670000000 -0.46636969 0.19213232 -0.0010496429 -0.00044282482 -0.0010671486 -0.00041861989 -0.48285064 0.18938132
671000000 -0.46670115 0.1934347 -0.0012207734 -0.00091153849 -0.0011403164 -0.00065869192 -0.48194033 0.18993723
672000000 -0.46687868 0.19284205 -0.0012593006 -0.00094158237 -0.0016704106 -0.00081278029 -0.48254067 0.18999653
