!Keysight Technologies,M9374A,MY55442783,A.12.55.05
!Date: Thursday, May 20, 2021 15:45:52
!Correction: S11(Full 2 Port(1,2)) 
!S21(Full 2 Port(1,2)) 
!S12(Full 2 Port(1,2)) 
!S22(Full 2 Port(1,2)) 
!S2P File: Measurements: S11, S21, S12, S22:
# Hz S  RI   R 50
500000000 -0.48404598 0.13450104 -0.00057975412 -0.0017906764 0.00021920094 -0.00050349766 -0.49741808 0.13181704
501000000 -0.48479316 0.13539296 -0.00050137658 -0.0010817201 -2.709183e-005 -0.001295295 -0.49854302 0.13348578
502000000 -0.48382851 0.13501857 -0.00060557894 -0.00039720008 -0.0010977971 -0.0001922927 -0.4971225 0.13290766
503000000 -0.48331076 0.13553013 -6.489423e-005 -0.00065490208 -0.00056155527 -0.00027018104 -0.49728814 0.13309501
504000000 -0.48345375 0.13520795 -0.0009653992 -0.0011940626 -0.00035021183 -0.00088125077 -0.49794713 0.1336208
505000000 -0.48397422 0.13550468 -0.00045350753 -0.0010875446 0.0002718023 -0.0016550965 -0.49780229 0.13397837
506000000 -0.48339748 0.13689394 -0.0011330311 -0.00059804594 -0.00046824917 -0.0010677474 -0.49680403 0.13346155
507000000 -0.48315498 0.13668208 -0.00056089991 -0.00081302429 -0.00017630463 -0.0016835599 -0.49618977 0.13387026
508000000 -0.48354158 0.13733846 -0.00084698008 -0.00049644039 -0.00039884626 -0.00092363264 -0.49626252 0.13492922
509000000 -0.48363549 0.13790345 7.7029501e-005 -0.000733728 -0.00032277702 5.3850137e-005 -0.49670961 0.1348079
510000000 -0.48284325 0.13820663 -0.0015395998 -0.0012877975 -0.00073337363 -0.00037556066 -0.49659595 0.13542359
511000000 -0.48394647 0.13815765 -0.0011267666 -0.0012261849 -0.0011497559 -0.00089220848 -0.4964776 0.1357079
512000000 -0.48365486 0.13767245 -0.0013496745 -0.00066266157 5.568238e-005 -0.0013177553 -0.4958612 0.13568367
513000000 -0.4824158 0.13824186 -0.00070428639 -0.00079181977 -0.00088885723 -0.00079526135 -0.49695927 0.13607295
514000000 -0.48303553 0.13846198 4.417845e-005 -0.00068119651 -0.00013066185 -0.00072439533 -0.49702874 0.13603076
515000000 -0.4816941 0.13858756 -6.522586e-005 -0.00081314659 -0.00057802867 -0.0010321483 -0.49529502 0.13625434
516000000 -0.48396531 0.13958208 -0.00062580733 -0.00076842739 -0.00076943974 -0.00120858 -0.49599567 0.13717307
517000000 -0.48275661 0.13962191 -0.00037436176 -0.00078976451 -0.00020377008 -0.00066210306 -0.49678031 0.13772109
518000000 -0.48290607 0.14005749 -0.00090201775 -0.00023725872 -0.00057794998 -0.00066296099 -0.49547732 0.13826102
519000000 -0.48309448 0.13898447 -0.0011463909 -0.0012274033 -0.00036227275 -0.00018397294 -0.49584728 0.13845499
520000000 -0.48246261 0.14043696 -0.0011644007 -0.00075603207 0.00068444037 -0.00097260252 -0.49559939 0.13804902
521000000 -0.48237875 0.14158669 -0.00048225667 -0.00010496954 -0.00046103433 -0.00084672373 -0.49556804 0.13876151
522000000 -0.48353329 0.14098987 -0.00034147839 -0.0011927778 -0.00018466494 -0.00093893422 -0.49660781 0.13906845
523000000 -0.48305663 0.14063562 -0.00086600723 -0.0011506707 -0.00062082877 -0.00065143657 -0.49509564 0.13863572
524000000 -0.48281163 0.14151476 -0.00048004382 -0.0012248433 -0.00099642086 -0.00068349263 -0.49564409 0.14014043
525000000 -0.4820106 0.14207338 -0.00063796563 -0.0010485005 -0.00056621956 -0.00070316304 -0.49516568 0.13962919
526000000 -0.48215318 0.14210662 -0.00056200806 -0.001186266 -0.0013650106 -0.00078733405 -0.4961395 0.14037843
527000000 -0.48286462 0.14156359 -0.0010681982 -0.00051652995 -0.00056107232 -0.00071913289 -0.49605885 0.1408409
528000000 -0.48209032 0.14295289 -0.00024853242 -0.00070120714 -0.00092901348 -0.0002536104 -0.49578682 0.14028175
529000000 -0.48261404 0.14255615 -0.0002577354 -0.00059314771 -0.0014328134 -0.00091091706 -0.49577799 0.14139937
530000000 -0.48215687 0.14346904 -0.00064583332 -0.0012153323 -0.00040758043 -0.0011195459 -0.49565676 0.14120917
531000000 -0.48178065 0.14230263 7.2835411e-007 -0.00071910553 0.00013705088 -0.0012763549 -0.49536219 0.14114928
532000000 -0.4821952 0.14345083 -1.3568936e-005 -0.0010190154 -0.00031079605 -0.00045457928 -0.49509069 0.14165863
533000000 -0.4815166 0.14384417 -0.00071046368 -0.0008396855 -6.8854865e-007 -0.0011063856 -0.49582285 0.14205226
534000000 -0.48207688 0.14330807 -0.00069566804 -0.00076092186 -0.00051796861 -0.00031783484 -0.49541986 0.14200011
535000000 -0.48260832 0.14388382 -0.00054666871 -0.00037702735 -0.00098118512 -0.00086616602 -0.49556208 0.14178976
536000000 -0.48245281 0.14506419 -0.00073474646 -0.00075487309 -0.00041693909 -0.00031912647 -0.49516925 0.14291875
537000000 -0.48204437 0.14472392 -0.00050991372 -0.00063564943 -0.0010396023 -0.00052862352 -0.4955897 0.14286444
538000000 -0.48239174 0.14419708 -0.00088055228 -0.00057932636 -0.00068024552 -0.0017172673 -0.49458516 0.14302798
539000000 -0.48211384 0.14559241 -0.00033410746 -0.0002012083 -0.0002273368 -0.0004863464 -0.49439079 0.14380988
540000000 -0.4819186 0.14544323 3.8936119e-005 -0.0017216149 -0.00083289883 -0.00070747925 -0.49490458 0.14417388
541000000 -0.48189315 0.1467111 -0.00062539469 -0.00078185205 -0.00049790082 -0.0010051213 -0.4955934 0.14327078
542000000 -0.48143882 0.14527494 -0.00056091178 -0.0012029206 -0.00081087305 -0.00035143702 -0.49464193 0.14401135
543000000 -0.48202574 0.14626606 -0.0006957319 -0.00087669294 -0.0010175252 -0.0009454356 -0.49522972 0.14406836
544000000 -0.48187348 0.14592072 -0.0011829186 -0.00092583505 -0.0011494382 -0.0004856209 -0.4955911 0.14474486
545000000 -0.48165739 0.14603649 -0.00045280097 -0.0014503028 -0.0012380127 -0.00047899291 -0.49585688 0.14518528
546000000 -0.48086682 0.14704297 -0.00082752813 -0.00067963195 -0.00093801704 -0.0011412709 -0.49535257 0.14450718
547000000 -0.48155504 0.14716402 -0.00038682917 -0.0003294996 -0.00068596471 -0.00069135905 -0.49482861 0.14578941
548000000 -0.48176125 0.14875714 -0.00048962265 0.00024485865 -0.00071514898 -0.0004762435 -0.49449903 0.14579971
549000000 -0.48134294 0.14663528 -0.00079400628 -0.00019107619 -0.00027401483 -0.00091937039 -0.4943231 0.14607124
550000000 -0.48108727 0.14762075 -6.970136e-005 -0.00078252138 -0.00017557816 -0.0013462518 -0.49442276 0.14552698
551000000 -0.48093402 0.1484696 -0.00088354514 -0.0013057009 -0.0010360519 -0.00059472636 -0.4939695 0.14616981
552000000 -0.48173231 0.14809507 -0.00093536975 -0.00099507126 -0.00067115447 -0.0011299776 -0.49389225 0.14637536
553000000 -0.48131189 0.1481782 -0.00075204822 -0.00063540792 -0.00019402108 -0.00081735599 -0.49469417 0.14736003
554000000 -0.48048526 0.14851604 -0.00079034292 -0.00038961263 -0.00015405101 -0.00086260756 -0.49478382 0.14698881
555000000 -0.48069733 0.14892086 -0.0011309101 -0.00026588005 -0.0010367979 -0.0009164426 -0.49428415 0.1475586
556000000 -0.48128089 0.14838944 -0.00027822659 -0.00065836735 -0.00019814284 -0.00067506108 -0.49491554 0.14660527
557000000 -0.48030788 0.15011001 9.4651761e-005 -0.0010103347 -0.00039269822 -0.0010147331 -0.49531996 0.14667781
558000000 -0.48005605 0.14900972 -0.00085659348 -0.0013765385 -0.00012466777 -0.0012207534 -0.49415091 0.14801417
559000000 -0.48101705 0.14978546 -8.5831998e-005 -0.0006390154 -6.5987391e-005 -0.00077279488 -0.49444833 0.1477409
560000000 -0.48007587 0.15024288 -0.00012089394 -0.00030802493 -0.0013250856 -0.00044624717 -0.49428466 0.14794149
561000000 -0.48066378 0.14955109 -0.00067487994 -0.0005314796 -0.00062748994 -3.1538173e-005 -0.4950439 0.14733511
562000000 -0.48081112 0.15024947 -0.00047950874 -0.00078422902 0.00010179966 -0.00062445749 -0.49415162 0.14876798
563000000 -0.47985804 0.15038915 -0.00038865942 -0.0015837543 -0.00056726584 -0.00077891524 -0.49490565 0.14906727
564000000 -0.48044619 0.1502526 -0.00047575758 -0.0010567189 -0.00047389467 -0.00058981625 -0.49447399 0.14888242
565000000 -0.47954637 0.15004505 -0.00083996123 -0.00096704462 -0.0006097111 -0.00097225956 -0.49410552 0.14984515
566000000 -0.48013887 0.15090437 -0.0011179781 -0.0012353852 -0.00044423697 -0.00052597182 -0.4948037 0.14986467
567000000 -0.4811725 0.15115397 -0.0012157746 -0.0013220155 -0.0011649107 -0.00095852517 -0.49425969 0.14987367
568000000 -0.48022798 0.15132183 -0.00060518063 -0.00042951907 -0.00026488327 -0.0012833487 -0.49394017 0.14957245
569000000 -0.48069757 0.15169956 -0.00073216995 -0.0010068142 -0.001408425 -0.00068488921 -0.49489972 0.14972582
570000000 -0.47990605 0.15185718 -0.0010399449 -0.0013301747 -0.00070517848 -0.00073570211 -0.4949142 0.15086666
571000000 -0.4796924 0.15265387 -0.00077998656 -0.00058416056 -0.00022463755 -0.00068248401 -0.49418145 0.15109636
572000000 -0.47954533 0.15194964 -0.00056494732 -0.0015484686 -0.00067093252 -0.00087559514 -0.49425393 0.15050679
573000000 -0.48003903 0.15214956 -0.00036736557 -0.00099369662 -0.00076434272 -0.0015162686 -0.49366081 0.1510714
574000000 -0.47868749 0.15272671 -0.00065908534 -0.0012190188 -0.0011529913 -0.00077273924 -0.49500206 0.15165737
575000000 -0.47942126 0.15324819 -0.00089842669 -0.00012345935 -0.00013889393 -0.00053962209 -0.49379891 0.15215817
576000000 -0.47901753 0.15288462 -0.0011490162 -0.00051307934 -0.00072525762 0.00012094338 -0.49431565 0.15111104
577000000 -0.47967926 0.15430768 -0.00052128499 -0.00062937994 -0.00060679752 -0.00094402611 -0.4934105 0.15140405
578000000 -0.47964558 0.15350376 -0.0011595262 -3.1039446e-005 -0.0007989204 -0.00040944736 -0.49310374 0.15132631
579000000 -0.47833091 0.15318203 -0.00076423545 -0.00037747115 -0.00063524558 -0.00062972592 -0.49434361 0.15235515
580000000 -0.47894159 0.15395176 -0.0013498622 -0.0015847412 -0.00047267289 -0.00085609953 -0.49327853 0.15244688
581000000 -0.47855398 0.15402301 -0.00043520442 -7.3064053e-005 2.6969776e-005 -0.0011437628 -0.49238816 0.15233104
582000000 -0.47859523 0.15445082 -0.0003381804 -0.00062638056 -0.00078185409 -0.0011928625 -0.49275541 0.15320273
583000000 -0.47882983 0.15469523 -0.00065130624 -0.0017697422 -0.00062275428 -0.0007057644 -0.49221128 0.15367609
584000000 -0.47822964 0.15456159 -0.0013636473 -0.00092501839 -0.00084556604 -0.0010691421 -0.49319452 0.15436204
585000000 -0.47804651 0.15686296 -0.00040735127 -0.0017818913 -0.00043124883 -0.0015638445 -0.49243033 0.15400285
586000000 -0.4784244 0.15500998 -0.00081734103 -0.00087254925 -0.00095183769 -0.001046732 -0.49262559 0.15440391
587000000 -0.47805259 0.15661754 -0.00039514195 -0.00096246757 -0.00081828301 -0.00096957316 -0.49315491 0.15338744
588000000 -0.47823659 0.15568347 -0.00056645222 -0.00042147067 -0.00081338873 -0.0011576535 -0.49274257 0.15329374
589000000 -0.4780201 0.1556353 -0.00081188907 -0.0015389111 -0.00071334676 -0.00087403884 -0.49197024 0.15488218
590000000 -0.47791898 0.15671229 -0.0010866004 -0.001391058 -0.00017276518 -0.00047359211 -0.49287158 0.15468173
591000000 -0.47791827 0.15699007 -0.00031631259 -0.00099950808 -0.0013351548 -0.00034167396 -0.49279109 0.15511526
592000000 -0.47779378 0.15781347 -0.00076376647 -0.0018356176 -0.00072802562 -0.00095586863 -0.49288264 0.15453097
593000000 -0.47771189 0.15628397 -0.00062279304 -0.00095323776 -0.00012319123 -0.0014449763 -0.49167484 0.1552493
594000000 -0.47745579 0.15793177 -0.00077201333 -0.0006152718 -0.001339618 9.046989e-005 -0.49237663 0.15617514
595000000 -0.47776178 0.15750748 -0.00099051406 -0.0007034163 -0.00024120959 -0.00040775718 -0.49231207 0.15597583
596000000 -0.47798327 0.15846972 -0.00084077159 -0.00074510137 -0.00022327249 -0.00051883957 -0.49223411 0.15649819
597000000 -0.47717372 0.15884638 -0.00059717294 -0.0015154813 -0.00083677418 -0.0013284073 -0.49206841 0.15682551
598000000 -0.47722349 0.15999272 0.0002120585 -0.0013454551 -0.00093465368 -0.00094329775 -0.49211571 0.1569954
599000000 -0.4775787 0.15947191 -0.00028744095 -0.00091598072 -0.00090846856 -0.00027280653 -0.49217045 0.15757675
600000000 -0.47663829 0.15922776 -0.00070443767 0.00012276127 -0.0010162268 -0.00027466443 -0.49167302 0.15834509
601000000 -0.47690102 0.16083735 -0.00059701968 -0.00077651034 -0.00069036044 -0.0012930534 -0.49152333 0.15794685
602000000 -0.47723788 0.16062286 -0.00014850862 -0.001211895 -0.00024970187 -0.00079450163 -0.49081638 0.15790577
603000000 -0.4771193 0.16105041 -0.00061631104 -0.0013181305 -0.00067107944 -0.0013216636 -0.49173373 0.159218
604000000 -0.47633535 0.16165787 -0.0013433973 -0.00091813656 -0.0010872489 -0.0012529244 -0.49125218 0.15819667
605000000 -0.47662628 0.16206311 -0.00055624591 -0.00075331557 -0.001113923 -0.00102809 -0.49051175 0.15939873
606000000 -0.47686845 0.1608769 0.00010571772 -0.00068709772 -0.0012974342 -0.00053866068 -0.49106637 0.15881023
607000000 -0.47674531 0.16203324 -0.00083983841 -0.0010307316 -0.0010689324 -0.0014706689 -0.49145678 0.15807495
608000000 -0.47658202 0.16194268 -0.00057315041 -0.00093327463 -0.00084680942 -0.0012846738 -0.49057227 0.15976281
609000000 -0.47568107 0.16226855 -0.00088696741 -0.00062188774 -0.00068038545 -0.0005347298 -0.49094409 0.16053
610000000 -0.47534564 0.16255711 -0.00042290692 -0.00082223717 -0.0011449325 -0.00059534522 -0.49075627 0.15999244
611000000 -0.47489485 0.163596 -0.00052310346 -0.00024012747 -0.00087364129 -0.0014173588 -0.49052772 0.16059287
612000000 -0.47633523 0.16375229 4.4271452e-005 -0.0015617942 -0.00071158854 -0.0019640608 -0.49075329 0.16088678
613000000 -0.47514927 0.16426612 -0.00071363809 -0.00099583634 -0.00089379324 -0.00047173139 -0.49003041 0.16056475
614000000 -0.47550282 0.1638737 -0.0012239187 -0.0015840254 -0.00076892937 -0.00075100898 -0.49020469 0.16170268
615000000 -0.47516313 0.16377395 -0.00042662807 -0.00036762541 -0.00070718006 -0.00042600525 -0.49004942 0.16182044
616000000 -0.47555757 0.16521496 -0.00083612808 -0.00070832769 -0.00025569202 -0.0010539334 -0.4905017 0.16238642
617000000 -0.47567531 0.16530955 -0.00013002865 -0.001362248 -0.00084724923 -0.00050402776 -0.4903861 0.1624957
618000000 -0.47529066 0.16491655 -0.00053526246 -0.0008676016 -0.00070802937 -0.0010832049 -0.48990923 0.16326478
619000000 -0.47561148 0.16537257 -0.00046365472 -0.00088456535 -0.0014027862 -0.0015305439 -0.49016991 0.16260199
620000000 -0.47523952 0.16647042 -0.00023131016 -0.0016146435 -0.00063294923 -0.00093588349 -0.49025118 0.16267236
621000000 -0.47535485 0.16652182 0.00013633921 -0.0010755328 -0.00034976375 -0.00090431271 -0.49082515 0.16351299
622000000 -0.47459474 0.16547267 -1.069886e-005 -0.00097755878 -0.0012281809 -0.00043256747 -0.49021715 0.16339788
623000000 -0.47425622 0.16612361 -0.00070722 -0.00062317675 -0.0012168521 -0.00076332735 -0.48953429 0.1640846
624000000 -0.47508854 0.1667244 -0.00011138665 -0.0012850793 -0.00092522788 -0.00065043697 -0.48932353 0.16385204
625000000 -0.4746272 0.16833995 -0.00083340635 -0.00083419628 -0.00058881933 -0.0011453652 -0.49018517 0.16470513
626000000 -0.47500709 0.16787718 -0.00068453985 -0.00072237354 -0.00091252744 -0.00091824826 -0.48890206 0.16487101
627000000 -0.47377008 0.16753946 -0.0020544264 -0.00069743622 -0.00010008911 -0.0010817751 -0.48956314 0.1648504
628000000 -0.47448501 0.16815415 -0.00063921162 -0.0012044929 -0.0012904356 -0.0009501123 -0.48979405 0.16562192
629000000 -0.47405955 0.16875809 -0.00070131646 -0.0010743133 -0.0007135378 -0.00063863466 -0.48990858 0.16556902
630000000 -0.47356191 0.16818134 -0.00030549415 -0.00095155783 -0.0012278687 -0.00025171851 -0.48961106 0.16590473
631000000 -0.47471377 0.16868789 -0.00012030551 5.1336974e-005 -0.00084790844 -0.0013131035 -0.48841599 0.16587928
632000000 -0.47404119 0.17078786 -0.0010064588 -0.00049394311 -0.00082592841 -0.00047488726 -0.48923975 0.16574803
633000000 -0.47485194 0.16968396 -0.0012211181 -0.0010421543 -0.00084197649 -0.0011667487 -0.48952651 0.16636245
634000000 -0.47369915 0.17055424 -0.00066326128 -0.0012414679 -0.00062862557 -0.00078407332 -0.48859522 0.16612157
635000000 -0.47403064 0.17008202 -0.00074637361 -0.0011511665 -0.0006201943 -0.0010551143 -0.48787379 0.16795968
636000000 -0.47459838 0.17034732 1.5530295e-005 -0.0012696827 -0.0008981108 -0.0011028307 -0.48913509 0.16793573
637000000 -0.47338128 0.17020102 -0.00030185349 -0.0007310888 -0.00053364784 -0.00060216332 -0.48823968 0.16692688
638000000 -0.47398612 0.17069498 -0.0008215647 -0.00062133494 -0.00049520459 -0.00066680368 -0.48855677 0.16862872
639000000 -0.47430366 0.1720625 -0.00067606679 -0.0019719754 -0.00063385005 -0.00030128346 -0.48830032 0.16772799
640000000 -0.47331092 0.1712075 -0.00062539935 -0.00074692268 -0.00098694651 -0.00047695567 -0.48836005 0.16827892
641000000 -0.47403574 0.17170103 -0.00042045175 -0.00061625737 -0.0011741321 -0.0018676857 -0.48828942 0.16820495
642000000 -0.47344309 0.17203408 -0.001370643 -0.0012768951 -0.00099970133 -0.00096568686 -0.48781088 0.16923134
643000000 -0.47440636 0.17242579 -0.0013808089 -0.00073717535 -0.001427869 -0.00090386323 -0.4882482 0.16951311
644000000 -0.47372109 0.17214119 -0.0013506856 -0.00087744405 -0.0010042727 -0.0007118666 -0.48907977 0.16920158
645000000 -0.47326466 0.17214519 -0.00052031188 -0.00085569941 -0.00050269742 -0.00049745804 -0.4894166 0.1696634
646000000 -0.47275078 0.1729425 -0.001268118 -0.0014139507 -0.00033146763 4.8112874e-005 -0.48874998 0.16939656
647000000 -0.47336316 0.17295389 -0.00017312568 -0.00053618627 -0.00068223692 -0.0013031939 -0.4876259 0.17010933
648000000 -0.47269264 0.17435791 -0.00084528833 -0.00039783973 -0.0019127538 -0.0014945634 -0.48856026 0.17079163
649000000 -0.47448891 0.17451483 -0.00078164175 -0.00088290212 -0.00018714809 -0.00059405767 -0.48823705 0.16977096
650000000 -0.47336388 0.17413589 -0.00090403861 -0.0011781049 -0.00062964921 -0.0014902635 -0.48733222 0.1711096
651000000 -0.4735457 0.17441906 -0.00053336745 -0.0010707639 -0.00080679258 -0.001191645 -0.48750055 0.17123391
652000000 -0.47353742 0.17479907 -0.00067503034 -0.0011011444 -0.0013097399 -0.0013569348 -0.48717806 0.17145839
653000000 -0.47302309 0.17469163 -0.0013609183 -0.0011805987 -0.00034135167 -0.00084034784 -0.48754722 0.17114203
654000000 -0.47279972 0.17481166 -0.00080560613 -0.0019102023 -0.00086104247 -0.0006658163 -0.48791879 0.17114504
655000000 -0.4724637 0.17563277 -0.0011741454 -0.00099081884 -0.00094980036 -0.00079618522 -0.48754331 0.1716765
656000000 -0.47206917 0.17626747 -0.0010271741 -0.001380875 -0.0014885201 -0.00068437669 -0.48766747 0.1720299
657000000 -0.47316062 0.17610632 -0.00098402461 -0.0012892487 -0.0011072259 -0.0013071731 -0.48825368 0.1718854
658000000 -0.47269717 0.17672877 -0.00045932346 -0.0017878506 -0.00077060924 -0.001820321 -0.48777744 0.17218705
659000000 -0.47306308 0.17696333 -0.0011479377 -0.0015221061 -0.0012156983 -0.00088571303 -0.48711738 0.1731852
660000000 -0.47243994 0.17732506 -0.00052497926 -0.00021979172 -0.00018614611 -0.00092632178 -0.48736989 0.17226945
661000000 -0.47307196 0.17719895 -0.00010967282 -0.00060390873 0.00027882052 -0.00094303786 -0.48636314 0.17335185
662000000 -0.47178194 0.17693689 -0.0012169854 -0.00069776521 -0.00071350479 -0.0017825388 -0.48749274 0.17370991
663000000 -0.47247341 0.17822789 -0.00051415042 -0.00065646664 -0.0013071677 -0.00074591476 -0.48758638 0.17307279
664000000 -0.47266531 0.17771202 -0.00062738947 -0.0010123265 -0.00044610616 -0.00032972477 -0.48696429 0.17401733
665000000 -0.47238562 0.17773031 -0.0007856646 -0.00066327309 -0.0012223151 -0.0011941401 -0.48683017 0.17507091
666000000 -0.47150272 0.17766415 -0.0015098394 -0.00061459828 -0.00057809748 -0.00098455115 -0.48622361 0.17463048
667000000 -0.47266948 0.17796116 -0.00092988514 -0.00079618319 -0.0010553008 -0.0018496274 -0.48693851 0.17466225
668000000 -0.47202426 0.17827538 -0.00035704725 -0.00093431107 -0.001209997 -0.00099683448 -0.48665369 0.17415449
669000000 -0.47263357 0.17795947 -0.00080391549 -0.0012626306 -0.00049699959 -0.0010291982 -0.48692665 0.17472015
670000000 -0.47143796 0.17794718 -0.0010700455 -0.00075050018 -0.00057944446 -0.00087719725 -0.48726785 0.17572635
671000000 -0.47151229 0.17909536 -0.0011711342 -0.00068770588 -0.0011944209 -0.0011426802 -0.48705077 0.17527868
672000000 -0.47244444 0.17908645 -0.0004936232 -0.0013388235 -0.00094535388 -0.001137795 -0.48607779 0.17508742
