!Keysight Technologies,M9374A,MY55442783,A.12.55.05
!Date: Thursday, May 20, 2021 15:40:33
!Correction: S11(Full 2 Port(1,2)) 
!S21(Full 2 Port(1,2)) 
!S12(Full 2 Port(1,2)) 
!S22(Full 2 Port(1,2)) 
!S2P File: Measurements: S11, S21, S12, S22:
# Hz S  RI   R 50
500000000 -0.48397011 0.1353426 -0.00011102216 -0.0006920934 -0.00029231451 -0.00073700806 -0.49711323 0.13341822
501000000 -0.48370555 0.13633704 -0.00043426704 -0.00082839519 -0.0001171462 0.00015234856 -0.49675655 0.13375498
502000000 -0.48316172 0.137557 -0.00059359748 -0.00077122299 -1.2837527e-005 -0.00051406026 -0.49657279 0.13401134
503000000 -0.48272589 0.13745271 -0.00091966719 -0.00033546647 -0.00078920531 -0.00095613085 -0.49661717 0.1348298
504000000 -0.48279998 0.13736558 -0.00088516157 -0.0010637294 -8.6294232e-005 -0.00032307225 -0.49770978 0.13500927
505000000 -0.48339346 0.13802993 -0.0012844455 -0.00051752315 -0.00066574162 -0.00061229849 -0.49598053 0.13506009
506000000 -0.48269734 0.13847816 -0.00060717686 -0.00015644668 -0.00042398478 -0.0012382378 -0.49715731 0.13568544
507000000 -0.48307958 0.13786003 0.00018662027 -0.00082649215 -1.7152561e-005 -0.00058434758 -0.49637318 0.13584608
508000000 -0.48340762 0.13902998 -0.00089237443 -0.00081160286 -0.00053868262 -2.4710282e-005 -0.49622491 0.13631684
509000000 -0.48364827 0.13894132 8.7633234e-005 -0.00068644091 -0.00068589993 -0.00087106379 -0.49610424 0.13609172
510000000 -0.48319161 0.1389533 -0.00083568721 -0.0013036338 -0.00048116664 -0.0004815158 -0.49551854 0.13708037
511000000 -0.48264813 0.13943146 -0.00047708879 -0.0012008201 -0.00076819095 -0.00085234846 -0.49508089 0.1371313
512000000 -0.48224008 0.14014944 3.5202396e-005 -0.0010982192 -0.0010015455 -0.0011826437 -0.49645865 0.13791014
513000000 -0.48274332 0.14056155 -0.00076929934 -0.00082662422 -0.0004298928 -0.00080377038 -0.4961907 0.13783845
514000000 -0.48312151 0.13969809 -0.00021558857 -0.0008497755 -0.0012017254 -0.0014079782 -0.49606475 0.13787352
515000000 -0.48220664 0.14062808 -0.00012120044 -0.00051460142 -0.00058365514 -0.00046272573 -0.4951908 0.13904725
516000000 -0.48329389 0.14157507 -0.00037205184 -0.00048111007 -0.00029944425 -0.0010031079 -0.49573722 0.13839458
517000000 -0.48239139 0.14182259 -0.00094609027 -0.00038964298 -0.00076879369 -0.00036554699 -0.49486771 0.13868825
518000000 -0.48210055 0.14066547 -0.00075137656 -0.0014247213 -0.00074643927 -0.00026391973 -0.49519196 0.1388889
519000000 -0.48172662 0.14124738 -0.0005081885 -0.00098694372 -0.00074945617 -0.0005211375 -0.49512741 0.13989969
520000000 -0.48250136 0.14159018 -0.0007503652 -0.0017402401 -0.00024351692 -0.0006473629 -0.49556494 0.13983983
521000000 -0.48150945 0.14198093 -0.00086445716 -0.0011950749 -0.00071579334 -0.00081801147 -0.49541813 0.13986982
522000000 -0.48278147 0.14294568 -0.00023692365 -0.00084915716 -0.0008948787 -0.00025152741 -0.49518481 0.14052035
523000000 -0.48203644 0.14300723 -0.00050997868 -0.00090251409 -0.00075121521 -0.00066815177 -0.49584073 0.14072877
524000000 -0.48232111 0.14245066 -0.00094910257 -0.0014641563 -0.00035690994 -0.0012697183 -0.49565399 0.14114943
525000000 -0.48115492 0.14238375 -0.00064838689 -0.00062019314 -0.0005189841 -0.0010717494 -0.4949035 0.1417549
526000000 -0.48202404 0.14381526 -0.00093786465 -0.00014796021 0.00055847247 -0.0008173908 -0.49511799 0.14145997
527000000 -0.48196304 0.14362046 -0.00068538863 -0.001167227 -0.00088970113 -0.00063763355 -0.49552721 0.14180739
528000000 -0.48174444 0.14479308 -0.00070462184 -0.00097024348 -0.0010293028 -0.0011560144 -0.49558431 0.14229824
529000000 -0.48160183 0.14404112 -0.00074487709 -0.0012015465 0.00012577644 -0.00074929534 -0.49439961 0.14259161
530000000 -0.48155317 0.14440511 -0.000252631 -0.00073011994 -0.0016060483 -0.00032608485 -0.4951224 0.14221063
531000000 -0.48168793 0.14470714 -0.0015047233 -0.00044997811 -0.00029440745 -0.001286729 -0.49539649 0.14290701
532000000 -0.48126554 0.14473985 -0.00075411511 -0.0011565504 -0.00087161682 -0.00048085413 -0.49416134 0.1435564
533000000 -0.48134074 0.14628348 -0.00084626535 -0.00044668966 -0.00088990992 -0.00051717466 -0.49425825 0.14470123
534000000 -0.48140472 0.14429229 -0.0012178349 -0.00055036729 -0.00039675162 -0.0011105702 -0.49506134 0.14230934
535000000 -0.482041 0.14622886 -0.0010083985 -0.00053090975 -0.0012676426 -0.0004670663 -0.49445117 0.14324501
536000000 -0.48120511 0.14614719 -0.00056745723 -0.00014216422 -0.0005058308 -0.0011371844 -0.49514717 0.14367676
537000000 -0.48217312 0.14668502 -9.7181102e-005 -0.0003387279 -1.3632346e-005 -0.0010336626 -0.49469259 0.1443316
538000000 -0.48114011 0.14624293 0.00032823774 -0.00042047317 -0.00019256286 -0.00063526229 -0.4950932 0.14419146
539000000 -0.48161802 0.14725529 -0.00066667481 -0.00076810882 -0.00099786324 -0.00041972098 -0.4949238 0.14529061
540000000 -0.48200598 0.14743946 -0.00083397096 -0.00097677263 -0.00029240461 -0.00076196145 -0.49419996 0.14479768
541000000 -0.48033935 0.14747545 -0.0016159487 0.00022115863 -0.0012961528 -0.00069732597 -0.49413103 0.14472412
542000000 -0.48102027 0.14778204 -0.00043296005 -0.00072195462 -0.00054334401 -0.0011258124 -0.49463686 0.14546567
543000000 -0.48048651 0.14690597 -0.00054786057 -0.00065419264 -0.0004000068 -0.00067741348 -0.49435645 0.14640339
544000000 -0.48080984 0.14858709 -0.00096911035 -0.00040521458 -0.00093804218 -0.00057312357 -0.49502736 0.14606538
545000000 -0.48101467 0.1477222 -0.00059106469 -0.0011119834 -0.00023694015 -0.0010828687 -0.49426034 0.14639516
546000000 -0.48025212 0.14929466 -0.00096233556 -0.0011427507 -0.00054309831 -0.00064597407 -0.49494597 0.14677538
547000000 -0.48060444 0.14898053 -0.00032161243 -0.0011208927 2.8048917e-005 -0.00053347729 -0.49534607 0.14778662
548000000 -0.48051473 0.14872265 -0.00020932943 0.00010918887 -0.00028234199 -0.0012579114 -0.4943876 0.14708644
549000000 -0.48019668 0.1496641 -0.0001023484 -0.00033070357 -0.00067467871 -0.00093143206 -0.49477902 0.14793037
550000000 -0.48023161 0.15039435 -0.00062619825 -0.00075516757 -0.0008647241 -0.0011128985 -0.49395624 0.14838558
551000000 -0.48038346 0.14936984 -0.00051942718 -0.00076530472 -0.0006015051 -0.00085404154 -0.49445027 0.14810084
552000000 -0.48105362 0.14915909 1.1443621e-005 -0.0010515077 -0.00074938009 -0.00029183296 -0.49420524 0.14815477
553000000 -0.48035023 0.15006803 8.3540646e-005 -0.00038392463 -0.0019105717 -0.0016360254 -0.4940885 0.14728619
554000000 -0.48059165 0.15033539 -0.00019039681 -0.00086140685 -0.00078679441 -0.0011242353 -0.49432629 0.14913757
555000000 -0.48083383 0.15007076 4.7489393e-005 -0.00063524424 -0.00075120793 -0.00073567149 -0.49452937 0.14878248
556000000 -0.48071796 0.1500552 -0.0011114869 -0.00062925165 -0.00033078698 -0.00025071547 -0.49409202 0.14913976
557000000 -0.48029387 0.15101165 -0.00020014687 -0.0014495053 -0.00047804788 -0.00092211989 -0.4947215 0.14766355
558000000 -0.48043016 0.15042335 -0.00095115096 -0.0011065832 -0.0012542569 -0.0013759626 -0.49470699 0.15028776
559000000 -0.47935086 0.15120085 -0.00085335993 -0.00025634651 -0.00049328106 -0.00075279508 -0.49452668 0.15012032
560000000 -0.48022905 0.15144444 -8.9821544e-005 -0.00023955661 -0.00061578042 -0.00037834814 -0.4927384 0.14927009
561000000 -0.47902253 0.15137683 -0.00029783251 -0.00082530797 -0.0013172239 -0.0011864499 -0.4939059 0.14999425
562000000 -0.48004216 0.15201433 -0.0008031014 -0.0010200224 -0.00059968565 -0.00089779927 -0.49284676 0.15009402
563000000 -0.47908729 0.15167265 -0.0007241905 -0.0012910235 -0.00086985854 -0.00041728441 -0.49296656 0.15051726
564000000 -0.47977245 0.15231784 -0.00071492512 5.4972159e-005 -0.00062957907 -0.00015045272 -0.49355388 0.15126908
565000000 -0.47924796 0.15253532 -0.00069412368 -0.00072901213 -0.00081309304 -0.001249893 -0.49415013 0.15096815
566000000 -0.47979271 0.15199149 -0.00097914098 -0.0010183662 -0.0011332497 -0.00053043157 -0.49422511 0.15133722
567000000 -0.48003694 0.15270421 -0.00020697217 -0.00070453825 -0.0012564086 -0.00058349478 -0.49334055 0.15131718
568000000 -0.47818387 0.15319552 -0.001106196 -0.00044788461 -0.0013861303 -0.00044711962 -0.49367803 0.15126391
569000000 -0.4801622 0.15390959 -0.00087605894 -0.0006694402 -0.00080411951 -4.9466296e-005 -0.49393439 0.15120381
570000000 -0.47959882 0.15379672 -0.00093710888 -0.00028010042 -0.00022345077 -0.0014257492 -0.49348825 0.15178953
571000000 -0.4790903 0.15367807 -0.00078027527 -0.00076761266 -0.00098322891 -0.0011411365 -0.49285793 0.15251428
572000000 -0.47920877 0.15372996 -0.00068104931 -0.00077947951 -0.0015109262 -0.00047581445 -0.49308664 0.15303357
573000000 -0.47828838 0.15436697 -0.00070958654 -0.00087685965 -0.00032485896 0.00012437553 -0.49336565 0.15314609
574000000 -0.47808298 0.15446618 -0.0012427854 -0.00032439144 -0.00036523558 -0.00061883003 -0.49329421 0.15340605
575000000 -0.47746882 0.15484789 -0.0005578202 -0.00098664942 -0.00028228323 -0.00053357496 -0.49328887 0.15379398
576000000 -0.47822267 0.15465453 -0.00010311136 -0.00045630935 -0.0002954604 -0.00013890192 -0.49301422 0.1533521
577000000 -0.47851956 0.15489119 -0.00052025105 -0.0010263197 -0.00050366967 -0.00048585315 -0.49308977 0.15391253
578000000 -0.478365 0.15568653 -0.0006875507 -0.00075282459 0.00017050862 -0.001550815 -0.49269459 0.15293233
579000000 -0.4782984 0.15621527 -0.0011304144 -0.00067011343 -0.0013505857 -0.0013386637 -0.49230355 0.15397349
580000000 -0.47753927 0.15602928 -0.00052511605 -0.00064755545 -0.00059406646 -0.0009842579 -0.4921388 0.15507659
581000000 -0.47810993 0.15520796 -0.00069444196 -0.00043148463 -0.00068857311 -0.00050046825 -0.49291244 0.15457819
582000000 -0.47775012 0.15649073 -0.00016165207 -0.0010671882 -7.4137337e-005 -0.00093154749 -0.49207449 0.15466331
583000000 -0.47862345 0.15772632 -0.00070556736 -0.00086790725 -0.00072264508 -0.00049704523 -0.49358642 0.15498528
584000000 -0.47743702 0.15684855 -0.00079125486 -0.00040079467 -0.00027388817 -0.0012506723 -0.49132642 0.15610263
585000000 -0.47722074 0.1569263 -0.00065830775 -0.00076206977 -0.00052909338 -0.00069627096 -0.49181134 0.1561266
586000000 -0.47818148 0.15720232 -0.00026236041 -0.0011052109 -0.00041028409 -0.0011110042 -0.49231163 0.15521817
587000000 -0.47732818 0.15715002 0.00034973896 -0.00032016094 -0.0015527981 -0.00067365385 -0.4923107 0.15675718
588000000 -0.47689244 0.15812834 -0.00010716496 -0.0012001091 -0.00072740391 -0.00050982414 -0.49278018 0.15723911
589000000 -0.47769016 0.1579389 -0.00020515868 -0.00057567284 -0.00016173437 -0.00060097937 -0.49190179 0.15697239
590000000 -0.47821584 0.15821132 -0.0001565159 -0.0011682652 -0.00075289625 -0.0012251245 -0.49195537 0.1570383
591000000 -0.47646269 0.15860775 -0.00098858902 -0.00071858667 -0.0010323611 -0.0012545731 -0.49220243 0.15700476
592000000 -0.47648075 0.15992463 -0.00056800974 -0.00034540036 -0.00028794119 -0.0011249232 -0.49182299 0.1576551
593000000 -0.47630769 0.1598115 -0.0011884044 -0.00092114002 -0.00075584895 -0.00079074758 -0.49233299 0.15713976
594000000 -0.47598711 0.15968724 -0.00089998177 -0.00087116746 -0.00096983922 -0.00041568893 -0.49274611 0.15812603
595000000 -0.47687915 0.1602928 -0.00090037868 -0.001047146 -0.00040673002 -0.00089937676 -0.49164018 0.1587074
596000000 -0.47707427 0.15963267 -0.00067609811 -0.00095092086 -0.00068095146 -0.00055283919 -0.49112418 0.15823142
597000000 -0.47690457 0.16068035 -0.0004081669 -0.00056975306 -0.0006408089 -0.00037469441 -0.49126825 0.15753916
598000000 -0.4769066 0.16106382 -0.0004213214 -0.00058888778 -0.00060529285 -0.00069471647 -0.49145162 0.1592268
599000000 -0.47600472 0.16100535 -0.00064593356 -0.00075711717 -0.00093992031 -0.00084746734 -0.4912155 0.15924481
600000000 -0.47627166 0.16217278 -0.00099637639 -0.00049438298 -0.00039782148 -0.00096980284 -0.49087855 0.15985009
601000000 -0.47622985 0.16173777 -0.00074967631 -0.00057411724 -0.00032748198 -0.0015561322 -0.49091673 0.15925902
602000000 -0.47630489 0.16281529 -0.00067535805 -0.00094147428 -0.000277593 -0.0013816231 -0.49084553 0.16105068
603000000 -0.47626188 0.16268645 -0.0008093674 -0.0013659917 0.0002318647 -0.0011831078 -0.49116123 0.16071258
604000000 -0.47546741 0.16226429 -0.0012258206 -0.0010413033 -0.001343732 -0.00041044372 -0.49046686 0.16091008
605000000 -0.4759776 0.16391693 -0.00053884258 -0.00048006585 -0.00097206491 -0.00072784169 -0.49025095 0.16045532
606000000 -0.47535133 0.16400637 -0.00082154159 -0.00072088686 -0.00067873165 -0.00050500198 -0.48950782 0.16114104
607000000 -0.47567835 0.16310053 -0.00065313355 -0.00069596153 -0.00088080397 -0.00098294404 -0.49006 0.16110289
608000000 -0.47569293 0.16426978 -0.00050168228 -0.00083685661 -0.00076231902 -0.0011443957 -0.49103394 0.16249047
609000000 -0.4756338 0.16440697 -0.00078724395 -0.00085877784 -0.0008604668 -0.00075919274 -0.49078891 0.16242041
610000000 -0.47564748 0.16414618 0.0002177326 -0.00052236055 -0.00058693008 -0.0012634395 -0.49005789 0.16362119
611000000 -0.47509193 0.16505232 -0.00067294977 -0.0009050658 -0.00038790394 -0.00037773311 -0.48942569 0.16270849
612000000 -0.47507194 0.16508889 -0.00087279925 -0.0010220769 -0.00068593473 -0.00044746092 -0.49035349 0.16344237
613000000 -0.47442982 0.16572054 -0.00044145496 -7.4024203e-005 -0.00035517826 -0.00032211764 -0.48936281 0.16279981
614000000 -0.47420159 0.16583294 -0.0012202912 -0.0011373179 -0.00082499639 -0.00096559332 -0.48957786 0.16401403
615000000 -0.47437111 0.16571912 -0.0012496571 -0.00085020147 -0.00090547506 -0.00075218308 -0.48990676 0.16363733
616000000 -0.4734183 0.16671258 -0.00092573802 -0.00070032402 -0.00086578052 -0.0012415274 -0.48972338 0.16377085
617000000 -0.4741362 0.16760851 -0.00079415267 -0.002107919 -0.0011601392 -0.00097980862 -0.48941493 0.16448404
618000000 -0.47495571 0.16703287 -0.00081672781 -0.00094181777 0.00013298655 -0.0010628679 -0.48879784 0.16485983
619000000 -0.47447261 0.16790603 -0.00085798028 -0.0010092102 -0.0009590406 -0.0010594272 -0.48907104 0.16447365
620000000 -0.47445369 0.16748051 -0.00091257715 -0.0011260089 -0.0006237445 -0.0012982612 -0.49019337 0.16435619
621000000 -0.4739168 0.16792503 -0.0016511695 -0.0011840351 -0.00026324517 -0.001211739 -0.48834795 0.16595767
622000000 -0.4748778 0.16772707 -0.0005925541 -0.0010793487 -8.5763451e-005 -0.0011317645 -0.48859277 0.16534571
623000000 -0.47427759 0.16808257 -0.00093199161 -0.00042257164 -5.2936717e-005 -0.00048064004 -0.48883587 0.16532484
624000000 -0.47406423 0.16857885 -0.0010745306 -0.00030246217 -0.00051857595 -0.0010017448 -0.48829916 0.16616337
625000000 -0.4741517 0.16968271 -0.0007538413 -0.00081192842 -0.00074741553 -0.0009954439 -0.48922965 0.166145
626000000 -0.47416574 0.17079045 -0.00096569955 -0.0012878582 -0.00089604786 -0.00078607141 -0.48841056 0.1658922
627000000 -0.47416827 0.17011532 -0.00058628898 -0.0016602592 -0.00026013551 -0.001043863 -0.48937112 0.16677387
628000000 -0.47330886 0.16998421 -0.00088906352 -0.0010397575 -0.00085089699 -0.00046937502 -0.48931992 0.16701685
629000000 -0.47337344 0.16997172 -0.0012558503 -0.0011534827 -0.000606874 -0.0010828155 -0.48864299 0.16699308
630000000 -0.47338602 0.17049782 -0.00085952139 -0.001411366 -0.00012758719 -0.00057310506 -0.48865455 0.16841114
631000000 -0.47410408 0.17109534 -0.0012398795 -0.0016026022 -0.00092513632 -0.0010214626 -0.48800308 0.16830072
632000000 -0.47460404 0.17217919 -0.00033624514 -0.00024072063 -0.00029445643 -0.00029208796 -0.48771656 0.16851349
633000000 -0.47302964 0.17208786 -0.001181873 -0.0011797567 -0.0013105576 -0.00072367588 -0.48811591 0.16831151
634000000 -0.47353375 0.17219655 -0.00051818532 -0.00035192788 -0.00085028447 -0.00042775844 -0.48821068 0.16917863
635000000 -0.47281936 0.17084165 -0.00063700503 -0.0014862181 -0.00055019063 -0.00088055554 -0.48758477 0.16990179
636000000 -0.47280517 0.17211796 -0.00051613699 -0.0017862642 -0.00022925665 -0.0013164554 -0.48849455 0.16866896
637000000 -0.47404775 0.17337067 -0.00066325744 -0.00082036288 -0.0008894754 -0.0018666115 -0.48818341 0.16975057
638000000 -0.47340479 0.17226863 -0.0010134776 0.00044099841 -0.0008764657 -0.00077643443 -0.48725474 0.16970865
639000000 -0.47358236 0.17428134 -0.00055453344 -0.00077927613 -0.00061779708 -0.0011352623 -0.48795533 0.16962564
640000000 -0.4734914 0.17347088 -0.00029379869 -0.0017170932 -0.00022674295 -0.00095804362 -0.48798496 0.17012712
641000000 -0.47387299 0.17418528 -0.00057545229 -0.001058019 -0.0012226886 -0.0006702512 -0.48684758 0.17031112
642000000 -0.47253609 0.1745047 -0.0008673133 -0.0010079002 -0.001475068 -0.00062952982 -0.48764926 0.17127858
643000000 -0.47226343 0.17440487 -0.001009063 -0.0012341215 -0.00066401809 -0.0013570684 -0.48743603 0.17128886
644000000 -0.4727574 0.175274 -0.0010150241 -0.00073135307 -0.0011941122 -0.0010968532 -0.48793596 0.17181899
645000000 -0.47336406 0.17476219 -0.00075098046 -0.00075296807 -0.00037411673 -0.00099007401 -0.48787957 0.17094517
646000000 -0.47267064 0.17540799 -0.00046246804 -0.0013423268 -0.0008838324 -0.0013605102 -0.48702615 0.17259629
647000000 -0.47253689 0.17438427 -0.00098033715 -0.0015655583 -0.00066158845 -0.0011787032 -0.48754069 0.1725928
648000000 -0.47324437 0.17579383 -0.00018010105 -0.0007917055 -0.00096180051 -0.0012667018 -0.48783159 0.17217243
649000000 -0.47242776 0.17600758 -0.00077424006 -0.0010614576 -0.00069366791 -0.0012927125 -0.48691434 0.17304319
650000000 -0.47331735 0.17525728 -0.00098345533 -0.0012374824 -0.00063341873 -0.00066658284 -0.48772064 0.17306885
651000000 -0.47222775 0.17634225 -0.001073343 -0.0010295309 -0.00052596774 -0.00050503254 -0.48761043 0.17252466
652000000 -0.47349343 0.17669797 -0.00089343631 -0.00082458439 -3.8055561e-005 -0.00050232629 -0.4870047 0.17272562
653000000 -0.47251806 0.17667326 -0.0013480778 -0.0014741782 -0.00029835803 -0.00077551184 -0.48633936 0.17249456
654000000 -0.47267443 0.17781749 -0.00064366066 -0.0007974836 -0.00075492496 -0.0011907711 -0.4862642 0.17345524
655000000 -0.47270465 0.17779684 -0.00024477899 -0.001538021 -0.0016133559 -0.00063247414 -0.48710597 0.17434151
656000000 -0.47259337 0.17810145 -0.00071750773 -0.0011337587 -0.00056637946 -0.00092761009 -0.48679537 0.17494051
657000000 -0.47180569 0.17788963 -0.00069824216 -0.00056345982 -0.0011605142 -0.001309225 -0.48674899 0.17520724
658000000 -0.47236648 0.1780998 -0.00091904582 -0.00087616919 -0.00066261063 -0.00087103253 -0.48650002 0.17402622
659000000 -0.47163054 0.17938557 -0.00036941911 -0.0015092122 -0.0008889538 -0.0010579878 -0.48667979 0.17476422
660000000 -0.47220862 0.17925358 -0.00065267307 -0.00092186546 -0.00044316272 -0.0010655689 -0.48670152 0.17460167
661000000 -0.47139746 0.17938259 -0.00063360133 -0.0013398086 -0.00033748665 -0.0012294693 -0.4861376 0.17528693
662000000 -0.4720346 0.17909642 -0.00030475957 -0.0011856294 -0.0002858204 -0.00046496413 -0.48668653 0.17507571
663000000 -0.4714672 0.17920345 -0.00090808177 -0.00034534192 -0.00087660475 -0.00067612791 -0.48666093 0.17528807
664000000 -0.47125113 0.17950137 0.00011246616 -0.0012377877 4.36027e-005 -0.0012514887 -0.48638496 0.17616202
665000000 -0.47126663 0.18019091 -0.00067180983 -0.0010317551 -0.0010083592 -0.0013692701 -0.48749027 0.176309
666000000 -0.47187474 0.17942211 -0.00033949903 -0.0015037282 -0.00098915887 -0.0011807218 -0.48615652 0.17640847
667000000 -0.4719218 0.18180038 -0.00027463122 -0.0004970571 -0.0003415152 -0.0009416173 -0.48615974 0.17735381
668000000 -0.47238919 0.18003002 -0.0010597731 -0.00079406344 -0.00070255483 -0.00071071443 -0.4870685 0.17630449
669000000 -0.4725247 0.18103866 -0.0010966816 -0.0013129478 -0.00065610034 -0.00041503945 -0.48542216 0.17611806
670000000 -0.47183788 0.18165028 -0.00052352092 -0.00085306691 -0.0010233109 -0.00050596654 -0.48541015 0.17814372
671000000 -0.47032696 0.1808411 -0.00061534694 -0.00089217146 -0.00081887224 -0.0019274544 -0.48516428 0.17706476
672000000 -0.47206715 0.18089204 -0.00031627872 -0.0011274114 -0.0015042751 -0.001203973 -0.48556638 0.17792968
