!Keysight Technologies,M9374A,MY55442783,A.12.55.05
!Date: Thursday, May 20, 2021 15:19:14
!Correction: S11(Full 2 Port(1,2)) 
!S21(Full 2 Port(1,2)) 
!S12(Full 2 Port(1,2)) 
!S22(Full 2 Port(1,2)) 
!S2P File: Measurements: S11, S21, S12, S22:
# Hz S  RI   R 50
500000000 -0.47891545 0.15002537 -0.00051847164 -0.00079078152 -0.00046076503 -0.0006565426 -0.49366829 0.14835808
501000000 -0.47990766 0.1507559 -0.00030499988 -0.00040067144 -0.00018041124 -0.0010011661 -0.49244562 0.14875835
502000000 -0.47951129 0.15189193 -0.00071595353 -0.00080712949 -0.00059206149 -0.0013895935 -0.49291506 0.14909761
503000000 -0.47901368 0.1517569 -0.00010645889 -0.00072268903 5.310784e-005 -0.00047475405 -0.49258003 0.1500916
504000000 -0.4792352 0.15184711 -0.0011240928 -0.00061685155 5.085982e-005 -0.00027853169 -0.49296582 0.15064113
505000000 -0.47911 0.15262431 -0.0008075136 -0.00070272997 -0.0014124771 6.466268e-005 -0.49266189 0.14935887
506000000 -0.47889379 0.15304334 -0.00052035291 -0.0014414741 -0.00070359418 -0.00050761318 -0.49252424 0.14991482
507000000 -0.47904009 0.1530205 -0.00093799399 -0.00078162435 -0.0010952341 -0.00054257771 -0.49250481 0.15099321
508000000 -0.47852904 0.15418158 -0.0003729981 -0.00042055672 -0.00062598998 -0.0011385253 -0.49192306 0.15095441
509000000 -0.47884932 0.15401159 -0.0010475883 -7.223805e-005 -0.00011458653 -0.00093339663 -0.49187654 0.15171398
510000000 -0.47902 0.15374848 -0.00062126946 -0.0013892284 -0.00028341223 -0.00061871257 -0.49295348 0.15204921
511000000 -0.4785088 0.15399337 -0.00082390069 -0.00061319565 -0.00062338181 -0.00086729426 -0.49262899 0.15209652
512000000 -0.47821516 0.15508613 -0.0014894104 -0.0007603991 -0.0006607665 -0.00073514617 -0.49146709 0.1521848
513000000 -0.47810498 0.15449013 -0.0006866185 -0.00031465827 -0.0010026695 -0.00096920796 -0.49246851 0.15267335
514000000 -0.47871253 0.1551335 -0.00026513191 -9.2727998e-005 -0.00084664871 -0.0012392217 -0.49182636 0.15335687
515000000 -0.47771373 0.15547532 -0.00066027988 -0.00083587732 -0.00023040076 -0.00073182303 -0.49272251 0.15364908
516000000 -0.47910938 0.15593086 -0.0010806473 -0.0015257912 -0.00083051441 -0.00072012242 -0.49220428 0.1539453
517000000 -0.47773767 0.15674032 -0.0013005609 -0.00044030338 -0.00099191489 -0.00066824362 -0.49145624 0.15351251
518000000 -0.47847968 0.15573549 -0.0009884038 -0.00031941227 -0.00055672263 -0.0012765632 -0.49177164 0.15382421
519000000 -0.47780314 0.15643756 -2.5623698e-005 -0.00084778038 -0.00065238558 -0.00043360711 -0.49150926 0.1549437
520000000 -0.47735205 0.15695316 -0.0004990155 -0.00083460956 -0.00095474196 -0.00064902764 -0.49051917 0.15601251
521000000 -0.47763029 0.15845469 -0.00075905077 -0.00082164851 -0.00083577313 -0.0007887744 -0.49100798 0.15528563
522000000 -0.4781931 0.15733087 -0.00046852874 -0.00064883172 -0.00068507058 -9.8612145e-005 -0.4910512 0.15632331
523000000 -0.47790673 0.15787776 -0.00052908988 -0.00026948319 -2.7315007e-005 -0.0012499248 -0.49146965 0.15603527
524000000 -0.4774169 0.15776633 -0.0005365719 -0.0009918554 -0.00039519329 -0.00080621755 -0.4912827 0.15591937
525000000 -0.47787455 0.15779226 -0.0011003482 -0.00074271328 0.0002564411 -0.00058119535 -0.4914526 0.15667818
526000000 -0.4778924 0.15979759 -0.00011109287 -0.00093302241 -0.0006292889 -0.0011576281 -0.49040064 0.15771736
527000000 -0.47867003 0.15982227 -0.00089742086 -2.826512e-005 -0.0013285649 -0.00087447726 -0.49073908 0.15714395
528000000 -0.47710532 0.15901241 -0.0013744088 -0.0012111489 -0.00051331078 -0.00059564994 -0.48993629 0.15749447
529000000 -0.47751758 0.15851104 -0.00069463672 -8.6721666e-005 -0.00069070951 -0.00080250727 -0.49130544 0.15675405
530000000 -0.47695467 0.16092506 -0.00088177231 -0.00091807393 -0.00044538185 -0.001358697 -0.49161777 0.15734032
531000000 -0.47754237 0.15996227 -0.0012391151 -0.00049669208 -0.00065192697 -0.00090638525 -0.49054053 0.15912579
532000000 -0.47695255 0.16103561 -0.001065401 -0.00069994404 -0.00063651055 -0.001327123 -0.48950115 0.15866873
533000000 -0.47638008 0.16022761 -0.0014048268 -0.0004291638 -0.00087221712 -0.00067932095 -0.49085239 0.15833871
534000000 -0.47749346 0.16059701 -1.5812186e-005 -0.00071055128 -0.0004728162 -0.00054761756 -0.49045616 0.15884933
535000000 -0.4773753 0.16162664 -0.00020218418 -0.00098900381 -0.0010956259 -0.00039370038 -0.49053794 0.15998371
536000000 -0.47644863 0.16115478 -0.00033297285 -0.0012309582 -0.00061906839 -0.0014489921 -0.49052316 0.1598004
537000000 -0.4773449 0.16186596 -0.00092015887 -0.00074114022 -0.00051860092 -0.00070064765 -0.49125448 0.16036434
538000000 -0.47622529 0.16205393 -0.0004293884 -0.0010198384 -0.001486466 -0.0010475607 -0.49011955 0.16082457
539000000 -0.47726783 0.16240859 -0.00074226374 -0.00093180704 -0.00055258605 -0.00049046881 -0.49055204 0.16098811
540000000 -0.47764716 0.16267592 -0.00059839425 -0.00060282322 -0.00043732705 -3.2555745e-005 -0.49067411 0.16032088
541000000 -0.476742 0.16232815 -0.00067958416 -0.00098266592 -6.7653426e-005 -0.00066181383 -0.49051797 0.16081923
542000000 -0.47619525 0.16346887 -0.00069733447 -0.00070676865 -0.00073502806 -0.0011377753 -0.49076459 0.16179284
543000000 -0.47708866 0.16402671 -0.00016220158 -0.00048979698 -0.0010879536 -0.0010569867 -0.49040335 0.16174203
544000000 -0.4772152 0.16393055 -0.00057777332 -0.00046121361 -0.0010464856 -0.00030503111 -0.4902271 0.16225646
545000000 -0.4762938 0.16438037 -0.00066073169 -0.0013354481 -0.00064846314 -0.00019811587 -0.48903596 0.16197546
546000000 -0.47615877 0.16451523 -0.0011224484 -0.00071756891 4.4969554e-005 -6.98691e-005 -0.48952758 0.16332717
547000000 -0.47640234 0.16406399 -0.00012330312 -0.001104609 -0.00073964789 -0.0004060439 -0.4907437 0.1625669
548000000 -0.47662097 0.1645045 -0.0010583865 -0.00074350287 -0.0011270631 -0.00078802218 -0.49001312 0.1629744
549000000 -0.47558117 0.16440095 -0.00069801358 -7.3285883e-005 -0.00029522306 -0.0012743485 -0.49008402 0.16364001
550000000 -0.47622246 0.16566999 -0.0011033525 -0.00042066042 -0.0011346461 -0.00060964638 -0.48956117 0.16396198
551000000 -0.47552726 0.16519399 -0.00068832259 -0.0012579015 -0.00085403433 -0.00094453921 -0.4900496 0.16393772
552000000 -0.47552806 0.16593611 -0.00079307857 -0.00093323668 -0.00089113897 -0.0012592247 -0.48918286 0.16426292
553000000 -0.4764775 0.1663952 -0.001016827 -0.00069518638 -0.00088281336 -0.00016984573 -0.49011642 0.16456237
554000000 -0.47617161 0.16637309 -0.00043194214 -0.00083463389 -0.00051939546 -0.00041488482 -0.49019581 0.16522194
555000000 -0.47520128 0.16552164 -0.00068740593 -0.00014837815 -0.00023509408 -0.0014254444 -0.49051416 0.16470809
556000000 -0.47624573 0.16569889 -0.00016912055 -0.0011534196 -0.00078171637 -0.0010822265 -0.48902828 0.16591954
557000000 -0.47506517 0.16789801 -0.00079808413 -0.00084749964 -0.00085223891 -0.0010320317 -0.49017367 0.16568734
558000000 -0.47579584 0.16631553 -0.00091431435 -0.0011571326 -0.0011526317 -0.00053816626 -0.48886973 0.16596228
559000000 -0.47523639 0.16771254 -0.0010704595 -0.00070202147 -0.00084922917 -9.715226e-005 -0.49043015 0.16613258
560000000 -0.47469041 0.16764745 -0.00029696987 -0.00093399227 -0.00093200221 -0.00030114234 -0.489268 0.16605677
561000000 -0.47441396 0.16813351 -0.00067409576 -0.00044567391 -0.00056034169 -0.0011807641 -0.48885274 0.1663671
562000000 -0.47485402 0.16814704 -0.0012302536 -0.0004183847 -0.00076694839 -0.0013054471 -0.48910949 0.16680704
563000000 -0.47387868 0.16817641 -0.0011595604 -0.00058040774 -0.00030739623 -0.00028008752 -0.4893204 0.16711691
564000000 -0.47587094 0.16843712 -0.00024632615 -0.0010051817 -0.00028474486 -0.00067792862 -0.48851493 0.16810428
565000000 -0.47519603 0.16860248 -0.0011750631 -0.0012779993 -0.00081933383 -0.0011005405 -0.48840967 0.16867077
566000000 -0.47492719 0.168121 -3.2515385e-005 -0.00085419754 -0.00092864787 -0.0014500801 -0.48839998 0.16695653
567000000 -0.47397926 0.16973886 -0.00085100933 -0.00031284886 -2.3032144e-005 -0.00050772232 -0.48845729 0.16808566
568000000 -0.47396296 0.16918397 -0.00041127778 -0.0010901476 -0.00043731506 -0.0013106423 -0.48935041 0.16820227
569000000 -0.47399998 0.17013921 -0.0012039101 -0.0013005745 -0.00053642556 -0.00073785847 -0.48894119 0.16877604
570000000 -0.47457421 0.17029665 -0.0011575804 -0.0012480748 -0.00029071418 -0.00078713824 -0.48745307 0.16931257
571000000 -0.47346815 0.17048229 -0.00068699336 -0.0007629281 -0.00052372093 -0.00039527391 -0.48851514 0.16920462
572000000 -0.47391772 0.17088701 -0.0008715305 -0.00074938202 -0.00067109603 -0.0010676841 -0.48861971 0.1688859
573000000 -0.47447139 0.17103305 -0.0011858608 -0.0003745569 -0.0014051354 -0.00075172022 -0.48735926 0.16929702
574000000 -0.47370714 0.17167573 -0.00042172059 -0.00039610555 -0.00063827768 -0.0011461216 -0.48771769 0.17038368
575000000 -0.47379118 0.17172626 0.00014376781 -0.00041322911 -0.00024436013 -0.00063368003 -0.48882711 0.1704904
576000000 -0.47276652 0.17142083 -0.0011350998 -0.00083255948 -0.0005884805 -0.00086141517 -0.48793438 0.17065039
577000000 -0.47405884 0.17268609 -0.00059809315 -0.00087342865 -0.00028407437 -0.00056656508 -0.48813981 0.17075281
578000000 -0.47373044 0.17227246 -0.00099406776 -0.00011363228 -0.00052205421 -0.0018320906 -0.48766163 0.17177555
579000000 -0.47326186 0.17295639 -0.00088339386 -0.00076270237 -0.00095480873 -0.0004254347 -0.48781961 0.17191768
580000000 -0.47280115 0.17270899 -0.00087348715 -0.00078788691 -0.00063302089 0.00018002959 -0.48695883 0.17114981
581000000 -0.47238457 0.17266834 -0.00050773623 -0.0013156483 -0.0010306514 -0.00033978448 -0.48876876 0.17198642
582000000 -0.47375029 0.17361993 -0.00089624664 -0.00041644389 -0.00017114724 -0.00041779445 -0.48761329 0.1728534
583000000 -0.47200784 0.17432855 -0.00053887372 -0.00070013496 -0.0010081193 -0.00079540262 -0.48749179 0.17336351
584000000 -0.47199413 0.1732379 -0.0014183085 -0.00061230757 -0.00087878079 -0.00064947893 -0.48716661 0.17210822
585000000 -0.47211245 0.17442408 -0.00048432511 -0.00099063455 -0.0006298846 -0.00072677399 -0.48693705 0.17386614
586000000 -0.47319028 0.17469475 -0.0012301584 -0.00054135174 -0.0003571519 -0.0010113528 -0.48739854 0.17275307
587000000 -0.47178456 0.1759629 -0.00074314862 4.1358624e-005 -0.00136354 -0.0010226123 -0.48755932 0.17251581
588000000 -0.47194231 0.17465955 -0.00086125295 -0.00086979894 -0.00079814187 -0.00068454479 -0.48692545 0.17292798
589000000 -0.47199219 0.17483006 -0.0002912315 -0.0013677804 -0.00010804563 -0.001591924 -0.48620343 0.17474763
590000000 -0.47177076 0.17591113 0.00012020284 -3.5578505e-006 -0.0014272225 -0.00068149203 -0.48702565 0.17301162
591000000 -0.47235775 0.17675945 0.00060945435 -0.0011190722 -0.00090943399 -0.00070026377 -0.48661646 0.17485844
592000000 -0.4713358 0.17629302 -0.001075269 -0.00075513055 -0.00022868883 -0.00066813297 -0.48663008 0.17556509
593000000 -0.4715268 0.17643978 -0.00061950035 -0.00021667928 0.00020552735 -0.0011878143 -0.4868803 0.17542583
594000000 -0.47184321 0.17738499 -0.00093542208 -0.00052770745 -5.5017666e-005 -0.0010563821 -0.48660687 0.17558795
595000000 -0.47188225 0.17741399 -0.00098727213 -0.00052772084 -0.00066104956 -0.00078586512 -0.48596388 0.17714719
596000000 -0.47019544 0.17731167 -0.00019054253 -0.0011331626 0.00036986879 -0.00099907827 -0.48491603 0.17645711
597000000 -0.47095513 0.1782186 -0.0006741783 -0.00079779752 -4.717015e-005 -0.00034600389 -0.48540938 0.17694323
598000000 -0.47067666 0.17804247 -0.00075297721 -0.001364835 -0.00066204229 -0.0003901046 -0.48534885 0.17718928
599000000 -0.47130832 0.17916566 -0.00070752262 -0.00068759907 -0.0010568261 -0.0012473863 -0.48616394 0.17626435
600000000 -0.47055259 0.17883834 -0.00083100284 -0.00027660289 -0.0010454841 -0.00091538153 -0.48544258 0.17720073
601000000 -0.47042286 0.18100639 -0.00083146797 -0.00027221764 -0.00053714635 -0.0010262688 -0.4851208 0.17782111
602000000 -0.46998122 0.18032044 -0.00030596345 -0.00070961565 -0.001342554 -0.0017693383 -0.48457775 0.1784814
603000000 -0.47074413 0.1807044 0.00017216046 -0.00070409547 -0.00088401709 -0.0012214662 -0.48491275 0.17801136
604000000 -0.46944964 0.18080463 -0.00048316893 -0.00060377817 -0.0016100443 -0.00069678691 -0.48559186 0.17862403
605000000 -0.46999592 0.18164609 -0.0012731301 -0.00092233793 -0.00060924684 -0.00039478453 -0.48528579 0.17836146
606000000 -0.47022972 0.18163091 -0.00046565861 -0.00097166165 -0.00064327347 -0.0013374795 -0.48458558 0.17917055
607000000 -0.47059968 0.18246122 -0.0003208128 -0.0008439176 -0.0005932225 -0.0007584368 -0.48451835 0.18019056
608000000 -0.47069678 0.18176286 -0.00054156856 -0.0010831689 -0.00080305437 -0.0012086283 -0.48480982 0.17890704
609000000 -0.46948388 0.18303111 -0.0006905162 -0.0010172259 -0.0001257932 -0.0016939993 -0.48481753 0.18029633
610000000 -0.47013339 0.18336292 -0.00047189064 -0.0009729322 -0.0014227626 -0.000933228 -0.48453879 0.17956848
611000000 -0.46872765 0.18226127 -0.0012680938 -0.0006976141 -0.00098817714 -0.0011658137 -0.48325488 0.18125457
612000000 -0.46937472 0.18341629 -0.00016546753 -0.00074261648 -0.00084310956 -0.0015885888 -0.48467535 0.18170792
613000000 -0.46866524 0.18398641 5.7452155e-005 -0.0010096488 -0.0010580946 -0.00012663343 -0.48394263 0.18103345
614000000 -0.46832153 0.18374267 -0.00090653478 -0.00083294575 -8.0313497e-005 -0.00072392606 -0.48483965 0.182648
615000000 -0.46970516 0.18349303 -0.00084138825 -0.0011115401 -0.0006227683 -0.0011759783 -0.48411587 0.18201898
616000000 -0.46964774 0.18456477 -0.00019350207 -0.0015954573 -0.00087584736 -0.00083169487 -0.48408633 0.18216732
617000000 -0.47001263 0.18586677 -0.00073756027 -0.00035717891 -0.0012322693 -0.00067274086 -0.48406479 0.18290904
618000000 -0.46849993 0.18501519 -0.0004386025 2.5635813e-005 -0.0014383018 -0.00038409347 -0.48485357 0.18294924
619000000 -0.46910569 0.18577322 -0.00077499892 -0.00085685815 -0.00045399138 -0.00078421005 -0.48374292 0.18374756
620000000 -0.46817175 0.18650709 -0.0012328404 -0.00081189355 -0.0006024841 -0.001341172 -0.48299935 0.18327047
621000000 -0.46899396 0.18656339 -0.0010304353 -0.00051095418 -0.001024857 -0.00058972806 -0.48302448 0.18434949
622000000 -0.46840078 0.18589985 -0.00059080106 -0.00074233155 -0.00088221795 -0.00110302 -0.48320657 0.18416731
623000000 -0.46769264 0.18676557 -0.00077423628 -0.00089629594 -0.00091599824 -0.00076854072 -0.48256171 0.1840471
624000000 -0.46835884 0.18774177 -0.00085896894 -0.00040703893 -0.00081580505 -0.00031266207 -0.48316371 0.18411446
625000000 -0.46810094 0.18823615 -0.00031821639 -0.00051106478 -0.0011954941 -0.0012990943 -0.48399061 0.18519542
626000000 -0.46785259 0.18841797 -0.00034276446 -0.00085570215 -0.00085948338 -0.0012162495 -0.48257712 0.18476255
627000000 -0.46702331 0.18799031 -0.0004345515 -0.00075656612 -0.00098936318 -0.0006736177 -0.48291808 0.18566658
628000000 -0.46864593 0.188637 -0.00030252102 -0.00089312147 -0.00082250882 -0.00051439769 -0.48274514 0.18566623
629000000 -0.46791974 0.1885789 -0.00067348138 -0.0012228303 -0.00090872246 -0.0015946649 -0.48245117 0.18652667
630000000 -0.46649519 0.18943746 -0.0010246079 -0.0007998395 -0.0011006049 -0.0011337131 -0.48298156 0.18597472
631000000 -0.46854943 0.18914367 -0.00061019987 -0.001979429 -0.00083718158 -0.0014186761 -0.48301312 0.1873309
632000000 -0.46781722 0.19048327 -0.00058650709 -0.00069694215 -0.00035299614 -0.00099114305 -0.4816874 0.18621399
633000000 -0.4667331 0.19024727 -0.00072238571 -0.00083289988 -0.00067709293 -0.00079787371 -0.4834471 0.18700205
634000000 -0.46797812 0.19152977 -0.001163632 -0.00088922604 -0.00011927179 -0.00074214145 -0.48300055 0.18757434
635000000 -0.46664706 0.1910374 -0.00090103887 -0.0010309843 -0.00066052348 -0.00083696994 -0.48224369 0.18833365
636000000 -0.46766415 0.19124572 -0.00078253291 -0.0009035815 -0.0014954577 -0.001541121 -0.48307744 0.18793502
637000000 -0.4666732 0.19137527 -0.00060109806 -0.00071873463 -0.00088243006 -0.00063986203 -0.48243582 0.1882972
638000000 -0.46678916 0.19178763 -0.000198375 -0.0014881517 -0.00081034162 -0.0010394019 -0.48248971 0.18881138
639000000 -0.46659234 0.19345678 -0.0010058393 -0.0013865835 -0.00034431863 -0.0012237673 -0.48261547 0.18921846
640000000 -0.46591789 0.19231115 -0.00094973989 -0.0010052327 -0.00059644907 -0.0010247167 -0.48173648 0.18973917
641000000 -0.4667258 0.19223383 -0.00069837092 -0.00088290946 -0.00070620922 -0.0012681222 -0.48190078 0.19036861
642000000 -0.46722445 0.19335154 -0.0010151635 -0.00090063416 -0.00068585423 -0.00086668954 -0.48150119 0.19004957
643000000 -0.46677056 0.19325583 -0.00014289275 -0.0011983538 -0.0009185599 -0.00088171649 -0.48178574 0.18892355
644000000 -0.46621728 0.19420612 -0.00068912108 -0.00063938939 -0.00063360512 -0.001186392 -0.48143414 0.19101296
645000000 -0.46645451 0.19391197 -0.00098748214 -0.00090841489 -0.0010751723 -0.00046358677 -0.48186624 0.18986163
646000000 -0.46606886 0.19405998 -0.00096218701 -0.00087245501 -0.0011530427 -0.001025044 -0.48116148 0.19098257
647000000 -0.46678144 0.19455935 -0.0016151476 -0.0013949665 -0.00042935199 -0.00059665006 -0.48150399 0.19130011
648000000 -0.46626407 0.19482169 -0.00058229553 -0.0010333656 -0.00025631493 -0.0013216371 -0.48115727 0.19108474
649000000 -0.46569335 0.19618574 -0.00031731557 -0.00042442844 -0.00082617824 -0.00048909243 -0.48046532 0.19119827
650000000 -0.46604183 0.19483301 -0.00016834133 -0.00076415233 -0.00094657455 -0.0016435942 -0.48077872 0.19319391
651000000 -0.46605042 0.19590844 -0.00083462615 -0.00069859659 -0.00058172294 -0.0011179239 -0.48067248 0.19237323
652000000 -0.46611395 0.19628604 -5.1861258e-005 -0.00059191493 -0.0011005339 -0.0014023279 -0.48082319 0.19211221
653000000 -0.46612659 0.1967034 -0.00073441694 -0.0012317451 -0.00073965598 -0.0010136575 -0.48064363 0.19315511
654000000 -0.46597242 0.1975501 -0.001129056 -0.00090357132 -0.0012729996 -0.0010547128 -0.48080269 0.1929532
655000000 -0.46579823 0.19686195 -0.00023995693 -0.0011948225 -0.00060839701 -0.0011489264 -0.48131049 0.19294581
656000000 -0.46528664 0.19748625 -0.00071301212 -0.0010005306 -0.00075341255 -0.00081657281 -0.48068216 0.19320969
657000000 -0.46544886 0.19757389 -0.0011716697 -0.0008523963 -0.0010688168 -0.0013103358 -0.4809033 0.19400278
658000000 -0.46598476 0.19815506 -0.00072833145 -0.0009755668 -0.0006661556 -0.0005153176 -0.48120996 0.19467679
659000000 -0.46567431 0.19852437 -0.00093749532 -0.0008959797 -0.0010680594 -0.0015860465 -0.48048523 0.19585319
660000000 -0.46574727 0.19900005 -0.00090585079 -0.00053832663 -0.00085155631 -0.0013779778 -0.48062178 0.19443086
661000000 -0.46566641 0.19926992 -0.0010271991 -0.00074910757 -0.0010868844 -0.00058171176 -0.48095042 0.19559062
662000000 -0.46538594 0.1985725 -0.0010895689 -0.00070025102 -0.00062368641 -0.0011153431 -0.48049551 0.19599061
663000000 -0.46534833 0.19897768 -0.0011649022 -0.0011853433 -0.00088144693 -0.0012042483 -0.48017418 0.19531971
664000000 -0.46439663 0.19965632 -0.0011279708 -0.0012287688 -0.0011600956 -0.00036957316 -0.48017031 0.1965079
665000000 -0.46568799 0.19954634 -0.0012006721 -0.0008464331 -0.0015913396 -0.0015758661 -0.47917634 0.19696887
666000000 -0.46431974 0.20010576 -0.0016620196 -0.00091431639 -0.00047836083 -0.0011956695 -0.47995046 0.19671507
667000000 -0.46632534 0.20163368 -0.0014205704 -0.00095367833 -0.00017635938 -0.00060133956 -0.48036247 0.1972519
668000000 -0.4644959 0.2006664 -0.00076090981 -0.0018097796 -0.00081400777 -0.0010727564 -0.47973973 0.19707121
669000000 -0.46465111 0.2004413 -0.00093941565 -0.00078400684 -0.001299707 -0.0010248496 -0.4792487 0.19669443
670000000 -0.46399257 0.2013711 -0.00093669968 -0.0012831257 -0.001243282 -0.00061229808 -0.47859356 0.19799635
671000000 -0.46497965 0.20161122 -0.00053167919 -0.00055999757 -0.00050688587 -0.0004806846 -0.47870013 0.19902539
672000000 -0.46371651 0.2014924 -0.00064553763 -0.00082004984 -0.0015017689 -0.0009607778 -0.47946101 0.19778837
