!Keysight Technologies,M9374A,MY55442783,A.12.55.05
!Date: Thursday, May 20, 2021 16:01:51
!Correction: S11(Full 2 Port(1,2)) 
!S21(Full 2 Port(1,2)) 
!S12(Full 2 Port(1,2)) 
!S22(Full 2 Port(1,2)) 
!S2P File: Measurements: S11, S21, S12, S22:
# Hz S  RI   R 50
500000000 -0.48450872 0.13109383 -0.0011429985 -0.00090433087 -2.3526016e-005 -0.0013024707 -0.49803454 0.12922727
501000000 -0.48495284 0.13173372 -0.00014603975 -0.0006605261 -0.0011503183 -0.00084164308 -0.49823907 0.13031736
502000000 -0.48497638 0.13163172 -0.00032147381 -0.00095805281 -0.00074751058 -0.0014577073 -0.49845943 0.12909393
503000000 -0.48497567 0.13384263 -0.00082335353 -0.0011717025 -0.00058306515 -9.2932125e-005 -0.49763143 0.13002889
504000000 -0.48451999 0.13200335 -0.00060497533 -0.0010087618 3.6129666e-005 -0.0010609046 -0.49762031 0.13015345
505000000 -0.4842155 0.13271141 -0.00047077547 -0.0012481756 -0.0013251095 -0.0015659798 -0.49741498 0.13083166
506000000 -0.48463941 0.13336682 -0.00041488756 -0.0011049258 -0.00031895272 -0.00066979806 -0.49738762 0.13102451
507000000 -0.48452815 0.13322698 -0.00081434811 -0.00083069922 -0.0009924164 -0.00032713747 -0.49759793 0.13117121
508000000 -0.48421827 0.13362627 -0.00050777092 -0.0010264781 -0.00062887685 -0.00031041275 -0.49813923 0.1312452
509000000 -0.48399457 0.13352516 0.00011790402 -0.0016701486 -0.00043224858 -0.0007474788 -0.49707237 0.13196561
510000000 -0.48415777 0.13451517 -2.8166502e-005 -0.00093372696 -0.0005750017 -0.00076246489 -0.49725848 0.13223259
511000000 -0.48401472 0.13457432 -0.00045219401 -0.0005394764 -0.00012950422 -0.00053784647 -0.49682215 0.13237232
512000000 -0.48489389 0.13492046 -0.00082181883 -0.0013138492 -0.00014471803 -0.00064718083 -0.49700797 0.13252364
513000000 -0.48419794 0.1350044 -4.1134153e-005 -0.00098302332 -0.00078382896 -0.00078272709 -0.49813899 0.13248777
514000000 -0.4831785 0.13518922 -4.729797e-005 -0.0015295055 -0.00049906742 -0.00039864963 -0.49763635 0.13210513
515000000 -0.48306194 0.13601911 -3.0042229e-006 -0.00076029013 -0.00047173505 -0.00016987308 -0.49731731 0.13314536
516000000 -0.48361623 0.13602285 -0.00013334212 -0.00088004471 -0.00048487246 -0.00090343005 -0.49730337 0.1335973
517000000 -0.48367381 0.13670997 -7.3153911e-005 -0.00062368845 -0.00068244047 -0.0011029369 -0.49729165 0.13447888
518000000 -0.48361787 0.13645917 0.00010743053 -0.0010963923 -0.00072900642 -0.00021842682 -0.49715209 0.13428453
519000000 -0.48334569 0.13694847 -0.00026298806 -0.00097919267 -0.00074200559 -0.0010809813 -0.49609384 0.13525765
520000000 -0.48320746 0.13554923 -0.00056321366 -0.0010023236 -0.00089598773 -0.00097120297 -0.49729213 0.1352863
521000000 -0.4838002 0.13756715 -0.00022293735 -0.00087282871 -0.00074855937 -0.00088663457 -0.49766785 0.13485834
522000000 -0.48409957 0.13715172 -0.00036700614 -0.00036833656 -0.0012027947 -0.001117054 -0.49673325 0.13574317
523000000 -0.48357883 0.13788769 -0.00040795933 -0.00050216092 -0.00049263716 -0.00030789172 -0.49758431 0.13635844
524000000 -0.48327762 0.13789944 -0.00024385979 -0.0008759317 -0.0010021271 -0.00060023065 -0.49633166 0.13621929
525000000 -0.4831464 0.13825306 -0.00066901447 -0.0010188253 -0.00040468309 -0.00020885229 -0.49601907 0.13659756
526000000 -0.48348081 0.1384134 -0.00030725423 -0.00020518263 0.00018420439 -0.0010136431 -0.49604622 0.1363914
527000000 -0.48273262 0.13923383 -0.0013644549 -0.0010551551 -0.000837887 -0.00073236064 -0.49656281 0.13573074
528000000 -0.48267856 0.14007278 -0.00069835538 -0.00094104058 -9.0672314e-005 -0.0014107258 -0.4960784 0.13709544
529000000 -0.48319164 0.13984354 -4.7605576e-005 -0.00085710292 -0.00062286801 -0.0010323944 -0.49591339 0.13674249
530000000 -0.48238984 0.14053848 -0.00023554298 -0.00095399469 -0.00063384714 -0.0011697799 -0.49624977 0.13743995
531000000 -0.48346329 0.13927668 -0.00085366581 -0.00033224688 -0.00052263256 -0.0010937279 -0.49728829 0.13805465
532000000 -0.483006 0.14000896 -0.00047554646 -0.00022145853 -0.0010447542 -0.0014240212 -0.49592999 0.13820146
533000000 -0.48308337 0.14024438 -0.0006720259 -0.001001119 -0.00080738997 -0.00025464233 -0.49576598 0.13868237
534000000 -0.48301554 0.14104328 -0.00058565679 -0.0011089923 -0.00087033579 -0.00021386541 -0.49632242 0.13863394
535000000 -0.48289239 0.14093085 -0.0008177085 -0.00070656586 -0.00083166914 -0.00012101055 -0.49622852 0.13938908
536000000 -0.48323849 0.14118476 -0.00031467789 -0.00051545666 -0.0005551186 -0.00030995696 -0.49644923 0.13977788
537000000 -0.48223224 0.14154959 -0.00034104488 -0.00015670406 -0.00069285848 -0.00048570434 -0.49517384 0.13985701
538000000 -0.48259178 0.14073475 2.2764249e-005 -0.00089495972 -0.00022186154 -0.0011600548 -0.49556258 0.13907398
539000000 -0.48242944 0.1417045 -0.00053879147 -0.0007584081 -0.00034397107 -0.00059513428 -0.49584875 0.14024328
540000000 -0.48216581 0.14258114 -0.00072143786 -0.0012816852 -0.00069741852 -0.00054634613 -0.49633536 0.14008202
541000000 -0.48188648 0.14211643 -0.00082083594 -0.00028808849 -0.00018128112 -0.00070593413 -0.4960542 0.14074081
542000000 -0.48158491 0.14293607 -0.00091546518 -0.0010246922 -0.00045889549 -0.00059022312 -0.49623737 0.14052023
543000000 -0.4829765 0.14227772 -0.00057073031 -0.00061509106 -6.5857064e-005 -0.001128694 -0.49625546 0.14114922
544000000 -0.48251694 0.14313783 -0.00035596758 -0.00066442043 -0.00068844692 -0.00086857728 -0.49592116 0.14171281
545000000 -0.48228508 0.14392947 -0.00069981528 -0.00073567178 -0.00042713474 -0.0012038732 -0.49535435 0.14079289
546000000 -0.48225486 0.14334971 -0.00080436881 -0.0013786283 -0.00075273414 -0.00092615664 -0.49543092 0.14184426
547000000 -0.48239306 0.14360203 -0.000212813 -0.00088812679 -0.0010020022 -0.0010038529 -0.49664715 0.1421444
548000000 -0.48192656 0.14370915 -0.0009393908 -0.00032334248 -0.00071744359 -0.00075630343 -0.49619842 0.14194283
549000000 -0.48190439 0.14313537 -0.0008794826 -0.00067882385 -0.00079795718 -0.00049017643 -0.4957346 0.14256246
550000000 -0.48166472 0.14395185 -0.0012760464 -0.001196288 -0.00067475153 -0.00046418872 -0.49564028 0.14236557
551000000 -0.4815903 0.14476542 -0.00022085178 -0.00053125469 -0.00055833656 -0.00095014344 -0.49530703 0.14301793
552000000 -0.48159248 0.14375846 -0.00047898831 -0.00078984618 -0.00065759412 -0.001124318 -0.49623859 0.14300966
553000000 -0.48167622 0.14464737 -0.0007768317 -0.0010107823 -0.00090040552 -0.0011211075 -0.49557778 0.14342289
554000000 -0.48191023 0.14506137 -0.00052733452 -0.00066683063 -0.00053342374 -0.00092063646 -0.49581999 0.14336689
555000000 -0.48228124 0.14506267 -0.00097110204 -0.00074486388 -0.00073705486 -0.00055168872 -0.49528512 0.14365503
556000000 -0.48241994 0.1453516 -0.00038187901 -0.00084552477 -0.00018851335 -0.00065537362 -0.49516591 0.14463907
557000000 -0.48223004 0.14578906 -0.00068381877 -0.00093926315 -0.0007314994 -0.00076582044 -0.49561346 0.14324863
558000000 -0.48207209 0.14547412 0.0001213534 -0.0011098722 -0.00074205664 -0.00043654544 -0.49502754 0.14442158
559000000 -0.48150039 0.14644156 -0.00035341954 -0.0011462756 -0.00046694191 -0.00096721237 -0.49582228 0.14518991
560000000 -0.4818438 0.14605293 -0.00049510162 -0.00064167805 -0.00043020269 -0.00080633623 -0.49505526 0.14487305
561000000 -0.48154554 0.14664359 -0.00018633675 -0.0011776154 -0.00013561372 -0.0010936415 -0.49515933 0.14502637
562000000 -0.48130414 0.14622365 -0.00070113753 -0.0013244151 0.00036615864 -0.00066204969 -0.49591157 0.14538594
563000000 -0.48186773 0.14635882 -0.00022742413 -0.00085154769 -0.00080220791 -0.0013065838 -0.49557039 0.1455553
564000000 -0.48121396 0.146602 -0.00054916489 -0.00068907731 -0.00019181191 -0.00061293144 -0.49498037 0.14632444
565000000 -0.48138949 0.14724329 -1.8680623e-005 -0.00027981386 -0.000411699 -0.0014368778 -0.49529526 0.14655927
566000000 -0.48138404 0.14794892 -0.00037688945 -0.00053184805 -0.00066826621 -0.0015860121 -0.49464554 0.14569055
567000000 -0.48094237 0.14757498 -0.00039160327 -0.000982292 -0.0003191162 -0.0010871707 -0.49558416 0.14688081
568000000 -0.48158768 0.1481552 -0.00013786147 -0.0016001642 -0.00038900872 -0.00041588405 -0.49495894 0.14586301
569000000 -0.48088697 0.14781177 -0.00027411699 -0.001004255 -0.0010516635 -0.00069634244 -0.49552464 0.14580175
570000000 -0.48139089 0.14834964 -0.00066834205 -0.00039951585 -0.0013309725 -0.00054911326 -0.49506038 0.1469696
571000000 -0.48055667 0.1481273 -0.00029561715 -0.00097648968 -8.0061e-005 -0.00038817406 -0.49373803 0.14645982
572000000 -0.48094025 0.14893752 -0.00023469015 -0.00081835571 -0.00073791831 -0.0012788912 -0.49450338 0.14716917
573000000 -0.4801096 0.14860211 9.547636e-005 -0.0009870138 -0.00025954275 -0.0013148173 -0.49384314 0.14785071
574000000 -0.48073032 0.14868575 -0.00067944016 -0.00035120256 -0.00038031899 -0.00088963908 -0.49493 0.14866446
575000000 -0.48009375 0.14887558 -0.00078288739 -0.00059345749 -0.00038030618 -0.00081292167 -0.49419218 0.1478294
576000000 -0.4799597 0.14932211 -0.00086926483 -0.0014860772 4.3106604e-005 -0.0004858684 -0.49453658 0.14784023
577000000 -0.48042941 0.15025219 -0.00078905665 -0.0011018418 -0.00092132646 -0.00089071959 -0.49418721 0.14735232
578000000 -0.47999638 0.1507398 -7.0589745e-006 -0.0013167005 -0.0014937848 -0.0007441474 -0.49458945 0.14888082
579000000 -0.47985846 0.15005556 -0.00023489488 -0.00059674331 -0.00036763991 -0.00037752301 -0.49377289 0.14790234
580000000 -0.47967464 0.15046474 -0.00057936308 -0.0011975362 -0.0018328202 -0.00085758825 -0.49386713 0.14942822
581000000 -0.47944346 0.15080936 4.2586398e-005 -0.0012589522 -0.00092510559 8.4925261e-005 -0.49450013 0.14983824
582000000 -0.48002759 0.15015416 -0.000820363 -0.00075486384 -0.00047904003 -0.00049193919 -0.49407136 0.15023547
583000000 -0.47946385 0.15198173 -9.6628195e-005 -0.0007342337 4.121659e-005 -7.2080707e-005 -0.49373493 0.15064068
584000000 -0.47944701 0.15148604 -0.00057173986 -0.00088815257 -7.9635356e-005 -0.00011702918 -0.49403411 0.14995775
585000000 -0.47948849 0.15183109 -8.1987222e-005 -0.0004362796 -0.00034467719 -0.00089179754 -0.49389508 0.15133798
586000000 -0.48003483 0.15225574 -0.00077785895 -0.00039173354 -0.00032213217 -0.00077573018 -0.49268031 0.14921604
587000000 -0.4793373 0.15259388 -0.00041907051 -0.00083265809 -0.0012787997 -0.00083429861 -0.49384412 0.1505992
588000000 -0.47908175 0.15173432 -0.00056086137 -0.00066170824 -0.00068343402 -0.00059538306 -0.49377924 0.15145305
589000000 -0.47874984 0.1533675 -0.00060264044 -0.00020961645 -0.00085798476 -0.0019141079 -0.49303138 0.15094505
590000000 -0.47926491 0.15369229 -2.1533993e-005 -0.0015113768 -0.0012172968 -0.00040429604 -0.49337718 0.15235491
591000000 -0.47905549 0.15394868 -0.0011045749 -0.0014307789 -0.00069297163 -0.00088622357 -0.49348137 0.15184385
592000000 -0.47846907 0.15366076 -0.00075801474 -0.00073671259 -0.00056054036 -0.00081747479 -0.4929181 0.15233579
593000000 -0.47836292 0.15388668 -0.00092050544 -0.0011519652 -9.7591685e-005 -0.0016911969 -0.49322334 0.15135883
594000000 -0.47813895 0.15319799 -0.00052272691 -0.00090298639 -0.00042777517 -0.00072698132 -0.49313498 0.15275991
595000000 -0.47809622 0.15458262 -0.00015518605 -0.00087964453 -0.00060730672 -0.00054358027 -0.493541 0.15327676
596000000 -0.47744977 0.15491608 -8.4970416e-005 -0.0013535228 -0.00080388883 -8.7402303e-005 -0.49260354 0.15370783
597000000 -0.47761756 0.15552936 -0.00066682044 -0.0007787621 -0.00058864668 -6.835417e-006 -0.49339703 0.15348628
598000000 -0.47775987 0.1555559 -0.00045217562 -0.0011055701 -0.00057037454 -0.00071192411 -0.49203026 0.15423304
599000000 -0.47828764 0.15541957 -0.0011310814 -0.0011658784 -0.00077614631 -0.00024376098 -0.49294004 0.15423469
600000000 -0.47669351 0.15629782 -0.001185068 -0.0012649973 -0.00061328942 -0.00083503226 -0.49327102 0.15392463
601000000 -0.47723693 0.1562829 -0.00017352423 -0.0010126064 -0.0011579678 -0.00092271651 -0.49253425 0.15458857
602000000 -0.47708565 0.15592027 -0.0005623094 -0.00078409689 -7.5802891e-005 -0.00096224144 -0.4918938 0.15585448
603000000 -0.4776302 0.15673889 -0.00025157642 -0.0012710629 -0.00057841948 -0.0012945923 -0.49225429 0.15470318
604000000 -0.47656345 0.15689774 0.00012505907 -0.001313022 -0.00091345096 -0.0011146051 -0.49174881 0.15526935
605000000 -0.47755176 0.15762845 -0.0013707496 -0.0016775461 -0.00055371149 -0.00062352401 -0.49177825 0.15545614
606000000 -0.47725165 0.15808208 -0.00038053526 -0.0014619428 -0.0012331774 -0.0006227016 -0.49220255 0.15550955
607000000 -0.47769177 0.15817741 -0.00076143525 -0.0005469207 -0.00095157791 -0.00051445956 -0.49140206 0.15584621
608000000 -0.47739503 0.15899709 -0.0008916966 -0.00066440779 -0.00046242939 -0.0012784931 -0.49138793 0.15668839
609000000 -0.47655988 0.1594047 0.0001092031 -0.00078007922 -0.0011268031 -0.001300626 -0.49237806 0.15646014
610000000 -0.4768551 0.15918764 -0.00042589175 -0.00076328666 -0.00121883 -0.0015046035 -0.49145365 0.1564512
611000000 -0.4767724 0.15914609 -0.0015075569 -0.00083594018 0.00034482442 -0.0013838069 -0.4922277 0.15749052
612000000 -0.47677827 0.15997799 9.9119621e-005 -0.0009410514 -0.00028221114 -0.00094163546 -0.49116576 0.15685119
613000000 -0.47620168 0.16007611 -0.00012622081 -0.0013144683 -0.00023136844 0.00013753411 -0.49134237 0.15801257
614000000 -0.47607908 0.16157091 -0.0010095363 -0.0012549115 -0.00063487137 -0.001271502 -0.49315849 0.15787365
615000000 -0.47645202 0.16004962 -0.00053126208 -0.00036529312 -0.00030261237 -0.00027971034 -0.49181759 0.15870658
616000000 -0.47594362 0.16092138 -0.0010374531 -0.00093155738 -0.00049266784 -0.0015560383 -0.49133679 0.15898483
617000000 -0.47609925 0.16107436 -0.00040945099 -0.00087391096 -0.00067277241 -0.00094117544 -0.4914332 0.15939319
618000000 -0.47671124 0.16144755 -0.0011514045 -0.00062988227 1.2221454e-005 -0.000621413 -0.49106023 0.15957901
619000000 -0.47610417 0.16261391 -0.00018242486 -0.00093189994 -0.0014396923 -0.0010845122 -0.49120128 0.15899289
620000000 -0.47654003 0.16231032 -0.00089703163 -0.00091525842 -0.00038060592 -0.001068613 -0.49064723 0.1594055
621000000 -0.47625396 0.16202953 -0.00054508779 -0.0017104197 -0.00021191985 -0.00096656149 -0.49012837 0.15963745
622000000 -0.47602195 0.1622795 -0.00066701358 -0.0012732872 -0.0012067601 -0.00099746918 -0.49060169 0.15981188
623000000 -0.47512066 0.16282555 -0.00095817109 -0.0018061158 -0.00061138347 -0.0012597006 -0.49075228 0.15928066
624000000 -0.47686714 0.16307048 -0.00014063367 -0.0013776699 -0.00076411333 -0.00087302004 -0.49125233 0.1607924
625000000 -0.47559267 0.16358027 -0.00030779606 -0.0010161351 -0.00067847583 -0.00041075758 -0.49177027 0.16026875
626000000 -0.47595587 0.16440476 -0.00091324397 -0.0012166613 -0.00031128724 -0.0012554225 -0.49050242 0.1610698
627000000 -0.4760893 0.16382658 -0.00013988062 -0.0008838271 -0.00117515 -0.00074191223 -0.48992389 0.16081718
628000000 -0.47557658 0.16418605 -0.00066427275 -0.00092275121 -0.0011021233 -0.00078642135 -0.49031776 0.16160445
629000000 -0.4757607 0.16531627 -7.594483e-005 -0.00023947468 -0.00083717908 -0.0010660078 -0.49061435 0.16192824
630000000 -0.47446674 0.16496189 -7.1846749e-005 -0.0012321749 -0.001324611 -0.00075797568 -0.48978466 0.16181494
631000000 -0.47624886 0.16541295 -0.0014207999 -0.00068347692 -0.00066159555 -0.00043850255 -0.49023724 0.16146979
632000000 -0.47590193 0.16608606 -0.0010911265 -0.0011241751 -0.00041559531 -0.0016732559 -0.48982969 0.16234837
633000000 -0.47496945 0.16461512 -0.00064516015 -0.00048053 -0.00053870573 -0.0010321372 -0.49001503 0.16231482
634000000 -0.47533381 0.16500677 -0.00064931088 -0.00072721019 -0.00021328623 -0.0010564073 -0.48911756 0.16251254
635000000 -0.47497997 0.1667241 -0.00047551811 -0.00090945011 -0.00054709933 -0.0009430463 -0.48995116 0.16277124
636000000 -0.47431892 0.16720103 -0.00027228941 -0.00064534508 -0.00063600292 -0.0014266348 -0.4899562 0.16320018
637000000 -0.47434765 0.16680609 -0.00088461931 -0.00082878239 -0.0014746781 -0.0011827099 -0.48924518 0.16357553
638000000 -0.4750669 0.16714351 -6.3510124e-005 -0.0015583148 -0.00058044761 -0.00087025645 -0.48995456 0.16442984
639000000 -0.47513387 0.16768007 -0.0002536143 -0.0012778842 -0.00062135176 -0.00074181653 -0.49065518 0.16356952
640000000 -0.47515243 0.16801165 -0.00055152812 -0.00039768487 -0.00067644537 -0.00096317683 -0.48972124 0.16431952
641000000 -0.47440547 0.16800326 -0.00055259862 -0.0011733058 -0.00021250418 -0.0010657349 -0.48905852 0.16429789
642000000 -0.47459933 0.1676275 -0.00090350473 -0.001296198 -0.00098151958 -0.00022324247 -0.48942164 0.16426297
643000000 -0.47502798 0.16888618 -0.00032705002 -0.001599178 -0.00035020744 -0.00069069013 -0.48948768 0.16492596
644000000 -0.47479209 0.16940106 -0.000414832 -0.00073607184 -0.0015493211 -0.0011871111 -0.48988757 0.16516918
645000000 -0.47485229 0.16950171 -0.001097679 -0.00053682661 -0.00053330517 -0.00032344292 -0.48960811 0.16651663
646000000 -0.47474098 0.16955858 -0.00056077819 -0.00027324952 -0.00044312191 -0.0012157327 -0.48985624 0.16598591
647000000 -0.47452208 0.16920766 -0.00031211722 -0.00066097156 -0.0012244564 -0.00077921548 -0.4904395 0.16592856
648000000 -0.47353795 0.16942595 -0.00089457334 -0.0012012566 -0.0013556357 -0.00077566272 -0.48941478 0.16629986
649000000 -0.47420883 0.17026158 -0.00065130577 -0.0011021571 -0.00044484105 -0.00031508284 -0.48838666 0.16662672
650000000 -0.47513655 0.17009731 -0.00046089294 -0.0015856242 -0.0010874675 -0.0010834089 -0.48913833 0.16621563
651000000 -0.47428766 0.17166485 -0.00060805742 -0.0016782893 -0.00050673721 -0.0010043051 -0.48855761 0.16630355
652000000 -0.47384036 0.1700826 -0.0005048071 -0.00093763747 -0.0015837089 -0.00050041848 -0.48896855 0.16672057
653000000 -0.47495863 0.17110983 -0.00047002503 -0.0011770449 -0.00079768203 -0.0013529686 -0.48951495 0.16751733
654000000 -0.47391099 0.17141518 -0.00082788948 -0.00092433917 -0.00047604676 -0.0011918425 -0.48854288 0.16800717
655000000 -0.47376764 0.17153248 -0.00092433469 -0.0017387746 -0.00042497256 -0.0015324989 -0.48881364 0.16836494
656000000 -0.47411376 0.17200559 -0.00086606253 -0.0011047439 -0.00093372713 -0.0010785513 -0.4888328 0.16825534
657000000 -0.4740741 0.17245337 -0.00082010293 -0.00092852273 -0.00094084191 -0.0014025006 -0.48920447 0.16769142
658000000 -0.47437182 0.1728128 -0.00055621332 -0.001460435 -0.0014515342 -0.0012479868 -0.48855501 0.16869567
659000000 -0.47330081 0.17278345 -0.0010338505 -3.1753683e-005 -0.00073668396 -0.001343061 -0.48901856 0.169287
660000000 -0.47311357 0.17316362 -0.00095027784 -0.0014242689 -0.00065360888 -0.0012097445 -0.48854479 0.16952945
661000000 -0.47450361 0.1734564 -0.0013213382 -0.00081297796 -0.00070550828 -0.0015405867 -0.48903066 0.16958366
662000000 -0.47464678 0.17279074 -0.0010432829 -0.00071864109 -0.00084030803 -0.0003514979 -0.48875931 0.16908109
663000000 -0.47348174 0.17350039 -0.00062983972 -0.00043442563 -0.0011393969 -0.0012114204 -0.48830336 0.16935168
664000000 -0.47421619 0.17363161 -0.00065947324 -0.00049532577 -0.00053659384 -0.00097464654 -0.48859861 0.17027903
665000000 -0.47367746 0.17356554 -0.00089565275 -0.00077556039 -0.00063382735 -0.0010854164 -0.48779547 0.17067176
666000000 -0.47454545 0.17386977 -0.00086275552 -0.0013965837 -0.00070878654 -0.001023493 -0.48781878 0.1703126
667000000 -0.47369984 0.1744059 -0.00099482422 -0.0011194684 -0.00023044566 -0.0010882022 -0.48802042 0.17071937
668000000 -0.47410095 0.17448609 -0.00096185115 -0.0017390917 -0.00062662928 -0.00044763825 -0.48843312 0.17087547
669000000 -0.47474405 0.17481045 -0.001179411 -0.00038504502 -0.00095781579 -0.00088024483 -0.48731378 0.17088732
670000000 -0.47321376 0.1749756 -0.00072143215 -0.00013262888 -0.0006028249 -0.0011860987 -0.48831126 0.17172202
671000000 -0.47292241 0.1752234 -0.00015901784 -0.00073313102 -0.0012810612 -0.0012168193 -0.48843935 0.17173918
