!Keysight Technologies,M9374A,MY55442783,A.12.55.05
!Date: Thursday, May 20, 2021 15:35:14
!Correction: S11(Full 2 Port(1,2)) 
!S21(Full 2 Port(1,2)) 
!S12(Full 2 Port(1,2)) 
!S22(Full 2 Port(1,2)) 
!S2P File: Measurements: S11, S21, S12, S22:
# Hz S  RI   R 50
500000000 -0.48198032 0.13829486 -0.0010602348 0.00013543526 -0.0012318667 -0.00059563579 -0.49635166 0.13573907
501000000 -0.48332796 0.13877855 -6.8515226e-005 -0.0010634231 -0.0010118785 -0.00082342699 -0.49649733 0.13609596
502000000 -0.48299745 0.13858251 -0.0003862369 -0.00036620389 -0.0010260877 -0.0010022355 -0.49685618 0.1364857
503000000 -0.48254019 0.13869068 -0.00024825716 -0.00021238328 -0.00061575102 -0.00080795819 -0.49654672 0.13781622
504000000 -0.48228812 0.13900366 -0.0003756131 -0.00059033377 -0.00063464988 -0.00066917046 -0.49613395 0.13698359
505000000 -0.48225638 0.13957526 -7.3799121e-005 -0.00184695 -0.00072157709 -0.0010937395 -0.49555469 0.13675503
506000000 -0.48177692 0.13963062 -0.0008759161 -0.001786829 0.00033573405 -0.00045586235 -0.49534222 0.13829778
507000000 -0.48212117 0.14026353 -0.00086715794 -0.00068107329 -0.00055356068 -0.00067040138 -0.49597451 0.137283
508000000 -0.48224732 0.140826 -0.00055943715 -0.001447699 -0.00018459302 -0.00082998257 -0.49597526 0.13824999
509000000 -0.48195067 0.14024971 -0.0016560166 -0.0001385858 -0.00076416222 -0.00056809216 -0.49580437 0.13892625
510000000 -0.48219177 0.14035746 -0.0013086715 -0.00055653619 -0.00024310015 -0.0013050869 -0.49675471 0.13843617
511000000 -0.48304066 0.14190747 -0.00090441736 -0.00049992371 -0.00061556045 -0.00089107954 -0.49610755 0.13954651
512000000 -0.48191273 0.14176761 -0.00097634102 -0.00074856851 0.00019704731 -0.00039107256 -0.49574289 0.13936731
513000000 -0.48213926 0.14231858 -0.00014841017 2.5668114e-005 -0.00070297025 -5.0025141e-005 -0.49516618 0.14001997
514000000 -0.48275262 0.14271341 0.00015879398 -0.00077426038 -0.00048482089 8.4622254e-005 -0.49636537 0.14015804
515000000 -0.48189014 0.14345071 1.7791417e-005 -0.00071810128 -0.00027623077 -0.00058418588 -0.49593326 0.14041714
516000000 -0.48208657 0.14269125 -0.00044675739 -0.0005722018 -0.00042320631 -0.0010067362 -0.49544156 0.14077675
517000000 -0.48179564 0.14362001 -0.00015031954 -0.00047196349 -0.0012562296 -0.00069070893 -0.49526897 0.14113587
518000000 -0.48198858 0.14352223 0.00024612839 -0.00021472925 3.376247e-005 -0.00048886373 -0.49479625 0.14214478
519000000 -0.48218164 0.14292368 -0.00036786869 -0.00093945372 -9.3093069e-005 -0.0009733109 -0.49463508 0.1417506
520000000 -0.48150304 0.14345461 -0.0012081609 -0.00046908107 -0.0006850991 -0.00071825791 -0.49587795 0.14138551
521000000 -0.481056 0.14444035 -0.00062636437 -0.0017927376 -0.00036346415 -0.0005603719 -0.49454787 0.14210585
522000000 -0.48149505 0.14451745 -0.00099400093 -0.00030696971 -0.00083838863 -0.0014682057 -0.49468011 0.14259507
523000000 -0.48086515 0.1441438 -0.00047991989 -0.001616295 -0.00032232373 -0.00054758636 -0.49435595 0.14307576
524000000 -0.48153928 0.14535195 -0.00040614689 -0.0010880838 -0.0011038915 -0.00085640332 -0.49495897 0.14344622
525000000 -0.48098841 0.14453319 -0.00039751866 -0.00097345957 -0.000441001 -0.00051211205 -0.49468735 0.14335097
526000000 -0.48084372 0.1466071 -0.00083887612 -0.00064172689 0.00031784296 -0.00037936491 -0.49445307 0.14329202
527000000 -0.48140997 0.14596495 -0.00085493422 -0.00061458506 -0.00062208116 -0.00093954208 -0.49514782 0.14365038
528000000 -0.48112351 0.14615852 -0.00054022006 -0.0007352159 -0.00043077135 -0.0011158754 -0.49381763 0.14472049
529000000 -0.48119223 0.14612658 -0.00023333686 -0.0014299131 -0.00080531777 -0.00075765041 -0.49411902 0.14451066
530000000 -0.48100135 0.14680009 -0.00062033092 -0.001062463 -0.00077658199 -0.00073632883 -0.49496102 0.14481916
531000000 -0.48066998 0.14665742 -0.00016661336 -0.00035943711 -0.0011779186 -0.00075415999 -0.49417099 0.14518456
532000000 -0.48108569 0.14822522 0.00055483117 -0.0018203808 -0.00051746832 -0.00071600644 -0.49449599 0.14501621
533000000 -0.48108542 0.14773442 -0.0005602226 -0.00074687251 -0.00048763183 -0.0011601232 -0.49472919 0.14563717
534000000 -0.48025617 0.14683749 -0.00041847042 -0.00071915443 -0.00065882056 -0.0010084605 -0.49471149 0.1452511
535000000 -0.48135647 0.14830223 -0.00067395973 -0.00067626062 -0.00031380876 -0.00070767733 -0.49399129 0.14665459
536000000 -0.48054835 0.14808114 -0.00067968125 -0.0012166152 -0.0003933112 -0.00031747305 -0.49467325 0.146167
537000000 -0.48069432 0.1487256 0.00025605044 -0.00071448559 -0.00067647849 -0.0008857965 -0.4943552 0.14606079
538000000 -0.48058113 0.14921123 -5.6406527e-005 -0.00054719421 -0.00091048604 -0.00099341909 -0.49430266 0.14664456
539000000 -0.48056689 0.15019834 -0.00028702646 -0.000803045 -0.0012462796 -0.0013819878 -0.4935205 0.14743005
540000000 -0.48111966 0.14985661 -0.00087240688 -0.00067236996 -0.00048246919 -0.0010853047 -0.49362731 0.14755684
541000000 -0.47959369 0.14920942 -0.0010457688 -0.0011715279 -0.00036191678 -4.3082662e-005 -0.49380589 0.14771879
542000000 -0.48055896 0.14958873 -0.001490757 -0.0005911584 -0.00090035319 -0.00051858841 -0.4938904 0.14703575
543000000 -0.48042497 0.15026735 -0.0011818076 -0.0006992151 -0.00033689672 -0.00045708899 -0.49428752 0.14936882
544000000 -0.48009992 0.14924131 -0.00098331866 -0.00084550731 -7.0640272e-005 -0.00043396497 -0.49468562 0.14908531
545000000 -0.48011419 0.14995024 -0.00028698795 -0.0014648768 -0.00050337636 -0.00076704728 -0.49377549 0.14905098
546000000 -0.48009491 0.15146048 -0.00077013107 -0.0011416026 -0.00045840256 -0.0013242192 -0.4937588 0.14821053
547000000 -0.48092324 0.15098499 -0.00077820959 -0.0013544894 -0.00044579865 -0.0010233357 -0.49443442 0.14867222
548000000 -0.47961742 0.15102345 -0.00081238017 -0.00050507096 -0.00034340483 -0.0015983888 -0.49417683 0.14998342
549000000 -0.47994462 0.15097377 -0.0010553402 -0.0011990132 -0.00015487421 -0.00025565893 -0.49397567 0.15063034
550000000 -0.47989461 0.15147813 -0.00010570696 -0.00093805674 -0.00045995883 -0.00045001172 -0.49332845 0.14976959
551000000 -0.47945422 0.15160926 -0.00042403399 -0.0013317001 -0.00073143374 -0.00065412553 -0.49324074 0.15075555
552000000 -0.48075292 0.1512816 -0.00049766019 -0.00050003699 -0.0010130352 -0.00057931413 -0.49289745 0.15011059
553000000 -0.480382 0.15312093 -0.00062308664 -0.0005953869 -0.00054766878 -0.0006485178 -0.49380079 0.15056089
554000000 -0.48039147 0.15259837 -0.00052001269 -0.00082819187 -0.001507439 -0.0010455576 -0.49373466 0.1505307
555000000 -0.48015785 0.1537495 -0.0010032566 -0.00066332828 -0.00048026649 -0.0009140725 -0.49358538 0.15193632
556000000 -0.4793717 0.15156995 -0.00086764048 -0.00091876753 -0.00091636548 -0.0010138708 -0.49289674 0.15155749
557000000 -0.47972035 0.1544933 -0.00018341126 -0.0015337162 -4.9371381e-005 -0.00059858646 -0.4933866 0.15089224
558000000 -0.47970021 0.15327349 -0.00044999603 -0.0013740852 -0.00028752047 -0.001045494 -0.49282768 0.1511391
559000000 -0.47986865 0.15323025 6.785772e-005 -0.00065244589 -0.0004563297 -0.00060961669 -0.49306545 0.15257584
560000000 -0.47897759 0.15326351 -0.0015166939 -0.00068788341 -0.00060673448 -0.0014295256 -0.49304074 0.152468
561000000 -0.47894424 0.15398635 -0.00098601799 -0.00033491975 -0.0013601328 -0.0011990413 -0.49260235 0.15216587
562000000 -0.47880527 0.15416823 -0.001281086 -0.0013037297 -0.00080982083 -0.00054158061 -0.493009 0.15323028
563000000 -0.47931343 0.15419798 -0.00030167357 -0.0012618516 -0.00056277507 -0.0010687204 -0.49236739 0.1535839
564000000 -0.47926497 0.15341224 -0.00047636271 -0.00078128057 -0.00059388438 -0.00057296921 -0.49312672 0.15218984
565000000 -0.47872111 0.15407506 -6.3801795e-005 2.222564e-005 -0.0013694181 -0.00076582318 -0.49234253 0.15314817
566000000 -0.47864485 0.15439059 -0.00068431551 -0.00049091823 -0.00056275027 -0.00085829874 -0.4930262 0.15334193
567000000 -0.47835526 0.1549127 -0.00059998053 -0.00035226974 -0.0006154665 -0.0010903347 -0.49272642 0.15379286
568000000 -0.47836328 0.15539768 -0.00087330991 -0.00068787177 -0.00061928382 -0.00064830168 -0.49347275 0.15225632
569000000 -0.47890222 0.15622516 -0.0001705115 -0.00098991406 -0.0015262724 -0.00088884443 -0.49325335 0.15297306
570000000 -0.47954258 0.15552266 -0.0011319731 -0.00066245924 -0.00068137556 -0.00080264849 -0.49304342 0.15480089
571000000 -0.47841901 0.15564604 -0.00067806896 -0.0013413271 -0.0014131773 -0.00079969276 -0.49271795 0.1547116
572000000 -0.47727376 0.15682884 -0.0010352609 -0.00092168804 -0.0010768109 -0.0017459169 -0.49226114 0.15524034
573000000 -0.47871843 0.1564002 -0.00063378736 -0.0012418325 -0.00065244857 -0.00080520305 -0.49214441 0.15509145
574000000 -0.47845736 0.15736504 -0.0010647735 -0.00078353251 -0.00013444287 -0.0010224462 -0.49239418 0.15470535
575000000 -0.47795743 0.15698785 -0.00050041109 -0.00076945155 -0.00079858839 -0.00058961438 -0.49230099 0.15561059
576000000 -0.47753704 0.15815505 -0.0012171757 -0.00026868819 -0.0010771558 -0.00051910913 -0.49276283 0.15660875
577000000 -0.47769564 0.15707667 -0.0005478196 -0.00035097118 -0.0009983941 -0.0002749087 -0.49200004 0.15531422
578000000 -0.47810298 0.1579068 -0.00033486416 -0.00012459801 -0.00086334132 -0.0005767594 -0.49078915 0.15624326
579000000 -0.47772837 0.15752971 -0.00031492079 -0.00064965431 -0.00040732097 -0.000196503 -0.49231613 0.15668286
580000000 -0.47759897 0.15825079 -0.0011462647 -0.00074279931 -0.00050226192 -0.0003057273 -0.49201062 0.15692629
581000000 -0.4763687 0.15830941 -0.00072358683 -0.00097353436 -0.00051700283 -0.00010522311 -0.49073058 0.15698856
582000000 -0.47721237 0.15919159 -0.00093891163 -0.0013302709 -0.00068643835 -0.00038922252 -0.49216437 0.15752359
583000000 -0.47743785 0.15934394 -0.00083933875 -0.00094004459 -0.00094016013 -0.00029235252 -0.49160624 0.15797488
584000000 -0.4767586 0.15894368 -0.001091643 -0.00081475882 -0.00063262915 -0.00091791176 -0.49119085 0.15803762
585000000 -0.47689223 0.16019699 -0.0010918739 -0.00086560578 -0.00085092121 -0.001345021 -0.49180844 0.1582883
586000000 -0.47658113 0.15972362 -0.00026481948 -0.001153762 -0.00025462662 -0.0010475608 -0.49108925 0.15881622
587000000 -0.47729248 0.16061644 -0.00048440718 -0.00059587264 -0.00027299827 -0.0003932777 -0.49027225 0.15898456
588000000 -0.4770681 0.16067162 -0.00033074335 -0.0014261323 -0.0011737089 -0.0014513017 -0.4905917 0.15851919
589000000 -0.47683391 0.16076124 -0.00075318589 -0.0010275234 -0.00016515792 -0.00091122667 -0.4911848 0.15976584
590000000 -0.47590047 0.16163754 0.00011690008 -0.00042800169 -0.00063573517 -0.0013216542 -0.49163032 0.15924352
591000000 -0.47646001 0.16115101 -0.00036199621 -0.00043318071 -0.00063825212 -0.00062140991 -0.4912056 0.15980347
592000000 -0.47571576 0.16127968 -0.0012534749 -0.00059938041 -0.00013380597 -0.0003911368 -0.49050358 0.16010565
593000000 -0.47518876 0.16177763 -0.00021831128 -0.00088441657 -0.00011101554 -0.00064104667 -0.49172249 0.16047241
594000000 -0.4760232 0.16234663 -0.0010518476 -0.00074619567 -0.00072554318 -0.00083580369 -0.49099892 0.16104466
595000000 -0.4754802 0.16211018 -0.00081304013 -0.00022156636 -0.0008374048 -0.00095205265 -0.49082497 0.16123061
596000000 -0.47588834 0.16309348 2.4555322e-006 -0.00085239601 -0.00019314002 -0.00047938997 -0.49064288 0.16103545
597000000 -0.47593153 0.16283655 -0.00074978545 -0.00065189519 -0.00070914679 -0.00097346137 -0.49010831 0.16027458
598000000 -0.47628838 0.16328059 -0.0017506363 -0.001345242 -0.0012889598 -0.00091834296 -0.49120718 0.16136986
599000000 -0.47552758 0.16354106 -0.0014464066 -0.0014133489 -0.00059148256 -0.00075880211 -0.49107304 0.16174081
600000000 -0.47464374 0.16482411 -0.00056441425 -0.0012750754 -0.00054745062 -0.0014610422 -0.4901529 0.16283187
601000000 -0.47467229 0.16465762 -0.0006672694 -0.0012153392 -0.0012692981 -0.0012536326 -0.48988158 0.16269879
602000000 -0.47548452 0.16378313 -0.00073381251 -0.0010043522 -0.00033720516 -0.0012351649 -0.49029443 0.16391453
603000000 -0.47470868 0.16535522 -0.00073705206 5.9710728e-005 -0.00028802449 -0.0010171342 -0.48946631 0.16235632
604000000 -0.47421283 0.16526523 -0.00071274588 5.7415405e-006 -0.00082617532 -0.00073671929 -0.48975158 0.16323112
605000000 -0.47457752 0.1658226 -1.9992034e-005 -0.0012268106 -0.0010338783 -0.00089959783 -0.49022481 0.16325018
606000000 -0.47472841 0.16572094 -0.00060190941 -0.0014772618 -7.3015181e-005 -0.0010451829 -0.4901703 0.1639836
607000000 -0.47535452 0.16513476 -0.00055022596 -0.0010648074 -0.0010314967 -0.0015754129 -0.48961854 0.16281201
608000000 -0.4751226 0.16775648 -0.00096051651 -0.00048049295 -0.000984226 -0.00066538854 -0.48876396 0.16455305
609000000 -0.47419098 0.1670126 -0.00049781299 -0.00092189742 -0.00033677265 -0.00028568626 -0.49035418 0.16409138
610000000 -0.4744291 0.16710879 -0.0010758073 -0.00062083174 -0.00072878617 -0.0013989203 -0.48917082 0.16463646
611000000 -0.47382945 0.16825238 -0.00088901632 -0.0014348098 -0.00077601161 -0.001104077 -0.48916754 0.16594939
612000000 -0.47401571 0.1689339 -0.0014106792 -0.0009158632 -0.00047162859 -0.00057438173 -0.48919791 0.16564292
613000000 -0.47441378 0.16838326 3.5174326e-005 -0.001088182 -0.00077480066 -0.0010957395 -0.48911613 0.16577744
614000000 -0.47345528 0.16901532 -0.00070997945 -0.001408385 -0.00060610409 -0.00093896058 -0.49032456 0.16535273
615000000 -0.47411415 0.16776393 -0.00072696031 -0.001022025 -0.00032795826 -0.00055278378 -0.489191 0.16563065
616000000 -0.47336042 0.16858815 -0.0011504134 -0.0010486116 -0.00038381637 -0.00091715372 -0.48855028 0.16705927
617000000 -0.47394407 0.16937338 -0.0011148335 -0.00063070172 0.00012448587 -0.00059783238 -0.48944333 0.16707914
618000000 -0.4738875 0.16943742 -0.0015507328 -0.0010774543 -0.00019124481 -0.0009284991 -0.48952028 0.16646518
619000000 -0.47355065 0.17041866 -0.00050178746 -0.00051412714 -0.00018637444 -0.0010198273 -0.48926958 0.16752699
620000000 -0.4735235 0.16945238 5.0052859e-005 -0.00047556084 -0.00073324901 -0.00034644944 -0.48832649 0.16678427
621000000 -0.47406101 0.17039743 -0.0011508417 -0.0002973894 -0.0014264068 -0.00086272601 -0.48843649 0.16738707
622000000 -0.472727 0.17031425 -0.00041625707 -0.00066885754 -0.00025122042 -0.001298926 -0.48829252 0.16799639
623000000 -0.47201952 0.17171481 -0.00096842472 -0.00056711573 -0.00061569398 -0.00089533319 -0.48837435 0.16857213
624000000 -0.47294483 0.17157699 -0.00010020893 -0.0013625072 -0.00047609481 -0.00085162872 -0.48804116 0.16808255
625000000 -0.47251794 0.17196849 -0.00064530422 -0.001348739 0.00019614508 -0.0011086824 -0.48785242 0.16889156
626000000 -0.4724291 0.17290746 -0.00053068536 -0.00094706117 -0.00057210366 -0.00098644523 -0.48766312 0.168703
627000000 -0.47307068 0.17327651 -0.00044356901 -0.0015114835 -0.0011169723 -0.00070955325 -0.48830181 0.16988379
628000000 -0.47306752 0.17235534 -0.0011729384 -0.00095924694 -0.0010747578 -0.00063556631 -0.48758715 0.16957612
629000000 -0.472644 0.17244919 -0.0012482204 -0.0011209901 -0.00087848963 -0.00086813321 -0.48826823 0.17065355
630000000 -0.47242397 0.17264877 -0.0012693041 -0.0011642977 -0.0012763923 -0.0013829926 -0.48736289 0.17050959
631000000 -0.47383296 0.17340478 -0.00090824493 -0.0013936259 -0.0008451622 -0.0012758956 -0.48695195 0.17050689
632000000 -0.47263637 0.17452349 -0.0011082256 -0.00087492162 -0.00062729162 -0.00099916803 -0.48725468 0.17079145
633000000 -0.47272322 0.17450394 -0.00068526721 -0.0017118413 -0.00032642201 -0.00037477995 -0.48769325 0.17122579
634000000 -0.47199458 0.1744311 -0.00033748863 -0.0012211754 -0.00057626306 -0.00072605413 -0.48683593 0.17097691
635000000 -0.47257358 0.17356697 -0.0015471111 -0.00083668687 -0.0010036539 -0.00081974803 -0.48747376 0.17223102
636000000 -0.47280952 0.17460988 -0.0013400154 -0.0013588627 -0.00045337985 -0.00073977659 -0.48841548 0.17187996
637000000 -0.47164878 0.17543109 -0.00054929074 -0.00058533478 -0.00098473777 -0.0022013278 -0.48728532 0.17142799
638000000 -0.47159392 0.17544568 -0.00040936828 -0.0014246808 -0.0011500114 -0.0010717493 -0.48769143 0.1728166
639000000 -0.47208548 0.17521405 -0.00072358438 -0.001006534 -8.4045125e-005 -0.00049822906 -0.48635784 0.17279854
640000000 -0.47204682 0.17707768 -0.00040567387 -0.001524704 -0.00087403139 -0.00023001611 -0.48738986 0.17333898
641000000 -0.47157317 0.17663895 -0.0010682015 -0.0013477457 -0.0016046163 -0.00097591465 -0.48719662 0.17297302
642000000 -0.47217393 0.1776454 -0.00056385406 -0.000421859 -0.00022636686 -0.0013418369 -0.48670477 0.17295894
643000000 -0.4719578 0.17685212 -0.0011181649 -0.0014315348 -0.00084326364 -0.0011149629 -0.48769099 0.17304944
644000000 -0.47184554 0.17756224 -0.0011166774 -0.0014624896 -0.00060884969 -0.00080750155 -0.48636949 0.17378722
645000000 -0.47215781 0.17826989 -0.0010586393 -0.00066940841 -0.0008752849 -0.001095194 -0.48647106 0.17434503
646000000 -0.47187144 0.17793617 -0.0010999462 -0.00079882581 -0.00094433298 -0.00040630292 -0.48678654 0.17404403
647000000 -0.47237369 0.17839134 -0.00081452052 -0.00082014123 -0.00060485891 -0.0010480674 -0.48681986 0.1750998
648000000 -0.47159249 0.17767823 -0.00038521847 -0.0012214779 -0.00044312532 -0.00090820395 -0.48667026 0.1737456
649000000 -0.47155425 0.17906424 -0.00078442338 -0.0015171623 -0.00071681215 -0.0014079914 -0.48638687 0.17561468
650000000 -0.47189406 0.17842957 -0.00097586948 -0.00036036762 -0.00025883041 -0.00090591738 -0.48553884 0.17511313
651000000 -0.47111434 0.17969373 -0.00021679826 -0.00059723121 -0.00088651653 -0.001124626 -0.48587838 0.17585447
652000000 -0.47113106 0.17946257 -0.0006138194 -0.0011782441 -0.0012853582 -0.00088359375 -0.48624882 0.17607751
653000000 -0.47207502 0.17963493 -0.00040600367 -0.00058617088 -0.00021346877 -0.0009912505 -0.48636791 0.17507891
654000000 -0.47143608 0.18075983 -0.00056540471 -0.0015505734 0.00010827536 -0.00095860701 -0.48664796 0.17657016
655000000 -0.4715696 0.17990653 -0.00019225531 -0.00055776059 -0.0010803968 -0.00092094101 -0.48539886 0.1768295
656000000 -0.47054908 0.18014765 -0.00096057379 -0.00077034405 -0.00083842984 -0.0013849322 -0.48662782 0.17669334
657000000 -0.47185859 0.18050878 -0.00054178515 -0.0010010796 -0.00033888905 -0.00057073194 -0.48578003 0.17668459
658000000 -0.47192353 0.18106078 -0.0013403083 -0.0008724223 -0.0011218191 -0.00098563475 -0.48521966 0.17766984
659000000 -0.47075105 0.18103115 -0.00092816527 -0.0014247813 -0.00090907991 -0.0010374759 -0.48582649 0.17752288
660000000 -0.47134978 0.18252233 -0.00063379173 -0.0010657257 -0.00079427916 -0.0014035057 -0.48541713 0.17859444
661000000 -0.47037446 0.18214379 -0.00058687269 -0.00094977499 -0.00047803129 -0.0007923643 -0.48574594 0.17821223
662000000 -0.47043893 0.18187799 -0.0014605937 -0.0010550903 -0.00069148903 -0.00086328445 -0.48599675 0.17821522
663000000 -0.47190166 0.18139714 -0.00071573944 -0.0010835669 -0.00079021568 -0.00061052502 -0.48581108 0.17840694
664000000 -0.46995747 0.18221344 -0.00074117881 -0.0011494503 -0.0011277301 -0.001021835 -0.48569256 0.179452
665000000 -0.47144762 0.18173088 -0.0011475742 -0.0013891387 -0.00073470152 -0.00071571139 -0.48551008 0.17980914
666000000 -0.47015771 0.1832346 -0.00081312301 -0.001265702 -0.00088935473 -0.0012658625 -0.48632923 0.17969659
667000000 -0.47169265 0.18332356 -0.00045112055 -0.00071075093 -0.00024865224 -0.0011254731 -0.48498273 0.17998594
668000000 -0.47050193 0.18361571 -0.00024619719 -0.0014090971 -0.0010353895 -0.00071989448 -0.48543969 0.18002781
669000000 -0.47027317 0.1833134 -0.00051355263 -0.00071238464 -0.00051775039 -0.0013470667 -0.48511332 0.18012938
670000000 -0.47011405 0.18366122 -0.0015710886 -0.00028212761 -0.00083717698 -0.0012164677 -0.48512092 0.18021891
671000000 -0.46993449 0.18444639 -0.0006555366 -0.0017363823 -0.0011286763 -0.0014645986 -0.48469606 0.1797796
672000000 -0.4708719 0.18454207 -9.1457892e-005 -0.0014098774 -0.00088429643 -0.0010890847 -0.4846586 0.18019976
