!Keysight Technologies,M9374A,MY55442783,A.12.55.05
!Date: Thursday, May 20, 2021 15:56:31
!Correction: S11(Full 2 Port(1,2)) 
!S21(Full 2 Port(1,2)) 
!S12(Full 2 Port(1,2)) 
!S22(Full 2 Port(1,2)) 
!S2P File: Measurements: S11, S21, S12, S22:
# Hz S  RI   R 50
500000000 -0.48524904 0.1326592 -0.00078034686 -7.9699232e-005 -0.00055186736 -0.0003596672 -0.49734631 0.12969594
501000000 -0.48458377 0.13220917 -5.6782133e-005 -0.00022433189 -0.00053887069 -0.00081033056 -0.49745235 0.13028298
502000000 -0.48536801 0.13263537 -0.00067238143 -0.00089710683 -0.00028550456 -0.00059394614 -0.4974052 0.13069093
503000000 -0.48355424 0.13319197 -0.00050584611 -0.00041766308 -0.00036687657 -0.0013888992 -0.49751014 0.13052163
504000000 -0.48382393 0.13361633 -0.00064871222 -0.0010257523 -0.00064735109 -0.00093882054 -0.49731678 0.13042057
505000000 -0.48348644 0.13300271 -0.00089583173 -0.00065065862 -0.00046401081 -0.00064506353 -0.49789068 0.13123168
506000000 -0.48407054 0.13474636 -0.00093740626 -0.0011961892 -0.00048589331 -0.00071281008 -0.49693441 0.1320032
507000000 -0.48363313 0.13479415 -0.00037272889 -0.00028074966 -0.00032310671 -0.0012363183 -0.49705222 0.13226563
508000000 -0.48480344 0.1349716 0.00027281031 -0.0008648276 9.6754135e-005 -0.00037510062 -0.49664629 0.13226883
509000000 -0.48364255 0.13465869 -0.00080774497 -0.0013850464 -0.00041427667 -0.00099944544 -0.49772483 0.13319898
510000000 -0.48262045 0.13507351 -0.0005026841 -0.000346304 -0.00066485727 -0.00070052769 -0.49670002 0.13298549
511000000 -0.4841851 0.13575293 -0.00018431649 -0.00099961006 -0.00025562439 -0.0010262948 -0.49773523 0.13398705
512000000 -0.48351502 0.13572572 -0.00078775443 -0.0010028924 0.00035246013 -0.00080907304 -0.497392 0.13399284
513000000 -0.48345089 0.13565065 -0.0013921697 -0.00093561225 -0.00020656038 -0.00011076665 -0.49635398 0.13435256
514000000 -0.48472366 0.1366104 -0.0010932036 -0.0012736657 -0.0012199521 -0.00053945452 -0.49727774 0.13436578
515000000 -0.48380145 0.13545901 -0.00015757579 -0.00051385764 -0.00046610541 -0.00097376877 -0.49679071 0.1350452
516000000 -0.4838694 0.13707235 -0.00088719389 -0.00059996918 -0.00079805125 -0.00091487751 -0.4968147 0.13530977
517000000 -0.48325127 0.13798045 -0.00018196552 -0.0017138205 -0.00085027277 -0.001536903 -0.49657485 0.13482191
518000000 -0.48315242 0.13748334 0.00014534692 -0.00080767082 -0.00079907104 -0.00080796157 -0.49684146 0.13452151
519000000 -0.48325482 0.13791913 -0.00052586122 -0.00042012273 -0.00079826498 -0.0007870975 -0.49547002 0.13518265
520000000 -0.48304221 0.13827766 -0.00085669162 -0.00087604864 -0.00060357637 -0.0016320952 -0.496782 0.13589112
521000000 -0.48326129 0.13859387 -0.00015569513 -0.0011409674 -0.0005174097 -0.00051946705 -0.49614963 0.13615784
522000000 -0.48405904 0.1379749 -0.00067895063 -0.00090791099 -0.00028911044 -0.00071427296 -0.4966591 0.13619058
523000000 -0.48435447 0.13842992 -0.001120885 -0.00093124097 -0.00077391299 -0.00073952181 -0.4955003 0.13627732
524000000 -0.48368844 0.13907215 -0.00021376925 -0.00011042185 -0.00066038867 -3.6413745e-005 -0.49668112 0.13617992
525000000 -0.48325056 0.13893569 -0.00026188328 -0.0016490166 -0.00035823788 -0.00054610247 -0.49696201 0.13775896
526000000 -0.48303053 0.13940331 -0.00049831829 -0.00078505097 -0.00041517135 -0.00065020862 -0.49583784 0.13719648
527000000 -0.48378834 0.13987672 -0.00091461383 -0.00051809021 -0.00073891121 -0.00073909311 -0.49605456 0.13810593
528000000 -0.48273081 0.14047988 -0.00094615435 -0.0010799298 -0.00043858369 -0.0012135862 -0.49595901 0.13796256
529000000 -0.48275059 0.14052302 -0.00058153103 -0.00074317527 -0.00092468126 -0.00093970803 -0.49600044 0.13859814
530000000 -0.48228353 0.14034641 -0.00041423331 -0.0012687555 -0.00076573761 -0.00099652214 -0.49579385 0.13802668
531000000 -0.48299086 0.14058046 -0.00094912096 -0.00093799067 -0.001448966 -0.001051416 -0.49690318 0.13869886
532000000 -0.48346838 0.14153501 -0.00013253755 -0.00044174693 -0.00093355373 -0.0015494981 -0.49620771 0.14008181
533000000 -0.48321855 0.14079633 8.9268164e-005 8.6045809e-005 -0.00079599716 -0.0011965844 -0.49635598 0.13960494
534000000 -0.48411199 0.14129795 -0.00036004616 -0.0010276739 -0.00066425034 -0.00061010371 -0.49582225 0.13904609
535000000 -0.48238108 0.14224717 -0.00038808386 -0.00074157276 -0.00031909763 -0.00070770312 -0.49590823 0.13963217
536000000 -0.48370406 0.14172696 3.1092019e-005 -0.00092901074 -0.00081579201 -0.00053055334 -0.49501267 0.14003304
537000000 -0.48136103 0.14222373 -0.00047191567 -0.0014604131 -0.00059255218 -0.00068737648 -0.49568185 0.14066739
538000000 -0.48222122 0.14304551 -0.0010954161 -0.001087794 -0.00026124742 -0.00078811339 -0.4954212 0.14018448
539000000 -0.48223886 0.14305325 -0.00082874316 -0.00064332719 -0.00048085072 -0.00068569725 -0.49568024 0.14091115
540000000 -0.48280653 0.14281002 -0.00066479505 -0.00098330341 -0.00015854496 -0.00083353353 -0.49625552 0.14126764
541000000 -0.48235422 0.14324677 -4.245012e-006 -0.0010061859 -0.00061449589 -0.001121418 -0.49521104 0.14157613
542000000 -0.4830367 0.14424536 -0.00068161939 -0.0006544725 8.1370825e-005 -0.00099683471 -0.49580497 0.14153875
543000000 -0.48333564 0.14404167 -0.0010128387 -0.00067775935 -0.00032538164 -0.0009373111 -0.49627703 0.14216071
544000000 -0.48173928 0.14416033 -0.0010086177 -0.00087905221 -0.00045375113 -0.00070115825 -0.49602014 0.14210758
545000000 -0.48216972 0.14428249 -0.0012931189 -0.0013234724 -0.00051429082 -0.001538577 -0.49535584 0.14242865
546000000 -0.48295891 0.14557463 -0.00080038304 -0.00060740544 -0.00080053875 -0.00088853604 -0.49506533 0.14218776
547000000 -0.48234102 0.14488204 -0.00039899733 -0.00031964068 -0.00072567532 -0.00079728878 -0.49613532 0.14282215
548000000 -0.48221323 0.14457713 -0.00067655492 -0.0008259539 -0.00095422473 -0.00086507533 -0.49535033 0.14301671
549000000 -0.48214319 0.1441571 -0.00098843744 -0.0007704625 -0.00022236051 -0.00075154932 -0.4952063 0.14402251
550000000 -0.48102194 0.14450021 0.00018207941 -0.0018653375 -0.00018001576 -0.00023542151 -0.4960357 0.14374711
551000000 -0.48202053 0.14577132 -0.0013728949 -0.0011072295 -0.00090616796 -0.000983887 -0.49563938 0.14365682
552000000 -0.48166108 0.14520307 -0.00011696421 -0.00089772657 -0.00069758081 -0.00050319132 -0.49464726 0.14377828
553000000 -0.48151657 0.14567915 -0.0013712359 -0.00070491125 1.3555567e-005 -0.00090077886 -0.49526533 0.14408281
554000000 -0.48246399 0.1452786 -0.00062431436 -0.0011535237 -0.00044910939 -0.00072305917 -0.49559695 0.14345023
555000000 -0.48181361 0.14673682 -0.00090120989 -0.0010040553 -0.00073260994 -7.2486378e-005 -0.49549556 0.1448786
556000000 -0.48213872 0.14630046 -0.00073772471 -0.00018668686 -0.00084786542 -0.00038003366 -0.49503434 0.14473915
557000000 -0.48152202 0.14618419 -0.00041797053 -0.0014877944 -0.00035923652 -8.9763213e-005 -0.49449557 0.14407374
558000000 -0.48067626 0.14639989 -0.0010173148 -0.00085062638 -0.00069963286 -0.0010728084 -0.49622828 0.14602976
559000000 -0.48137954 0.14631838 -0.00041690227 -0.00050163164 -0.00044332203 -0.0011975328 -0.4950833 0.14623407
560000000 -0.48217875 0.14739454 -0.00082279928 -0.00035395022 -0.00074715522 -0.0010365522 -0.49509686 0.14551608
561000000 -0.4813453 0.14691049 -7.9502315e-005 -0.00092972367 -0.00051792071 -0.00072797039 -0.4947992 0.14443599
562000000 -0.48042682 0.14810976 -0.00026041656 -0.00027480471 -0.00044470542 -0.0010534701 -0.49536756 0.14542444
563000000 -0.48169532 0.14823717 0.00031568258 -0.0014340474 -0.00090179394 1.8999279e-005 -0.49522713 0.14558938
564000000 -0.48124573 0.14774658 -0.00060745806 -0.0013530214 -0.00099973439 -0.00067621784 -0.49510315 0.14665973
565000000 -0.48069242 0.14804634 -0.00010862536 -0.00019849255 -0.00015104863 -0.00018443246 -0.49547759 0.14713512
566000000 -0.48019364 0.14887626 -0.001226381 -0.0009025071 6.4385604e-005 -0.0009208952 -0.49506852 0.14642917
567000000 -0.48084235 0.14895828 -0.00076562428 -0.00059433456 -0.00035610737 -0.00095898058 -0.49419478 0.1475898
568000000 -0.48076031 0.14921197 -0.0010984048 -0.00092114101 -0.00047774398 -0.001034605 -0.49461731 0.14709741
569000000 -0.48057204 0.14880395 -0.00064422534 -0.00072773115 -0.00065227959 -0.00084093743 -0.49453586 0.14666782
570000000 -0.48063672 0.15002067 -0.00036486131 -0.0012255061 -0.0014518788 -0.00072460488 -0.49450231 0.14824814
571000000 -0.48050037 0.15012425 -0.0012644663 7.2467185e-005 -0.00048238318 -0.00036962828 -0.494903 0.14832897
572000000 -0.48014107 0.14981742 -0.00090559211 -0.00080379209 -0.00083147961 -0.00013197307 -0.49386695 0.14826861
573000000 -0.4804028 0.1496346 -0.00011950131 -0.00075721578 -0.00011440674 -0.0016499455 -0.49431717 0.14794734
574000000 -0.48056591 0.15005441 -0.00010519557 -0.00075779302 -0.00042027523 -0.0007503088 -0.49461603 0.14725772
575000000 -0.47877175 0.15006393 -0.00071432121 -0.00073241163 -0.00064264325 -0.00083234109 -0.49418983 0.14942048
576000000 -0.48026672 0.15005352 -0.00033279619 -0.00013871229 1.8821011e-005 -0.00064685068 -0.49405488 0.14926885
577000000 -0.47930712 0.15125161 -0.00080836768 -0.00071890827 -0.0010353446 -0.00064595573 -0.49492422 0.14970104
578000000 -0.47973549 0.15085632 -0.00074943475 -0.00099526916 2.4500065e-005 -0.00059946632 -0.49404639 0.14943399
579000000 -0.47965896 0.15110429 -0.0011715796 -0.0015819992 -0.00015213806 -0.0008796613 -0.49437681 0.14995401
580000000 -0.47973377 0.15080233 -0.0015693641 -0.00091325981 -0.00025315373 -0.00070092955 -0.49384946 0.14984173
581000000 -0.47957465 0.15214942 -0.00094437727 -0.0010086446 -0.0010031693 -0.0012783118 -0.49356908 0.15084761
582000000 -0.47952142 0.15209405 -0.00075623731 -0.0012108228 -0.0012401312 -0.00085571891 -0.49351943 0.15078023
583000000 -0.47893342 0.15282018 -0.00065917725 -0.00044098028 -0.00085028185 -0.0013750298 -0.49363983 0.15087713
584000000 -0.47866678 0.15245919 -0.0011138198 -0.00046031363 -6.5280707e-005 -0.00016750151 -0.49371913 0.15055993
585000000 -0.47870228 0.15276201 -0.00074416457 -0.00032770965 -0.00065758976 -0.0011037602 -0.49408346 0.15152809
586000000 -0.48071161 0.15330635 -0.00071122783 -0.00092231529 -0.0008022507 -0.00059230934 -0.49379739 0.1520877
587000000 -0.47827551 0.15350589 -0.00066801562 -0.001245265 -0.00082153489 -0.0003216661 -0.49386385 0.15173723
588000000 -0.47799772 0.15293463 -0.00088375487 -0.0011277496 -0.00074089639 -0.00015522192 -0.49408531 0.1517837
589000000 -0.4793773 0.15388808 -0.00043399868 -0.00018324915 -0.00076501555 -0.00039030545 -0.49345222 0.15270859
590000000 -0.47907341 0.15452796 -0.00069410237 -0.00085090607 -0.0011724286 -0.001109419 -0.49309376 0.15232076
591000000 -0.47895557 0.15433079 -0.00067841407 -0.0013155912 -0.00081286428 -0.00085955783 -0.49374354 0.15265833
592000000 -0.47893307 0.15471631 -0.00010185051 -0.0014825293 -0.00033253516 -0.0011802403 -0.49233693 0.15339665
593000000 -0.4785012 0.15426809 -0.00055658515 -0.0011921673 -0.0005060531 -0.00055779098 -0.49268803 0.15300624
594000000 -0.47851491 0.15479082 -0.0010986503 -0.00097661966 -0.0006425684 -0.00049173215 -0.49305755 0.15421604
595000000 -0.47790989 0.15507552 -0.0010232603 -0.00097481615 -0.00061173143 -0.00035794324 -0.49281794 0.15412091
596000000 -0.47801498 0.15574411 -8.7542976e-006 -0.0008906771 -0.00046340044 -0.0010513134 -0.49323475 0.15363321
597000000 -0.47862318 0.15605544 -0.00044931608 -0.0010981879 -0.001618501 -0.0010302766 -0.49222177 0.15390901
598000000 -0.47751778 0.15655546 -0.00045433588 -0.00093687529 -0.00049364491 -0.0013823011 -0.49285844 0.15436614
599000000 -0.47724032 0.15741907 2.985402e-006 -0.00066999212 -0.00055529637 -0.0014505342 -0.49214718 0.15463136
600000000 -0.47716665 0.15648243 -0.001342334 -0.0012317733 6.9795824e-005 -0.0012557798 -0.49248564 0.15435958
601000000 -0.47746557 0.15737331 -0.0011677821 -0.00049947982 -0.00059423497 -0.0017309888 -0.49329117 0.15567178
602000000 -0.47786978 0.15727271 -0.00022237771 -3.4358181e-005 -0.0012332438 -0.0004931016 -0.49176434 0.1556855
603000000 -0.47780663 0.1577487 -0.0002494762 -0.0007830899 -0.0010487512 -0.00096026767 -0.49229008 0.15620266
604000000 -0.4769268 0.15874049 -0.00088983431 -0.00062541937 -0.00033515054 -0.00095985516 -0.49214199 0.1567494
605000000 -0.47728443 0.15828098 -0.0006984194 -0.0010062498 -0.00081101438 -0.0005103877 -0.4924002 0.15549389
606000000 -0.47749001 0.15862538 -0.00087934936 -0.00035286281 -0.0014691495 -0.00091762148 -0.49144787 0.15662678
607000000 -0.47759879 0.1589521 -0.00048215955 -0.00097122404 -0.00060009537 -0.00068540568 -0.49213427 0.15619311
608000000 -0.47711957 0.15953581 -0.001194584 -0.00070342113 -0.00095018081 -0.0012291617 -0.49096575 0.15782577
609000000 -0.47609395 0.15921353 -0.00056453189 -0.00093909836 -0.00046115971 -0.0012497597 -0.49087825 0.15797737
610000000 -0.47657758 0.15920343 -0.00045147521 -0.00039358783 0.00037215953 -0.00061875029 -0.49025431 0.15720333
611000000 -0.4766055 0.16023858 -0.00032673843 -0.00084433 -0.00092114933 -0.0012421549 -0.49136847 0.15788919
612000000 -0.47602314 0.16102509 -0.0010378369 -0.0012194752 3.1119187e-005 -0.00072725839 -0.49169242 0.15899755
613000000 -0.47681978 0.16088948 -0.0010648731 -0.00077981903 -0.00062397047 -0.00041391884 -0.49020773 0.15891166
614000000 -0.47551763 0.1609834 -0.00033422644 -0.00036902391 -0.00083860743 -0.0014097658 -0.49175236 0.15928027
615000000 -0.47569907 0.16118561 -0.00037364202 -0.0010627802 5.5097891e-005 -0.00033941126 -0.49093077 0.15966298
616000000 -0.47595099 0.16168639 -0.00011212267 -0.0012844487 0.00023599387 -0.0012402741 -0.49122012 0.15985411
617000000 -0.47601092 0.16297312 -0.0010154241 -0.0013916901 -0.0010430377 -0.00066442345 -0.49079019 0.15999901
618000000 -0.47476414 0.16245249 -0.00078545499 -0.0014215906 -0.00089342229 -8.4341234e-005 -0.49060142 0.15985681
619000000 -0.47595298 0.16365708 -0.0012744992 -0.0011362793 -0.0011545953 -0.0013218207 -0.49138391 0.15944564
620000000 -0.4760609 0.16268043 -0.00028416971 -0.00091481186 -0.00015879699 -0.00078464096 -0.49025288 0.16072994
621000000 -0.47712767 0.16357651 -0.00072980311 -0.00057926599 0.00032091624 -0.0015039699 -0.49065816 0.16042498
622000000 -0.47614399 0.1639373 0.00045143953 -0.00090510194 -0.00039287386 -0.0006078977 -0.49018607 0.16095841
623000000 -0.47543025 0.16409929 -0.00039601899 -0.0013105446 -0.00094453036 -0.00061178743 -0.49032813 0.16138092
624000000 -0.47557443 0.16478918 -0.00045509267 -0.00084930647 -0.00075301359 -0.0012995754 -0.49003831 0.16099919
625000000 -0.47555134 0.16468653 -0.0011701219 -0.001033354 -0.00077759131 -0.0012207417 -0.49083525 0.16055885
626000000 -0.47540379 0.16470917 -0.00036186827 -0.00063637429 -0.00067229429 -0.0006264929 -0.49055114 0.16212218
627000000 -0.47516418 0.16575412 -0.00073365396 -0.00048551682 -0.00032136842 -0.0014141342 -0.48985773 0.16242325
628000000 -0.47588328 0.1653818 -0.00061003619 -0.0012152211 -3.3213637e-005 -0.00047684717 -0.48983747 0.16278076
629000000 -0.47557771 0.16642123 -0.00035980635 -0.0006553295 -0.00076004269 -0.00059872383 -0.49017918 0.162257
630000000 -0.47509149 0.16618352 0.00029961558 -0.0013977023 -0.0012112042 -0.00054978306 -0.48953903 0.16264978
631000000 -0.47589216 0.16695641 -0.00052122469 -0.0016870057 -0.00061897066 -0.0010688235 -0.4904435 0.16449006
632000000 -0.47573125 0.16648352 -0.00043869033 -0.00097767205 -0.0006404795 -0.00068919529 -0.49025172 0.16340439
633000000 -0.47527105 0.16657729 -0.00067364902 -0.00062759913 -0.00021578386 -0.00088299147 -0.49021041 0.16404752
634000000 -0.4754138 0.1673197 -0.00073321845 -0.00099788979 -0.00020049266 -0.00068898639 -0.48969176 0.16392916
635000000 -0.47484872 0.16712531 -0.0015277572 -0.0013289539 -0.00047500693 -0.0016802441 -0.48935705 0.16411926
636000000 -0.47510874 0.16766433 -0.0007753793 -0.00070868654 -0.00018198535 -0.000525382 -0.4901824 0.16452424
637000000 -0.47486725 0.16798188 -0.00071679387 -0.00099878211 -0.00069891982 -0.00089109031 -0.48954651 0.16527261
638000000 -0.4746702 0.16857794 -0.0012449276 -0.00080505211 -0.00065061415 -0.0010410686 -0.48914036 0.16510013
639000000 -0.47516793 0.16917001 -0.0011163894 -0.0019125377 -0.00090291095 -0.0013063635 -0.48994637 0.16523521
640000000 -0.47415543 0.16941793 -0.0012266628 -0.0014164827 2.9501136e-006 -0.0013884892 -0.48894194 0.1648431
641000000 -0.47456634 0.16931549 0.00023015114 -0.00084107631 -0.0010212187 -0.001350383 -0.4886674 0.16627187
642000000 -0.4749893 0.16882958 -0.00049825042 -0.00095678546 -0.00087214966 -0.00060848944 -0.48890904 0.16679622
643000000 -0.47424486 0.16974631 -0.00047358719 -0.0007690842 -0.0010422629 -0.0012013583 -0.48897785 0.16670865
644000000 -0.47392794 0.16922075 -0.0013832933 -0.00062972528 -0.00041127965 -0.0013970048 -0.48896939 0.16575906
645000000 -0.47536522 0.16993842 -0.00029109322 -0.00068803516 -0.0003508087 -0.0013394682 -0.48900419 0.16693769
646000000 -0.47335702 0.17080946 -0.00077081384 -0.00084711734 -0.0006287315 -0.0016557788 -0.48894536 0.16752578
647000000 -0.47442293 0.17091089 -0.00098356127 -0.00050204381 -0.00040438969 -0.0014395759 -0.48913881 0.16768858
648000000 -0.4739801 0.17046165 -0.00070232409 -0.0013121531 -0.00040833163 -0.00058824732 -0.48905781 0.16646181
649000000 -0.47413671 0.17110908 6.8155583e-005 -0.0014745009 -0.00067854667 -0.00060753687 -0.48885918 0.16791026
650000000 -0.47504884 0.17088962 -0.00056481845 -0.0011478447 -0.00078470202 -0.00063077314 -0.4898659 0.16742024
651000000 -0.47363111 0.17097138 -0.00075987884 -0.0012637383 -0.00090089132 -0.0013624138 -0.48910886 0.16785818
652000000 -0.47427997 0.17178245 -0.00087624142 -0.0012400219 -7.2390234e-005 -0.0016233714 -0.48865303 0.16820626
653000000 -0.47350976 0.17281033 -0.00047514687 -0.00098094204 -0.00030118375 -0.00048423247 -0.48829168 0.16863848
654000000 -0.47363955 0.17366239 -0.0011757549 -0.0013293502 -0.00036723231 -0.00058813195 -0.48904282 0.16835526
655000000 -0.47419935 0.17263667 -0.00058833684 -0.0018663994 -0.00031515441 -0.001313852 -0.48868114 0.16835184
656000000 -0.47359875 0.17286824 -0.00032874738 -0.0010223758 -0.00014760617 -0.0014451285 -0.48920625 0.16931163
657000000 -0.47402146 0.17248785 -0.0010817461 -0.0011350585 -0.00092101214 -0.00057615334 -0.48843807 0.169585
658000000 -0.47488168 0.17414838 -0.0012642391 -0.00090656674 -0.00076690171 -0.00075997261 -0.4878673 0.16890207
659000000 -0.47438535 0.17415708 -0.00049421017 -0.00091943878 -0.0004313747 -0.00098816596 -0.48855913 0.17059888
660000000 -0.47365129 0.1752483 -0.0010350827 -0.0017759972 -0.0010793661 -0.0014438285 -0.48763415 0.1695331
661000000 -0.47263238 0.17370313 -0.0010271518 -0.0014121096 -0.000856645 -0.0011110745 -0.48771682 0.17019224
662000000 -0.47412887 0.17381188 -0.0011491737 -0.0013197925 -0.0011004693 -0.00080244377 -0.48799822 0.1703818
663000000 -0.47368297 0.17405009 -0.0005539566 -0.00096142816 -0.00070818356 -0.00094420172 -0.4869853 0.17093368
664000000 -0.47299194 0.17454 -0.0010238308 -0.00081141392 -0.00086203933 -0.00023432588 -0.48798531 0.17032807
665000000 -0.47300422 0.17482422 -0.00038166449 -0.0019731156 -0.0012336855 -0.0012196974 -0.48836812 0.17058231
666000000 -0.47396621 0.17517053 -0.0016069544 -0.0015297086 -0.001058331 -0.0012908475 -0.4880442 0.1714118
667000000 -0.47418401 0.17571032 -0.00079869915 -0.00090862095 -0.0010255736 -0.0014365118 -0.48798323 0.17286715
668000000 -0.47351637 0.17619863 -0.0007748403 -0.00088468607 -0.00099121698 -0.0014238838 -0.48788196 0.17158066
669000000 -0.474123 0.1759681 -0.001023012 -0.0010472939 -0.00081441819 -0.00095221429 -0.48815697 0.17205006
670000000 -0.47285837 0.1766585 -0.000257434 -0.00098343682 -0.0014899478 -0.00092219078 -0.48714122 0.17240442
671000000 -0.47280395 0.17586616 -0.0008653258 -0.00076948624 -0.00098095881 -0.0013394773 -0.48763993 0.17243879
