!Keysight Technologies,M9374A,MY55442783,A.12.55.05
!Date: Thursday, May 20, 2021 15:13:54
!Correction: S11(Full 2 Port(1,2)) 
!S21(Full 2 Port(1,2)) 
!S12(Full 2 Port(1,2)) 
!S22(Full 2 Port(1,2)) 
!S2P File: Measurements: S11, S21, S12, S22:
# Hz S  RI   R 50
500000000 -0.47681788 0.15992311 -0.00079277123 -0.00039818286 -0.00037025663 -0.0004285707 -0.49169758 0.15768477
501000000 -0.4769876 0.16089807 -0.0010004521 -0.0014741803 -0.0015682983 -0.00084523123 -0.49071196 0.15916075
502000000 -0.47716033 0.1607087 -0.00072204246 -0.0014519597 -0.0011112265 -0.0010437107 -0.49053094 0.15877287
503000000 -0.47655949 0.16173849 -0.0010098103 -0.0011112895 -0.00061199506 -0.0010627598 -0.49063575 0.15884519
504000000 -0.47660428 0.16192678 -5.7769807e-006 -0.00066497066 -0.00053050963 -0.00053876243 -0.48938626 0.15967345
505000000 -0.4757266 0.16257998 -0.0001207708 -0.00054459972 -0.00038319614 -0.0010689915 -0.49066627 0.1605676
506000000 -0.47664568 0.16262101 6.2466832e-005 -0.00066692726 -0.00031422026 -0.00020255808 -0.49039087 0.1602923
507000000 -0.47612524 0.16234212 -0.00069725845 -0.000820991 -0.00038352062 -0.00063687039 -0.48921281 0.16033794
508000000 -0.47664264 0.16344838 -0.0012492589 -0.0010872984 -0.00091074413 -0.00044911591 -0.49004459 0.1615558
509000000 -0.47702053 0.16312736 -0.0005910715 -0.00020247382 -0.0010865113 -0.00056383101 -0.48972559 0.16236766
510000000 -0.47568581 0.16466616 -0.00068828888 -0.0008475043 -0.0011602551 -0.00052468415 -0.48914427 0.16164522
511000000 -0.47598779 0.16424367 -0.0012853718 -0.0006714699 -0.0008237001 -0.00057421625 -0.48918918 0.16224609
512000000 -0.47557518 0.16467039 -0.0010192635 -0.0015568642 -0.00048080197 -0.00034006627 -0.48844248 0.16220951
513000000 -0.47644123 0.16409972 -0.00084436254 -0.00095653429 -0.00026939827 -0.00043186962 -0.4896315 0.16181579
514000000 -0.47617111 0.16540334 -0.00051592442 -0.00054547848 -0.00042105268 -0.00096886553 -0.48974282 0.16302721
515000000 -0.47523677 0.16517787 -0.0010914491 -0.0013655466 -0.00056903344 -0.0006078548 -0.48881814 0.16366988
516000000 -0.47478467 0.16543183 -0.00014438259 -0.0017335746 -0.00031739005 -0.00066292222 -0.48890424 0.16423446
517000000 -0.47477272 0.16784047 -0.00092070189 -0.00081355107 -0.0007756027 -0.0010818843 -0.48932278 0.16446848
518000000 -0.47490263 0.16671713 0.0001522064 -0.00090031052 -0.00035596057 -0.00060590712 -0.48946095 0.16435716
519000000 -0.47464317 0.16669022 -0.00027846161 -0.0010819662 -5.3799697e-005 -0.00087513431 -0.48806369 0.16503885
520000000 -0.47502384 0.1669497 -0.00105065 -0.0006915541 -0.0011066162 -0.00034200307 -0.48889345 0.16550604
521000000 -0.47549522 0.16728818 -0.00062670815 -0.001113088 -0.00065187173 -0.00035674268 -0.48840326 0.1663291
522000000 -0.4749243 0.16936465 -0.00061451708 -0.00061353354 -0.00063970574 0.0002021515 -0.48833469 0.16686468
523000000 -0.47461411 0.16746481 -0.00026363891 -0.00018160169 -0.00082071236 -0.00059385027 -0.48856354 0.16666503
524000000 -0.47486466 0.16813838 -0.0002195124 -0.0012419582 -0.00107088 -0.0013724813 -0.48840928 0.16703431
525000000 -0.47394025 0.1684074 -0.00077928783 -0.00091100764 -0.0011536066 -0.00044779293 -0.488745 0.16668622
526000000 -0.4752166 0.16924973 -0.00087978778 -0.00071173173 -0.0013133303 -0.0014222654 -0.48838872 0.16755392
527000000 -0.47442564 0.16995986 -0.00070809026 -0.00060189015 -0.00050822558 -0.0010678673 -0.48872918 0.16737132
528000000 -0.47466582 0.17030722 -0.00063987001 -0.00048520105 -0.00058838399 -0.00056198577 -0.48711237 0.16708699
529000000 -0.47459504 0.16971718 -0.00073344389 -0.0011718331 -0.00042729187 -0.00055367139 -0.4876681 0.16891569
530000000 -0.4738732 0.17124915 -0.0010426211 -0.0006820999 -0.0012525111 -0.00056614389 -0.48825169 0.16907652
531000000 -0.47468662 0.171189 -0.00048020398 -0.001117944 -0.00051800639 -0.00081910001 -0.48863316 0.16884613
532000000 -0.47476843 0.17110671 -0.00057627569 -0.0011798866 -0.0007374222 -0.0013882038 -0.48721159 0.16934595
533000000 -0.47440469 0.17089328 -0.00051306543 -0.00059658568 -0.00043187389 -0.00089886715 -0.48703253 0.16996557
534000000 -0.47391379 0.17095459 -0.00063088932 -0.0015852592 -0.00017944937 -0.0014944912 -0.48633388 0.17015226
535000000 -0.47386414 0.17220746 -0.00054118573 -0.00072394375 -0.00020471693 -0.00018798793 -0.48764294 0.1703853
536000000 -0.47378147 0.17246592 -0.00078342296 -0.0013643731 -0.00096536335 -0.00099565811 -0.48787048 0.170058
537000000 -0.47330102 0.17242238 -0.00075879385 -0.00014920789 -0.00058859633 -0.00093219278 -0.48785171 0.17066665
538000000 -0.47332162 0.17323424 -0.0015770097 -0.0007265911 -0.00079049368 9.6578124e-006 -0.48766929 0.16987124
539000000 -0.47319394 0.17297737 -0.00054706942 -0.00093261123 -0.0004928764 -0.00073491666 -0.48705906 0.17150025
540000000 -0.47300947 0.17380106 -0.00084325165 -0.0010210758 -0.00088953017 -0.0011211502 -0.48740378 0.17242107
541000000 -0.47297555 0.17370941 -0.00042166116 -0.00074219168 -0.00046398301 -6.3864565e-005 -0.48801851 0.17183486
542000000 -0.47280794 0.17400439 -0.00055842719 -0.00045025544 -0.00065112615 -0.00017947363 -0.48706454 0.17209277
543000000 -0.47335708 0.17393756 -0.0012499441 -0.0010829796 0.00030809816 -0.00085079437 -0.48737657 0.1729387
544000000 -0.47291267 0.1746268 0.00014612668 -0.00077771972 -0.00044274435 -0.0011561151 -0.48655581 0.1732489
545000000 -0.47273886 0.17449592 -0.00064244657 -0.00037576276 -0.0010304383 -0.00052809494 -0.48725581 0.17357813
546000000 -0.47299981 0.17532159 -0.00027218321 -0.0015557696 -0.00092109566 -0.0014439869 -0.48624575 0.17408049
547000000 -0.47324866 0.17593065 -0.00047969032 -0.00062795327 -0.00021349058 -0.00057135697 -0.4868871 0.17420916
548000000 -0.47325185 0.175402 -0.0012270061 -0.0011341586 -9.8677032e-005 -0.0008634929 -0.48639759 0.17468131
549000000 -0.47287261 0.17580065 -0.0010382384 -0.00035202075 0.00023773292 -5.0935472e-005 -0.48678204 0.17552797
550000000 -0.47219986 0.17688072 -0.00047415434 -0.00063384429 -0.00080613315 -0.00073684036 -0.48611751 0.17502172
551000000 -0.47233632 0.1767512 -0.00032937792 -0.00091311795 -0.00096608832 -0.00049019977 -0.48583046 0.17543495
552000000 -0.47171897 0.17610146 -0.00048826917 -0.0010819006 -0.0013417491 -0.00056451629 -0.48646325 0.1750458
553000000 -0.47198468 0.17725189 -0.0011405575 -0.0004676058 -0.0011352077 -0.001638364 -0.48583952 0.17602183
554000000 -0.47260478 0.17662872 -0.00075197278 -0.00053181779 -0.00094310468 -0.00084619405 -0.48709035 0.17566644
555000000 -0.47177967 0.17744118 -0.00099979353 -0.00064323808 -0.0007419606 -0.00057522336 -0.48579404 0.17658634
556000000 -0.47199622 0.17720573 -0.00059206126 -0.00024933449 -0.00061923941 -0.0012343493 -0.48592764 0.17733143
557000000 -0.47241619 0.1785734 -0.001359629 -0.00063910085 -0.00030238417 -0.00074914593 -0.48661351 0.177103
558000000 -0.4716343 0.1779808 -0.00023487357 -0.0009205658 -0.00062356278 -0.00093694404 -0.48654729 0.17710997
559000000 -0.47235575 0.17829327 -0.00066670327 -0.0014301301 -0.00076666969 -0.00064339372 -0.48632076 0.17836685
560000000 -0.47132811 0.17883913 -0.00073593314 -0.0003424235 -0.00071159226 -0.00041428962 -0.48519897 0.1788625
561000000 -0.47172427 0.17861521 -0.00086244312 -0.00048015863 -0.0006698494 -0.00078867702 -0.48493829 0.17700864
562000000 -0.47153133 0.17931391 -0.00075784943 -0.00074082694 -0.00020984965 -0.00061558874 -0.48540288 0.17850934
563000000 -0.47171712 0.18013375 -0.0006173937 -0.00076127838 -0.00045493618 -0.00081470725 -0.48530793 0.17865953
564000000 -0.47152475 0.17976457 -0.0011733121 -0.0011331957 -0.0010923503 -0.00029578034 -0.48525494 0.17940161
565000000 -0.47246268 0.18032666 -0.00094912562 -0.0006953128 -0.00091100676 -0.0015462495 -0.48574105 0.1791987
566000000 -0.471524 0.18046202 -0.00036363292 -0.00067489431 -7.0997817e-006 -0.0012168118 -0.48598453 0.17859928
567000000 -0.47059315 0.18037954 -0.00099631643 -0.001082269 -0.00083817338 0.00017004892 -0.48573115 0.17963734
568000000 -0.47148725 0.18048765 -0.0010210025 -0.000488316 -0.00061546941 -0.00085644081 -0.48525861 0.17970718
569000000 -0.47139415 0.18178488 -0.00056559738 -0.00097999314 -0.0012153311 -0.0010622059 -0.48605588 0.17949344
570000000 -0.47144887 0.1820837 -0.0010865803 -0.0012744678 -0.00072559027 -0.0010732044 -0.48450837 0.18032326
571000000 -0.47005576 0.18178782 -0.0015545936 -0.0010313614 -0.00061129133 -0.00073748088 -0.48506713 0.18103984
572000000 -0.47013363 0.18239243 -0.00076810399 -0.0008169146 0.00021024898 -0.00018452447 -0.48549968 0.180888
573000000 -0.46992707 0.18262696 -0.00062519731 -0.00031236219 -0.000933156 -0.00075265858 -0.48487583 0.1819331
574000000 -0.47068369 0.18213323 -0.00074439787 -0.00067744858 -0.0011064748 -0.00095393194 -0.48491308 0.18230204
575000000 -0.47098097 0.18185233 -0.00043815619 -0.00079115701 -0.00080109388 -0.00082054199 -0.48420864 0.18214321
576000000 -0.47056955 0.18292327 0.00033881981 -0.0008750484 -0.00077976292 -0.0012483955 -0.48468441 0.18198353
577000000 -0.47025785 0.18393593 -0.00094285829 -9.5886353e-005 -0.00097259443 -0.00054804515 -0.48429239 0.18267614
578000000 -0.46982464 0.18375553 -0.00092987367 -0.00037838501 -0.00046164662 -0.00080561935 -0.48510313 0.18335468
579000000 -0.46894988 0.18391682 -0.00028620512 -0.001011146 -0.00099299487 -0.0012416096 -0.48296496 0.18331374
580000000 -0.46950868 0.18362555 -0.00068905554 -0.00061553356 -0.0016129497 -0.00019323861 -0.48395565 0.18428804
581000000 -0.47016716 0.18439284 -0.00023194581 7.1066126e-005 -0.0010065176 -0.00026542181 -0.48387766 0.18417773
582000000 -0.46971536 0.18525636 -0.001227349 -0.0012842435 -0.00059475185 -0.0010535119 -0.48414391 0.1838264
583000000 -0.46885708 0.18543567 -0.0011378938 -0.00027444263 -0.00055678003 -0.0013649489 -0.48417842 0.18503247
584000000 -0.46938238 0.1851351 -0.0010363386 -0.00054668228 -0.0015894652 -0.00036221952 -0.4834725 0.18392231
585000000 -0.46851069 0.18721764 -0.00015875742 2.177348e-005 -0.0012727816 -0.00066687114 -0.4835563 0.18587923
586000000 -0.46909684 0.1870804 -0.0010381013 -0.00053869496 -0.00064219814 -0.0018754678 -0.4837687 0.18545155
587000000 -0.4686698 0.18673433 -0.0012907923 -0.0011628398 -0.00024852206 -0.00064811658 -0.48294947 0.18489927
588000000 -0.46902296 0.18681651 -0.00020456222 -0.00093523366 -0.00047248325 -0.00042285366 -0.48282433 0.1853826
589000000 -0.46877781 0.18694966 -0.00060421712 -0.00051031064 -0.0002155598 -0.00070890732 -0.4832333 0.18632944
590000000 -0.46837735 0.1889482 -0.00057582685 -0.00057606312 -0.00095094409 -0.00061049842 -0.4834078 0.18698847
591000000 -0.46757096 0.18921909 -0.00099572341 -0.0012463848 -0.00048949005 -0.0011159779 -0.48335403 0.1868823
592000000 -0.46839437 0.18901049 -0.00040160946 -0.0010691098 -0.00083261519 0.0001378506 -0.4830468 0.1872783
593000000 -0.46837565 0.18963854 -0.00093329238 -0.00080197677 -0.0013100189 -0.0011795239 -0.48286712 0.18822449
594000000 -0.46682715 0.18985465 -0.00099694764 -0.00054264464 -0.0015338766 -0.0013794064 -0.48251718 0.18884876
595000000 -0.46769276 0.18873693 -0.00085000938 -0.00075528596 -0.00088515627 -0.0013157239 -0.48343757 0.1884758
596000000 -0.46794006 0.18976317 -0.00073151168 -0.000532059 -0.00058383035 -0.00076558773 -0.48221651 0.18818666
597000000 -0.46732089 0.19042033 -0.001012515 -0.00090952025 -0.00052556244 -0.00050384109 -0.48178747 0.18846771
598000000 -0.46667287 0.19035496 -0.00045503769 -0.001335278 -0.0011624359 -0.00096782699 -0.48211086 0.18937258
599000000 -0.46703675 0.19189303 -0.001381578 -0.001129388 -0.00044718213 -8.2891216e-005 -0.481325 0.18940373
600000000 -0.46665177 0.19034584 -0.0010601939 -0.001516789 -0.00036394573 -9.3261559e-005 -0.48150611 0.18930641
601000000 -0.46597654 0.19212581 -0.00029200138 -0.00026628035 -0.00088899379 -0.00071686367 -0.48130471 0.19050628
602000000 -0.46712723 0.19147502 -0.00083387271 -0.00072823465 -3.3664994e-005 -0.0012044231 -0.48125997 0.19070303
603000000 -0.46631631 0.19243883 -0.00064626464 -0.00075276417 -0.0012191201 -0.00042494273 -0.48109362 0.19087334
604000000 -0.46633989 0.19334327 -0.00088901422 -0.00087055273 -0.00056119566 -0.0010093545 -0.48098403 0.19223483
605000000 -0.4653753 0.19392945 -0.00065282686 -0.0012268428 -0.0012327865 -0.00055136014 -0.48124081 0.19107085
606000000 -0.46661702 0.19296868 -0.00096901419 -0.001433869 -0.00083668617 -0.00019177492 -0.48028889 0.19177173
607000000 -0.46636981 0.19410697 -0.0010561249 -0.0011324277 -0.00022004616 -0.0011583479 -0.48099849 0.19259553
608000000 -0.46600813 0.19397396 -0.00078407431 -0.00058229594 -0.00072563253 -0.00079142582 -0.48078981 0.19253738
609000000 -0.4657194 0.19494973 -0.0011667514 -0.00092321949 -0.0016216328 -0.0011550557 -0.48122114 0.19283053
610000000 -0.46607029 0.19523114 -0.0010821191 -0.00094892224 -0.000523436 -0.00062320032 -0.48024222 0.19295885
611000000 -0.46481156 0.1951039 -0.00042690005 -0.0014385007 -0.00080014602 -0.00075750053 -0.47997338 0.19327688
612000000 -0.46572277 0.19627744 -0.0008831296 -0.00099953113 -0.00075652305 -0.00066598487 -0.47993889 0.19334
613000000 -0.46467131 0.19625647 -0.00058026047 -0.00085560099 -0.00073288678 8.120804e-005 -0.47970492 0.19434167
614000000 -0.46516436 0.19717678 -0.0011688335 -0.00053432031 -3.5118475e-005 -0.00070859538 -0.48061469 0.19521701
615000000 -0.46560025 0.1973709 -0.00086193479 -0.00091103476 -0.00032172672 -0.0011029131 -0.47976217 0.19412242
616000000 -0.46436605 0.19716835 -0.00063108036 -0.0010083021 -0.00051479484 -0.00054915773 -0.48014256 0.19477516
617000000 -0.4644509 0.19738257 -0.00012483419 -0.0016381341 -2.760096e-005 -0.0012385587 -0.47976241 0.19508632
618000000 -0.46555421 0.19840619 -0.00080225593 -0.0012404658 -0.00092048291 -0.00095512014 -0.47938368 0.19607753
619000000 -0.4642238 0.19941455 -0.00033755711 -0.00086021691 -0.0011124163 -0.00049272191 -0.47889471 0.19644287
620000000 -0.46481776 0.199899 0.00019766115 -0.0013236739 -0.0013795194 -0.0011606649 -0.48005581 0.19664314
621000000 -0.46450666 0.20001282 -0.00032005881 -0.00089634146 -0.0013500719 -0.0015154043 -0.47913656 0.19696581
622000000 -0.46484724 0.1992034 -0.00071036036 -0.00059131358 -0.00067560223 -0.00092289393 -0.4799211 0.19793195
623000000 -0.46338665 0.19996108 -0.00053199491 -0.0013580928 -0.001241878 -0.001634715 -0.47894928 0.19745818
624000000 -0.4652257 0.19973686 -0.0012187919 -0.0010633087 -0.0015024397 -0.00080940413 -0.47829276 0.19762692
625000000 -0.46296698 0.20088737 -0.00079323753 -0.0014611186 -0.0014089381 -0.00136352 -0.47895762 0.19703703
626000000 -0.46454069 0.2013054 -0.00085297116 -0.0010015483 -4.9823087e-005 -0.00060259848 -0.47848427 0.19738875
627000000 -0.46370551 0.20059459 -0.00026767413 -0.0010699534 -0.00067892938 -0.0010606523 -0.47959605 0.19876833
628000000 -0.4631924 0.20092589 -0.0011289038 -0.00061442406 -0.001265524 -0.0014399057 -0.47781923 0.19865325
629000000 -0.46288925 0.20205055 -0.0011775653 -0.00066345895 0.00015801385 -0.00086247694 -0.47843063 0.20010284
630000000 -0.46355149 0.20231831 -0.0010872547 -0.0016875763 -0.0013692561 -0.0010213164 -0.47891316 0.19989361
631000000 -0.46352655 0.20317495 5.9251585e-007 -0.0011687567 -0.00076907198 -0.00063397537 -0.47874862 0.19996068
632000000 -0.46286401 0.20319453 -0.0010563087 -0.00059968553 -0.00076971384 -0.00058236404 -0.47768527 0.20040439
633000000 -0.46349213 0.20358755 -0.00035802482 -0.00074892363 -0.00072925421 -0.0012206512 -0.47915605 0.20062797
634000000 -0.4634093 0.2045214 -0.00088953867 -0.00076736184 -0.00092551863 -0.00072369387 -0.47803226 0.20060056
635000000 -0.4628126 0.20396575 -0.0016505951 -0.0016616029 -0.0011840897 -0.0010842783 -0.47752681 0.20161724
636000000 -0.46281797 0.2045394 -0.0014205044 -0.00034005346 -0.00069210882 -0.00031824972 -0.4781585 0.20177178
637000000 -0.46176538 0.20421863 -0.00068624422 -0.00088695629 -0.0014726514 -0.0012281237 -0.47769552 0.20229438
638000000 -0.46249154 0.20586017 -0.0015849542 -0.0016005809 -0.0011856355 -0.00064897293 -0.47796464 0.20199372
639000000 -0.46234417 0.20584892 -0.00051034754 -0.00021224812 -0.0008955177 -0.00074673141 -0.47710735 0.2027428
640000000 -0.46244618 0.20671618 -0.00024420791 -0.00072812132 -0.00070562365 -0.00057004998 -0.47640306 0.20264544
641000000 -0.46185225 0.20744608 -0.00098676479 -0.0011591722 -0.0013383466 -0.0010846973 -0.47676334 0.20368467
642000000 -0.46227866 0.20636022 -0.0012707706 -0.00093595369 -0.0013237889 -0.0011492837 -0.47761843 0.2034725
643000000 -0.46159461 0.20716901 -0.00095672836 -0.0011886553 -0.0013214404 -0.0015159069 -0.47761267 0.20396566
644000000 -0.46203274 0.20693082 -0.00089864706 -0.0009654095 -0.0015183524 -0.00089405157 -0.47763705 0.2041565
645000000 -0.46186283 0.20714727 -0.00071158714 -0.00067230884 -0.0012958681 -0.00027151222 -0.47754326 0.20484436
646000000 -0.46212837 0.20831563 -0.00082888297 -0.0014671407 -0.0010026001 -0.0011432883 -0.47715718 0.20526445
647000000 -0.46152559 0.20788196 -0.0012636923 -0.00068468502 -0.00052976923 -0.0011627859 -0.47701466 0.2048427
648000000 -0.46146554 0.20879766 -0.001283261 -0.0010362394 -0.00090852845 -0.0013105827 -0.47540942 0.20493224
649000000 -0.46192652 0.20842348 -0.00039242659 -0.001341262 -0.001130207 -0.00086145999 -0.47583854 0.20627721
650000000 -0.4618642 0.20910698 -0.0012505107 -0.0010519258 -0.0011579178 -0.00094773306 -0.47600159 0.20589095
651000000 -0.46234423 0.20889895 -0.0013544088 -0.0016877706 -0.0012230139 -0.0014052138 -0.47720909 0.20619799
652000000 -0.46096259 0.21032062 -0.00096332707 -0.0011915755 -0.00088904193 -0.0015721531 -0.47599801 0.20626788
653000000 -0.46105307 0.20951597 -0.00072130136 -0.0016742049 -0.0013463108 -0.00011472338 -0.47604859 0.2067066
654000000 -0.46074212 0.21047802 -0.0011247855 -0.00053506269 -0.0010511735 -0.0011137108 -0.47604591 0.20672442
655000000 -0.46113914 0.21079575 -0.00090476259 -0.0018578902 -0.001470512 -0.00062511687 -0.47534043 0.20760243
656000000 -0.46099874 0.21131983 -0.0008770288 -0.0013901534 -0.0003503747 -0.0012915739 -0.47613165 0.20746414
657000000 -0.46124303 0.21140425 -0.00069226569 -0.00037593505 -0.0011288978 -0.0019541737 -0.47509962 0.20884213
658000000 -0.46080443 0.21237892 -0.0013425592 -0.00095708086 -0.00028683324 -0.0012129408 -0.47587529 0.20816912
659000000 -0.46007684 0.21246606 -0.00023231607 -0.0012991212 -0.0011094137 -0.00056946056 -0.47575873 0.20869702
660000000 -0.4609639 0.21317135 -0.00094907702 -0.0011325713 -0.00089498196 -0.0010586889 -0.4744029 0.20846471
661000000 -0.46050626 0.21289143 -0.0007579074 -0.00080550974 -0.00044391886 -0.0011572817 -0.47532651 0.21000423
662000000 -0.46049288 0.21270306 -0.0010182073 -0.0010497428 -0.0016098325 -0.001305578 -0.47559965 0.21003567
663000000 -0.45977733 0.21256413 -0.0015883219 -0.00091516273 -0.00026532984 -0.0013166593 -0.47492781 0.21002391
664000000 -0.46039352 0.21491453 -0.00077702536 -0.00010214753 -0.0011348418 -0.00061390933 -0.47480452 0.21014324
665000000 -0.45944446 0.21383776 -0.00087143376 -0.00078673637 -0.0012366964 -0.00063543097 -0.47453558 0.21086401
666000000 -0.4600879 0.21440162 -0.00093881367 -0.00082790735 -0.00094313931 -0.0014534798 -0.47451907 0.21216661
667000000 -0.45958227 0.21486373 -0.0015907059 -0.0012913471 -0.0013100839 -0.00044438674 -0.475501 0.2118669
668000000 -0.4595173 0.21406944 -0.0010282425 -0.0013414205 -0.00089740579 -0.00057973096 -0.47484002 0.21159798
669000000 -0.46078601 0.21516325 -0.00099987397 -0.00068342325 -0.0008054467 -0.0011902004 -0.47368684 0.21169494
670000000 -0.46006754 0.21504644 -0.0011493382 -0.00061788486 -0.0010615252 -0.0010687242 -0.47399873 0.21244261
671000000 -0.46026435 0.21537763 -0.00045086947 -0.0014885224 -0.00097030122 -0.0011054025 -0.47446275 0.21281561
672000000 -0.45866174 0.2151102 -0.0012535703 -0.00075809797 -0.0010146173 -0.0013815884 -0.47381967 0.21286179
