!Keysight Technologies,M9374A,MY55442783,A.12.55.05
!Date: Thursday, May 20, 2021 16:07:11
!Correction: S11(Full 2 Port(1,2)) 
!S21(Full 2 Port(1,2)) 
!S12(Full 2 Port(1,2)) 
!S22(Full 2 Port(1,2)) 
!S2P File: Measurements: S11, S21, S12, S22:
# Hz S  RI   R 50
500000000 -0.48412651 0.1321318 -0.00036103575 -0.00060186378 -0.0007274496 -0.00089320057 -0.4983519 0.1287583
501000000 -0.48451224 0.13114615 -0.00030123431 -0.00095839548 -0.00035072639 -0.00063537015 -0.49823949 0.12932613
502000000 -0.48481384 0.13115241 0.00046744852 -0.00020133867 -0.0011754277 -0.00096561149 -0.49710757 0.12869117
503000000 -0.48535094 0.1313452 -1.6077709e-005 0.00011178228 -0.0012082403 -0.00090079894 -0.49765876 0.12962411
504000000 -0.48433858 0.13146989 -0.00072046038 -0.00072460831 -0.00086069945 -0.00060479552 -0.49728101 0.12961306
505000000 -0.48375812 0.13119599 -0.00045999661 -0.0010036423 -0.00022140516 -0.0012465847 -0.49777168 0.12981334
506000000 -0.4845084 0.13228232 -0.00032772092 -0.00065946038 -0.00047774948 -0.0014057024 -0.49717975 0.13093582
507000000 -0.48337922 0.13280895 -8.7748871e-005 -0.00088249252 -1.5500558e-005 -0.00034780288 -0.49734065 0.1305002
508000000 -0.48450956 0.13258709 -0.00061394321 -0.0012704346 -0.00058600924 -0.00084813149 -0.49822444 0.13111944
509000000 -0.48400125 0.13403374 -0.00064345595 -0.0016257835 -0.0013865731 -0.00094532513 -0.49852419 0.13059577
510000000 -0.48462772 0.13440736 -0.00026432145 -0.00096243335 -3.6022626e-005 -0.00089732616 -0.4976612 0.13037477
511000000 -0.48344231 0.13471791 -0.00027853425 -0.00024980796 -0.00025747312 -0.00058034953 -0.4973456 0.13123488
512000000 -0.48442209 0.1338952 0.00014524302 -0.00079752662 -0.00070761226 0.00037211648 -0.49736997 0.13179755
513000000 -0.48438963 0.13456458 -0.00017395828 -0.0005876628 -0.00039531637 -0.0011877348 -0.49719718 0.13150273
514000000 -0.48465914 0.13475302 -0.00092824968 -0.00040007231 -0.00081300887 -0.0010324989 -0.49751127 0.13263455
515000000 -0.48326811 0.13579859 0.00022643818 -0.00089639827 -0.00074521225 -0.00097934552 -0.49763158 0.13299817
516000000 -0.48436853 0.13640638 7.3438659e-006 -0.00050629932 -0.00023309067 -0.00077319378 -0.49704853 0.13308325
517000000 -0.48401171 0.13540837 -0.0006630866 -0.00020823201 -0.0007298736 -0.00098611775 -0.49707291 0.13354261
518000000 -0.48451287 0.1358394 -0.00071675563 -0.00085948518 -0.0011675862 -0.00010723725 -0.49665371 0.13303822
519000000 -0.48320657 0.13591914 -0.00062382116 -0.00058508164 -0.00088598195 -0.00076827902 -0.49725762 0.13432471
520000000 -0.48365617 0.13568009 -0.00085791014 -0.00096121896 -0.00080272084 -0.00078198343 -0.49677399 0.13412996
521000000 -0.48365769 0.13608299 -0.00099599769 -0.00069517846 -0.0010184103 -0.0014968765 -0.49662063 0.13482301
522000000 -0.48328775 0.13647239 -0.0012076342 -0.0010522666 -0.00012089167 -0.00088585517 -0.49608389 0.13417232
523000000 -0.48380202 0.13665836 -0.00051674905 -0.00076106592 -0.00019327589 -0.0010040756 -0.49720487 0.13546053
524000000 -0.48303461 0.13759264 -0.00040434729 -0.00057949603 -0.0014114156 -0.0012997874 -0.49691147 0.13527937
525000000 -0.48290065 0.13793908 0.00027259652 -0.0011329256 5.0374452e-005 -0.0005686488 -0.49594063 0.1355724
526000000 -0.48337641 0.13856912 -0.00068624393 -0.00059984298 -0.00017630288 -0.00062656059 -0.49623877 0.1352606
527000000 -0.48333371 0.13860983 -0.00089637184 -0.0014661324 -0.00060665229 -0.00083761016 -0.49707475 0.13564235
528000000 -0.48281667 0.13929971 -0.0001832406 -0.00094471523 -0.00018679589 -0.00096393103 -0.49658141 0.13684815
529000000 -0.48445299 0.13889316 -0.00036645876 -0.00054314535 0.00011751263 -0.0013199118 -0.49648485 0.13659453
530000000 -0.48257425 0.14028481 -0.0011984993 -0.00099892984 -0.00081076822 -0.00077404786 -0.49702805 0.13698658
531000000 -0.48259717 0.13903566 -0.00038641659 -0.0004062056 -0.00020789279 -0.0007493773 -0.4961465 0.13794614
532000000 -0.48341534 0.13883621 -0.00053512084 -0.00077571225 -0.00040752767 -0.00074241537 -0.49630895 0.13798694
533000000 -0.48308194 0.13919388 -0.0005650266 -0.00050327845 -0.00023097487 -0.00058353762 -0.49531025 0.13752858
534000000 -0.48316482 0.14038293 -0.00098839565 -0.0011885044 -0.00024377629 -0.00041766028 -0.4959088 0.13734731
535000000 -0.48327842 0.14073569 -0.00079105119 -0.00066588761 -0.0012388764 -0.00084661774 -0.49506852 0.13774399
536000000 -0.48198059 0.13964146 -0.00094918435 -0.00065196271 -0.00063699612 -0.0011930295 -0.49605355 0.13861778
537000000 -0.4825564 0.14092636 -0.00077572826 -0.00092291879 -0.00036007902 -0.00036975555 -0.49704236 0.13858426
538000000 -0.4824298 0.14001216 -0.00036611909 -0.00069633889 -0.0010989584 -0.00087623484 -0.49628028 0.13796759
539000000 -0.48244062 0.1411521 -0.00082347618 -1.586534e-005 -0.00064901478 -0.0002322028 -0.49595878 0.1392608
540000000 -0.48288539 0.14143895 -0.00098542555 -0.00049241085 -0.00059150165 -0.00096521567 -0.49545994 0.14022601
541000000 -0.48219299 0.14198187 -0.00094343669 -0.00094438292 -0.00084481662 -0.00086614554 -0.4962227 0.13967532
542000000 -0.48256931 0.14190662 -0.00036268402 -0.00037236387 -0.00080657488 -0.0008465877 -0.49674782 0.13977273
543000000 -0.48250416 0.14147666 -0.00091727526 -0.0014995286 -0.00013996048 -0.00063950691 -0.49666741 0.14070433
544000000 -0.48275557 0.14187296 2.6657541e-005 -0.0014102765 -0.00091968506 -0.0015584447 -0.49623552 0.14039519
545000000 -0.48244596 0.14209262 -0.00071197574 -0.00049153244 -0.0004679276 0.00013496543 -0.49553508 0.14110661
546000000 -0.4816663 0.14230055 -0.0009022181 -0.00076857506 -4.0093702e-005 -0.00038455907 -0.49590293 0.14097081
547000000 -0.48226961 0.14304261 -0.00073759333 -6.3461339e-005 -0.0011941914 -0.00043724125 -0.49626485 0.14098433
548000000 -0.48287079 0.14310367 -0.00077894336 -0.001602106 -0.00010732825 -0.0006435517 -0.49602383 0.14152727
549000000 -0.48272189 0.14347644 -0.00082519429 -0.0013326079 -0.00045332056 -0.00052447582 -0.49643826 0.14198497
550000000 -0.48309296 0.14296518 0.00020660168 -0.0013529793 -0.00079284137 -0.0015384562 -0.49556386 0.14189629
551000000 -0.48244351 0.14270818 -0.00022898799 -0.00026413432 -0.00052659004 -0.000792187 -0.49556443 0.14194842
552000000 -0.48202622 0.14384466 -0.00094997563 -0.00069916347 -0.00041685099 -0.0011995136 -0.49612093 0.14232408
553000000 -0.482301 0.14441289 -0.00036047745 -0.00091146812 -0.00049173331 -0.00084503478 -0.49611545 0.14115852
554000000 -0.48278943 0.14460771 -0.00019050878 -0.0010251066 -0.00044924283 -0.00098476524 -0.49526376 0.14212155
555000000 -0.48155096 0.14442176 -0.00051696133 -0.00078357675 -0.00066088914 -0.00034802392 -0.49578002 0.14369729
556000000 -0.48179144 0.14397357 -0.00093670591 -0.00083864538 7.5587977e-006 -0.0010220894 -0.49496889 0.14281179
557000000 -0.4816452 0.14492981 0.00012923211 -0.0013721478 -0.00027439659 -0.0014472313 -0.49621508 0.14297916
558000000 -0.48146066 0.14460509 -0.00076584832 -0.001308945 -0.00025829757 -0.00058255513 -0.49534395 0.14297011
559000000 -0.48022375 0.14520606 -0.00064473582 -0.0005027994 -0.00028120156 -0.00067445828 -0.49639463 0.14420053
560000000 -0.48166761 0.14578798 -0.0015759696 -0.00065969059 -0.00093787134 -0.00087638391 -0.49507087 0.14423469
561000000 -0.48138863 0.14530882 -0.0008029177 -0.00068645098 -0.00054068968 -0.00075908797 -0.49548918 0.14462653
562000000 -0.48127538 0.14600115 -0.00016897036 -0.0013009994 -0.0011233194 -0.0013788734 -0.49588597 0.14517014
563000000 -0.48075846 0.14571379 -0.00010434891 -0.00090512919 -0.00077381224 1.7866523e-005 -0.49611223 0.14484932
564000000 -0.48117754 0.14635777 -0.00032091702 -0.00063918339 0.00032687112 -0.00083784445 -0.4950079 0.14484215
565000000 -0.48151389 0.14603788 -0.00035001998 -0.00059283723 -8.4132131e-005 -0.000968265 -0.49601412 0.14550844
566000000 -0.48133814 0.14699881 -0.00019693382 -0.00071797159 -0.00029154285 -0.0010315656 -0.4957405 0.14528435
567000000 -0.48220441 0.1466212 -0.00061222591 -0.0010070865 -0.00099924242 -0.00022511774 -0.49421424 0.14523828
568000000 -0.48077738 0.14769936 -0.00048758838 -0.00039119087 -0.00067683519 -0.00024858071 -0.49517864 0.14465922
569000000 -0.48111662 0.14798063 -0.00044908639 -0.0012473267 -0.0006061403 -0.00049747695 -0.49513313 0.14599226
570000000 -0.48120332 0.14781356 -0.00090995053 -0.00063096592 -0.00078115956 -0.00067494425 -0.49534974 0.14613938
571000000 -0.48007095 0.14777474 -0.0013845055 -0.0010663985 -0.00028074341 -0.00087548885 -0.4949649 0.14680725
572000000 -0.48093131 0.1468605 -0.00053538446 -0.00089054205 -0.00047738521 -0.00048854039 -0.49445662 0.14699201
573000000 -0.48056552 0.14826454 -0.00039737867 -0.00078477524 -0.0010607264 -0.00067157298 -0.49464867 0.14638358
574000000 -0.48014724 0.14726907 -0.00039953494 -0.0013385894 -0.00062552333 -0.00072681223 -0.49439183 0.14612231
575000000 -0.48009336 0.1481602 -0.00069061789 -0.0010509327 -0.000244736 -0.00035706768 -0.49504092 0.14743048
576000000 -0.47955623 0.14849672 -0.00057173125 -0.0011546761 -0.00040818326 -0.00095427368 -0.49481252 0.14804865
577000000 -0.47993666 0.14930305 -0.00027543036 -0.00088226947 -0.00017059976 -0.00079078868 -0.4948259 0.14749794
578000000 -0.48135817 0.14949983 -0.00018744846 -0.00098357501 -0.00099816534 -0.00083657744 -0.49434963 0.14764063
579000000 -0.47991437 0.14934267 -0.00041718211 -0.00028453724 0.00014731957 -0.00050445501 -0.49432516 0.14924127
580000000 -0.48054087 0.15055089 -0.00099729281 -0.00053523236 -0.00085078989 -0.0015031556 -0.49347636 0.14821661
581000000 -0.47932956 0.15015437 -0.0014096452 -0.0010570531 -0.00064570783 -0.0010558555 -0.49479622 0.14859009
582000000 -0.47998518 0.14999178 -0.00013813707 0.00010412522 -0.00016046524 -0.0005386594 -0.49420273 0.14810219
583000000 -0.48052174 0.1515872 -0.0010183951 -0.00091993302 -0.00052628864 -0.00032938653 -0.49470708 0.14916085
584000000 -0.47976109 0.15080206 -0.00016320829 -0.0014331723 -0.00045100381 -0.0013382136 -0.49398759 0.14951006
585000000 -0.47932485 0.15113629 -0.00035890087 -0.00063259061 -0.00056221487 -0.00079996022 -0.49392676 0.15078405
586000000 -0.47906762 0.15145107 -0.00070774619 -0.00068162067 -0.00026308966 -0.0012329246 -0.49397299 0.14885014
587000000 -0.47914365 0.15201986 -0.00042367005 -0.00046690257 -0.00063147029 -0.00061028043 -0.49365565 0.14958614
588000000 -0.47965971 0.15138449 -0.0005786253 -0.00061888224 -0.00012847348 -0.0012019125 -0.49380827 0.15110768
589000000 -0.47949344 0.15186948 -0.00071963115 -0.00082183367 -0.00069213921 -0.00051044323 -0.49378395 0.15006617
590000000 -0.47863826 0.15249236 -0.0007632873 -0.00027933196 -0.00043904487 -0.00091837853 -0.49326357 0.15047559
591000000 -0.47871047 0.15299447 -0.00055422256 -0.00087762059 -0.00070746738 -0.0013586697 -0.49347293 0.15113413
592000000 -0.47825351 0.15301184 -0.0011625959 -0.0010921232 -0.0007818318 -0.00067312742 -0.4932355 0.15196438
593000000 -0.47885701 0.15288982 -0.00022973552 -0.0010752314 -0.00066545652 -0.00097659871 -0.49318504 0.15140638
594000000 -0.47856757 0.15413804 2.4501367e-005 -0.0012434146 -0.00088738749 -0.00087046542 -0.49273968 0.15219098
595000000 -0.47838902 0.15424418 -0.0010293038 -0.00055571046 -0.00068874256 -0.0018096521 -0.49339956 0.15163858
596000000 -0.47920221 0.15388024 -0.00048783745 -0.001151383 -0.00066834845 -0.00052326737 -0.4930737 0.15263641
597000000 -0.4787789 0.15482692 -0.00012636752 -0.0010336185 -0.00048128623 0.00012648493 -0.49318188 0.15180792
598000000 -0.47851366 0.15399902 -0.00098100083 -0.00081366539 -0.0007980084 0.00028503424 -0.49340057 0.15290536
599000000 -0.47876963 0.15468532 -0.00034937108 -0.00050704612 -0.0011781101 -0.001767845 -0.49307171 0.15326966
600000000 -0.47723687 0.15469944 -0.0009727322 -0.0017833599 -0.00053468219 -0.0011894318 -0.49188456 0.15368351
601000000 -0.47780147 0.15552676 -0.00012663564 -0.0011860289 -0.00022775274 -0.00024270228 -0.49227244 0.15329759
602000000 -0.47800067 0.15635696 -8.8907153e-005 -0.00058912724 -0.00084140903 -0.0011726582 -0.49290609 0.15447177
603000000 -0.47770303 0.15678349 -0.0011630929 -0.0012768735 -0.00041604892 -0.0014447371 -0.49230212 0.15428564
604000000 -0.47816533 0.15640067 -0.00089822127 -0.0010979807 -0.0010262082 -0.00083914585 -0.49162278 0.15515658
605000000 -0.4771927 0.15692969 -0.00029519876 -0.00063111918 -0.00064677477 -0.00081886793 -0.49277759 0.15508738
606000000 -0.47723666 0.15606499 0.00032595638 -0.0010709207 -0.00086089678 -0.0011365315 -0.49222657 0.1545321
607000000 -0.47756955 0.15733004 -0.0010816905 -0.0012944178 -0.0012586727 -0.00020690871 -0.4913103 0.15453725
608000000 -0.47723058 0.1580437 -0.00098758843 -0.0014140898 -0.00091869186 -0.00074514328 -0.49163041 0.15529093
609000000 -0.47676474 0.15780626 -0.00072850712 -0.000867653 -0.001443278 -0.0013890031 -0.49176303 0.15571004
610000000 -0.47707567 0.15738836 -0.00016332927 -0.0010576597 -0.001442357 -0.0010245349 -0.49201924 0.15599307
611000000 -0.47659847 0.15830386 -8.072739e-005 -0.00076127436 -0.00099544425 -0.00071323168 -0.49149632 0.15617502
612000000 -0.47698116 0.15856503 -0.00044751182 -0.00049066119 -0.00039172388 -9.111056e-005 -0.49176151 0.15692128
613000000 -0.47702301 0.15879586 -0.00051841559 -0.0013745868 0.00037331317 -0.00064559304 -0.49158508 0.15670438
614000000 -0.47682974 0.16027632 -0.00055988232 -0.00076096953 -0.00075810985 -0.00078591023 -0.49086809 0.15857209
615000000 -0.47776541 0.15908001 -0.0012120119 -0.0013654124 -0.00015387424 -0.00081547169 -0.49122676 0.15774129
616000000 -0.4771314 0.16003773 -0.00015170836 -0.001346185 -0.0010813888 -0.00103489 -0.49185029 0.15805162
617000000 -0.47589064 0.16080576 -1.0225166e-005 -0.00012580532 -0.00027259384 -0.00060376374 -0.49174589 0.15859681
618000000 -0.47703943 0.1607375 -0.0011044894 -0.0010996739 -0.0013645081 -0.0011468662 -0.49088421 0.1583302
619000000 -0.47626248 0.16057338 -0.00072105863 -0.0014069334 -0.00079134334 -0.00092595525 -0.49046153 0.15824391
620000000 -0.47659346 0.16250336 -0.00010032194 -0.0011105614 -0.00049534714 -0.00092624518 -0.49150163 0.15872301
621000000 -0.47583571 0.16167766 -0.00065792166 -0.00052915968 -0.0009788468 -0.00074940466 -0.49109817 0.15856184
622000000 -0.4766399 0.16096878 -0.000775931 -0.0007442467 -0.00059316156 -0.00074932311 -0.49080527 0.15883341
623000000 -0.47614163 0.16289796 -0.00034882198 -0.00064593874 -6.9581445e-005 -0.00076569756 -0.49023914 0.15913835
624000000 -0.47634166 0.16197698 -0.00046049169 -0.00062921416 -0.00027674073 -0.00063652953 -0.4902325 0.15968141
625000000 -0.47610742 0.1634842 -0.00059337355 -0.0012053563 -0.00099570933 -0.00098359014 -0.48987162 0.1600744
626000000 -0.47540727 0.1623646 -0.00035433337 -0.001017518 -0.00040668951 -0.00077768543 -0.4902254 0.16035661
627000000 -0.47535011 0.16286767 -0.00078843493 -0.00066653738 -0.00066993874 -0.00060813408 -0.49080148 0.16020954
628000000 -0.47631848 0.16282833 -0.0010706622 -0.001370793 -0.00038460887 -0.0011915464 -0.49106577 0.16002291
629000000 -0.47414604 0.16472219 -0.001244294 0.00018503067 -0.00071550539 -0.00082883722 -0.49047652 0.16157191
630000000 -0.47453573 0.16439997 -0.0005551214 -0.00097897078 -0.00084858719 -0.0010119907 -0.49071148 0.16184615
631000000 -0.47604588 0.16383485 -0.00092249829 -0.00054523774 -0.0014796444 -0.00083758746 -0.49083805 0.16171485
632000000 -0.47523874 0.16559677 -0.00097725447 -0.00065035908 -0.00058548513 -0.00054025406 -0.49067354 0.16104639
633000000 -0.47517714 0.16536534 -1.3352077e-005 -0.0010322292 -0.00085558108 -0.00081842585 -0.49090096 0.16134091
634000000 -0.47578415 0.16556707 -0.00055370998 -0.001041377 -0.0002487704 -0.00067374745 -0.49021184 0.16182473
635000000 -0.47501141 0.16557652 -0.00081648625 -0.0015497109 -0.00071835099 -0.00046974985 -0.48972836 0.16198543
636000000 -0.47463316 0.16588822 -8.1647093e-005 -0.00080641278 -0.0016373259 -0.00033386171 -0.48917741 0.16248567
637000000 -0.47535715 0.16582489 -0.0011253565 -0.0013546637 -0.00051146996 -0.00094329059 -0.48957402 0.16285692
638000000 -0.47510466 0.16745077 -0.0010389745 -0.0010910735 -0.00010796401 -0.0010225666 -0.48937958 0.16402502
639000000 -0.47499099 0.16688655 -0.00060593034 -0.00016887349 -0.0011943445 -0.00096128992 -0.48976466 0.16340283
640000000 -0.47497442 0.1672339 -0.00083997753 -0.00062491343 -0.00068176357 -0.0016577992 -0.48935598 0.16371992
641000000 -0.47470579 0.16803947 -0.00055758032 -0.00058701716 -0.0010837783 -0.00066285679 -0.48949924 0.16349363
642000000 -0.47509661 0.16727912 -0.00058644486 -0.0011581496 -0.00026435705 -0.0010313385 -0.49013925 0.16413236
643000000 -0.47519538 0.16809176 -0.00058444665 -0.00053890515 -0.00144353 -0.0004128479 -0.48967549 0.16427882
644000000 -0.47443166 0.16754936 -0.0011708399 -0.0015001057 -0.0015808366 -0.0018277135 -0.48953339 0.16502872
645000000 -0.4756932 0.16861762 -0.00077673094 -0.0012660339 0.00012547034 -0.00092304568 -0.48952141 0.16506851
646000000 -0.47444555 0.16845413 -0.00064199354 -0.00089914858 -0.00038272567 -0.0010679382 -0.48999435 0.16396457
647000000 -0.47475901 0.16940098 -0.0010505475 -0.0010070658 -0.001240603 -0.0012880686 -0.49028027 0.16574453
648000000 -0.47512719 0.1685186 -0.00046972846 -0.0015186946 -0.00057623058 -0.0010555796 -0.489216 0.16483629
649000000 -0.47511992 0.16928211 -0.00036842655 -0.0011836692 -0.00096613594 -0.00022825257 -0.48955843 0.16633299
650000000 -0.4735958 0.16911517 -0.00038208795 -0.0009567652 -0.00091212388 -0.00079799531 -0.48819879 0.1661551
651000000 -0.47453043 0.16926044 -0.00050369633 -0.0015304579 -0.00072957022 -0.00097085792 -0.48977774 0.16595848
652000000 -0.47392696 0.17060833 -0.00055207353 -0.0001612015 -0.00098386768 -0.00053680339 -0.48907322 0.16590552
653000000 -0.47428447 0.17108583 -0.00057640142 -0.0008854522 -0.00053310831 -0.0010087955 -0.48849609 0.16503906
654000000 -0.47408351 0.17008249 -0.00055338582 -0.00101673 -0.0008219172 -0.0014000838 -0.48840535 0.16693151
655000000 -0.47451532 0.17090429 -0.00093940936 -0.00072470406 -9.3041053e-005 -0.0011041621 -0.4891082 0.1668414
656000000 -0.47360235 0.17086276 -0.0011501884 -0.00095344713 -0.00073583383 -0.00068920158 -0.48821202 0.16746736
657000000 -0.4744271 0.17109506 -0.00060625421 -0.00071555411 -0.00020867366 -0.0014118864 -0.48886785 0.16739564
658000000 -0.47459128 0.17212845 -0.00045774746 -0.00098304672 -0.0012476221 -0.0012880416 -0.48847821 0.16702807
659000000 -0.47423857 0.17162615 0.00024123785 -0.00095947634 2.0905725e-005 -0.0013497414 -0.48900157 0.16865744
660000000 -0.47301158 0.17207851 -0.00075651536 -0.00056949694 -4.2481923e-005 -0.00079639925 -0.48897377 0.16814357
661000000 -0.47470003 0.17201014 -0.00080272276 -0.0014348761 -0.0011887323 -0.00058231526 -0.4886556 0.16837041
662000000 -0.47416553 0.17178625 -5.9947419e-005 -0.00086113333 -0.0007267074 -0.0012214008 -0.4894174 0.16935365
663000000 -0.47546995 0.17219524 -0.0011810681 -0.00025857522 -0.00022075002 -0.00091722672 -0.48829076 0.16858147
664000000 -0.4744679 0.1722353 -0.00055442756 -0.00099188194 -0.0010928344 -0.00087929214 -0.48768616 0.1689215
665000000 -0.47380257 0.17353076 -0.00067873456 -0.0013311061 -0.0012325885 -0.00071006233 -0.48800623 0.16913867
666000000 -0.47435895 0.17338485 -0.0010269252 -0.0012807751 -0.00081919675 -0.00056707836 -0.48881185 0.1697059
667000000 -0.47380677 0.17343587 -0.00060233421 -0.00076733407 -0.00018314028 -0.00099872774 -0.48910856 0.16997555
668000000 -0.47382733 0.17403944 -0.00087018957 -0.00080088119 -0.0009496992 -0.00067994941 -0.48790097 0.16921332
669000000 -0.47370741 0.17363681 -0.00089426083 -0.0012162899 -0.00032603915 -0.0015184623 -0.48820138 0.1702832
670000000 -0.47256038 0.17461145 -0.0010409659 -0.0005871412 -0.00069307222 -0.00092892768 -0.48811674 0.17053376
671000000 -0.47350597 0.17395656 -0.00073933892 -0.0016057718 -0.00055002188 -0.00090589887 -0.48775479 0.17084745
