!Keysight Technologies,M9374A,MY55442783,A.12.55.05
!Date: Thursday, May 20, 2021 15:51:12
!Correction: S11(Full 2 Port(1,2)) 
!S21(Full 2 Port(1,2)) 
!S12(Full 2 Port(1,2)) 
!S22(Full 2 Port(1,2)) 
!S2P File: Measurements: S11, S21, S12, S22:
# Hz S  RI   R 50
500000000 -0.48470578 0.13348538 -0.00079355133 -0.0006808727 -0.00043387193 -0.00095463503 -0.4981249 0.13072895
501000000 -0.4845815 0.13436297 -0.00047963054 -0.00056157354 -0.00089404039 -0.00055240531 -0.49720091 0.13064948
502000000 -0.48483521 0.1339208 0.00033980311 -0.00059341855 -0.00053298735 -0.00030260114 -0.49736974 0.13176028
503000000 -0.48489976 0.13349642 -0.00073686603 -0.00057060149 -0.00043193134 -0.00022397075 -0.49761054 0.1324943
504000000 -0.4839659 0.13489296 -0.0005642334 -0.00089026632 -0.00051651103 -0.001389739 -0.49702191 0.1319961
505000000 -0.48428279 0.13428639 -0.00017038076 -0.00093352463 -0.0007877638 -0.00084618048 -0.49720418 0.13228714
506000000 -0.48395309 0.13584715 -0.00088645227 -0.0007107486 -0.00039429739 -0.0010597542 -0.49663168 0.13255478
507000000 -0.48398206 0.13528425 -0.00053851178 -0.00093942543 -0.00057229691 -0.00076449494 -0.49606737 0.13331664
508000000 -0.48404115 0.13638841 -0.00025391576 -0.00035100471 -0.00021651729 -0.0019151658 -0.49751887 0.13439423
509000000 -0.48344174 0.13564999 -0.00057373039 -0.0011562138 0.00011401674 -0.00021974104 -0.49734551 0.13354175
510000000 -0.48416048 0.13613889 -0.0010667691 -0.00026263273 -0.00068948697 -0.00072856637 -0.4967449 0.13399874
511000000 -0.48374498 0.13734059 -0.0011202813 -0.0004933296 -0.00091232127 -0.00058370194 -0.49704245 0.13432939
512000000 -0.48377612 0.13650204 -0.00035155294 -0.00080468424 -0.0012928232 -0.0015081291 -0.4959847 0.13501216
513000000 -0.48343742 0.1373156 -0.00018710759 -0.00025715606 -0.00072581304 -0.00027739123 -0.49655157 0.13454263
514000000 -0.48357671 0.13744082 -0.00050515239 -0.00080822746 -0.00058823806 -0.0011655407 -0.49746412 0.13550496
515000000 -0.48314306 0.13791412 -0.00095964625 -0.0011396772 -0.00050561858 -0.0010710425 -0.49711901 0.13523667
516000000 -0.4827148 0.13787933 -0.0004320452 -0.00032212466 -0.0010134525 -0.0010501262 -0.49679044 0.13654539
517000000 -0.48259449 0.13870157 -0.00047330477 -0.00084763445 -0.00059470057 -0.00050747528 -0.49647212 0.13645704
518000000 -0.48281878 0.13918759 -0.00022983241 -0.00031686746 -0.0011876319 -0.0011293478 -0.49750432 0.13611183
519000000 -0.48320898 0.13876496 -0.00050755218 -0.00044773496 -0.00025050709 -0.00073887542 -0.49611658 0.13592489
520000000 -0.48325381 0.13883831 -0.00052761374 -0.00011028634 -0.0013805501 -0.00056440633 -0.49627337 0.13617383
521000000 -0.48275882 0.13988622 -0.00066320971 -0.0010718424 -0.00042402733 -0.00058675034 -0.49660537 0.13744171
522000000 -0.48343602 0.1393289 -0.00092046155 -0.00047927169 -0.0010340963 -0.0012337519 -0.4961082 0.13766426
523000000 -0.48352361 0.13890284 -0.00019971454 -0.0011847882 -0.00055167201 -0.00054027746 -0.49615493 0.13735205
524000000 -0.48242044 0.13927792 -0.00024822576 -0.00093903398 6.5222164e-005 -0.0010068908 -0.49675518 0.13861443
525000000 -0.48268169 0.13961488 -0.00063130975 -0.001250484 -0.00064539385 -0.00086675334 -0.4956325 0.13816145
526000000 -0.48306549 0.14088783 -0.001158403 -0.0006127443 3.938509e-005 -0.00099430268 -0.49540609 0.13862933
527000000 -0.48237479 0.14055713 -0.00065679726 -0.0011377622 -0.00077337073 -0.00091669842 -0.49625674 0.13924424
528000000 -0.48271081 0.1421207 -0.00074690662 -0.000569703 0.00022115765 -0.00073530764 -0.49555075 0.13966644
529000000 -0.48380372 0.14212351 -0.00044935688 -0.0013550106 0.00057280576 -0.00044383795 -0.49614239 0.13934863
530000000 -0.48177394 0.14210649 -0.00059516641 -0.001255631 -0.001094298 -0.00019116377 -0.49550676 0.13941368
531000000 -0.48312378 0.1414402 -0.00099003629 -0.0016765274 -0.00079616811 -0.00050486077 -0.49622822 0.14006869
532000000 -0.4836202 0.14284673 -0.0010753475 -0.00080140942 -0.0013651771 -0.0012079492 -0.49566537 0.13954397
533000000 -0.48271769 0.14184031 -0.00015600215 -0.0010947448 -0.00073362555 -0.0009800588 -0.4953019 0.14069362
534000000 -0.4823426 0.14313261 -0.00030476684 -0.00032915239 -0.00060210685 -0.00040283572 -0.49617302 0.14067724
535000000 -0.48266366 0.14291383 -0.00063244713 -0.001396289 -0.00054804253 -0.00085475662 -0.49494714 0.14040136
536000000 -0.48185992 0.14334075 -0.00074619969 -0.0014794526 -0.00075053953 -0.00061828474 -0.49560004 0.14095992
537000000 -0.48312774 0.14439464 -0.0010056761 -0.00095531711 -0.0013307922 -0.00040114671 -0.4957723 0.14113031
538000000 -0.48246387 0.14385612 -9.5367788e-005 -0.00044871162 -0.00075308804 -0.00092222815 -0.49483827 0.14228158
539000000 -0.48218223 0.14388457 -0.00063037872 -0.0010746521 -0.00070010626 -0.00091720675 -0.49530849 0.14195313
540000000 -0.4830417 0.14393923 -0.0011364244 -0.00073345081 -0.00059983233 -0.00086531561 -0.49516892 0.14195135
541000000 -0.4813292 0.14529888 -0.00020701297 -0.0014055334 -0.00098921161 -0.0016539585 -0.49516445 0.14280212
542000000 -0.48228166 0.14448722 -0.00026691705 -0.00094441196 -0.00094754435 -0.00065342669 -0.49579847 0.14347118
543000000 -0.48162299 0.1444381 -0.00061030389 -0.0014448746 -0.00066948816 -0.00059763144 -0.49518687 0.14302741
544000000 -0.4817895 0.14536718 -0.00057133992 -0.00052078796 -0.00050362293 -0.00017102585 -0.49457908 0.14326303
545000000 -0.48151135 0.14583696 -0.00059567421 -0.00086875452 -0.00067051995 -0.0003714741 -0.49452326 0.14250737
546000000 -0.48184413 0.1451851 -0.00022826873 -0.0013987776 -0.00067476998 -0.0001728473 -0.49495575 0.14318083
547000000 -0.48120746 0.14629562 -0.00070227752 -0.0010389056 -0.00037901994 -0.001062774 -0.49543211 0.14377858
548000000 -0.48106331 0.14616224 -0.00058209628 -0.00044151244 0.00015889778 -0.0012080353 -0.4954159 0.14394125
549000000 -0.48082507 0.14700229 6.631713e-005 -0.00075971452 -3.9499912e-005 -0.00072945398 -0.49497038 0.14441539
550000000 -0.48161083 0.1460018 -0.00011996787 -0.00086369296 -0.00099290744 -0.00065500586 -0.49530667 0.14463818
551000000 -0.48127264 0.14681928 -0.0019936545 -0.00023858581 -0.00029464686 -0.00040723264 -0.49475116 0.14458002
552000000 -0.48164675 0.14675023 -0.00081042026 -0.0012752099 -0.00099588674 -0.001302599 -0.49469846 0.14498666
553000000 -0.48136303 0.14705713 -0.00041977278 -0.00063448428 -0.00092750159 -0.00052274513 -0.49407887 0.14508994
554000000 -0.48192316 0.14683035 -0.0010495627 -0.00021642246 -0.00017245833 -0.00074097735 -0.49485531 0.14546511
555000000 -0.48127574 0.14712347 -0.00052795699 -0.00085434824 -0.00085472886 -0.0013017042 -0.49510476 0.14567055
556000000 -0.48084942 0.14612882 -0.0010355971 -0.0007140378 -0.0009438087 -0.00094958843 -0.49559423 0.14560063
557000000 -0.48187739 0.1481798 -0.00029575932 -0.00045551531 -0.00055186957 -0.0012057874 -0.49495465 0.14569479
558000000 -0.48143199 0.14821081 -0.00028207415 -0.0010128525 -0.00059753505 -0.00035817394 -0.49451503 0.14550976
559000000 -0.48144016 0.14682811 -0.00070137455 -0.00065118377 -0.000758885 -0.00051589945 -0.49411112 0.14663883
560000000 -0.48127633 0.148551 -0.00067782705 -0.0013288842 -0.00038567657 -0.0004428575 -0.49468219 0.14706951
561000000 -0.48137075 0.14863901 -0.0010725589 -0.0012069843 -0.000755616 9.6269658e-005 -0.4954876 0.14586011
562000000 -0.48094487 0.14881673 -0.00087198056 -0.0010126453 -0.0009203839 -0.000783136 -0.49371052 0.14767447
563000000 -0.48101729 0.14942928 -0.0011189303 -0.00075638923 -0.0011874832 -7.8694466e-005 -0.49419725 0.14786689
564000000 -0.48144794 0.14892726 -0.00038768211 -0.0014683127 -0.0012456455 -0.00086586655 -0.49435854 0.14788774
565000000 -0.48086938 0.1491726 -0.0006110128 -0.00040614943 0.00012989836 -0.00073918549 -0.49430117 0.14780468
566000000 -0.48067522 0.1492078 -0.00075637439 -0.00093369978 -0.00049559592 -0.00069115445 -0.49455282 0.14734614
567000000 -0.48055395 0.14946052 -0.00013028822 -0.0016226233 -0.0012826606 -0.0007030532 -0.49441022 0.14795442
568000000 -0.48069376 0.14937925 -0.00037000907 -0.0015902689 -0.0017864392 -0.00047191503 -0.49425822 0.14813507
569000000 -0.48093686 0.14985378 -0.00059224723 -0.00092587981 -0.00038797947 -0.00094319065 -0.49506357 0.14835735
570000000 -0.47994813 0.14999653 -0.00096983486 -0.00076917157 -0.00094089948 -0.00089044066 -0.49479103 0.14939633
571000000 -0.48052415 0.15142086 -0.00097125326 -0.0009107556 -0.0006611945 -0.00082937535 -0.4942908 0.14937618
572000000 -0.4797034 0.1506962 -0.0011436853 0.00052516843 -0.00080774137 -0.0010326571 -0.49426892 0.15030901
573000000 -0.47962481 0.15142664 -0.0010948093 -0.0013374073 0.00018349969 -0.00053252833 -0.49414617 0.15012899
574000000 -0.47952443 0.15067206 -0.00053427176 -0.00089511101 -0.00040643773 -0.00083230803 -0.493357 0.1499082
575000000 -0.4795768 0.15154888 -0.00082013558 0.00032922704 -0.00040373515 -0.0005236977 -0.4942793 0.14999256
576000000 -0.47928888 0.15142258 -0.0008711734 -0.00069501111 -0.00059258711 -0.00045620883 -0.49434114 0.14959621
577000000 -0.4801124 0.15192664 -0.00061527669 -0.00080042146 -0.00088597886 -0.00049954379 -0.49430329 0.15046786
578000000 -0.47940412 0.15274367 -0.00015084445 -0.0014215701 -0.00059863122 -8.7635424e-005 -0.49301043 0.15086085
579000000 -0.47931325 0.15247932 -5.5226737e-005 -0.0014728727 -0.00066331751 -0.001226871 -0.49365163 0.15083526
580000000 -0.47889882 0.15226242 -0.0010921288 -0.00093339465 4.8364178e-005 -0.0010127028 -0.49335897 0.15138488
581000000 -0.47873086 0.15347905 0.00028371275 -0.00071058545 -0.00062816637 -0.00084061432 -0.49302354 0.15105571
582000000 -0.47928026 0.15358269 0.0002023643 -0.00053084659 -0.00084572518 -0.00094818778 -0.49369824 0.15157944
583000000 -0.47961363 0.15264933 -0.00019421778 -0.0012635419 -0.00027476434 -0.00054715329 -0.49437869 0.15174066
584000000 -0.47889748 0.15304536 -0.00056731596 -0.00037367479 -0.00040203758 -0.00044410612 -0.49262452 0.15253943
585000000 -0.47878817 0.15391096 -0.0010739693 -0.00091833301 -0.00036528343 -0.00058043306 -0.49316606 0.15319763
586000000 -0.47944215 0.15420581 -0.0006053567 -0.00082124333 -0.00042751542 -0.00069626712 -0.49387118 0.15295021
587000000 -0.47889912 0.15484385 -0.0010149328 0.00010777481 -0.00043463215 -0.0011034141 -0.49255136 0.15339811
588000000 -0.47860989 0.15492916 -0.0011153093 -0.0015199437 -0.00097647263 -0.00054533134 -0.49345753 0.15348399
589000000 -0.47912517 0.15516336 -0.00095211162 -0.00094972318 -0.00044168823 -0.00032756411 -0.49213707 0.15464185
590000000 -0.47834271 0.15563889 -0.00075475388 -0.0013597934 -0.00031793205 -0.0011630417 -0.4932144 0.15313435
591000000 -0.47843435 0.15553892 -0.00092096109 -0.00096581469 -0.00044339211 -0.00085502386 -0.49248105 0.15334892
592000000 -0.47738749 0.15642412 9.8791097e-006 -0.0008748509 -0.00090837968 -0.00023506887 -0.49271151 0.15374395
593000000 -0.47910723 0.15598415 -0.00068434211 -0.0010724691 -0.00058793637 -0.00050464534 -0.4923135 0.15354387
594000000 -0.47761875 0.15676309 -0.00049146911 -0.0015292611 -0.00094419887 -0.0010850849 -0.49255684 0.15533267
595000000 -0.478066 0.15624423 1.4672877e-005 -0.0009105794 -6.1732761e-005 -0.00097369589 -0.4925774 0.15493025
596000000 -0.47828564 0.15718901 -0.00041225829 -0.00046056524 -0.00034664548 -0.00078911259 -0.49198195 0.15527152
597000000 -0.4774814 0.15738454 0.000960292 -0.00025310123 -0.0010833738 -0.00077389891 -0.49240181 0.15490611
598000000 -0.47833863 0.15733838 -0.00096561754 -0.00059000414 -0.0008719769 -0.00077083771 -0.49298167 0.15527123
599000000 -0.47751924 0.15723151 -0.00066226232 -0.00067980704 -0.00074578711 -0.001487011 -0.49259117 0.15633832
600000000 -0.47687444 0.15889986 -0.00016257202 -0.00022230081 -0.00060291204 -0.00067933998 -0.49142 0.1558813
601000000 -0.47775248 0.15850098 -0.00096709741 -0.00080069288 -0.00063343107 -0.0010760127 -0.49231777 0.15623829
602000000 -0.47775999 0.15834868 -0.0011980748 -0.0014685726 -0.00056306907 -0.00094691082 -0.49093446 0.1571164
603000000 -0.47709215 0.15843725 -0.00029453397 -0.00033642471 -0.00061196531 -0.0014088079 -0.49251902 0.15733631
604000000 -0.47604999 0.15952733 -0.00037999154 -0.0011575141 6.2790765e-005 -0.00090640871 -0.49199438 0.15719911
605000000 -0.47650853 0.16048081 -0.0004045385 -0.00039304097 -0.0012383433 -0.00041745428 -0.49219513 0.1574925
606000000 -0.47694579 0.16006584 -0.00047704895 -0.0012353433 -0.00040268307 -0.0011512665 -0.49143308 0.15780766
607000000 -0.47662643 0.16056676 -0.0005170384 -0.0010137577 -6.9872243e-005 -2.8398517e-005 -0.49127951 0.1577054
608000000 -0.47679886 0.16082509 -0.00019944689 -0.001088216 -5.0454575e-005 -0.0005569139 -0.49032286 0.15801205
609000000 -0.4767071 0.16059369 -9.6745243e-005 -0.0016072871 -0.00080897455 -0.000931927 -0.49161962 0.15903944
610000000 -0.47692963 0.16165861 -0.0012268281 -0.0016187596 -0.00038199406 -0.0011741061 -0.49036971 0.1587774
611000000 -0.47646993 0.16104193 -0.00088059012 -0.00039070984 -0.00019689661 -0.0010441213 -0.49084833 0.15789646
612000000 -0.47641522 0.16255312 4.9776722e-006 -0.00059225457 -0.00095256476 -0.0012208779 -0.49098152 0.15967944
613000000 -0.47638232 0.16155931 -5.4052787e-005 -0.00042144733 -0.00042894101 -0.0010938001 -0.49155021 0.15923633
614000000 -0.47505632 0.16278647 -0.00045639084 -0.0017058549 -0.00050449319 -0.00080584787 -0.49152946 0.15968183
615000000 -0.47533596 0.1627489 -0.0010400699 -0.0014799618 -0.00031307386 -0.0010923488 -0.49053687 0.16070089
616000000 -0.47513568 0.16332868 -0.00080997573 -0.0014898251 -0.00073236827 -0.0010007714 -0.4903352 0.15981808
617000000 -0.47595832 0.16326568 -0.00026079701 -0.00019257228 -0.0014405553 -0.00091480819 -0.49064553 0.16130231
618000000 -0.47537351 0.16422531 -0.000797646 -0.0012638869 -0.00050693197 -0.0016353321 -0.49076089 0.16075845
619000000 -0.47544453 0.16388726 -0.00024138048 -0.0011850937 -0.00050225278 -0.00015840454 -0.49001449 0.16117823
620000000 -0.47541115 0.16509332 -0.00042978732 -0.00061372994 -0.00045870995 -0.001179648 -0.49066731 0.16075705
621000000 -0.4757632 0.16467124 -0.00078271562 -0.00099841855 -0.000382864 -0.001195512 -0.48952162 0.16227634
622000000 -0.47678393 0.1646129 -0.00085379614 -0.00061594608 -0.00083910121 -0.00053697603 -0.48999119 0.16217199
623000000 -0.47503793 0.16563724 -0.001195356 -0.00055670843 -0.00084251491 -0.00098981464 -0.49077463 0.16148601
624000000 -0.47521195 0.16490987 -0.0010817472 -0.0012492843 -0.00022561081 -0.00083182805 -0.48995084 0.16196379
625000000 -0.47444934 0.16568638 -0.00086881855 -0.00069489807 -0.00090331869 -0.0013073867 -0.4891679 0.16260152
626000000 -0.4750604 0.1660873 -0.0010354493 -0.0010384701 -0.0010318472 -0.00090014673 -0.48940909 0.16345462
627000000 -0.47453803 0.16663121 -0.00071110181 -0.0011979779 -0.00046163448 -0.00047690794 -0.49010614 0.16323631
628000000 -0.47486886 0.1672048 0.00027752641 -0.0010214774 -0.00034253817 -0.00099712494 -0.48900065 0.16341206
629000000 -0.47600207 0.16722676 -0.0010636669 2.4468467e-005 -0.00091462891 -0.0007202776 -0.48928383 0.16474701
630000000 -0.47400966 0.16679819 -0.00013908114 -0.00079803029 -0.00077984924 -0.00093010016 -0.48888814 0.1632691
631000000 -0.47488609 0.16734058 -0.0004195511 -0.0015523565 -0.00064470584 -0.00079296704 -0.48889616 0.16459902
632000000 -0.47521251 0.16780303 -0.00075137487 -0.0010647712 -0.00019621779 -0.00090164336 -0.48969427 0.1642518
633000000 -0.47570074 0.16812295 -0.0010468132 -0.0010915779 -0.00071897602 -0.0016335041 -0.48976398 0.16490938
634000000 -0.47417548 0.16861534 -0.00046924615 -0.0005082658 -0.0011158318 -0.00076556444 -0.49001232 0.16493252
635000000 -0.47469312 0.16798446 -3.5526846e-005 -0.00091472501 -0.0013773565 -0.0015597652 -0.48985067 0.16498153
636000000 -0.47430271 0.16877921 -0.0011125229 -0.00070610119 -0.00027517456 -0.0009118584 -0.48994222 0.165907
637000000 -0.47422794 0.16883381 -0.0008911303 -0.0010584006 -0.00013388712 -0.0017359274 -0.48942682 0.16557056
638000000 -0.47461736 0.17059761 -0.00032817858 -0.00089327933 0.00016190673 -0.00056734262 -0.48894605 0.1664011
639000000 -0.47546223 0.16985302 -0.00034043196 -0.00069122191 -0.00038804 -0.00037594562 -0.48936144 0.1668251
640000000 -0.47413871 0.16971095 -0.00096771342 -0.0017094654 -0.0010608069 -0.0013021015 -0.4889113 0.16659868
641000000 -0.47435257 0.16989283 -0.00071739109 -0.0010240789 -3.2339281e-005 -0.0013509861 -0.4887124 0.16665137
642000000 -0.47495195 0.16981488 -0.0011033108 -0.0011908981 -0.00064938481 -0.0006559887 -0.48964518 0.16803694
643000000 -0.47446212 0.17123197 -0.00099514995 -0.0013049422 -0.00058484782 -0.001209605 -0.48790532 0.16781881
644000000 -0.47363666 0.17048171 -0.00071783445 -0.0008281843 -0.00052812055 -0.00075568433 -0.48868874 0.16811195
645000000 -0.47362062 0.1704746 -0.00055715692 -0.0012804331 -0.00034280683 -0.0016771655 -0.48832211 0.16825598
646000000 -0.47361901 0.1720255 -0.0012092696 -0.00016110978 -0.00072184706 -0.00076129771 -0.48944426 0.16770773
647000000 -0.4734031 0.17136404 -0.00079361099 -0.0013198998 -0.00072868704 -0.0011976507 -0.48941225 0.1682003
648000000 -0.47341269 0.17209154 -0.00021072318 -0.00074618746 -0.00055167591 -0.0013035485 -0.4885177 0.16916198
649000000 -0.47386867 0.17287429 -0.00060987321 -0.00067691249 -0.00016853196 -0.00073660078 -0.48792475 0.16980281
650000000 -0.47469538 0.17291111 -0.0010192266 -0.00088655617 -0.0009344006 -0.00074367522 -0.48816547 0.16974232
651000000 -0.47357035 0.17326713 -0.00069146825 -0.00023953304 -0.00067746063 -0.00086280867 -0.48769006 0.16977422
652000000 -0.47396076 0.17275758 -0.00050330383 -0.00090544444 -0.001296081 -0.0010965776 -0.48756602 0.16878463
653000000 -0.47395095 0.1728666 -0.00038541877 -0.00093179737 -0.00033903591 -0.0004031205 -0.48843947 0.16992027
654000000 -0.47348386 0.17421661 -0.0010837538 -0.00071418105 -0.00093453896 -0.0017499957 -0.48785293 0.17037764
655000000 -0.47378376 0.17449899 -0.00097115396 -0.0011436349 -0.00070595852 -0.0015915424 -0.4879455 0.17028281
656000000 -0.47341713 0.17448927 -0.00032975696 -0.00084930571 -0.00089502032 -0.0012306601 -0.48764679 0.1698397
657000000 -0.47369707 0.17484604 -0.00094194524 -0.00092578505 -0.0006310661 -0.0010078881 -0.4879353 0.17107913
658000000 -0.47372869 0.17530009 -0.00017162536 -0.00047429302 -0.00079700828 -0.0002404129 -0.4874942 0.17021708
659000000 -0.47231147 0.17616871 0.00016049593 -0.00070091401 -0.00069407542 -0.0011582667 -0.48836252 0.17104737
660000000 -0.47330898 0.17597261 -0.0014184462 -0.0011604701 -0.00034192807 -0.0015246468 -0.48783374 0.17041047
661000000 -0.47370571 0.17580549 -0.00077792886 -0.0013474704 -0.00058294419 -0.0015835318 -0.48742163 0.17162567
662000000 -0.47301579 0.17530583 -0.0013407668 -0.0012292525 -0.00076756487 -0.001291555 -0.48746547 0.17231037
663000000 -0.47269541 0.17556261 -0.00086052064 -0.0012784031 -0.00053937954 -0.0016491367 -0.48763099 0.17173673
664000000 -0.47269192 0.17652154 -0.00096288888 -0.0007939653 -0.001227207 -0.00083206221 -0.48687977 0.17266482
665000000 -0.47299621 0.17630471 -0.00044979848 -0.00096653827 -0.0016968665 -0.0014558679 -0.48719752 0.17348039
666000000 -0.47326961 0.17706014 -0.00087249588 -0.0005536481 -0.0007316267 -0.00098354509 -0.48810735 0.17207012
667000000 -0.47336376 0.17696115 -0.001222049 -0.00091456826 -0.00077906391 -0.0010379164 -0.48649633 0.17320479
668000000 -0.47325826 0.17685334 -0.0003902457 -0.0015255252 -0.0012224896 -0.0010757684 -0.48721975 0.1731452
669000000 -0.47411552 0.17682537 -0.00051083363 -0.00096883764 -0.00078370754 -0.00017754648 -0.48721132 0.172968
670000000 -0.4726209 0.1772159 -0.00013215253 -0.0012328541 -0.0010256355 -0.00055146235 -0.4874047 0.17353036
671000000 -0.47194964 0.17777352 -0.00083017763 -0.0010939214 -0.00069692911 -0.0011891261 -0.48713407 0.17360295
672000000 -0.47268236 0.17768747 -0.00073599239 -0.00043519665 -0.0010114767 -0.00056601048 -0.48721299 0.17361371
