!Keysight Technologies,M9374A,MY55442783,A.12.55.05
!Date: Thursday, May 20, 2021 15:29:54
!Correction: S11(Full 2 Port(1,2)) 
!S21(Full 2 Port(1,2)) 
!S12(Full 2 Port(1,2)) 
!S22(Full 2 Port(1,2)) 
!S2P File: Measurements: S11, S21, S12, S22:
# Hz S  RI   R 50
500000000 -0.48130932 0.14126217 -0.00042031758 -0.0012317217 -0.00079550495 -0.001584723 -0.49551117 0.13894324
501000000 -0.48168966 0.14180826 -0.00060395093 -0.0010987811 -0.00047486214 -0.00076550408 -0.49646753 0.13815312
502000000 -0.48165768 0.14138289 -0.00071268104 -0.00099934486 -0.00081232464 -4.8519454e-005 -0.49588218 0.1396876
503000000 -0.48185366 0.14184064 -0.00031174559 -0.00034637452 -0.00097438251 -0.00072567939 -0.49535352 0.1399374
504000000 -0.48090562 0.14248177 -0.00081704976 -0.00022296472 -0.00010318816 -0.00091828516 -0.49596727 0.14025359
505000000 -0.48184144 0.14235577 -0.00045409607 -0.00021082367 -0.000687027 -0.00019205616 -0.49464867 0.13984333
506000000 -0.48138165 0.14218225 -0.00038860823 -0.0015049349 -0.00078671071 -0.00059509737 -0.49593055 0.1403299
507000000 -0.48192334 0.14271556 -0.0002859362 -0.00045563109 -0.00070941891 -0.001030892 -0.49439052 0.1415543
508000000 -0.48108092 0.14366063 -0.00038309154 -0.00064887817 -0.0012165629 -0.00026108377 -0.4947325 0.14136073
509000000 -0.48152411 0.14307325 -0.00055961346 -0.0010822371 -0.00057525042 -0.00065778213 -0.49566358 0.14179012
510000000 -0.48109213 0.14372121 -0.0012014899 -0.00099043455 -0.0006363939 4.2055133e-005 -0.49522886 0.14225797
511000000 -0.48052993 0.14493403 -0.00076605793 -0.0012463912 -0.00042589015 -0.0012920814 -0.49509788 0.14263688
512000000 -0.48182628 0.14471284 -0.0009095206 -0.00050849229 -0.0006201372 -0.0015224688 -0.49391833 0.14218083
513000000 -0.48216879 0.1443812 -0.0015099195 -0.00099149824 -0.00095925707 -0.00028955098 -0.49549326 0.14270866
514000000 -0.48114973 0.14476191 -0.00084773137 -0.000927863 -0.00036978227 -0.0010531358 -0.49412471 0.14273486
515000000 -0.48135364 0.14562686 -0.00074249157 -0.0005578355 -0.00026743428 -0.00025798441 -0.4940311 0.14314318
516000000 -0.48118779 0.14584911 -0.00026495301 -0.00050650147 -0.00013022077 -0.00076253625 -0.49551257 0.1435041
517000000 -0.47996247 0.14644037 -0.00028627878 -0.0004714898 -0.0009689384 -0.0012340215 -0.49476239 0.1445408
518000000 -0.48019335 0.14685902 -0.00089976226 -0.0012043095 -0.00094428752 -0.00038103992 -0.49422926 0.1434356
519000000 -0.48095006 0.14555968 -0.00010631185 -0.00089333672 -0.0012396013 -0.0011509964 -0.49377128 0.14374161
520000000 -0.48118466 0.14655548 -0.00013041182 -0.00064421858 -0.00023793656 -0.00045668741 -0.49456167 0.14400332
521000000 -0.48113781 0.14792489 -0.00097559748 -0.00085206027 -0.00049322663 -0.00091509626 -0.49454659 0.1457203
522000000 -0.4815942 0.14790788 -0.0007022373 -0.00084321306 -0.0013204387 -0.0013165638 -0.49343768 0.1456645
523000000 -0.48157093 0.14759541 -0.0007087267 -0.00042564102 -0.0010720952 -0.00068184925 -0.494872 0.145832
524000000 -0.48079702 0.14770333 -0.00043558088 -0.0020942336 -0.0011330148 -0.00036396872 -0.49433428 0.1458772
525000000 -0.47872671 0.1484285 -5.5911474e-005 0.00010761632 -0.00029215062 -0.00078198651 -0.4934963 0.14633541
526000000 -0.48123533 0.14899181 -0.000986133 -0.0010451924 -0.00019141637 -0.0021938123 -0.49345806 0.14660606
527000000 -0.48128745 0.14961438 -0.00089498441 -0.0010143751 -0.00059771747 -0.00068144285 -0.49429774 0.14777556
528000000 -0.4800871 0.14975356 -0.0010770708 -0.0019138549 -0.001383084 -0.00048343992 -0.49332893 0.14730351
529000000 -0.47987518 0.14944829 -0.00073268398 -0.0006608534 -0.0015637818 -0.00096428627 -0.49320221 0.14781669
530000000 -0.47989067 0.15048617 -0.00020406612 -0.00035574427 -0.0011790605 -0.00063720287 -0.49427053 0.14776146
531000000 -0.47988763 0.14953043 -0.00035250065 -0.00079715613 -0.0006786841 -0.00083731354 -0.49464655 0.14814578
532000000 -0.48068503 0.15025957 -0.00094277516 -0.00094575988 -0.00069647573 -0.00095507898 -0.49290916 0.14846629
533000000 -0.47908121 0.15056945 -0.0007013852 0.00018408947 -0.00019688134 -0.0010895903 -0.49378064 0.14783239
534000000 -0.48046973 0.1503747 -0.0010735177 -0.00033351363 -0.00018633231 -0.00021842413 -0.49407631 0.14913812
535000000 -0.47971764 0.15090628 -0.00026965735 -0.00060099229 -0.0011085161 -0.00024133689 -0.49315262 0.14861685
536000000 -0.47988328 0.15130039 -0.00077120081 -3.4644389e-005 -0.0014497098 -0.00078862591 -0.49347296 0.14906217
537000000 -0.47942063 0.15178317 -0.00048921152 -0.00095196761 -0.00027859872 -0.00083383085 -0.49413311 0.149702
538000000 -0.47932869 0.15122643 -0.00093786599 -0.00039826549 -0.00093298545 -0.00081557326 -0.49347979 0.14933102
539000000 -0.48007262 0.15200751 -0.0010226592 -0.00068882707 -0.00037163348 -0.00035894473 -0.49340978 0.15051028
540000000 -0.47955254 0.15145853 -0.00079233339 -0.00019298363 -0.0011948076 -0.0010943367 -0.49292415 0.14951448
541000000 -0.48007372 0.15250111 -0.00045586613 -0.00027762298 -0.00043077473 -0.00080056675 -0.4923175 0.15094744
542000000 -0.47952181 0.15329753 -0.00050125131 -0.00042715025 -0.00037357071 -0.00088010274 -0.49334353 0.15012161
543000000 -0.48021415 0.1532329 -0.00069402007 -0.0010030626 -0.001629352 -0.0015399188 -0.49313 0.15079384
544000000 -0.47865221 0.15305567 -0.00048958522 0.00024561235 -0.0007095951 -0.00067302748 -0.49276608 0.15130307
545000000 -0.48028997 0.15412964 -0.0011443727 -0.00062426989 -0.00088348362 -0.0013764625 -0.49269894 0.1509852
546000000 -0.47846782 0.15353671 -0.00086555991 -0.00086247997 -0.0011571524 -4.1835796e-005 -0.49349919 0.15232569
547000000 -0.48006296 0.15442637 -0.00033073736 -0.0011642396 -0.00034427459 -0.0012625583 -0.49332771 0.15267666
548000000 -0.47930396 0.15452573 -0.00045788664 -0.0012038404 -0.00035176452 -0.0012619412 -0.49312267 0.15276445
549000000 -0.47909421 0.15345465 -0.0010367708 -0.0010825273 -0.00018420127 -0.0009335918 -0.49264222 0.1529384
550000000 -0.4779883 0.15425451 -0.00058184139 -0.0014443329 -0.001605352 -0.00070785615 -0.49236748 0.15236554
551000000 -0.47826424 0.15479949 -0.0008291218 -0.00075485627 -0.0010473409 -0.0011299049 -0.49276966 0.15282202
552000000 -0.47889641 0.15454678 -0.00123707 -0.00097972574 -0.00015822193 -0.0011911893 -0.49227443 0.15353529
553000000 -0.47852504 0.15526314 0.00010310415 -0.0011786289 -0.00033767737 -0.00094669586 -0.49279061 0.15297666
554000000 -0.47964442 0.15550439 -0.00059435464 -0.00060430093 -0.0009847699 -0.00036959857 -0.49206051 0.15419833
555000000 -0.47872773 0.15605354 -0.0012629486 -0.0016979378 -0.0011960356 -0.000828018 -0.49314621 0.15333802
556000000 -0.47939333 0.15624888 -0.00085291598 -0.00092761539 -0.00073760864 -0.00034303361 -0.49314079 0.1539795
557000000 -0.47837675 0.15639149 -0.00096152211 -0.0008555036 -0.00055180653 -0.00059656496 -0.49366173 0.153512
558000000 -0.47923219 0.15633459 -0.00054418691 -0.00042535187 -0.00091952272 -0.00029133281 -0.49232233 0.15630496
559000000 -0.4783349 0.15589239 -5.5541037e-005 -0.00046898078 -0.00098879903 -0.00094341353 -0.49323329 0.15507692
560000000 -0.47789115 0.15759841 -0.00027706142 -0.0003410691 -0.0010816058 -0.00065955863 -0.49239862 0.1556989
561000000 -0.47833833 0.15713528 0.00019192653 -0.00054153096 -0.00027663304 -0.0011150811 -0.49233624 0.15533289
562000000 -0.47818798 0.15745199 -0.00038510788 -0.00069751684 -0.00066377997 -0.00060368853 -0.49200791 0.15640204
563000000 -0.47816145 0.1581893 -0.00075525854 -0.00090524007 -0.0010426693 -0.0017145975 -0.49164397 0.15612169
564000000 -0.47797939 0.15786175 -2.4356603e-005 -0.00087433215 -0.00019344508 -0.00095234043 -0.49212915 0.15581086
565000000 -0.47787043 0.15786809 -0.00059467339 -0.00074367604 0.0004288255 -8.9079345e-005 -0.49236798 0.15618514
566000000 -0.4784742 0.15808403 -0.00054194283 -0.00068410684 -0.0015325316 -0.0013216027 -0.49291325 0.15657757
567000000 -0.47777885 0.15857197 -0.0008570021 -0.00071008888 -0.00021797784 -0.00088862568 -0.49321121 0.15687323
568000000 -0.47769177 0.1588694 -0.00094417494 -0.0014996539 -0.00041448566 -0.00096210418 -0.4924843 0.15641665
569000000 -0.47841588 0.1594523 -0.00042903077 -0.00032778564 -0.00033736683 -0.0010180959 -0.49265581 0.15645969
570000000 -0.47787771 0.15853611 -0.00052618707 -0.0010742956 -0.00087313389 -0.00073220721 -0.49314249 0.15708676
571000000 -0.47787499 0.15895967 -0.00055725069 2.8658013e-005 -0.00058061205 6.3691291e-006 -0.49268141 0.15756357
572000000 -0.47640961 0.15967916 -0.0001406455 -0.0007751318 -0.0012348676 -0.0015891758 -0.49088827 0.15813179
573000000 -0.47708344 0.16044037 -0.00072714797 -0.0002056028 -0.00017889135 -0.00082586659 -0.49127293 0.15895857
574000000 -0.47753349 0.1604439 -0.00071296771 -0.00079841114 -0.0011966688 -0.0008961049 -0.49175456 0.15903424
575000000 -0.47740898 0.1610935 -0.001124282 -0.00063503906 -3.8978986e-005 -0.0007329841 -0.49243981 0.15886545
576000000 -0.4769617 0.16067493 -0.0010609976 -0.00073695945 -0.00082287594 -0.00098476384 -0.49145964 0.15877508
577000000 -0.47660726 0.16034573 -0.00060579681 -0.00059595413 -0.0010142796 -0.00055236131 -0.49134037 0.15858151
578000000 -0.47613907 0.16147062 -0.0011190176 -0.00046844612 -3.0819654e-005 -0.00063655269 -0.49067828 0.15979262
579000000 -0.47699133 0.16251875 -0.00035184802 -0.0010004502 -0.00070318067 -5.7244233e-005 -0.49158251 0.16032167
580000000 -0.47701901 0.16113436 -0.00057653565 -0.00050547736 -0.00021701572 -0.00070271501 -0.49070436 0.16079284
581000000 -0.47683355 0.16182813 -0.00039846089 -0.00074289349 -0.000534016 -0.00073275797 -0.49153167 0.15963598
582000000 -0.47606403 0.16183616 -0.00060191413 -0.00091354206 -0.0010819152 -0.0010605326 -0.49104136 0.16090776
583000000 -0.47610033 0.16121793 -0.0013750856 -0.0011038907 -0.00044569402 -0.00015506131 -0.49197367 0.16077113
584000000 -0.47661862 0.16273704 -0.00075431407 -0.00030032973 -0.00025871387 -0.001149896 -0.49098358 0.16160512
585000000 -0.47533569 0.1634979 -0.00052851526 -0.0006489525 -0.00054026378 -0.0010688552 -0.49126631 0.16142604
586000000 -0.47533908 0.16358192 -0.00035882363 -0.00095516443 -0.00066789764 -0.00033490863 -0.4911297 0.16206343
587000000 -0.47461784 0.16396224 -0.00075351133 -0.0011669485 -0.0011029863 -0.0010514234 -0.49030381 0.16203642
588000000 -0.4762432 0.1634481 -0.001010948 -0.0015467287 -0.00072774885 -0.00085882377 -0.49026889 0.16208395
589000000 -0.47564659 0.16415101 -0.0010542282 -0.00046753799 -0.00092331285 -0.00037824365 -0.49037206 0.16256885
590000000 -0.47511718 0.16502161 -0.00041143343 -0.00099404296 -0.0005846108 -0.0008052609 -0.49056184 0.16347016
591000000 -0.47593373 0.16472146 -0.00060687389 -0.00093179301 -0.00055674574 -0.0010733815 -0.49067602 0.16263729
592000000 -0.4752773 0.16475305 -0.00071157794 -0.00086885388 -0.00033762777 -0.00040826795 -0.4899942 0.16431287
593000000 -0.47478044 0.16501057 -0.0014405982 -0.00064461259 -0.00098564965 -0.00042224431 -0.49062207 0.16274527
594000000 -0.47508508 0.16581327 -0.0008588924 -0.0016594057 -0.00015983697 -0.0008755438 -0.49030945 0.16414168
595000000 -0.47516403 0.1659853 -0.001169833 -0.00074324431 -0.0014291666 -0.00043377111 -0.49052057 0.16420296
596000000 -0.47442207 0.16663247 -0.0012338142 -0.0007569209 -0.0010970926 -0.00081055384 -0.48900968 0.16435969
597000000 -0.47577527 0.1657677 -0.00099459488 -0.00090339984 -0.00082328951 -0.0013477291 -0.48967868 0.16336429
598000000 -0.47459808 0.16684487 -0.00076056883 -0.0010611495 -0.00074019557 -0.00074056507 -0.48974833 0.16517547
599000000 -0.47444412 0.16793947 -0.0021729951 -0.00062429288 -0.00050282932 -0.0009784213 -0.48960665 0.16416433
600000000 -0.47468469 0.16762687 -0.0010960476 -0.00036731831 -0.0021208986 -0.0015812438 -0.4895938 0.16634513
601000000 -0.4744665 0.16719069 -0.00081872696 -0.0011904677 -0.00061263837 -0.00060660235 -0.48888838 0.16628416
602000000 -0.47515625 0.16833889 -0.00088373479 -0.0014853242 -0.0015112895 -0.00092551199 -0.48886752 0.16650771
603000000 -0.47469136 0.16912422 -0.0011841161 -0.00034799203 -0.000860603 -0.00075537415 -0.48952103 0.16645239
604000000 -0.47330984 0.16847834 -0.00067789183 -0.0017059124 -0.00042321251 -0.00078160129 -0.48803133 0.16722624
605000000 -0.47355837 0.16926023 -0.0011123393 -0.0012168672 0.00021360409 -0.0014519918 -0.48882851 0.16670392
606000000 -0.4735114 0.16955899 -0.00031477652 -0.00051500672 -0.0014380493 -0.00074820401 -0.48804674 0.16695592
607000000 -0.47375053 0.16947138 -0.00015346181 -0.0011900491 0.00013357094 -0.0010563995 -0.4888607 0.16805279
608000000 -0.4736053 0.17138211 -0.0010381953 -0.00045053597 -0.00058734859 -0.0011663757 -0.48927081 0.16743794
609000000 -0.47304231 0.16995123 -0.0016413251 -0.00089543912 -0.00038246455 -0.00074645015 -0.48859358 0.16729373
610000000 -0.47305822 0.16958576 -0.00060433045 -0.00082788686 -0.00096521218 -0.00094848091 -0.48818234 0.16816479
611000000 -0.47231975 0.17024383 -0.00040972725 -0.00026010073 -0.00092264259 -0.00073127495 -0.48782739 0.16829173
612000000 -0.47434133 0.17195602 -0.0011440031 -0.00091165211 -0.00062501436 -0.00083672878 -0.48703143 0.16860461
613000000 -0.47280017 0.17175366 -0.00047124128 -0.0011231421 -0.0004469408 0.00028953541 -0.48786122 0.16959362
614000000 -0.47347927 0.17130746 -0.00014680068 -0.0012615995 -0.00082421413 -0.00091531797 -0.48791054 0.17012061
615000000 -0.47249553 0.17202994 -0.00096122007 -0.0010283397 -0.00051713601 -0.00062998099 -0.48852488 0.16880187
616000000 -0.47270459 0.17195308 0.00014625916 -0.0014073291 -0.0008927171 -0.0015523362 -0.48806012 0.17077111
617000000 -0.47181803 0.17345874 -0.0011166099 -0.0010686227 -0.0007686459 -0.00059590006 -0.48792467 0.17033204
618000000 -0.47174567 0.17354089 -0.00031530339 -0.0015906857 -0.0012263033 -0.00084469526 -0.48690799 0.17094624
619000000 -0.47301936 0.17358124 -0.00042619684 -0.00092169066 -0.00061577058 -0.0013523672 -0.48761144 0.17123909
620000000 -0.47277528 0.17380288 -0.00011502361 -0.0011841033 -0.0010129353 -0.00046913832 -0.48803428 0.17155026
621000000 -0.47248995 0.17442796 -0.0010977207 -0.0012947888 -0.00097631873 -0.0005148506 -0.48791283 0.1712922
622000000 -0.47231367 0.17448288 -0.0014357885 -0.0011456773 -0.00034020809 -0.00022880037 -0.48728567 0.17159727
623000000 -0.47186887 0.17422943 -0.00081326487 -0.0015131762 -0.00053437112 -0.00078368641 -0.48785415 0.17149869
624000000 -0.47232538 0.17556918 -0.00097192748 -0.0010140671 -0.00081040378 -0.0014736927 -0.4871701 0.17265414
625000000 -0.4720715 0.17624336 -0.0007591928 -0.0010411021 -0.00078539929 -4.662669e-005 -0.48734459 0.17069894
626000000 -0.47185615 0.17615259 -0.00056241913 -0.00075678161 -0.00016699023 -0.0010389264 -0.48714685 0.17326997
627000000 -0.47306463 0.17678046 -0.00042354388 -0.00091158715 -0.00087490352 -0.00079573604 -0.48787636 0.17291571
628000000 -0.47196135 0.17560701 -0.00091397483 -0.0010289139 -0.00035000179 -0.00082295289 -0.48649842 0.17235576
629000000 -0.47211617 0.17642193 -0.00062995957 -0.0012763424 -0.0012718631 -0.0016228602 -0.4876653 0.17352501
630000000 -0.47069767 0.17667001 -0.00038863716 -0.00040658485 -0.00069731631 -0.0015041318 -0.48671824 0.1740879
631000000 -0.4716157 0.1776924 -0.0012082295 -0.00046833474 -0.0010981043 -0.00067827641 -0.48704508 0.17441124
632000000 -0.47233254 0.17788513 -0.00093569013 -0.0007083969 -0.00060275197 -0.00074025936 -0.48711064 0.17453219
633000000 -0.47080946 0.1777034 -0.000580233 -0.00056268083 -0.0006018217 -0.00094314828 -0.48648426 0.17367807
634000000 -0.471212 0.17731437 -0.00095402217 -0.0007421964 -0.00075586123 -0.001402722 -0.48695546 0.17524318
635000000 -0.47097778 0.1788536 -0.00082805142 -0.0014499115 -0.00052492035 -0.0013067876 -0.48582458 0.17529744
636000000 -0.47129074 0.17827882 -0.00075369276 -0.00091422576 -0.00013223819 -2.8197548e-005 -0.4868629 0.17594814
637000000 -0.47195059 0.17960016 -0.00087155728 -0.0017467496 -0.00087524153 -0.0012941583 -0.48622078 0.17553592
638000000 -0.47128266 0.17929153 -0.00064325694 -0.00050091889 -0.00019350296 -0.0006622512 -0.48635352 0.1755885
639000000 -0.47103423 0.18015522 -0.0011581896 -0.00086305739 -0.0011803968 -0.0008712713 -0.48650384 0.17539686
640000000 -0.47014993 0.1802626 -0.0012518993 -0.00090594514 -0.0013006192 -0.00091610727 -0.4858878 0.17680848
641000000 -0.47104403 0.17981279 -0.0010535378 -0.0012329468 -0.00042039706 -0.00055281713 -0.48535445 0.17608379
642000000 -0.47131336 0.18040906 -0.00091015763 -0.0013931905 -0.00056508038 -0.0011431189 -0.48590967 0.17748047
643000000 -0.47071412 0.18069041 -0.0010480615 -0.00073714613 -0.00037472328 -0.0010609862 -0.48652095 0.17706555
644000000 -0.47085327 0.1813222 -0.0007277191 -0.0010468086 -0.00059289887 -0.0014745949 -0.48603466 0.17740229
645000000 -0.47027409 0.18111369 -0.00076166244 -0.0013651856 -0.0016754805 -0.00036237633 -0.48556861 0.17781876
646000000 -0.47013184 0.18196794 -0.00094300928 -0.00072491518 -0.0011112378 -0.0010960005 -0.48569036 0.17810872
647000000 -0.47051045 0.18153225 -0.0012272762 -0.000905369 -0.00066193927 -0.0010827356 -0.48610619 0.17790133
648000000 -0.47074825 0.18252042 -0.00062700739 -0.00076566066 -0.0017921544 -0.00077831466 -0.48555669 0.17904451
649000000 -0.47021979 0.18276474 -0.00063597166 -0.0013056268 -0.0011979162 -0.0011944772 -0.4849813 0.17913742
650000000 -0.47010472 0.18278103 -0.0008786589 -0.0012842967 -0.00099453644 -0.00077497435 -0.48554826 0.17935571
651000000 -0.47106665 0.1828185 -0.00089688995 -0.0016781697 -0.00097232993 -0.0010064482 -0.48421568 0.17930798
652000000 -0.46988976 0.18279022 -0.0010327232 -0.00098539866 -0.00098368269 -0.00097572111 -0.48521471 0.17922856
653000000 -0.47018608 0.18311365 -0.0011408612 -0.00081411185 -0.0011673503 -0.0013537491 -0.48499215 0.17948635
654000000 -0.4706063 0.18411717 -0.00072047836 -0.0014024356 -0.0005008484 -0.0012926983 -0.48514873 0.18036732
655000000 -0.46986243 0.18419766 -0.0010312231 -0.00051740109 -0.00076530338 -0.001076328 -0.4844071 0.18030567
656000000 -0.46952778 0.18397902 -0.0012481289 -0.0012609927 -0.00058557384 -0.001320778 -0.48569307 0.18115953
657000000 -0.46940041 0.18454072 -0.00032381955 -0.00083174172 -0.0011898471 -0.0008696458 -0.48488021 0.18015423
658000000 -0.47021198 0.18467291 -0.00086551195 -0.0011792113 -0.00044512266 -0.00060950051 -0.48525655 0.18102598
659000000 -0.46966857 0.18552542 -0.00055016216 -0.0014198641 -0.00020849086 -0.0011032094 -0.484972 0.18105756
660000000 -0.46999824 0.18570834 -0.00080125273 -0.0011080488 -0.00084602379 -0.0013399575 -0.48466167 0.18118621
661000000 -0.47049683 0.18590009 -0.00069976738 -0.00094441784 -0.00047368766 -0.001188025 -0.48447099 0.18161489
662000000 -0.47042036 0.18607156 -0.00081935996 -0.0011886085 -0.00087666634 -0.00098828285 -0.48535824 0.18251392
663000000 -0.47053635 0.18552616 -0.00016344956 -0.00098229211 -0.0007545657 -0.00073933019 -0.48425671 0.18178384
664000000 -0.46891806 0.18659756 -0.00093341526 -0.00085135474 -0.00061829609 -0.00072576525 -0.48403135 0.18242615
665000000 -0.47000119 0.18666871 -0.00061144057 -0.0010397672 -0.00099196099 4.6890931e-005 -0.48384982 0.18283476
666000000 -0.46934587 0.18653201 -0.0001227265 -0.001162287 -0.0011503303 -0.00073244044 -0.48492065 0.18358703
667000000 -0.47004518 0.18683058 -0.0010028603 -0.00099129113 -0.0017246963 -0.00092141842 -0.48478186 0.1840537
668000000 -0.46924657 0.18707919 -0.0012480863 -0.001352608 -0.00062971015 -0.0010509418 -0.48374793 0.18435746
669000000 -0.4698427 0.18700323 -0.0014414936 -0.0014560487 -0.001089395 -0.0011167581 -0.48381022 0.18309863
670000000 -0.4692449 0.18689364 -0.0011045503 -0.0015186759 -0.00087410037 -0.00058161595 -0.48344928 0.18421082
671000000 -0.46864164 0.18729185 -0.00095450075 -0.00048291631 -0.001056217 -0.00071149931 -0.48463672 0.18454875
672000000 -0.4695453 0.18832025 -0.0013056999 -0.00053239067 -0.001004111 -0.0012937872 -0.48425901 0.18490994
