!Keysight Technologies,M9374A,MY55442783,A.12.55.05
!Date: Thursday, May 20, 2021 16:17:51
!Correction: S11(Full 2 Port(1,2)) 
!S21(Full 2 Port(1,2)) 
!S12(Full 2 Port(1,2)) 
!S22(Full 2 Port(1,2)) 
!S2P File: Measurements: S11, S21, S12, S22:
# Hz S  RI   R 50
500000000 -0.48349816 0.12937465 -0.00046895974 -0.00071637717 -0.00060786604 -0.00020897687 -0.49896929 0.12775779
501000000 -0.48450312 0.13133499 -0.00074837299 -0.001045317 -0.00088173617 -0.00046525727 -0.49902529 0.1277003
502000000 -0.48456028 0.12942357 -0.00071389176 -0.0013986191 0.00030785264 -0.00028698143 -0.49806082 0.12814501
503000000 -0.48351786 0.13031709 -0.0006210155 -0.0011123962 -0.00080247695 -0.0011979322 -0.49798054 0.12772027
504000000 -0.483659 0.13081867 -0.00038960334 -0.0010997412 -0.00079837837 -0.0011592979 -0.49830452 0.12848979
505000000 -0.48405334 0.13066818 -0.00067431212 -0.00072072417 0.0001696355 -0.0011960593 -0.49775755 0.12863143
506000000 -0.48466974 0.13165182 -0.00073522102 -0.0011122829 -0.00071548118 -0.0010980986 -0.49771458 0.12866244
507000000 -0.48285854 0.13183455 -0.000845081 -0.001178591 -0.00081811298 -0.00096441642 -0.4978925 0.12930387
508000000 -0.48361593 0.1314898 -0.00017255866 -0.0014505463 -0.0007580283 -0.00041948183 -0.49832031 0.13023767
509000000 -0.48432583 0.13165826 -0.00022114409 -0.00054664165 -0.001011344 -0.00036666813 -0.49803048 0.13015674
510000000 -0.48392624 0.1320328 -0.00040946464 -0.00049527892 0.00028864131 -6.0950344e-005 -0.49730158 0.13081899
511000000 -0.48464075 0.13226724 -0.00072853139 -0.00069272786 -0.00097343593 -0.00083320582 -0.49757701 0.1309434
512000000 -0.48317418 0.13260657 0.00022621508 -0.00056928809 -0.00054710935 -0.00034366705 -0.49735221 0.13094167
513000000 -0.48323858 0.1334763 0.00017676565 -0.00041175837 -0.00036172295 -0.00011066146 -0.49837995 0.13056014
514000000 -0.48387372 0.13386197 -0.0009554532 -0.0004468858 -0.00015408928 -0.00017215131 -0.49772862 0.13119712
515000000 -0.48257509 0.133506 -2.9934947e-006 -0.00053241628 -0.00044352951 -0.0010044017 -0.49701247 0.13169749
516000000 -0.48394561 0.13436076 -0.00015879716 -0.00083239406 -0.00088805048 -0.00053569238 -0.49754122 0.13104366
517000000 -0.4820807 0.135877 -0.00060401217 -0.00066833192 -0.00095442531 -0.0015456076 -0.49681398 0.13200727
518000000 -0.48286033 0.13439994 -0.0013079675 -0.0012051447 0.00013615366 -0.00068808452 -0.49719217 0.13229877
519000000 -0.48295584 0.13437724 -0.00038008363 -0.0008080249 -0.00094554678 -0.001130235 -0.49658781 0.13419427
520000000 -0.48262048 0.1346982 -0.00021188289 -0.0015648501 -3.1973075e-005 -0.00090079906 -0.49656048 0.1336145
521000000 -0.48306987 0.13576184 -0.00086846348 -0.00030573693 -0.00081464823 -0.00086531334 -0.49667174 0.1338222
522000000 -0.48297775 0.13626918 -0.00046844187 -0.00064739469 -0.00013475833 -0.00092520012 -0.49716207 0.13353875
523000000 -0.48318291 0.13585036 0.00010191155 -0.00051662308 -0.00080696074 -0.0015403636 -0.49657899 0.1344638
524000000 -0.48267394 0.13574272 -0.0012725168 -0.00083252345 -0.00055357552 -0.0010880635 -0.49652821 0.13377924
525000000 -0.48273405 0.13567115 -0.0003324454 -0.00093797932 -0.0006098242 -0.00098338677 -0.49625459 0.13513555
526000000 -0.48187244 0.13648328 -1.8247329e-005 -0.00061811425 -7.210995e-005 -0.00032267228 -0.4965395 0.13514765
527000000 -0.48259884 0.13719302 -0.0010278462 -0.0015338503 -0.0013385589 -0.0010089704 -0.49632213 0.13466541
528000000 -0.48297033 0.13783664 -0.00055281317 -0.0015228973 -0.00092082901 -0.00085726206 -0.49553576 0.13519739
529000000 -0.48366284 0.13762228 -0.00083929254 -0.00068529072 -0.00064165407 -0.00092026836 -0.49683577 0.13547875
530000000 -0.48248962 0.13793211 -0.00043212404 -0.00074102782 -0.00085511798 -0.0014001016 -0.49750969 0.13529167
531000000 -0.48249373 0.13761817 -0.00094856502 -0.00036786383 -0.00056713395 -0.0015334126 -0.49689162 0.13629486
532000000 -0.48268187 0.13825287 -0.00092258293 -0.00098479027 -0.00070311205 -0.00072063593 -0.49635026 0.13676442
533000000 -0.48229766 0.13826217 -0.00011003186 -0.00082074048 0.00023012244 -0.00046851643 -0.4959605 0.13610883
534000000 -0.48270831 0.13796733 -0.00067143637 -0.0011919029 -0.00022585395 -0.0011962953 -0.49713331 0.13721377
535000000 -0.48170125 0.13945499 -0.00041239944 -0.0010047194 -0.00028496596 -0.00055523915 -0.49646947 0.13623357
536000000 -0.48241425 0.13861632 -0.00020487489 -0.0009176656 -0.0009123091 -0.0010816024 -0.49600422 0.13660933
537000000 -0.48244193 0.13884552 -0.00095388526 -0.0012873345 -0.00076241442 -0.0018683474 -0.49556792 0.13789383
538000000 -0.48244098 0.13928314 -0.00046349457 -0.00082031707 -0.00042688492 -0.001095359 -0.49686208 0.13798587
539000000 -0.48223883 0.13948376 -0.0013199811 -0.0012787487 -0.00010514441 -0.0011768317 -0.49566174 0.13753824
540000000 -0.48177418 0.14034651 -0.0008345439 -0.00090824754 -0.00035862796 5.4169002e-005 -0.49608621 0.13796315
541000000 -0.48200139 0.14020573 -0.00082998862 -0.00075817207 -0.00093797111 -0.00053203141 -0.49607608 0.13812497
542000000 -0.48176169 0.14090496 -0.00066849898 -0.0007894187 -0.00084428187 -0.0010112346 -0.49552694 0.13791856
543000000 -0.48245606 0.13982676 -0.00036645183 -0.00054207724 -0.00039003423 -0.00091674522 -0.49576345 0.13911486
544000000 -0.48246253 0.14104736 -0.00059345854 -0.00052730471 -5.3773576e-005 -0.00062343018 -0.49623826 0.13974325
545000000 -0.4818655 0.14065215 -0.00070670201 -0.0006379211 -0.00066326465 -0.00062457827 -0.4958407 0.13896285
546000000 -0.48193222 0.14165135 -0.00076819601 -0.00091406179 -0.00018468381 -0.00047435166 -0.49556798 0.13900548
547000000 -0.4815132 0.14144309 -0.0013374555 -0.00055641326 -0.00067134592 -0.0004040616 -0.49604899 0.14007252
548000000 -0.48147911 0.14124146 -0.00066606101 -0.00049208594 -0.0004044775 -0.00082785572 -0.49640417 0.14009565
549000000 -0.48235855 0.14170267 -0.0011447803 -0.00060650625 -0.00073168293 -0.00090598897 -0.49576274 0.14121293
550000000 -0.48089588 0.1417056 -0.00067886565 -0.00050590286 0.00026709016 -0.00089935487 -0.4962765 0.14127779
551000000 -0.48210093 0.14211993 -0.00067122927 -0.00082014874 -0.00075917289 -0.00066271937 -0.49617881 0.14138633
552000000 -0.48119861 0.14152883 -0.00054424006 -0.0014649314 -0.00078499626 -0.00095376448 -0.49575964 0.14134683
553000000 -0.4824304 0.14239129 -0.00056748616 -0.00068879372 0.00010918047 -0.00045965015 -0.49610037 0.14060642
554000000 -0.48177606 0.14158101 -0.00071391114 -0.00069545815 -0.00048007054 -0.0013685785 -0.4955689 0.14112709
555000000 -0.48162901 0.14282933 -0.0012312043 -0.00028811372 -0.00092880108 -0.00051937555 -0.49496379 0.14063175
556000000 -0.48150906 0.14325048 -0.00081737427 -0.00086589763 -0.0010997135 -0.0004799208 -0.49559474 0.14208642
557000000 -0.48120886 0.14377844 -0.00052748725 -0.00017718878 -0.00051080331 -0.00044048595 -0.49549872 0.14203799
558000000 -0.48103815 0.14306958 -0.0011562661 -0.00078900816 -0.00068181916 -0.00042578913 -0.49555385 0.14265941
559000000 -0.48114607 0.14384772 -0.00070386362 -0.00062519341 -0.0005373999 -0.00072895852 -0.49593651 0.14273992
560000000 -0.4806543 0.14449333 -0.00088363391 -0.00038341558 -0.0013485386 -0.0015056662 -0.49542037 0.142708
561000000 -0.48059183 0.1439493 -0.00082387979 -0.0010909733 -0.00050474028 -0.0012420506 -0.49520493 0.14250107
562000000 -0.48076901 0.14453354 -0.00047042588 -0.00091828848 -0.0010853849 -0.0010843275 -0.49506527 0.14298537
563000000 -0.48076826 0.14431085 -0.0010660847 -0.001154113 -0.00088078342 -0.00093630241 -0.4955073 0.14406991
564000000 -0.48131031 0.14457276 -0.00035683723 -0.00082662847 -0.00063111959 -0.0012482502 -0.49522966 0.14367226
565000000 -0.48139709 0.14468765 -0.00093743339 -0.00029780655 -0.00010518377 -0.00076950266 -0.49604997 0.14425786
566000000 -0.48072976 0.1448689 -0.00022121856 -0.00028044291 -0.0011247583 -0.00043865957 -0.49556273 0.14356053
567000000 -0.48008117 0.14522226 -0.00012845846 -0.00099692424 -8.7994595e-005 -0.0013742341 -0.49438116 0.14330827
568000000 -0.48150983 0.14538796 -7.4291092e-005 -0.0017017893 -0.00047416656 -0.0010498071 -0.4952043 0.14425483
569000000 -0.4804391 0.1463739 -0.00047164041 -0.0014226002 -0.0004694979 -0.00045564165 -0.49478504 0.14425874
570000000 -0.48080128 0.14538875 -0.00031298833 -0.00072775729 -0.00040220519 -0.00069935428 -0.49374387 0.14434914
571000000 -0.48092738 0.14606661 -0.001005456 -0.00032200277 -0.00064056099 -0.00094038446 -0.49535286 0.14548133
572000000 -0.48050192 0.14593327 -0.00066215539 -0.0012382703 -0.0014906583 -0.0010498675 -0.49498424 0.14528649
573000000 -0.48025009 0.14636454 -0.00034143488 -0.0012462602 -0.00042109992 -0.00035968301 -0.49402857 0.14546643
574000000 -0.47934374 0.14642709 -0.00070408639 -0.00073768455 -0.0010039067 -0.00051745697 -0.49526414 0.14552791
575000000 -0.48040149 0.14631636 -0.000606708 -0.0010555546 -0.0017724646 -0.00020835422 -0.49514118 0.14602503
576000000 -0.47907296 0.1472656 -0.0010144485 -0.0010007558 -0.0008944656 -0.0010432628 -0.4948183 0.14597106
577000000 -0.47966057 0.14677233 -0.001112627 -0.00092771673 -1.2038391e-005 -0.000758813 -0.49517423 0.14591332
578000000 -0.47943723 0.14837407 -0.00043928929 -0.0013307767 -0.00049326092 -0.00069925043 -0.49454069 0.14659408
579000000 -0.47965792 0.14773439 -0.0004647006 -0.0011643007 -0.00046445453 -0.00078868255 -0.49419853 0.14667816
580000000 -0.47932452 0.14770749 -0.00046273507 -0.00069856649 -0.00077902758 -0.00087472564 -0.49396035 0.14707628
581000000 -0.47924739 0.14768687 0.0003849518 -0.00070392591 -9.3686125e-005 -0.001094426 -0.49463502 0.147543
582000000 -0.48065552 0.14924441 -0.0010182443 -0.0003791402 -0.00049913605 -0.00010362214 -0.49437726 0.14706099
583000000 -0.47959819 0.14910544 -0.00087653135 -0.001080298 -0.00012895238 -0.00072194124 -0.49483263 0.14789474
584000000 -0.47918093 0.14907549 3.8497606e-006 -0.0012787263 -0.00063088973 -0.00043710502 -0.49416861 0.14796582
585000000 -0.4790369 0.14989521 -0.0010297262 -0.00024919384 -0.00013447067 -0.0016789561 -0.49411032 0.14779606
586000000 -0.47974411 0.14946903 -0.0010340504 -0.0013827755 -0.0006528282 -0.0013037447 -0.49447361 0.14789331
587000000 -0.47911888 0.14960052 -0.00078634138 -0.00031917129 -7.4242707e-005 -8.6106797e-005 -0.49352753 0.14803436
588000000 -0.47903246 0.15023135 -0.0012583301 -0.0010793253 -0.00040689812 -0.00084848527 -0.49429262 0.14879911
589000000 -0.47910595 0.15098844 -0.00090077019 0.00032628371 -0.00049971836 -0.00092448987 -0.4932048 0.14909823
590000000 -0.4780724 0.15033847 -0.00049379998 -0.00013441757 -0.00056193804 -0.001439189 -0.49310181 0.14907265
591000000 -0.47786129 0.15112157 -0.00054860156 -0.00084567256 -0.00067704218 -0.00076072669 -0.49411321 0.14943099
592000000 -0.47873875 0.15134132 -0.0006827481 -0.0010336153 -0.00062127964 -0.0013505161 -0.49418026 0.15059462
593000000 -0.47910306 0.1512792 -0.00072093448 -0.00076191733 -0.00011301481 -0.0013457312 -0.4934313 0.15032548
594000000 -0.478241 0.15177938 -0.00069169723 -0.00039506037 -0.00069378415 -0.00049951731 -0.49322864 0.15132259
595000000 -0.47902825 0.15197332 -0.00064446055 -0.00085851672 -0.0005663698 -0.0017647792 -0.49335447 0.15021807
596000000 -0.47785911 0.15207033 -0.00043955579 -0.00055054395 -5.5715911e-005 -0.00067206961 -0.49284023 0.14952916
597000000 -0.47749555 0.1531738 -0.00074914651 -0.0010387868 -0.00039654612 -0.00071410683 -0.49253911 0.15079151
598000000 -0.47774521 0.15282302 -0.001222951 -0.0010950578 -0.00048035863 -0.0013482666 -0.49412572 0.15144716
599000000 -0.47717738 0.15271561 -0.00043290737 -0.00094201631 -0.00042537908 -0.00056021666 -0.49293694 0.15213963
600000000 -0.47661531 0.15344992 -0.0007497046 -0.00089224026 -0.0009725432 -0.0013198407 -0.49349442 0.15197206
601000000 -0.4778074 0.15494496 -0.00074715127 -0.00097355817 -0.00099544483 -0.0019587385 -0.49238726 0.15247324
602000000 -0.47758165 0.1548724 -0.00021268324 -0.00093667192 -0.00011483619 -0.0014477541 -0.49265113 0.15320632
603000000 -0.47818229 0.15505441 -0.00058663683 -0.00092396617 7.9355741e-005 -0.00059583056 -0.49358881 0.1524083
604000000 -0.47625759 0.15441881 -0.000534299 -0.00087573694 -0.00060768513 -0.0014277583 -0.49232548 0.15254666
605000000 -0.47715002 0.15474129 -0.00063424069 -0.0010210545 -0.00077615649 -0.000975804 -0.49127612 0.1543916
606000000 -0.47660589 0.15550616 -0.0011216002 -0.00084291794 -0.00017435833 -0.0010559203 -0.49246514 0.1531681
607000000 -0.47808835 0.15537257 -0.00011164522 -0.0013804624 -0.000412508 -0.00078461034 -0.49226299 0.1533557
608000000 -0.47744206 0.15657291 -0.00095798081 -0.00087564578 -0.0010243098 -0.00070323393 -0.49246606 0.1527265
609000000 -0.47708878 0.15570128 -0.00042723084 -0.00096709578 -0.00081520574 -0.00049094518 -0.49130979 0.15359695
610000000 -0.47620267 0.15616514 -0.00053709449 -0.00074935379 5.2157911e-006 -0.0015727562 -0.492024 0.15434836
611000000 -0.47563601 0.15784524 -0.00088793773 -0.0012172054 -0.00015070512 -0.00099340174 -0.49106845 0.15421906
612000000 -0.47663155 0.15739784 -0.00088240369 -0.0016501828 -0.00055138173 -0.00072060368 -0.49139637 0.15490408
613000000 -0.47664806 0.15717401 -0.00059113721 -0.0011098636 -0.00055550126 -0.0011899318 -0.49187204 0.15450741
614000000 -0.47615784 0.15783229 -0.0011624345 -0.0011444075 -0.00082218653 -0.00080447627 -0.4920041 0.15587258
615000000 -0.47607487 0.15843181 -0.00073885015 -0.00073057547 -5.0880259e-005 -0.00045225804 -0.49163896 0.15641001
616000000 -0.47586483 0.15811267 -8.9467088e-005 -0.00086327555 -0.00086703122 -0.0010486076 -0.49162591 0.15590099
617000000 -0.47643244 0.15899688 -0.00061830587 -0.00035201255 -0.00058199797 -0.0013434018 -0.49171871 0.15617071
618000000 -0.47599781 0.15909737 -0.00013828442 -0.00062799378 -0.0010177611 -0.0010507079 -0.49064162 0.15636216
619000000 -0.47587243 0.1594885 -0.00048342958 -0.0015170062 -0.00054368126 -0.0011149528 -0.49124566 0.15678445
620000000 -0.47593474 0.15977615 -0.00044830432 -0.0015023842 -0.00037894287 -0.00059578422 -0.49132109 0.15642464
621000000 -0.47603726 0.15970333 -0.00062851026 -0.0011412704 -0.00054643187 -0.0012635713 -0.49037609 0.15850393
622000000 -0.47607318 0.16024488 -0.0016094566 -0.001139577 -0.00052449096 -0.00038519796 -0.49077785 0.15782765
623000000 -0.47431514 0.16013655 -0.00063568057 -0.0011206982 -0.0006808301 -0.00083488459 -0.49023807 0.15762299
624000000 -0.47554344 0.1609173 -0.00095891044 -0.0013470484 -0.00031059605 -0.00112492 -0.49123311 0.15817736
625000000 -0.47507051 0.16199237 -6.6925763e-006 -0.00080212916 -0.00033508151 -0.00098440074 -0.49102122 0.15739247
626000000 -0.47545534 0.16165659 -0.00054323417 -0.0010709369 -0.00079333229 -0.00095976528 -0.49100691 0.15890649
627000000 -0.47527304 0.16210349 -0.00074193627 -0.00057436933 -0.0015004188 -0.00097275758 -0.49134132 0.15860876
628000000 -0.47578639 0.16175833 -0.00062168861 -0.0011479954 4.7598322e-005 -0.00085780217 -0.49077049 0.15857919
629000000 -0.47498956 0.16224177 -0.0013830285 -0.0018082884 -0.0003695139 -0.0011596677 -0.4910326 0.15910271
630000000 -0.47534952 0.1625239 -0.00068929303 -0.00069263653 -0.001172393 -0.0010062085 -0.49077004 0.15975749
631000000 -0.47525242 0.16305697 -0.00092699245 -0.00015275617 0.00046957112 -0.0011836202 -0.49044773 0.15979309
632000000 -0.47446695 0.16332902 -0.00079827203 -0.0014680311 -0.00039541515 -0.00054697075 -0.4898766 0.16048001
633000000 -0.47499031 0.16323017 -0.00055180921 -0.0012017005 -0.0010793225 -0.00093675678 -0.49121544 0.16000436
634000000 -0.47509789 0.16405246 -0.0010394205 -0.0012830357 -0.00052355329 -0.00078108523 -0.49064094 0.16075799
635000000 -0.47550529 0.16434626 -0.0010345079 -0.0011301524 -0.00067087793 -0.0010770793 -0.49053156 0.1612184
636000000 -0.47506571 0.16446233 -0.00077200873 -0.00062277378 -0.0010919615 -0.00050866185 -0.49025223 0.16169378
637000000 -0.47445944 0.16453588 -0.00051823404 -0.00061727379 -0.0014434063 -0.001114873 -0.48932192 0.16095893
638000000 -0.47396368 0.16514097 -0.00057597971 -0.00089144817 -0.00042808545 -0.001441839 -0.49015114 0.16161725
639000000 -0.47499895 0.16479462 -0.0003974429 -0.00091597572 -0.00077903888 -0.0014999001 -0.4905782 0.16198877
640000000 -0.47434908 0.16520061 -0.0003972628 -0.00177403 -0.00096283632 -0.0013500097 -0.48929507 0.16204436
641000000 -0.47413942 0.16610816 -0.00052343385 -0.00085518498 -0.0011323544 -0.0012207376 -0.48825654 0.16270104
642000000 -0.47507292 0.16602796 -0.001119598 -0.00063963642 -0.00014637994 -0.0010185674 -0.48968571 0.16319478
643000000 -0.47405922 0.1661474 -0.00065496145 -0.00034459241 -0.00049018912 -0.0004500018 -0.49065956 0.16247311
644000000 -0.47401091 0.16605464 -0.00080407492 -0.0013742113 -0.0013846098 -0.0012751496 -0.48997334 0.16332197
645000000 -0.47436222 0.16689831 -0.0013286956 -0.0012447302 0.00032192524 -0.00027936359 -0.49016252 0.16303296
646000000 -0.47440189 0.16751368 -0.00078356679 -0.00095399225 -0.00082119851 -0.00078947924 -0.49047935 0.16373149
647000000 -0.4746131 0.16701487 -0.00093331549 -0.0011216984 -0.00080379122 -0.00071147759 -0.49001181 0.16368467
648000000 -0.47386843 0.16711658 -0.001253721 -0.0008441711 -0.00051079562 -0.0013554426 -0.489465 0.16391616
649000000 -0.47400659 0.16784212 -0.00027362286 -0.0005222208 -0.0016257277 -0.0013655201 -0.48916605 0.16406432
650000000 -0.47482836 0.16753457 -0.0009590374 -0.0015658357 -0.00070177362 -0.0017348074 -0.48861098 0.16391945
651000000 -0.47393203 0.16775618 -0.0014750126 -0.0010791707 -0.00031450827 -0.0010899318 -0.48901176 0.16436437
652000000 -0.47465408 0.16783565 -0.00046463587 -0.00026577406 -0.00061036163 -0.0016064728 -0.48931625 0.16403569
653000000 -0.47381195 0.16826986 -0.0010430728 -0.00056346669 -0.0011900453 -0.0010954408 -0.48999622 0.1651472
654000000 -0.47445926 0.16928735 -0.0011367919 -0.00092776876 -6.3219471e-005 -0.00018863427 -0.48934302 0.16585818
655000000 -0.47391027 0.16951218 -0.00042114151 -0.0012849958 -0.0012351751 -0.0006988321 -0.4898462 0.16564701
656000000 -0.47404185 0.16838543 -0.00057349569 -0.00042815626 -0.0010458654 -0.00067963777 -0.48899701 0.16667455
657000000 -0.47409683 0.16947474 -0.00092363975 -0.00043249023 -0.0013426362 -0.00084602408 -0.48932815 0.16636507
658000000 -0.47367209 0.17011224 -0.00085571787 -0.0015596988 0.00023629722 -0.0012315714 -0.48847517 0.16683793
659000000 -0.47361138 0.16989325 -0.00053141877 -0.0012253909 -0.00046754046 -0.0010381811 -0.48904121 0.16625835
660000000 -0.47396579 0.17043518 -0.00047967653 -0.0010816021 -0.00080228451 -0.0010371294 -0.48909566 0.16642243
661000000 -0.47352001 0.1706847 -0.0004737039 -0.0015151633 -0.00049742346 -0.0012194609 -0.48888603 0.16693453
662000000 -0.47331181 0.17017753 -0.00061377318 -0.0012958747 -0.0006518265 -0.0014203317 -0.48826766 0.16699138
663000000 -0.47416633 0.16969824 -0.0012500731 -0.001173764 -0.0009858245 -0.0010877548 -0.48863292 0.16669264
664000000 -0.47330531 0.17189701 -0.00022750402 -0.00085940887 -0.00028385501 -0.001753565 -0.48866528 0.16773731
665000000 -0.47408834 0.17054956 -0.00086486485 -0.0014637666 -0.00056670641 -0.00095257728 -0.48825416 0.16831367
666000000 -0.4733648 0.17158499 -0.0013047188 -0.0010257096 -0.001046036 -0.0014595448 -0.48816743 0.16852559
667000000 -0.47360811 0.1710991 -0.00035634002 -0.00022372695 -0.00056692609 -0.0010881904 -0.48914784 0.16882268
668000000 -0.47399965 0.17173718 -0.00057218102 -0.0008123765 -0.0013242573 -0.0013392591 -0.48927453 0.16786724
669000000 -0.47373059 0.17118599 -0.0005630239 -0.0010631218 -0.0011665693 -0.00099307555 -0.48930198 0.16754203
670000000 -0.47262985 0.17247018 -0.00087391946 -0.001422558 -0.00089705567 -0.00038671409 -0.48838538 0.16900587
671000000 -0.47285888 0.17290695 -0.0010382432 -0.0010114955 -0.0010453189 -0.0003735488 -0.48810109 0.16852884
672000000 -0.47286448 0.17282481 -0.0013396062 -0.00049147062 -0.0011500798 -0.00068812451 -0.48816422 0.16823265
