!Keysight Technologies,M9374A,MY55442783,A.12.55.05
!Date: Friday, May 21, 2021 11:23:18
!Correction: S11(Full 2 Port(1,2)) 
!S21(Full 2 Port(1,2)) 
!S12(Full 2 Port(1,2)) 
!S22(Full 2 Port(1,2)) 
!S2P File: Measurements: S11, S21, S12, S22:
# Hz S  RI   R 50
500000000 -0.9399085 0.052011069 -0.00021999631 -0.0021449046 -0.00042442998 -0.0019205702 -0.93687099 0.043492023
501000000 -0.93948495 0.052082762 9.1013761e-005 -0.0018140739 -0.00045595254 -0.0021023268 -0.93753099 0.043432128
502000000 -0.93921739 0.051896732 -0.00057602936 -0.0018043558 -0.00047300069 -0.0018420302 -0.93807214 0.043696351
503000000 -0.93936604 0.051919416 -0.00018965213 -0.0019903919 -0.00021062802 -0.0021240832 -0.93715185 0.043561574
504000000 -0.93848103 0.052221201 -0.00021425086 -0.002316342 -0.00033357582 -0.0024899968 -0.93801802 0.043751694
505000000 -0.93904001 0.052344963 -0.00041519667 -0.0024436098 -0.00028650652 -0.0018264703 -0.9369365 0.043397699
506000000 -0.93891901 0.052746233 -0.0003565271 -0.0020808605 -7.2149771e-005 -0.0020553875 -0.93700629 0.044263743
507000000 -0.93892574 0.053038545 -0.00039871244 -0.0018007389 -0.00025575649 -0.0019457029 -0.93725199 0.045044262
508000000 -0.93922222 0.053023342 -0.00039946014 -0.0023823641 -0.00014237013 -0.0020833188 -0.93687421 0.045190234
509000000 -0.93944597 0.053533804 0.00014741886 -0.0019008634 -0.00042308803 -0.0019961232 -0.93719286 0.044630706
510000000 -0.93945038 0.053773116 -0.00057976961 -0.0019773263 -0.00027455954 -0.0021157351 -0.93618649 0.044822443
511000000 -0.93833268 0.053386353 -0.00058690517 -0.0020182594 -0.00021300714 -0.0020198296 -0.93656445 0.04531014
512000000 -0.93859893 0.052582838 -0.00026104174 -0.0021284141 -0.00071823824 -0.0022080417 -0.93767971 0.045559164
513000000 -0.93925852 0.053364091 -0.00062034233 -0.0023017761 -0.00032411536 -0.0018282017 -0.93673819 0.045184139
514000000 -0.93970156 0.05405895 -0.00024934646 -0.0020732081 -0.00014657677 -0.0020278038 -0.93700421 0.045402486
515000000 -0.9396863 0.053554129 -0.00021944288 -0.0020834459 -0.00018165261 -0.0019885036 -0.9372806 0.045810938
516000000 -0.93879706 0.054346263 -8.756273e-005 -0.0023442479 -0.0004537614 -0.0017382206 -0.936903 0.045632843
517000000 -0.93915576 0.054369982 8.0228579e-005 -0.0020999343 -0.0002981766 -0.0021561559 -0.93620104 0.045233499
518000000 -0.93952155 0.054403879 -0.00034459052 -0.0021280744 -0.00016774505 -0.0022989647 -0.93694657 0.045237131
519000000 -0.93912566 0.054687694 -0.00019953097 -0.0020037973 -0.00016757871 -0.0017987767 -0.93712133 0.046395585
520000000 -0.93851727 0.053713743 -0.00053691166 -0.0024422561 -0.0001767439 -0.0018261005 -0.93630141 0.046071608
521000000 -0.93890435 0.054968316 -0.00010137301 -0.0018472981 -0.00057004049 -0.0019543716 -0.93687713 0.046718769
522000000 -0.93985558 0.054417904 -0.00050030398 -0.0019225216 -0.00045933572 -0.0020210254 -0.93666309 0.046726294
523000000 -0.93922043 0.05409715 -8.8384717e-005 -0.0024039103 -0.00024058888 -0.0021305748 -0.93688428 0.046397228
524000000 -0.93904763 0.054453924 -0.00050725724 -0.0021320553 -0.00028563011 -0.0021828797 -0.93707842 0.046304125
525000000 -0.93829834 0.055010851 -4.5667308e-005 -0.0023088718 -0.00048106187 -0.0020959978 -0.93664324 0.047200259
526000000 -0.93967724 0.055734821 -0.00063746987 -0.0019976397 -0.00021486862 -0.0019834791 -0.93700576 0.046965946
527000000 -0.93906158 0.055272676 -0.00046765173 -0.001965303 -0.00019180999 -0.002343738 -0.93701804 0.047066208
528000000 -0.93826574 0.055403799 -0.00045807558 -0.0023353512 -0.00070205732 -0.0022682245 -0.93612027 0.047163267
529000000 -0.93893331 0.055065095 -0.00046789349 -0.0021852117 -0.00017921638 -0.0021009592 -0.93645173 0.047521777
530000000 -0.93921959 0.055936344 -0.00010024534 -0.002271479 -0.00044999918 -0.001863831 -0.93727177 0.047451362
531000000 -0.93925345 0.055085678 -0.00014618071 -0.0021372433 -0.00037958482 -0.0018495473 -0.93694913 0.047671545
532000000 -0.93890399 0.055359744 -0.00013790456 -0.0021878181 -0.00034690689 -0.0017741885 -0.93706506 0.047872808
533000000 -0.93837142 0.056246426 -0.00019975485 -0.0021818094 -0.00034877021 -0.0021880046 -0.93656373 0.048213512
534000000 -0.93907911 0.055215131 -0.00054203992 -0.0021645315 -0.00047245855 -0.002257172 -0.93730891 0.047928289
535000000 -0.93868226 0.05542504 -0.00018182604 -0.0021587971 -0.00028422172 -0.0022586104 -0.93666744 0.048134696
536000000 -0.93876654 0.055822711 -0.00037454563 -0.0021324446 -9.0213405e-005 -0.0020923719 -0.93634868 0.047583297
537000000 -0.93878567 0.056115512 -0.00042701594 -0.0022703712 -0.00030563804 -0.0022713027 -0.93652987 0.048117451
538000000 -0.93883502 0.056040846 -0.00034887253 -0.0021381457 -0.00037653552 -0.0025324204 -0.93676823 0.047615699
539000000 -0.93848926 0.056442618 -0.00010149711 -0.0023517085 -0.00060584419 -0.0023782246 -0.93700916 0.047995631
540000000 -0.93898326 0.056274358 -0.00014506106 -0.0023518512 -0.0002808366 -0.0018680387 -0.93674123 0.048429459
541000000 -0.93866575 0.056598153 -0.00021512041 -0.0020954846 -0.00041887557 -0.0019560182 -0.93683791 0.04784964
542000000 -0.93868637 0.056955341 -6.873547e-005 -0.002157632 -0.0001502222 -0.0022608603 -0.93612397 0.048141051
543000000 -0.93899548 0.056845382 -0.00027826283 -0.0018766962 -0.00025275335 -0.0022638028 -0.93647164 0.049365822
544000000 -0.93886185 0.056864597 -0.00027048963 -0.0021916502 -0.00045496019 -0.0024952523 -0.93696368 0.048504945
545000000 -0.93886089 0.056280579 -0.0004081761 -0.0019708667 -0.00016720706 -0.0022396827 -0.93580252 0.048434086
546000000 -0.93844008 0.056923367 -0.00034111185 -0.0023039274 -1.3285215e-005 -0.002213676 -0.93664694 0.048717834
547000000 -0.93845344 0.056959096 -0.00028557878 -0.0024967459 -0.00012152329 -0.0020782668 -0.93649083 0.048837692
548000000 -0.93825656 0.05722478 -0.00057919568 -0.002343276 -0.00043952221 -0.0019817837 -0.93641704 0.049162894
549000000 -0.93874693 0.05671066 0.00012252154 -0.0023806198 -0.00043150946 -0.0020064807 -0.93688488 0.04961272
550000000 -0.93830621 0.057111412 -0.00047433714 -0.0022613786 -0.00047135932 -0.0024541465 -0.93698138 0.049126673
551000000 -0.93913454 0.057095669 -0.00050470757 -0.0022721791 -0.00020770852 -0.001992607 -0.93625826 0.049115282
552000000 -0.93801248 0.056406245 -0.00040981462 -0.0023176263 -9.260956e-005 -0.0022795128 -0.93684763 0.049228169
553000000 -0.93842518 0.056793608 -0.00040315677 -0.0023070376 -0.00025062345 -0.002299075 -0.93661457 0.04848532
554000000 -0.93868405 0.056580376 -1.1791308e-005 -0.0023561139 -0.00024194797 -0.0024316593 -0.93667465 0.048521832
555000000 -0.93807685 0.056976691 -0.00033889929 -0.0022147731 -0.00058959844 -0.0022333344 -0.93684864 0.049098678
556000000 -0.93810117 0.056463916 -0.00029672001 -0.0021449882 -0.00051244837 -0.002098873 -0.93713617 0.049462583
557000000 -0.93859047 0.057098646 -0.00019027956 -0.0022215138 -4.1834988e-005 -0.0022774765 -0.93695879 0.049285661
558000000 -0.93881577 0.057088427 -0.00012385733 -0.0021503242 -0.00010292992 -0.0021656589 -0.93744928 0.048903622
559000000 -0.9383418 0.057184484 -0.00039713265 -0.002592307 -0.00020070182 -0.0024252799 -0.93698329 0.049069412
560000000 -0.93835497 0.057322461 -0.0003763389 -0.0023403903 -0.00030622832 -0.0022311558 -0.93673074 0.049164582
561000000 -0.93874145 0.057259593 -0.00041983338 -0.0023922829 -0.00030451291 -0.0019860722 -0.93656874 0.049013957
562000000 -0.93809122 0.057844352 -0.00036698542 -0.002180655 -0.00020200633 -0.0025196641 -0.93706924 0.049240157
563000000 -0.93853104 0.057894398 -0.00027118163 -0.0020198612 -0.00054914213 -0.0025066 -0.93698621 0.049755067
564000000 -0.9389236 0.05728361 -0.00023708837 -0.0021714119 6.8940593e-005 -0.0023697298 -0.93744928 0.048993386
565000000 -0.93900532 0.056817856 -0.0005353681 -0.0021887324 -0.00035724838 -0.0019691845 -0.93712664 0.049272366
566000000 -0.93842047 0.056978524 -0.00024969343 -0.0023807304 -0.00049555377 -0.0020950986 -0.93674552 0.049034037
567000000 -0.93883586 0.057618469 -0.00043187762 -0.0024236741 -0.00019146551 -0.0022073169 -0.93693906 0.049047545
568000000 -0.93856275 0.057371438 -0.00030705964 -0.0022448164 -0.00036732925 -0.0022832556 -0.93697184 0.049293194
569000000 -0.93878406 0.057300985 -0.0002218525 -0.0021866751 -0.0004661282 -0.0022034128 -0.93673849 0.04869106
570000000 -0.93785298 0.057630431 -0.00031601707 -0.0020357142 -0.00058790413 -0.0020379703 -0.93638653 0.049336955
571000000 -0.93912429 0.05767009 -0.00045095693 -0.0021918095 -0.00040833975 -0.002143905 -0.93724567 0.049613956
572000000 -0.93780249 0.057435773 -0.00062342687 -0.0020696057 -0.00049411278 -0.002447973 -0.93694198 0.04984038
573000000 -0.93835789 0.05758103 -0.00021825368 -0.0022510528 -0.00057013339 -0.0022669327 -0.93730462 0.049841501
574000000 -0.93763292 0.057480074 -0.0002327663 -0.002550713 -0.00029263363 -0.0020710186 -0.93697196 0.049533516
575000000 -0.93775648 0.05779421 -0.00037142404 -0.0023995449 -0.00026862865 -0.0023824729 -0.93748379 0.049543027
576000000 -0.93774188 0.058032963 -3.2182175e-005 -0.0026397237 -0.00034122766 -0.0022488819 -0.93753487 0.050363254
577000000 -0.93804276 0.057772819 -0.00060847908 -0.0021576211 -0.0002214679 -0.0022356077 -0.93700391 0.049419891
578000000 -0.93839103 0.057799637 -0.00016821468 -0.0021388552 -0.00037771845 -0.0027127846 -0.93690842 0.049738474
579000000 -0.93817019 0.058350261 -0.00025890608 -0.00220735 -0.00046473343 -0.0024144363 -0.93698102 0.049411993
580000000 -0.93804675 0.057885099 -0.00051141996 -0.0022874698 -0.00057878683 -0.0025491803 -0.93646181 0.050673872
581000000 -0.93816453 0.058188617 -0.00031731799 -0.002224681 -0.00033539042 -0.0024667985 -0.93691784 0.049831826
582000000 -0.93810153 0.058488403 -0.00031058959 -0.0021524429 8.7123672e-006 -0.0025232227 -0.93691975 0.0503399
583000000 -0.93813688 0.058453329 -0.00021076156 -0.0022184001 -0.00057674624 -0.0021719725 -0.93693435 0.049919497
584000000 -0.93817645 0.058497559 -0.00038836306 -0.0021566765 -0.00021983079 -0.002271048 -0.93671489 0.050855204
585000000 -0.93825674 0.0582125 -0.00014901752 -0.0022107523 -0.00035504805 -0.0022129384 -0.93643564 0.050905876
586000000 -0.93883443 0.059181664 -0.0001000519 -0.0020679005 -0.000144234 -0.0024207493 -0.9369688 0.049714155
587000000 -0.93812186 0.059192527 -0.00013515772 -0.0024714435 -0.00039230028 -0.0023035866 -0.93647075 0.050663028
588000000 -0.93757874 0.059157509 -0.00032849892 -0.0025557766 -7.7772922e-005 -0.0025485263 -0.9369061 0.051073991
589000000 -0.937702 0.058674585 3.8350769e-005 -0.0023872121 -0.00030291078 -0.0021223985 -0.93650484 0.051035251
590000000 -0.93793833 0.059080224 -0.00035849126 -0.0023130879 -0.0004181379 -0.0023035072 -0.9358331 0.051444061
591000000 -0.93813175 0.059184849 -0.00036746875 -0.0023606161 -0.00051258935 -0.0022732103 -0.93754667 0.050964486
592000000 -0.93803716 0.058578484 -0.00044360076 -0.0024992197 -0.00029992367 -0.0024297764 -0.93629611 0.050216101
593000000 -0.93765169 0.059370074 -0.00037850763 -0.0022801836 -0.00016213441 -0.0024960425 -0.93674821 0.049878169
594000000 -0.93816203 0.059916824 -0.00024831353 -0.002292648 -0.0002092389 -0.001838584 -0.93715441 0.051410507
595000000 -0.93837804 0.059168521 -0.00048918859 -0.0023805923 -0.00055112428 -0.002520649 -0.93694878 0.050418105
596000000 -0.9376542 0.05960653 -0.00048851239 -0.0022999707 -0.00034960255 -0.0023167678 -0.93664742 0.051343877
597000000 -0.93842125 0.060030553 -3.660615e-005 -0.0022638661 -0.0005634086 -0.0022697784 -0.93648577 0.051446449
598000000 -0.93822664 0.060151793 -0.00066133693 -0.0021218255 -0.00031710754 -0.002491588 -0.93716282 0.051794905
599000000 -0.93819469 0.060214937 -0.00020865261 -0.0025334992 -0.00039941556 -0.0024617813 -0.93671113 0.051633354
600000000 -0.93788981 0.060218953 -0.00012644507 -0.0024221204 -0.00017002001 -0.0024540331 -0.93608183 0.051363841
601000000 -0.93783361 0.061496194 -0.00040109031 -0.0025381662 -0.00033227712 -0.0027013372 -0.93677819 0.051802944
602000000 -0.93762505 0.060564887 -0.00035054964 -0.0022791987 -0.00057575037 -0.002505963 -0.93661332 0.051541273
603000000 -0.93841404 0.061124034 -0.00050420454 -0.0023321933 -0.0002540563 -0.002021715 -0.93680298 0.05198098
604000000 -0.93765885 0.061870936 -0.00015642997 -0.0019666387 -0.00054650614 -0.0022230567 -0.93672985 0.052020624
605000000 -0.93785948 0.061514717 -0.00044567112 -0.0026720162 -0.00053185807 -0.0023092208 -0.93627566 0.052637484
606000000 -0.93797719 0.061778814 -1.636396e-005 -0.0023956066 -0.00039229472 -0.0023998031 -0.93576109 0.052452773
607000000 -0.93844134 0.061185963 -0.00047504524 -0.0025359672 -0.00054296438 -0.0021483311 -0.93665689 0.051755998
608000000 -0.9384824 0.062087767 -0.00015527333 -0.002380159 -0.0001472711 -0.0025832623 -0.93607944 0.05200357
609000000 -0.93758237 0.061645567 -0.000172082 -0.0026435351 -0.00030600213 -0.0022751603 -0.93648404 0.051705681
610000000 -0.93792236 0.06227088 -0.0001133238 -0.0023381447 -0.00024976823 -0.0027624583 -0.93553841 0.052800685
611000000 -0.93703932 0.062650569 -0.00057768391 -0.002356732 -0.00021561923 -0.0025946759 -0.93633354 0.052100562
612000000 -0.93792337 0.062354557 -0.00037023352 -0.0022338007 -0.00028520319 -0.0019823746 -0.93643135 0.052471776
613000000 -0.93797475 0.062367942 -0.00041164394 -0.0023676534 -0.00040412054 -0.0024233265 -0.93629581 0.052682124
614000000 -0.93716139 0.063230529 -0.0002115308 -0.0025318039 -0.00067150232 -0.0023316741 -0.93669808 0.052835971
615000000 -0.93752551 0.062849008 -9.7363045e-005 -0.0023127755 -0.00053281564 -0.0026711863 -0.93667114 0.052331552
616000000 -0.93715107 0.063445747 -0.00033243702 -0.0026942815 -0.00049311266 -0.0020836119 -0.93620431 0.053418674
617000000 -0.93830693 0.063443311 -0.00024459616 -0.0026454004 -0.00021203792 -0.0024993683 -0.93683791 0.05339551
618000000 -0.93760026 0.063307248 -0.00038585273 -0.0023660453 -0.0002153651 -0.0027356087 -0.93606901 0.053338457
619000000 -0.93730921 0.06381502 -0.00052383979 -0.0026404352 -0.00048447726 -0.0024077373 -0.93640935 0.054030094
620000000 -0.9377076 0.063485675 -0.00040465582 -0.0024477735 -2.5412748e-005 -0.0021603452 -0.93587804 0.053594857
621000000 -0.93779451 0.06378185 -0.00026393577 -0.0024459015 -0.0003307072 -0.0026931965 -0.93573701 0.053619284
622000000 -0.93737096 0.063788712 -0.00060809858 -0.0025017331 -0.00021776173 -0.0023744176 -0.93671197 0.054083381
623000000 -0.93691367 0.064798258 -0.00032986296 -0.0024425949 -0.00053652981 -0.0023793182 -0.9364571 0.054572325
624000000 -0.93767321 0.063537784 -0.00037109319 -0.002287559 -0.00032763352 -0.0026292559 -0.93615055 0.054286089
625000000 -0.9371869 0.065119177 -0.00019571913 -0.0026365337 -0.00022628756 -0.0023262298 -0.93554306 0.053933732
626000000 -0.93837452 0.064858787 -0.00025090686 -0.0024036902 -0.00031658571 -0.0027063389 -0.93594915 0.05504784
627000000 -0.93782312 0.064796232 -0.00055370544 -0.0026704965 -0.0003006265 -0.0028134675 -0.93598604 0.054366972
628000000 -0.93717533 0.065327585 -0.00026031031 -0.0025344763 -0.00048981601 -0.0028813514 -0.93584204 0.055374574
629000000 -0.93766463 0.065102436 -0.00031175211 -0.0024358719 -0.00059756503 -0.0025956887 -0.93650973 0.055624831
630000000 -0.93708932 0.065085381 -0.00059681427 -0.0022668834 -0.00024564262 -0.0022611439 -0.93606073 0.055696063
631000000 -0.93775684 0.065089442 -0.00050324085 -0.002396334 -0.00013125193 -0.0026129254 -0.93676233 0.055107184
632000000 -0.93786365 0.065926969 -0.00048749553 -0.0022668936 -0.00024098376 -0.0025916584 -0.93519217 0.055106666
633000000 -0.93680155 0.06544739 -0.00061401282 -0.0024482866 -0.00056862005 -0.0025797312 -0.93617356 0.054617517
634000000 -0.93734753 0.066455998 -0.00014800359 -0.0025720571 -0.00031607263 -0.0020522757 -0.93600899 0.055515997
635000000 -0.93758386 0.065322801 -0.00027619419 -0.0026771433 -0.0002446943 -0.0023003346 -0.93634427 0.055124439
636000000 -0.93701547 0.066499837 -0.00013794392 -0.0025090533 -0.00041911058 -0.0026589253 -0.93648642 0.054686055
637000000 -0.93795586 0.066285864 -0.0003795411 -0.0023071226 -0.00040863047 -0.0025294949 -0.93576831 0.055327762
638000000 -0.93666595 0.066788726 -0.00051425904 -0.002592857 -0.00028154522 -0.0025721432 -0.93611145 0.0555063
639000000 -0.93783575 0.06710685 -0.00041220812 -0.0024510652 -0.00025319768 -0.0027514487 -0.93523431 0.055929691
640000000 -0.93635517 0.067035832 -0.00037061961 -0.0022147284 -0.00028875505 -0.0023474619 -0.93537211 0.055227425
641000000 -0.93733013 0.067088224 -0.00063980336 -0.0026287364 -0.000593198 -0.0025914949 -0.93524456 0.055258647
642000000 -0.93704081 0.066584155 -0.000752758 -0.0027841802 -0.00034845594 -0.0024740023 -0.93606675 0.055696886
643000000 -0.93705946 0.067203954 -0.00035207724 -0.0022456613 -0.00044916588 -0.0026058636 -0.93598825 0.055365238
644000000 -0.93664765 0.067350172 -0.00059797306 -0.0023007598 -0.00047769037 -0.0025077381 -0.93609422 0.055787057
645000000 -0.93746901 0.06713634 -0.00036266868 -0.0024329135 -0.0004543121 -0.002471793 -0.93614995 0.056152515
646000000 -0.93738097 0.067821942 -0.00048749821 -0.0025290747 -0.00035499869 -0.0022486548 -0.93537301 0.056623165
647000000 -0.93750376 0.068076126 -0.00021320151 -0.0023737992 -0.00055888249 -0.0023460577 -0.93617386 0.056207925
648000000 -0.93708307 0.067698516 -0.00021152668 -0.0021050209 -0.00034942909 -0.0025687751 -0.93549502 0.056567337
649000000 -0.93681681 0.067646973 -0.00066263834 -0.002884289 -0.00052865018 -0.0025939762 -0.93577534 0.056765683
650000000 -0.93647712 0.067757517 -0.00046989307 -0.0025959248 -0.00032879849 -0.0022393202 -0.93546385 0.056839865
651000000 -0.93709046 0.067295887 -0.00026879023 -0.002387702 -0.00025755152 -0.0022622647 -0.93532884 0.056190528
652000000 -0.93714398 0.067790329 -0.0004746264 -0.0025430997 -0.00026236378 -0.0025500273 -0.93507093 0.056937188
653000000 -0.93709016 0.068157889 -0.00059660751 -0.0023379 -0.00036106247 -0.0028098051 -0.93565714 0.05639587
654000000 -0.93690193 0.068611562 -4.0614708e-005 -0.0026630808 -0.0003195458 -0.0024817609 -0.93604213 0.056554474
655000000 -0.93652493 0.068315297 -0.00030651668 -0.0026542742 -0.00054753956 -0.0025124084 -0.93572247 0.057007592
656000000 -0.93650472 0.068872914 -0.00040486941 -0.0028644288 -0.00028829783 -0.002728868 -0.93571216 0.056533974
657000000 -0.93696612 0.068827271 -0.00052229274 -0.0024522925 -0.00040027924 -0.0025505095 -0.93589747 0.05721635
658000000 -0.93767977 0.06871894 -0.00038720414 -0.0026675067 -0.00076619955 -0.0027637973 -0.93538934 0.056895189
659000000 -0.93712747 0.068362132 -0.00071926351 -0.0022764318 -0.00022192387 -0.0026747442 -0.93551737 0.057275984
660000000 -0.93665737 0.069151089 -0.00026446098 -0.0026402769 -0.00030302082 -0.0024898497 -0.935067 0.056817424
661000000 -0.93697637 0.069110237 -0.00032905256 -0.0022478895 -0.00068460009 -0.0024818168 -0.93608254 0.057483979
662000000 -0.9374156 0.069294907 -0.00016319139 -0.0029057413 -0.00045244079 -0.0025552937 -0.93610245 0.057694476
663000000 -0.93748301 0.068528593 -0.00060754857 -0.0028018758 -0.00070999865 -0.0028149644 -0.93542027 0.057141598
664000000 -0.93663943 0.068511173 -0.00041311912 -0.0026382536 -0.00035125038 -0.0026025912 -0.9357788 0.057110891
665000000 -0.93695349 0.069072708 -0.00083322916 -0.0025691427 -0.00016900394 -0.0024610448 -0.9359253 0.05739449
666000000 -0.9373098 0.069028705 -0.00026564192 -0.0028203819 -0.00054382894 -0.0027129839 -0.93603784 0.056848973
667000000 -0.93710631 0.068934783 -0.00062640687 -0.0028171088 -0.00011721057 -0.0026132613 -0.93590951 0.05733772
668000000 -0.93741983 0.069426879 -0.00043106257 -0.0026600233 -0.00044807568 -0.0024882918 -0.93627733 0.056873005
669000000 -0.93733621 0.068643533 -0.00028083863 -0.0030849315 -0.00037403288 -0.0027988807 -0.93549699 0.056900434
670000000 -0.93718803 0.06905739 -5.5213724e-005 -0.0027454828 -0.00051294133 -0.0025310591 -0.93563414 0.058375362
