!Keysight Technologies,M9374A,MY55442783,A.12.55.05
!Date: Friday, May 21, 2021 11:20:04
!Correction: S11(Full 2 Port(1,2)) 
!S21(Full 2 Port(1,2)) 
!S12(Full 2 Port(1,2)) 
!S22(Full 2 Port(1,2)) 
!S2P File: Measurements: S11, S21, S12, S22:
# Hz S  RI   R 50
500000000 -0.93883723 0.052238535 -1.3852448e-007 -0.0020764393 -0.00025401139 -0.0022151077 -0.93667626 0.044372045
501000000 -0.9394058 0.053667463 -0.00029713317 -0.0021323422 -0.00020758837 -0.0021786529 -0.9368248 0.04486981
502000000 -0.93906862 0.052796699 8.3244668e-005 -0.0017380303 -0.00050649635 -0.0021372214 -0.93709987 0.044183686
503000000 -0.93881714 0.052277591 -0.00048518067 -0.0019580545 -0.00043020025 -0.0020775667 -0.9371233 0.045139983
504000000 -0.93887079 0.053344801 -0.00054623949 -0.0016801573 -0.00047608523 -0.0022180607 -0.93752718 0.044155769
505000000 -0.93883544 0.053630613 -3.1639782e-005 -0.0023459776 -0.00020085696 -0.0019117288 -0.9367125 0.044244714
506000000 -0.93896896 0.053483509 -0.00018760118 -0.0019649519 -0.00021899019 -0.0018257746 -0.93652248 0.044798028
507000000 -0.93838477 0.053742945 -0.0002521406 -0.0019981004 -0.0001685826 -0.0022520325 -0.93672609 0.045483362
508000000 -0.93939668 0.053618923 -0.00059908326 -0.0021556332 -0.00046328513 -0.0023145392 -0.93716609 0.045588985
509000000 -0.93891382 0.05414883 -0.00029676131 -0.0018720115 -0.00066320383 -0.0018534495 -0.93715411 0.045958202
510000000 -0.93915534 0.054015938 -0.0005319012 -0.0020086668 -0.00020542181 -0.0019585651 -0.93633199 0.045824014
511000000 -0.93858761 0.05404691 -0.00058103667 -0.0019308799 -0.00022515148 -0.0022143843 -0.93660533 0.046209682
512000000 -0.93894017 0.053874832 -0.00039521209 -0.0021015364 -0.00011035364 -0.0018895968 -0.93665147 0.045535404
513000000 -0.93886179 0.053798072 -5.1756383e-006 -0.0018855511 7.5963035e-006 -0.0018201313 -0.93686855 0.04622335
514000000 -0.93911463 0.054383498 -0.00045309885 -0.0021485009 -2.211211e-005 -0.002274632 -0.93696624 0.046147399
515000000 -0.93914878 0.054739423 -0.0001733485 -0.0019508844 -1.6642383e-005 -0.0022897227 -0.93672353 0.046515767
516000000 -0.93856412 0.05524778 -0.00028200311 -0.0022290214 -0.00013741895 -0.0019380115 -0.93640667 0.046234667
517000000 -0.93951648 0.055107083 -0.00024856924 -0.0022097144 -0.00025444711 -0.0019276408 -0.93668491 0.046741456
518000000 -0.93887538 0.055320226 -0.00015380811 -0.0020423569 0.0001499911 -0.0021514224 -0.93682235 0.046866428
519000000 -0.93873054 0.055028267 -0.00029902189 -0.0021920924 -6.9834612e-005 -0.0021503752 -0.93636233 0.047041841
520000000 -0.93809134 0.054746758 -0.00062892481 -0.0023830053 1.4129024e-005 -0.0020892983 -0.93610376 0.04746975
521000000 -0.93871206 0.056005422 -0.00013128479 -0.0022929164 -0.00048752158 -0.0022797354 -0.93663883 0.04689531
522000000 -0.93947995 0.055187203 -0.00014826677 -0.0019158935 -0.00037713253 -0.0020442302 -0.93667918 0.047280658
523000000 -0.93878287 0.054896731 -0.00030211866 -0.0020717944 -6.4464781e-005 -0.0021289343 -0.93645579 0.047141794
524000000 -0.93828094 0.056021187 -0.00061977742 -0.0018160696 -0.00014136627 -0.0023043905 -0.93676448 0.047487453
525000000 -0.93789512 0.055984862 -0.00034945793 -0.0022369553 -6.2169012e-005 -0.0020090984 -0.9366228 0.048320234
526000000 -0.93882537 0.056267116 -0.00045478169 -0.0022990974 -0.0003276722 -0.0024332164 -0.93696344 0.048156485
527000000 -0.93870288 0.055652916 -0.00041284348 -0.0021866106 -0.00031293629 -0.002292108 -0.93657935 0.047382865
528000000 -0.93813801 0.056423068 -0.0001932091 -0.002195253 -0.0002636117 -0.0025040021 -0.93567115 0.048684694
529000000 -0.93905038 0.056687176 -4.7542777e-005 -0.0020362218 -9.4036346e-005 -0.0023696432 -0.93590719 0.048425816
530000000 -0.93868506 0.05696521 -0.00023408687 -0.0020742528 -0.00016515524 -0.002296227 -0.93687361 0.047989424
531000000 -0.93906265 0.056188557 -0.00027232638 -0.0021293054 -0.0006237459 -0.0017555635 -0.93663329 0.048115823
532000000 -0.93851477 0.056461066 -0.00026352637 -0.0020406833 -0.00027675313 -0.0020967121 -0.93706203 0.048614159
533000000 -0.93856227 0.057045747 -0.00029338471 -0.0019508081 -0.00040805055 -0.002204902 -0.93591416 0.049199723
534000000 -0.93833601 0.0563698 -0.00013329335 -0.0023143832 -0.00032623927 -0.00200727 -0.93694717 0.048448566
535000000 -0.93855613 0.057302237 -0.00017165596 -0.0023825746 -0.00040589334 -0.0022549219 -0.93603408 0.048697822
536000000 -0.93818974 0.057009548 -8.616229e-005 -0.0018235793 -0.00042038807 -0.0021128114 -0.93568033 0.04823225
537000000 -0.93881369 0.056495581 -0.00029793291 -0.0019213116 -0.00012748249 -0.0017795734 -0.93666047 0.049279999
538000000 -0.93863678 0.0568555 -0.00060517254 -0.0025505547 -0.00041775126 -0.0020240194 -0.93615925 0.048483193
539000000 -0.9384681 0.057029974 -0.00022552969 -0.0020902443 -0.00031696408 -0.0019519472 -0.93623143 0.049121033
540000000 -0.93844247 0.057724778 -0.00033823369 -0.0023167406 -3.2335614e-005 -0.0022103114 -0.93602312 0.04858752
541000000 -0.93844241 0.057804495 -0.00038595041 -0.0020966623 -0.00023461945 -0.0020169613 -0.93635952 0.048884798
542000000 -0.93829393 0.057377063 -0.00061677978 -0.0019762376 -0.0003196841 -0.0021505216 -0.93620217 0.049267311
543000000 -0.9390747 0.057407137 -0.00034234487 -0.0019168447 -0.00017851363 -0.0021741609 -0.9364422 0.049191546
544000000 -0.93884456 0.057652 -0.00025123407 -0.0023013575 -0.00027997649 -0.0024536077 -0.93691665 0.050072409
545000000 -0.93900931 0.056883398 -0.00046119059 -0.0020576341 -0.00029205624 -0.0023030529 -0.9361499 0.049561091
546000000 -0.93866098 0.057625882 -0.00042565193 -0.0019985049 -0.00043744815 -0.0021626526 -0.93649054 0.049600441
547000000 -0.93864071 0.057740442 -9.1234171e-005 -0.0021367713 -0.00079630606 -0.0019602687 -0.93683279 0.049209047
548000000 -0.93737477 0.057825919 -0.00057610025 -0.0022853976 -0.00040079383 -0.0023095857 -0.93628955 0.05011145
549000000 -0.9376148 0.057452817 -0.00043002309 -0.0022498376 -0.00019512785 -0.0024683599 -0.93633932 0.049810965
550000000 -0.93779051 0.058545586 -0.00029061662 -0.0023214349 -0.0003757822 -0.0021266094 -0.93676001 0.050706249
551000000 -0.93785191 0.057887726 -0.00065324915 -0.0020250303 -0.00035671613 -0.0020280615 -0.93662661 0.049941931
552000000 -0.93863958 0.057173457 -0.00041918148 -0.0023298936 -0.00044290102 -0.00194332 -0.9357475 0.049925249
553000000 -0.93836075 0.058100671 -0.00064698543 -0.0022149284 -0.00027059225 -0.0023449156 -0.93596846 0.049484529
554000000 -0.9381777 0.057612393 -0.0003283858 -0.0022964049 -0.00041026733 -0.0022703009 -0.93676764 0.049722936
555000000 -0.93795139 0.057671066 -0.0002730886 -0.0021895622 -0.00043577101 -0.0022528893 -0.93653154 0.049716946
556000000 -0.9372775 0.057353873 -0.00030058299 -0.002195369 -0.00055149687 -0.0026317281 -0.93705684 0.05039097
557000000 -0.93829656 0.058046132 -0.00015522706 -0.0020856909 -0.00049206696 -0.0021176296 -0.93602097 0.050120402
558000000 -0.93815345 0.057840567 -0.00069894927 -0.0020804496 -0.00023554894 -0.0020356257 -0.93681657 0.049711235
559000000 -0.93811148 0.057906579 -0.00041552476 -0.0021951541 -0.00016485644 -0.0021549989 -0.93687934 0.050409496
560000000 -0.93832755 0.058388617 -0.00043548501 -0.0021171151 -0.00037632469 -0.0020693254 -0.9362964 0.049788877
561000000 -0.93824041 0.057924658 -0.00045849892 -0.002323509 -0.00010882562 -0.0022040419 -0.93659961 0.049520031
562000000 -0.93820268 0.058517464 -0.00046358252 -0.0023239395 -0.00054731243 -0.0021470371 -0.93668807 0.050502341
563000000 -0.93802559 0.058383655 -0.00022515033 -0.0024429946 -0.00035022461 -0.0022329278 -0.93702722 0.050450724
564000000 -0.93856484 0.058000989 -0.00028016404 -0.0024027501 -0.00010139112 -0.0022534833 -0.93698579 0.049893998
565000000 -0.93774599 0.058162864 -0.00054694794 -0.0021050791 -0.00040113396 -0.0025393914 -0.937024 0.050661672
566000000 -0.93795443 0.058001444 -0.00036446343 -0.0024893268 -0.00034859005 -0.0024702961 -0.93699598 0.050051849
567000000 -0.93831593 0.058339041 -0.00047811208 -0.0023955212 -0.00020497174 -0.0025117376 -0.93636173 0.050436907
568000000 -0.93832809 0.058344994 -0.00023838528 -0.0023145629 -0.00028452909 -0.0023037251 -0.93660051 0.050490011
569000000 -0.93810749 0.058244262 -0.00027207195 -0.0023060769 -0.00044777643 -0.0026160576 -0.93678224 0.050011508
570000000 -0.93778998 0.058882996 -0.00038992098 -0.0023359098 -0.00026295931 -0.0021286975 -0.9365766 0.05093801
571000000 -0.93853849 0.057940226 2.7678021e-005 -0.0023870042 -0.0004602363 -0.0021559717 -0.93662483 0.0509286
572000000 -0.93714732 0.058722977 3.8925677e-006 -0.0024287926 -0.00057039777 -0.0024287126 -0.93628556 0.050439488
573000000 -0.93864208 0.058260683 0.0001984166 -0.0024807339 -0.00074440642 -0.0024391813 -0.93674469 0.051228054
574000000 -0.93731356 0.058774952 -0.00036651082 -0.0024691063 -0.00041222112 -0.0025703197 -0.93747002 0.050603323
575000000 -0.93770236 0.058724236 -0.00015756224 -0.0024745357 -0.0003939069 -0.0022244842 -0.93678391 0.051002443
576000000 -0.93785828 0.058745693 -0.00069166115 -0.0023547953 -0.00038413511 -0.0023297404 -0.9365918 0.051165845
577000000 -0.93796837 0.059054021 -0.00031249606 -0.0024020369 -0.00045473169 -0.0026888291 -0.9375028 0.050492801
578000000 -0.9382388 0.059549835 -0.00026386566 -0.0021763502 -0.00061954389 -0.0023961675 -0.9364233 0.05095008
579000000 -0.93780154 0.05957805 -0.00064870372 -0.0024627545 -0.00039904934 -0.0022314577 -0.9372651 0.049948417
580000000 -0.93773115 0.058835961 -0.00030041055 -0.0023055018 -0.00034485021 -0.0027616976 -0.9365409 0.051431149
581000000 -0.93779558 0.059179872 -0.0002600679 -0.0024966621 -0.00042752092 -0.0024438056 -0.93760437 0.050903574
582000000 -0.93753487 0.059387274 -0.00038017271 -0.0022469161 -0.00015888776 -0.0025569445 -0.9362942 0.051094003
583000000 -0.9381234 0.059181634 -0.00051034673 -0.0023115594 -0.00047518883 -0.0024382521 -0.93649268 0.050752748
584000000 -0.93808389 0.059300113 -0.00039286664 -0.0025995623 -0.0002108297 -0.002414329 -0.93622082 0.05169886
585000000 -0.93809921 0.059656322 -0.00013731548 -0.0026056299 -0.00037744228 -0.0024322458 -0.93620753 0.051938657
586000000 -0.93784654 0.059742317 -0.00037502227 -0.0022321632 -0.00017214639 -0.0025516937 -0.93642044 0.051108826
587000000 -0.93810648 0.060031712 -0.00021749279 -0.002026072 -0.00056270132 -0.0022811345 -0.93612111 0.051674187
588000000 -0.93745464 0.059380818 -0.00037708355 -0.002160135 -0.00046865686 -0.0020518731 -0.93682939 0.051847756
589000000 -0.93793982 0.059973054 -0.0002598417 -0.0022717703 -0.00049537705 -0.0026824926 -0.93634492 0.053082258
590000000 -0.93717879 0.060516894 -0.00034657214 -0.0024891479 -0.00028336822 -0.0021512355 -0.93601704 0.051973727
591000000 -0.93790829 0.060256444 -0.00022479538 -0.0024474794 -0.00045340185 -0.0024911407 -0.93643165 0.051905937
592000000 -0.93803328 0.05996846 -0.00027216034 -0.0027681002 -0.00032382581 -0.0022810579 -0.93690115 0.051872659
593000000 -0.9368661 0.059788305 -0.00023452209 -0.0022017683 -0.00039680235 -0.0022941353 -0.93696684 0.051596448
594000000 -0.93718565 0.061049238 -0.0004247262 -0.0026832183 -0.00045779478 -0.0020347934 -0.93654996 0.052452281
595000000 -0.93763703 0.060652703 -0.00064381794 -0.0025225598 -0.00020896512 -0.0025014267 -0.93679178 0.052509014
596000000 -0.9376986 0.06084552 -0.00018762828 -0.0022311751 -0.00018652374 -0.0025279671 -0.93657482 0.052311376
597000000 -0.93773699 0.061008975 -4.2211857e-005 -0.0023836675 -0.00055572682 -0.0028575629 -0.93665457 0.052841831
598000000 -0.9377284 0.061298784 -0.00039024581 -0.0026660936 -0.00014746806 -0.0025321648 -0.93694574 0.052755289
599000000 -0.93766022 0.061032552 -0.00037822264 -0.0024792282 -0.00037516034 -0.0024978924 -0.93656492 0.052886751
600000000 -0.93779302 0.061708711 -0.00030284899 -0.0023653763 -9.2043236e-005 -0.0023357482 -0.93632525 0.052617803
601000000 -0.93726683 0.062135026 -0.00021883767 -0.0021379916 -0.00023865582 -0.0022119794 -0.93701905 0.053056229
602000000 -0.93769646 0.062246807 -0.00041481113 -0.0024003065 -0.0005031586 -0.0019345228 -0.93654972 0.052813362
603000000 -0.93804443 0.062155787 -0.00057758443 -0.0022857767 -0.0006740776 -0.0022175603 -0.93657261 0.052706394
604000000 -0.93714315 0.062770203 -0.00059771683 -0.00257336 -0.00056558853 -0.0026431994 -0.93624747 0.053181048
605000000 -0.93729353 0.062216513 -0.00039054328 -0.0022363467 -6.7473688e-005 -0.002610025 -0.93598789 0.053587001
606000000 -0.93763918 0.062413871 -0.00028866128 -0.0026685551 -0.00019908712 -0.0022753994 -0.93541676 0.053288423
607000000 -0.93777001 0.062416617 -0.00018614242 -0.0022689288 -0.00045612783 -0.0023127066 -0.93633133 0.052828789
608000000 -0.93781871 0.063578777 -0.00030488332 -0.0023856109 -0.0004831953 -0.0025100089 -0.93655169 0.053410035
609000000 -0.93688279 0.062618427 -0.00022174351 -0.0026544253 -0.00052290753 -0.0023392208 -0.93576854 0.053494524
610000000 -0.93749815 0.062822707 7.6373588e-005 -0.0022257364 -0.00062145764 -0.0026129426 -0.93564212 0.054111399
611000000 -0.93669498 0.063253507 -0.00042491703 -0.0027525376 -0.00011104659 -0.0024629564 -0.93647397 0.053107705
612000000 -0.93723887 0.063393906 -7.1295828e-005 -0.0024797716 -0.00026949463 -0.0029668489 -0.93669373 0.054041196
613000000 -0.93718261 0.06386026 -0.00052746321 -0.0024340933 -0.00057764183 -0.0019255911 -0.93644202 0.053863134
614000000 -0.9367609 0.064477041 -0.00017524857 -0.0025493351 -0.00040816388 -0.0025268672 -0.93665487 0.054317575
615000000 -0.93718326 0.063944913 -0.00028833011 -0.0027116393 -0.00021777675 -0.0025039343 -0.93585116 0.053848498
616000000 -0.9380222 0.064595014 -0.00060461275 -0.0025866176 -0.00031757876 -0.0027691012 -0.93569583 0.054696433
617000000 -0.93766266 0.064402215 -0.0002115664 -0.002383223 -0.00035723962 -0.0026077877 -0.93621111 0.054995589
618000000 -0.93755585 0.064402781 -0.0004676847 -0.0026432115 -0.00012903566 -0.0025883729 -0.93646705 0.054688871
619000000 -0.93724686 0.064767867 -0.00067948352 -0.00249071 -0.00024916857 -0.0027328781 -0.93632936 0.054736286
620000000 -0.93666965 0.064877555 -0.00066172291 -0.0024319456 -0.0007155916 -0.0025948295 -0.93594456 0.054824229
621000000 -0.93804944 0.064735152 -0.00021219296 -0.0026380245 -0.00024330852 -0.0024972784 -0.93561578 0.054804564
622000000 -0.93660957 0.064217113 -0.00021830475 -0.0023892804 -0.00042462759 -0.0024755544 -0.93587816 0.055380635
623000000 -0.93681788 0.065736122 -0.00030507258 -0.0027629628 -0.00016841167 -0.0024137471 -0.93604368 0.055037543
624000000 -0.93709517 0.06509278 -3.4119072e-005 -0.002711822 -0.00040370671 -0.002400514 -0.93568355 0.055400446
625000000 -0.93678057 0.06658116 -0.00041337122 -0.0026111014 -0.00022431149 -0.0024177495 -0.93512589 0.054828133
626000000 -0.93812186 0.065576553 -0.00041086986 -0.0023558892 -0.00029231454 -0.002383681 -0.9355585 0.056285258
627000000 -0.93740761 0.06587135 -0.00026163287 -0.0025396456 -0.00032855902 -0.0022938303 -0.93603641 0.055117365
628000000 -0.93742031 0.066530347 -0.00056696159 -0.0027026553 -0.00033368522 -0.0024184757 -0.93599141 0.055905078
629000000 -0.93728542 0.066227853 -0.00041571367 -0.0026771647 -0.00030925393 -0.0024175674 -0.93649501 0.056290369
630000000 -0.9367345 0.06671454 -0.0004610421 -0.0025991797 -0.00027619224 -0.002394811 -0.93605578 0.056595389
631000000 -0.93757945 0.066256538 -0.00024843088 -0.0026579162 -0.00062333967 -0.0023608885 -0.93595481 0.056594681
632000000 -0.93747956 0.066819206 -0.00036773688 -0.0023813003 -0.0005019377 -0.0025874681 -0.93539339 0.056144442
633000000 -0.93718457 0.066669755 -0.00062895322 -0.0026919481 -0.00016682142 -0.002659447 -0.93625551 0.056081921
634000000 -0.93730491 0.067263246 -0.00038497799 -0.002596281 -0.00032452919 -0.0025039806 -0.93578058 0.056838751
635000000 -0.93743616 0.066787794 -0.00060864084 -0.0024001331 -0.00026904067 -0.0024700856 -0.93550062 0.056450322
636000000 -0.93669593 0.067176551 -0.00074041844 -0.0025002209 -0.00059234927 -0.0026046492 -0.93591285 0.056482382
637000000 -0.93674648 0.06747622 -0.00024919442 -0.0027728258 -0.00017948446 -0.0028237901 -0.93512195 0.057031389
638000000 -0.93683118 0.067261726 -0.00037122236 -0.0026781673 -0.00059547269 -0.0023380117 -0.93586689 0.056399778
639000000 -0.93782365 0.068072207 -0.00043249471 -0.0027132854 -0.00020059982 -0.0025386873 -0.93508619 0.056828041
640000000 -0.93666703 0.068098865 -0.00015545539 -0.0022265371 -0.00051996141 -0.0026334219 -0.93528682 0.056266982
641000000 -0.93708849 0.067637533 -0.000484722 -0.0025734808 -0.00050200481 -0.0028089413 -0.93487674 0.056729253
642000000 -0.93694013 0.068078898 -0.00022316682 -0.0027622227 -0.00024728585 -0.0023617037 -0.93610954 0.057254236
643000000 -0.93699527 0.069242693 -0.00018283111 -0.0025162115 -0.00043384163 -0.002547842 -0.93524134 0.057310201
644000000 -0.9370681 0.068151869 -0.00061176182 -0.0028488883 -0.000421565 -0.0028164086 -0.9360683 0.057436913
645000000 -0.93685931 0.068686709 -0.00045084124 -0.002505311 -0.00050691061 -0.0029132059 -0.93545645 0.057153892
646000000 -0.93706536 0.068803161 -8.7011584e-005 -0.0026911576 -0.00057796005 -0.0026513988 -0.93497187 0.057619672
647000000 -0.9374333 0.068920992 -0.00031886206 -0.0027042618 -0.00024030586 -0.0027978732 -0.93568003 0.057085313
648000000 -0.93675035 0.069057032 -0.00043778299 -0.0025856092 -0.0005689711 -0.002564548 -0.93505162 0.057716008
649000000 -0.93735009 0.0687223 -0.00052103988 -0.0024674379 -0.00069705647 -0.0027229385 -0.93600911 0.057736546
650000000 -0.93644583 0.069046006 -0.00027742199 -0.0029444203 -0.00032211089 -0.0025260516 -0.93517089 0.057677232
651000000 -0.93669003 0.068929568 -0.00050813967 -0.0027084684 -0.00052620709 -0.003017884 -0.93530113 0.057524245
652000000 -0.93764991 0.068949156 -0.00034817128 -0.0028669627 -0.0005649688 -0.0027742204 -0.93479753 0.057703227
653000000 -0.93677312 0.068998322 -0.00016178275 -0.0028583608 -0.00024745791 -0.0024692647 -0.93568689 0.057372123
654000000 -0.9369877 0.069699131 -0.0003158598 -0.0026672769 -0.00070196 -0.0025777137 -0.935996 0.057806935
655000000 -0.93640703 0.06968011 -0.00028577133 -0.0028228408 -0.000319532 -0.0023681663 -0.93505263 0.058253679
656000000 -0.93671519 0.06930431 -0.00048975943 -0.0026672406 -0.00025115858 -0.0029127798 -0.93583566 0.05838082
657000000 -0.93672246 0.069315292 -0.0002260381 -0.0024124081 -0.00026902222 -0.0024855633 -0.93580532 0.058279362
658000000 -0.93677038 0.069788694 -0.00034831927 -0.0026057153 4.9073707e-005 -0.0029054817 -0.93516594 0.057995725
659000000 -0.93667132 0.069522902 -0.00045357086 -0.0025691881 -0.00043400135 -0.0026691486 -0.93589956 0.0581511
660000000 -0.93670189 0.069952428 -0.00067278516 -0.002738826 -0.00018160431 -0.002573957 -0.93518806 0.057645697
661000000 -0.93694687 0.06996467 -0.00024494683 -0.0027202037 -0.00072383392 -0.0025532627 -0.93567991 0.058510471
662000000 -0.9370448 0.069839485 -4.5973364e-005 -0.0025153321 -0.0005320686 -0.0026461864 -0.93589145 0.058517136
663000000 -0.93684524 0.069896951 -0.00035736535 -0.0025346107 -0.0003955467 -0.0026242821 -0.93502903 0.058205802
664000000 -0.93690789 0.069012769 -0.00029962134 -0.0028044423 -0.00033315385 -0.0023955333 -0.93570089 0.058652237
665000000 -0.93672734 0.070338741 -1.0002408e-005 -0.0024121434 -0.00051199866 -0.0026214705 -0.93511045 0.058613211
666000000 -0.9366805 0.070128113 -0.00038480133 -0.0026063614 -0.00025091946 -0.0026669765 -0.93529797 0.057723746
667000000 -0.93678927 0.070502356 -0.00044986451 -0.0026760052 -0.00043014629 -0.003046897 -0.93527418 0.058230918
668000000 -0.9364329 0.07055714 -0.00058512337 -0.0024941347 -0.00031921332 -0.0026905879 -0.93557161 0.057954308
669000000 -0.93685263 0.070868455 -0.00024466412 -0.0025995423 -0.00025618545 -0.0024975983 -0.93499029 0.057885662
670000000 -0.936728 0.070748031 -0.00032955091 -0.0029360966 -0.00028815054 -0.0027079845 -0.93558848 0.059305266
