Frequency	 |S11|	 Phase(S11)	 ExtPh(S11)	 |S21|	 Phase(S21)	 ExtPh(S21)	 |S12|	 Phase(S12)	 ExtPh(S12)	 |S22|	 Phase(S22)	 ExtPh(S22) 
5.000000e-001	-1.761985e+000	-5.823933e+000	-5.823933e+000	-5.349021e+001	4.823330e+001	4.823330e+001	-5.526998e+001	7.139321e+001	7.139321e+001	-1.754204e+000	-5.164712e+000	-5.164712e+000	
5.010000e-001	-1.759684e+000	-5.709460e+000	-5.709460e+000	-5.260658e+001	7.400266e+001	7.400266e+001	-5.372488e+001	-6.461588e+001	-6.461588e+001	-1.741467e+000	-5.268107e+000	-5.268107e+000	
5.020000e-001	-1.752456e+000	-5.613056e+000	-5.613056e+000	-6.087036e+001	3.054277e+001	3.054277e+001	-5.776081e+001	8.939666e+001	-9.060334e+001	-1.741898e+000	-5.239202e+000	-5.239202e+000	
5.030000e-001	-1.756962e+000	-5.664129e+000	-5.664129e+000	-5.724100e+001	6.181996e+001	6.181996e+001	-5.184061e+001	7.914614e+001	-1.008539e+002	-1.751207e+000	-5.273086e+000	-5.273086e+000	
5.040000e-001	-1.761756e+000	-5.659687e+000	-5.659687e+000	-6.513839e+001	3.803667e+001	3.803667e+001	-5.837331e+001	6.444628e+001	-1.155537e+002	-1.746680e+000	-5.303139e+000	-5.303139e+000	
5.050000e-001	-1.758270e+000	-5.639794e+000	-5.639794e+000	-5.621070e+001	8.978458e+001	8.978458e+001	-5.739308e+001	8.582934e+001	-9.417066e+001	-1.753369e+000	-5.259613e+000	-5.259613e+000	
5.060000e-001	-1.752137e+000	-5.667176e+000	-5.667176e+000	-5.459412e+001	8.866727e+001	8.866727e+001	-5.616327e+001	7.443583e+001	-1.055642e+002	-1.744672e+000	-5.260758e+000	-5.260758e+000	
5.070000e-001	-1.763036e+000	-5.706688e+000	-5.706688e+000	-6.061804e+001	-7.634306e+001	1.036569e+002	-5.558478e+001	8.558824e+001	-9.441176e+001	-1.742981e+000	-5.286935e+000	-5.286935e+000	
5.080000e-001	-1.758669e+000	-5.789669e+000	-5.789669e+000	-5.747239e+001	7.260145e+001	7.260145e+001	-5.270854e+001	6.805467e+001	-1.119453e+002	-1.738256e+000	-5.341263e+000	-5.341263e+000	
5.090000e-001	-1.752584e+000	-5.757759e+000	-5.757759e+000	-6.131451e+001	-7.700203e+001	1.029980e+002	-5.486726e+001	6.020329e+001	-1.197967e+002	-1.750620e+000	-5.449156e+000	-5.449156e+000	
5.100000e-001	-1.751848e+000	-5.807171e+000	-5.807171e+000	-5.930743e+001	-7.926241e+001	1.007376e+002	-5.495893e+001	-6.302774e+001	-2.430277e+002	-1.759010e+000	-5.464713e+000	-5.464713e+000	
5.110000e-001	-1.753881e+000	-5.780452e+000	-5.780452e+000	-6.131342e+001	-8.052858e+001	9.947142e+001	-5.430101e+001	5.084102e+001	-1.291590e+002	-1.733789e+000	-5.435912e+000	-5.435912e+000	
5.120000e-001	-1.764066e+000	-5.806134e+000	-5.806134e+000	-5.650756e+001	-6.152335e+001	1.184767e+002	-5.465135e+001	7.042235e+001	-1.095777e+002	-1.749051e+000	-5.385740e+000	-5.385740e+000	
5.130000e-001	-1.761349e+000	-5.904759e+000	-5.904759e+000	-5.429178e+001	6.652232e+001	2.465223e+002	-5.961627e+001	-8.285908e+001	-8.285908e+001	-1.745221e+000	-5.425375e+000	-5.425375e+000	
5.140000e-001	-1.758140e+000	-5.816623e+000	-5.816623e+000	-5.678108e+001	6.357274e+001	2.435727e+002	-5.894236e+001	-7.557194e+001	-7.557194e+001	-1.741934e+000	-5.544020e+000	-5.544020e+000	
5.150000e-001	-1.753175e+000	-5.859318e+000	-5.859318e+000	-5.401031e+001	8.391060e+001	2.639106e+002	-6.274451e+001	-8.720570e+001	-8.720570e+001	-1.748969e+000	-5.398119e+000	-5.398119e+000	
5.160000e-001	-1.764769e+000	-5.761432e+000	-5.761432e+000	-5.397893e+001	7.930733e+001	2.593073e+002	-7.079702e+001	-8.768434e+001	-8.768434e+001	-1.744097e+000	-5.499685e+000	-5.499685e+000	
5.170000e-001	-1.756930e+000	-5.972319e+000	-5.972319e+000	-6.092601e+001	5.623678e+001	2.362368e+002	-6.390278e+001	6.231245e+001	-1.176875e+002	-1.750392e+000	-5.497871e+000	-5.497871e+000	
5.180000e-001	-1.750658e+000	-5.777817e+000	-5.777817e+000	-6.514693e+001	-7.388885e+001	1.061112e+002	-5.674329e+001	-6.886082e+001	-2.488608e+002	-1.741488e+000	-5.411032e+000	-5.411032e+000	
5.190000e-001	-1.754299e+000	-5.869061e+000	-5.869061e+000	-5.498429e+001	8.647412e+001	8.647412e+001	-6.175387e+001	1.645183e+001	-1.635482e+002	-1.749281e+000	-5.570938e+000	-5.570938e+000	
5.200000e-001	-1.764890e+000	-5.897109e+000	-5.897109e+000	-5.533757e+001	7.737806e+001	7.737806e+001	-6.327831e+001	-5.273250e+001	-2.327325e+002	-1.749164e+000	-5.569977e+000	-5.569977e+000	
5.210000e-001	-1.765009e+000	-5.876233e+000	-5.876233e+000	-5.417895e+001	7.931118e+001	7.931118e+001	-5.115987e+001	-8.571803e+001	-2.657180e+002	-1.731371e+000	-5.551220e+000	-5.551220e+000	
5.220000e-001	-1.759567e+000	-5.852699e+000	-5.852699e+000	-5.663957e+001	8.263702e+001	8.263702e+001	-5.831865e+001	6.894590e+001	-2.910541e+002	-1.734634e+000	-5.547074e+000	-5.547074e+000	
5.230000e-001	-1.751983e+000	-5.961944e+000	-5.961944e+000	-6.601031e+001	1.445262e+001	1.445262e+001	-5.507303e+001	8.409396e+001	-2.759060e+002	-1.753634e+000	-5.565900e+000	-5.565900e+000	
5.240000e-001	-1.772448e+000	-5.950897e+000	-5.950897e+000	-5.705883e+001	7.175833e+001	7.175833e+001	-5.780404e+001	-8.067341e+001	-2.606734e+002	-1.734620e+000	-5.574042e+000	-5.574042e+000	
5.250000e-001	-1.772329e+000	-5.935055e+000	-5.935055e+000	-6.430672e+001	-4.985089e+001	-4.985089e+001	-5.781223e+001	6.657787e+001	-2.934221e+002	-1.735325e+000	-5.652127e+000	-5.652127e+000	
5.260000e-001	-1.761474e+000	-6.054945e+000	-6.054945e+000	-6.056004e+001	7.579175e+001	7.579175e+001	-5.681909e+001	8.764526e+001	-2.723547e+002	-1.752519e+000	-5.642056e+000	-5.642056e+000	
5.270000e-001	-1.763062e+000	-5.894343e+000	-5.894343e+000	-5.190892e+001	-8.735051e+001	9.264949e+001	-5.749220e+001	6.518376e+001	-2.948162e+002	-1.748376e+000	-5.568435e+000	-5.568435e+000	
5.280000e-001	-1.756796e+000	-6.022319e+000	-6.022319e+000	-5.518911e+001	-7.665771e+001	1.033423e+002	-5.763708e+001	6.776458e+001	-2.922354e+002	-1.754577e+000	-5.624765e+000	-5.624765e+000	
5.290000e-001	-1.762252e+000	-6.024186e+000	-6.024186e+000	-5.899864e+001	-5.112017e+001	1.288798e+002	-5.177372e+001	-7.652220e+001	-2.565222e+002	-1.741272e+000	-5.506413e+000	-5.506413e+000	
5.300000e-001	-1.758467e+000	-6.008893e+000	-6.008893e+000	-5.329015e+001	-8.768318e+001	9.231682e+001	-5.531154e+001	-4.975970e+001	-2.297597e+002	-1.729345e+000	-5.657297e+000	-5.657297e+000	
5.310000e-001	-1.761810e+000	-6.065137e+000	-6.065137e+000	-5.501526e+001	-7.615465e+001	1.038454e+002	-5.399141e+001	6.540438e+001	-1.145956e+002	-1.742229e+000	-5.676134e+000	-5.676134e+000	
5.320000e-001	-1.767307e+000	-6.009284e+000	-6.009284e+000	-5.565396e+001	-8.632899e+001	9.367101e+001	-6.523649e+001	7.069704e+001	-1.093030e+002	-1.752728e+000	-5.593466e+000	-5.593466e+000	
5.330000e-001	-1.757914e+000	-6.038572e+000	-6.038572e+000	-6.246993e+001	-3.451963e+001	1.454804e+002	-5.831235e+001	6.036934e+001	-1.196307e+002	-1.748057e+000	-5.614158e+000	-5.614158e+000	
5.340000e-001	-1.751246e+000	-6.115456e+000	-6.115456e+000	-5.168454e+001	-6.912840e+001	1.108716e+002	-5.720402e+001	5.022601e+001	-1.297740e+002	-1.753777e+000	-5.680414e+000	-5.680414e+000	
5.350000e-001	-1.757169e+000	-6.031544e+000	-6.031544e+000	-5.828170e+001	3.333686e+001	2.133369e+002	-5.776185e+001	-8.436324e+001	-2.643632e+002	-1.760651e+000	-5.623321e+000	-5.623321e+000	
5.360000e-001	-1.771232e+000	-6.065369e+000	-6.065369e+000	-5.833867e+001	6.357614e+001	2.435761e+002	-5.265825e+001	-8.423292e+001	-2.642329e+002	-1.740687e+000	-5.737590e+000	-5.737590e+000	
5.370000e-001	-1.767565e+000	-6.085305e+000	-6.085305e+000	-5.325744e+001	-7.116498e+001	1.088350e+002	-5.479299e+001	-7.076275e+001	-2.507627e+002	-1.737770e+000	-5.693688e+000	-5.693688e+000	
5.380000e-001	-1.756304e+000	-6.174521e+000	-6.174521e+000	-5.787155e+001	8.850044e+001	8.850044e+001	-5.306594e+001	-7.129958e+001	-2.512996e+002	-1.745868e+000	-5.692361e+000	-5.692361e+000	
5.390000e-001	-1.752709e+000	-6.137969e+000	-6.137969e+000	-6.050956e+001	-7.925061e+001	1.007494e+002	-5.624873e+001	-8.967445e+001	-2.696745e+002	-1.742452e+000	-5.757806e+000	-5.757806e+000	
5.400000e-001	-1.752170e+000	-6.091423e+000	-6.091423e+000	-5.332325e+001	8.125629e+001	8.125629e+001	-5.604701e+001	-6.925107e+001	-2.492511e+002	-1.758518e+000	-5.824767e+000	-5.824767e+000	
5.410000e-001	-1.749972e+000	-6.151968e+000	-6.151968e+000	-5.860409e+001	6.249065e+001	6.249065e+001	-5.376228e+001	7.746500e+001	-2.825350e+002	-1.741178e+000	-5.759649e+000	-5.759649e+000	
5.420000e-001	-1.740634e+000	-6.157557e+000	-6.157557e+000	-5.598455e+001	4.823188e+001	4.823188e+001	-5.476150e+001	7.781591e+001	-2.821841e+002	-1.751290e+000	-5.724971e+000	-5.724971e+000	
5.430000e-001	-1.756076e+000	-6.131801e+000	-6.131801e+000	-5.905781e+001	8.596131e+001	8.596131e+001	-5.759700e+001	-8.897827e+001	-2.689783e+002	-1.750680e+000	-5.750483e+000	-5.750483e+000	
5.440000e-001	-1.766900e+000	-6.125141e+000	-6.125141e+000	-5.651085e+001	5.601955e+001	5.601955e+001	-5.590433e+001	7.375884e+001	-2.862412e+002	-1.750699e+000	-5.772445e+000	-5.772445e+000	
5.450000e-001	-1.756163e+000	-6.139193e+000	-6.139193e+000	-6.371936e+001	1.535780e+001	1.535780e+001	-5.676524e+001	6.769222e+001	-2.923078e+002	-1.752848e+000	-5.824887e+000	-5.824887e+000	
5.460000e-001	-1.747225e+000	-6.244974e+000	-6.244974e+000	-5.698089e+001	4.802426e+001	4.802426e+001	-5.538586e+001	-6.548367e+001	-4.254837e+002	-1.750077e+000	-5.761932e+000	-5.761932e+000	
5.470000e-001	-1.765457e+000	-6.226180e+000	-6.226180e+000	-5.720855e+001	7.031459e+001	7.031459e+001	-4.988010e+001	6.950375e+001	-2.904963e+002	-1.737927e+000	-5.726107e+000	-5.726107e+000	
5.480000e-001	-1.758599e+000	-6.334885e+000	-6.334885e+000	-5.284559e+001	8.812453e+001	8.812453e+001	-5.407624e+001	5.273720e+001	-3.072628e+002	-1.749900e+000	-5.823091e+000	-5.823091e+000	
5.490000e-001	-1.768585e+000	-6.312663e+000	-6.312663e+000	-5.332426e+001	5.835791e+001	5.835791e+001	-5.683087e+001	6.991512e+001	-2.900849e+002	-1.748478e+000	-5.892908e+000	-5.892908e+000	
5.500000e-001	-1.756877e+000	-6.170519e+000	-6.170519e+000	-5.723164e+001	-8.678155e+001	9.321845e+001	-5.416328e+001	8.037935e+001	-2.796206e+002	-1.731093e+000	-5.920495e+000	-5.920495e+000	
5.510000e-001	-1.756605e+000	-6.188419e+000	-6.188419e+000	-5.589319e+001	-5.482897e+001	1.251710e+002	-5.737536e+001	8.677177e+001	-2.732282e+002	-1.733242e+000	-5.848616e+000	-5.848616e+000	
5.520000e-001	-1.759123e+000	-6.212953e+000	-6.212953e+000	-5.739076e+001	-7.023612e+001	1.097639e+002	-6.169421e+001	-8.502279e+001	-2.650228e+002	-1.746404e+000	-5.753694e+000	-5.753694e+000	
5.530000e-001	-1.753033e+000	-6.210567e+000	-6.210567e+000	-5.531402e+001	-8.381037e+001	9.618963e+001	-5.423603e+001	8.019423e+001	-2.798058e+002	-1.741957e+000	-5.851655e+000	-5.851655e+000	
5.540000e-001	-1.768021e+000	-6.376450e+000	-6.376450e+000	-5.542474e+001	-7.578428e+001	1.042157e+002	-5.605530e+001	7.478190e+001	-2.852181e+002	-1.731378e+000	-5.866639e+000	-5.866639e+000	
5.550000e-001	-1.770767e+000	-6.244047e+000	-6.244047e+000	-5.519490e+001	8.575227e+001	8.575227e+001	-5.912066e+001	8.468857e+001	-2.753114e+002	-1.732542e+000	-5.933105e+000	-5.933105e+000	
5.560000e-001	-1.753684e+000	-6.212572e+000	-6.212572e+000	-5.618998e+001	-8.720279e+001	9.279721e+001	-5.704852e+001	-8.872539e+001	-2.687254e+002	-1.739585e+000	-5.979347e+000	-5.979347e+000	
5.570000e-001	-1.750733e+000	-6.187208e+000	-6.187208e+000	-5.467377e+001	8.159984e+001	8.159984e+001	-5.942917e+001	-7.695223e+001	-2.569522e+002	-1.741612e+000	-5.956995e+000	-5.956995e+000	
5.580000e-001	-1.752264e+000	-6.326061e+000	-6.326061e+000	-5.339277e+001	-7.764801e+001	1.023520e+002	-5.482140e+001	-8.889825e+001	-2.688982e+002	-1.725886e+000	-5.835176e+000	-5.835176e+000	
5.590000e-001	-1.766428e+000	-6.219466e+000	-6.219466e+000	-5.667169e+001	-8.989820e+001	9.010180e+001	-5.540026e+001	4.964016e+001	-1.303598e+002	-1.740767e+000	-5.883955e+000	-5.883955e+000	
5.600000e-001	-1.775462e+000	-6.346787e+000	-6.346787e+000	-5.387326e+001	-6.933196e+001	1.106680e+002	-5.769676e+001	8.284011e+001	-9.715989e+001	-1.735082e+000	-5.831165e+000	-5.831165e+000	
5.610000e-001	-1.754605e+000	-6.206872e+000	-6.206872e+000	-5.858217e+001	1.257409e+001	1.925741e+002	-5.506644e+001	-8.377036e+001	-8.377036e+001	-1.744327e+000	-5.791113e+000	-5.791113e+000	
5.620000e-001	-1.769245e+000	-6.233741e+000	-6.233741e+000	-5.633353e+001	-7.052994e+001	1.094701e+002	-5.675873e+001	7.353834e+001	-1.064617e+002	-1.723301e+000	-5.983371e+000	-5.983371e+000	
5.630000e-001	-1.753735e+000	-6.254710e+000	-6.254710e+000	-5.672105e+001	-6.421719e+001	1.157828e+002	-5.250694e+001	6.460042e+001	-1.153996e+002	-1.736670e+000	-5.973224e+000	-5.973224e+000	
5.640000e-001	-1.770981e+000	-6.302973e+000	-6.302973e+000	-5.270245e+001	8.464383e+001	8.464383e+001	-5.362096e+001	7.948235e+001	-1.005176e+002	-1.738726e+000	-5.965370e+000	-5.965370e+000	
5.650000e-001	-1.762542e+000	-6.294511e+000	-6.294511e+000	-5.393205e+001	6.958274e+001	6.958274e+001	-5.356292e+001	-8.985009e+001	-8.985009e+001	-1.725692e+000	-6.010128e+000	-6.010128e+000	
5.660000e-001	-1.763910e+000	-6.352440e+000	-6.352440e+000	-5.656128e+001	7.299509e+001	7.299509e+001	-5.730569e+001	5.634906e+001	-1.236509e+002	-1.743083e+000	-5.981723e+000	-5.981723e+000	
5.670000e-001	-1.753985e+000	-6.296538e+000	-6.296538e+000	-5.576616e+001	8.810511e+001	8.810511e+001	-5.798347e+001	-7.897182e+001	-2.589718e+002	-1.728147e+000	-5.966399e+000	-5.966399e+000	
5.680000e-001	-1.764489e+000	-6.324200e+000	-6.324200e+000	-5.669697e+001	6.537364e+001	6.537364e+001	-6.601231e+001	7.734052e+001	-2.826595e+002	-1.752313e+000	-5.925270e+000	-5.925270e+000	
5.690000e-001	-1.756582e+000	-6.355990e+000	-6.355990e+000	-6.122415e+001	-8.689082e+001	9.310918e+001	-6.449793e+001	7.464275e+001	-2.853572e+002	-1.749631e+000	-5.801529e+000	-5.801529e+000	
5.700000e-001	-1.765607e+000	-6.327804e+000	-6.327804e+000	-5.537797e+001	4.525038e+001	2.252504e+002	-5.790226e+001	8.278557e+001	-2.772144e+002	-1.751962e+000	-5.942902e+000	-5.942902e+000	
5.710000e-001	-1.754133e+000	-6.316047e+000	-6.316047e+000	-5.721214e+001	-7.844282e+001	1.015572e+002	-6.057840e+001	5.930670e+001	-3.006933e+002	-1.737945e+000	-5.983952e+000	-5.983952e+000	
5.720000e-001	-1.779087e+000	-6.367824e+000	-6.367824e+000	-5.246518e+001	8.048893e+001	8.048893e+001	-5.159075e+001	7.536421e+001	-2.846358e+002	-1.739536e+000	-6.013452e+000	-6.013452e+000	
5.730000e-001	-1.760132e+000	-6.338475e+000	-6.338475e+000	-5.283256e+001	5.609599e+001	5.609599e+001	-5.681380e+001	-6.946606e+001	-2.494661e+002	-1.742684e+000	-6.011477e+000	-6.011477e+000	
5.740000e-001	-1.779381e+000	-6.397677e+000	-6.397677e+000	-5.861685e+001	-5.687694e+001	-5.687694e+001	-5.361034e+001	-8.050326e+001	-2.605033e+002	-1.732531e+000	-6.000215e+000	-6.000215e+000	
5.750000e-001	-1.771892e+000	-6.433280e+000	-6.433280e+000	-5.822934e+001	6.148000e+001	6.148000e+001	-5.486967e+001	5.027137e+001	-1.297286e+002	-1.748223e+000	-6.117229e+000	-6.117229e+000	
5.760000e-001	-1.759962e+000	-6.283486e+000	-6.283486e+000	-5.448323e+001	-6.273089e+001	-6.273089e+001	-6.076632e+001	4.118798e+001	-1.388120e+002	-1.741408e+000	-5.996347e+000	-5.996347e+000	
5.770000e-001	-1.765786e+000	-6.425060e+000	-6.425060e+000	-5.527345e+001	-8.126258e+001	-8.126258e+001	-5.992085e+001	8.223834e+001	-9.776166e+001	-1.742513e+000	-6.008611e+000	-6.008611e+000	
5.780000e-001	-1.758535e+000	-6.372007e+000	-6.372007e+000	-5.428538e+001	5.799160e+001	5.799160e+001	-6.556126e+001	-8.270091e+001	-8.270091e+001	-1.761065e+000	-6.096816e+000	-6.096816e+000	
5.790000e-001	-1.766173e+000	-6.461103e+000	-6.461103e+000	-5.527489e+001	7.985257e+001	7.985257e+001	-5.564334e+001	6.804211e+001	-1.119579e+002	-1.724991e+000	-5.965247e+000	-5.965247e+000	
5.800000e-001	-1.763976e+000	-6.307979e+000	-6.307979e+000	-5.424491e+001	-8.981193e+001	9.018807e+001	-5.710318e+001	-8.345171e+001	-8.345171e+001	-1.744923e+000	-6.140081e+000	-6.140081e+000	
5.810000e-001	-1.764975e+000	-6.391042e+000	-6.391042e+000	-5.347558e+001	6.753182e+001	6.753182e+001	-5.685601e+001	8.014973e+001	-9.985027e+001	-1.750522e+000	-6.024744e+000	-6.024744e+000	
5.820000e-001	-1.771651e+000	-6.385753e+000	-6.385753e+000	-5.665114e+001	-7.365048e+001	1.063495e+002	-5.588901e+001	7.828312e+001	-1.017169e+002	-1.743811e+000	-6.067343e+000	-6.067343e+000	
5.830000e-001	-1.759412e+000	-6.409982e+000	-6.409982e+000	-6.665633e+001	-8.344835e+001	9.655165e+001	-5.615499e+001	6.407693e+001	-1.159231e+002	-1.757961e+000	-6.054222e+000	-6.054222e+000	
5.840000e-001	-1.779668e+000	-6.408997e+000	-6.408997e+000	-5.427325e+001	7.908841e+001	7.908841e+001	-5.649014e+001	6.236446e+001	-1.176355e+002	-1.743051e+000	-6.219058e+000	-6.219058e+000	
5.850000e-001	-1.756628e+000	-6.420651e+000	-6.420651e+000	-5.858809e+001	3.831562e+001	3.831562e+001	-6.597575e+001	-3.069754e+001	-2.106975e+002	-1.745656e+000	-6.077043e+000	-6.077043e+000	
5.860000e-001	-1.764301e+000	-6.487208e+000	-6.487208e+000	-5.618203e+001	-8.209719e+001	-8.209719e+001	-6.220798e+001	6.670381e+001	-1.132962e+002	-1.730615e+000	-6.137597e+000	-6.137597e+000	
5.870000e-001	-1.762626e+000	-6.558044e+000	-6.558044e+000	-5.297414e+001	-7.685163e+001	-7.685163e+001	-5.582157e+001	4.927005e+001	-1.307300e+002	-1.752859e+000	-6.166429e+000	-6.166429e+000	
5.880000e-001	-1.759661e+000	-6.538238e+000	-6.538238e+000	-5.476505e+001	5.386600e+001	5.386600e+001	-5.452898e+001	-6.878705e+001	-2.487870e+002	-1.739347e+000	-6.091433e+000	-6.091433e+000	
5.890000e-001	-1.757105e+000	-6.566945e+000	-6.566945e+000	-5.387127e+001	7.930069e+001	7.930069e+001	-5.448428e+001	-8.944502e+001	-2.694450e+002	-1.747517e+000	-6.263345e+000	-6.263345e+000	
5.900000e-001	-1.765384e+000	-6.560277e+000	-6.560277e+000	-5.867065e+001	6.284007e+001	6.284007e+001	-5.429155e+001	8.406371e+001	-2.759363e+002	-1.755317e+000	-6.129881e+000	-6.129881e+000	
5.910000e-001	-1.776694e+000	-6.493234e+000	-6.493234e+000	-5.466703e+001	4.645777e+001	4.645777e+001	-5.255814e+001	8.443429e+001	-2.755657e+002	-1.741421e+000	-6.150020e+000	-6.150020e+000	
5.920000e-001	-1.777095e+000	-6.507347e+000	-6.507347e+000	-5.699478e+001	7.114687e+001	7.114687e+001	-6.339961e+001	7.346806e+001	-2.865319e+002	-1.743217e+000	-6.104570e+000	-6.104570e+000	
5.930000e-001	-1.761497e+000	-6.548785e+000	-6.548785e+000	-5.562773e+001	8.590650e+001	8.590650e+001	-5.785393e+001	7.115726e+001	-2.888427e+002	-1.730418e+000	-6.140846e+000	-6.140846e+000	
5.940000e-001	-1.767579e+000	-6.649591e+000	-6.649591e+000	-5.377371e+001	5.099654e+001	5.099654e+001	-5.283381e+001	8.254270e+001	-2.774573e+002	-1.746862e+000	-6.195008e+000	-6.195008e+000	
5.950000e-001	-1.764910e+000	-6.626210e+000	-6.626210e+000	-5.476087e+001	6.513322e+001	6.513322e+001	-5.401771e+001	8.226109e+001	-2.777389e+002	-1.751930e+000	-6.124886e+000	-6.124886e+000	
5.960000e-001	-1.772131e+000	-6.551131e+000	-6.551131e+000	-5.394625e+001	8.083703e+001	8.083703e+001	-5.689711e+001	7.016454e+001	-2.898355e+002	-1.746881e+000	-6.318878e+000	-6.318878e+000	
5.970000e-001	-1.759830e+000	-6.681759e+000	-6.681759e+000	-5.720439e+001	8.086345e+001	8.086345e+001	-5.755793e+001	2.953654e+001	-3.304635e+002	-1.739075e+000	-6.236044e+000	-6.236044e+000	
5.980000e-001	-1.763335e+000	-6.610230e+000	-6.610230e+000	-5.761397e+001	8.519730e+001	8.519730e+001	-5.274314e+001	8.455011e+001	-2.754499e+002	-1.738115e+000	-6.218682e+000	-6.218682e+000	
5.990000e-001	-1.777857e+000	-6.628099e+000	-6.628099e+000	-5.199259e+001	8.926375e+001	8.926375e+001	-5.568208e+001	6.611769e+001	-2.938823e+002	-1.750019e+000	-6.233983e+000	-6.233983e+000	
6.000000e-001	-1.763991e+000	-6.724167e+000	-6.724167e+000	-5.658319e+001	7.368474e+001	7.368474e+001	-5.387524e+001	-7.306185e+001	-4.330619e+002	-1.749220e+000	-6.245533e+000	-6.245533e+000	
6.010000e-001	-1.770694e+000	-6.664059e+000	-6.664059e+000	-5.543849e+001	8.262282e+001	8.262282e+001	-5.155371e+001	7.889266e+001	-4.611073e+002	-1.741625e+000	-6.241727e+000	-6.241727e+000	
6.020000e-001	-1.770216e+000	-6.574764e+000	-6.574764e+000	-5.622544e+001	-6.067655e+001	1.193235e+002	-5.235540e+001	4.248622e+001	-4.975138e+002	-1.753478e+000	-6.256132e+000	-6.256132e+000	
