Frequency	 |S11|	 Phase(S11)	 ExtPh(S11)	 |S21|	 Phase(S21)	 ExtPh(S21)	 |S12|	 Phase(S12)	 ExtPh(S12)	 |S22|	 Phase(S22)	 ExtPh(S22) 
5.000000e-001	-1.740560e+000	-5.695195e+000	-5.695195e+000	-5.518485e+001	4.425634e+001	4.425634e+001	-5.316423e+001	5.616540e+001	5.616540e+001	-1.744662e+000	-5.309645e+000	-5.309645e+000	
5.010000e-001	-1.752619e+000	-5.630022e+000	-5.630022e+000	-5.983081e+001	7.678548e+001	7.678548e+001	-5.481376e+001	-8.496644e+001	9.503356e+001	-1.753282e+000	-5.205822e+000	-5.205822e+000	
5.020000e-001	-1.753013e+000	-5.669926e+000	-5.669926e+000	-5.730376e+001	6.933720e+001	6.933720e+001	-5.761106e+001	8.249300e+001	8.249300e+001	-1.764862e+000	-5.326174e+000	-5.326174e+000	
5.030000e-001	-1.765194e+000	-5.746928e+000	-5.746928e+000	-6.186137e+001	7.024365e+001	7.024365e+001	-5.623845e+001	6.939848e+001	6.939848e+001	-1.756080e+000	-5.339793e+000	-5.339793e+000	
5.040000e-001	-1.754525e+000	-5.678132e+000	-5.678132e+000	-5.355778e+001	-6.643364e+001	-6.643364e+001	-6.364564e+001	1.171332e+001	1.171332e+001	-1.740941e+000	-5.261515e+000	-5.261515e+000	
5.050000e-001	-1.762628e+000	-5.747985e+000	-5.747985e+000	-5.988980e+001	-8.544332e+001	-8.544332e+001	-5.686704e+001	2.958113e+001	2.958113e+001	-1.742128e+000	-5.343571e+000	-5.343571e+000	
5.060000e-001	-1.763857e+000	-5.689056e+000	-5.689056e+000	-5.233375e+001	7.638322e+001	-1.036168e+002	-5.678343e+001	-8.469745e+001	-8.469745e+001	-1.744979e+000	-5.326973e+000	-5.326973e+000	
5.070000e-001	-1.760077e+000	-5.796313e+000	-5.796313e+000	-5.615892e+001	-5.597077e+001	-2.359708e+002	-5.405687e+001	7.885012e+001	-1.011499e+002	-1.753923e+000	-5.403497e+000	-5.403497e+000	
5.080000e-001	-1.775687e+000	-5.901028e+000	-5.901028e+000	-5.455520e+001	-8.328475e+001	-2.632847e+002	-5.962193e+001	-7.786962e+001	-7.786962e+001	-1.736545e+000	-5.323837e+000	-5.323837e+000	
5.090000e-001	-1.764465e+000	-5.859534e+000	-5.859534e+000	-5.547080e+001	6.149780e+001	-2.985022e+002	-5.540712e+001	5.445189e+001	5.445189e+001	-1.745777e+000	-5.380915e+000	-5.380915e+000	
5.100000e-001	-1.776346e+000	-5.975777e+000	-5.975777e+000	-5.331214e+001	-7.028102e+001	-4.302810e+002	-5.220190e+001	5.911817e+001	5.911817e+001	-1.750037e+000	-5.273370e+000	-5.273370e+000	
5.110000e-001	-1.770867e+000	-5.948016e+000	-5.948016e+000	-5.367123e+001	-7.230460e+001	-4.323046e+002	-5.605757e+001	6.218778e+001	6.218778e+001	-1.757322e+000	-5.448875e+000	-5.448875e+000	
5.120000e-001	-1.766180e+000	-5.767689e+000	-5.767689e+000	-5.981644e+001	8.014910e+001	-4.598509e+002	-5.726616e+001	8.365290e+001	8.365290e+001	-1.732164e+000	-5.410829e+000	-5.410829e+000	
5.130000e-001	-1.768094e+000	-5.891559e+000	-5.891559e+000	-5.871139e+001	6.695226e+001	-4.730477e+002	-5.631638e+001	8.914528e+001	8.914528e+001	-1.751108e+000	-5.417177e+000	-5.417177e+000	
5.140000e-001	-1.767720e+000	-5.907384e+000	-5.907384e+000	-6.545160e+001	-7.409004e+001	-4.340900e+002	-6.860531e+001	2.195122e+001	2.195122e+001	-1.754315e+000	-5.516154e+000	-5.516154e+000	
5.150000e-001	-1.767650e+000	-5.941264e+000	-5.941264e+000	-5.352622e+001	7.248569e+001	-4.675143e+002	-5.231940e+001	6.742325e+001	6.742325e+001	-1.748828e+000	-5.500490e+000	-5.500490e+000	
5.160000e-001	-1.768370e+000	-5.936456e+000	-5.936456e+000	-5.341793e+001	-7.989309e+001	-4.398931e+002	-6.179926e+001	4.336011e+001	4.336011e+001	-1.752036e+000	-5.459327e+000	-5.459327e+000	
5.170000e-001	-1.771983e+000	-6.032348e+000	-6.032348e+000	-6.224489e+001	2.224448e+001	-3.377555e+002	-5.655294e+001	-8.729485e+001	-8.729485e+001	-1.738436e+000	-5.414703e+000	-5.414703e+000	
5.180000e-001	-1.752533e+000	-5.976915e+000	-5.976915e+000	-5.746339e+001	8.956858e+001	-2.704314e+002	-5.478281e+001	8.042409e+001	-9.957591e+001	-1.757686e+000	-5.514811e+000	-5.514811e+000	
5.190000e-001	-1.761590e+000	-5.898379e+000	-5.898379e+000	-5.237620e+001	6.047262e+001	-2.995274e+002	-5.344344e+001	6.878440e+001	-1.112156e+002	-1.749966e+000	-5.620147e+000	-5.620147e+000	
5.200000e-001	-1.770719e+000	-5.924340e+000	-5.924340e+000	-5.699198e+001	6.690574e+001	-2.930943e+002	-5.933045e+001	6.586735e+001	-1.141327e+002	-1.747158e+000	-5.513135e+000	-5.513135e+000	
5.210000e-001	-1.758456e+000	-5.973672e+000	-5.973672e+000	-5.195506e+001	7.381625e+001	-2.861838e+002	-5.431366e+001	7.568091e+001	-1.043191e+002	-1.742034e+000	-5.631600e+000	-5.631600e+000	
5.220000e-001	-1.731891e+000	-5.951868e+000	-5.951868e+000	-5.564709e+001	-8.643678e+001	-2.664368e+002	-5.545924e+001	7.270064e+001	-1.072994e+002	-1.748349e+000	-5.521745e+000	-5.521745e+000	
5.230000e-001	-1.761066e+000	-5.924007e+000	-5.924007e+000	-6.192433e+001	7.423004e+001	-2.857700e+002	-5.457382e+001	7.171382e+001	-1.082862e+002	-1.754763e+000	-5.555710e+000	-5.555710e+000	
5.240000e-001	-1.781469e+000	-6.090006e+000	-6.090006e+000	-5.545795e+001	-8.431885e+001	-2.643188e+002	-5.454832e+001	4.995037e+001	-1.300496e+002	-1.747182e+000	-5.694843e+000	-5.694843e+000	
5.250000e-001	-1.760708e+000	-6.053897e+000	-6.053897e+000	-5.674126e+001	-6.394454e+001	-2.439445e+002	-5.454147e+001	-7.560290e+001	-2.556029e+002	-1.746507e+000	-5.685645e+000	-5.685645e+000	
5.260000e-001	-1.744450e+000	-6.119016e+000	-6.119016e+000	-5.314111e+001	5.379054e+001	-1.262095e+002	-5.509521e+001	6.766431e+001	-2.923357e+002	-1.748132e+000	-5.639884e+000	-5.639884e+000	
5.270000e-001	-1.761397e+000	-6.144312e+000	-6.144312e+000	-5.531212e+001	-6.142129e+001	-2.414213e+002	-5.203590e+001	-6.452804e+001	-4.245280e+002	-1.743165e+000	-5.662659e+000	-5.662659e+000	
5.280000e-001	-1.765561e+000	-6.108983e+000	-6.108983e+000	-5.378716e+001	-7.332887e+001	-2.533289e+002	-6.291392e+001	5.780962e+001	-3.021904e+002	-1.747658e+000	-5.747465e+000	-5.747465e+000	
5.290000e-001	-1.745149e+000	-6.128664e+000	-6.128664e+000	-5.709889e+001	-7.252454e+001	-2.525245e+002	-7.684606e+001	-2.190212e+001	-3.819021e+002	-1.762811e+000	-5.741320e+000	-5.741320e+000	
5.300000e-001	-1.755038e+000	-6.161069e+000	-6.161069e+000	-5.412227e+001	6.942870e+001	-2.905713e+002	-5.514269e+001	-8.248246e+001	-4.424825e+002	-1.753653e+000	-5.688734e+000	-5.688734e+000	
5.310000e-001	-1.763075e+000	-6.031288e+000	-6.031288e+000	-5.493859e+001	-5.536672e+001	-4.153667e+002	-5.590613e+001	-8.990019e+001	-4.499002e+002	-1.719561e+000	-5.743270e+000	-5.743270e+000	
5.320000e-001	-1.773634e+000	-6.194634e+000	-6.194634e+000	-5.708254e+001	8.304616e+001	-2.769538e+002	-6.040104e+001	7.462335e+001	-4.653766e+002	-1.751431e+000	-5.689831e+000	-5.689831e+000	
5.330000e-001	-1.760835e+000	-6.127170e+000	-6.127170e+000	-5.423296e+001	-6.890426e+001	-2.489043e+002	-5.244937e+001	8.423015e+001	-4.557699e+002	-1.746456e+000	-5.688006e+000	-5.688006e+000	
5.340000e-001	-1.745353e+000	-6.221930e+000	-6.221930e+000	-6.368582e+001	-6.829069e+001	-2.482907e+002	-5.885978e+001	-7.143822e+001	-4.314382e+002	-1.727708e+000	-5.783424e+000	-5.783424e+000	
5.350000e-001	-1.756840e+000	-6.191229e+000	-6.191229e+000	-5.545950e+001	-7.426276e+001	-2.542628e+002	-5.654901e+001	6.328306e+001	-2.967169e+002	-1.767060e+000	-5.787036e+000	-5.787036e+000	
5.360000e-001	-1.768658e+000	-6.057760e+000	-6.057760e+000	-5.146747e+001	6.992131e+001	-2.900787e+002	-5.552278e+001	7.693146e+001	-2.830685e+002	-1.751164e+000	-5.809657e+000	-5.809657e+000	
5.370000e-001	-1.780534e+000	-6.202143e+000	-6.202143e+000	-5.239258e+001	-8.967431e+001	-2.696743e+002	-5.586024e+001	5.115872e+001	-3.088413e+002	-1.742979e+000	-5.745277e+000	-5.745277e+000	
5.380000e-001	-1.763411e+000	-6.190693e+000	-6.190693e+000	-5.180759e+001	7.320808e+001	-2.867919e+002	-5.406707e+001	-7.660854e+001	-4.366085e+002	-1.759711e+000	-5.849249e+000	-5.849249e+000	
5.390000e-001	-1.759632e+000	-6.205860e+000	-6.205860e+000	-5.278877e+001	8.347114e+001	-2.765289e+002	-5.556986e+001	7.416804e+001	-4.658320e+002	-1.745769e+000	-5.795940e+000	-5.795940e+000	
5.400000e-001	-1.767433e+000	-6.200994e+000	-6.200994e+000	-5.179167e+001	8.581911e+001	-2.741809e+002	-5.768273e+001	-5.259442e+001	-5.925944e+002	-1.755054e+000	-5.778991e+000	-5.778991e+000	
5.410000e-001	-1.754545e+000	-6.150555e+000	-6.150555e+000	-5.346794e+001	-8.644055e+001	-2.664406e+002	-6.827422e+001	7.465923e+001	-4.653408e+002	-1.746483e+000	-5.894508e+000	-5.894508e+000	
5.420000e-001	-1.766210e+000	-6.195885e+000	-6.195885e+000	-5.527644e+001	-7.332874e+001	-2.533287e+002	-5.466549e+001	8.397561e+001	-4.560244e+002	-1.745185e+000	-5.806865e+000	-5.806865e+000	
5.430000e-001	-1.759076e+000	-6.143848e+000	-6.143848e+000	-5.297692e+001	8.384620e+001	-2.761538e+002	-5.617968e+001	-8.320687e+001	-4.432069e+002	-1.741873e+000	-5.729638e+000	-5.729638e+000	
5.440000e-001	-1.775818e+000	-6.234628e+000	-6.234628e+000	-5.798387e+001	7.525776e+001	-2.847422e+002	-6.264741e+001	8.985385e+001	-4.501461e+002	-1.747039e+000	-5.911800e+000	-5.911800e+000	
5.450000e-001	-1.750390e+000	-6.227064e+000	-6.227064e+000	-5.769812e+001	8.216753e+001	-2.778325e+002	-5.735973e+001	8.445652e+001	-4.555435e+002	-1.743983e+000	-5.748894e+000	-5.748894e+000	
5.460000e-001	-1.746630e+000	-6.218615e+000	-6.218615e+000	-5.636344e+001	7.395674e+001	-2.860433e+002	-5.356012e+001	7.614414e+001	-4.638559e+002	-1.768122e+000	-5.897564e+000	-5.897564e+000	
5.470000e-001	-1.765266e+000	-6.226805e+000	-6.226805e+000	-6.327131e+001	-8.485626e+001	-2.648563e+002	-5.352869e+001	-8.518148e+001	-4.451815e+002	-1.753128e+000	-5.808771e+000	-5.808771e+000	
5.480000e-001	-1.769487e+000	-6.192695e+000	-6.192695e+000	-5.180277e+001	8.561962e+001	-2.743804e+002	-5.340450e+001	8.783633e+001	-4.521637e+002	-1.731533e+000	-5.993502e+000	-5.993502e+000	
5.490000e-001	-1.750968e+000	-6.344955e+000	-6.344955e+000	-5.086710e+001	5.739556e+001	-3.026044e+002	-6.007812e+001	-5.669719e+001	-4.166972e+002	-1.751910e+000	-5.822945e+000	-5.822945e+000	
5.500000e-001	-1.766008e+000	-6.309109e+000	-6.309109e+000	-5.657215e+001	-5.400596e+001	-4.140060e+002	-5.910996e+001	8.194769e+001	-2.780523e+002	-1.737784e+000	-5.902023e+000	-5.902023e+000	
5.510000e-001	-1.754390e+000	-6.192539e+000	-6.192539e+000	-5.413848e+001	7.083969e+001	-2.891603e+002	-5.907496e+001	8.257738e+001	-2.774226e+002	-1.741228e+000	-5.919636e+000	-5.919636e+000	
5.520000e-001	-1.771677e+000	-6.216993e+000	-6.216993e+000	-5.335921e+001	7.428436e+001	-2.857156e+002	-5.768315e+001	-8.654577e+001	-2.665458e+002	-1.754368e+000	-5.853729e+000	-5.853729e+000	
5.530000e-001	-1.759574e+000	-6.253686e+000	-6.253686e+000	-5.304065e+001	-6.319975e+001	-4.231997e+002	-5.237441e+001	6.424592e+001	-2.957541e+002	-1.742880e+000	-5.836244e+000	-5.836244e+000	
5.540000e-001	-1.761827e+000	-6.257500e+000	-6.257500e+000	-5.668988e+001	5.247892e+001	-3.075211e+002	-5.512031e+001	7.605856e+001	-2.839414e+002	-1.743153e+000	-5.950457e+000	-5.950457e+000	
5.550000e-001	-1.769567e+000	-6.273575e+000	-6.273575e+000	-5.662354e+001	4.641578e+001	-3.135842e+002	-5.900307e+001	6.791707e+001	-2.920829e+002	-1.735925e+000	-5.905904e+000	-5.905904e+000	
5.560000e-001	-1.754273e+000	-6.339523e+000	-6.339523e+000	-6.302277e+001	-6.446951e+001	-4.244695e+002	-5.325347e+001	-8.163812e+001	-2.616381e+002	-1.737281e+000	-6.005465e+000	-6.005465e+000	
5.570000e-001	-1.763445e+000	-6.242573e+000	-6.242573e+000	-5.236556e+001	8.341580e+001	-4.565842e+002	-5.092860e+001	8.915669e+001	-2.708433e+002	-1.758205e+000	-5.947329e+000	-5.947329e+000	
5.580000e-001	-1.747750e+000	-6.226223e+000	-6.226223e+000	-5.520858e+001	-6.780392e+001	-4.278039e+002	-6.038254e+001	8.771280e+001	-2.722872e+002	-1.740767e+000	-5.879720e+000	-5.879720e+000	
5.590000e-001	-1.773460e+000	-6.395093e+000	-6.395093e+000	-5.311794e+001	6.843264e+001	-2.915674e+002	-5.569396e+001	6.192737e+001	-2.980726e+002	-1.734384e+000	-6.090417e+000	-6.090417e+000	
5.600000e-001	-1.771591e+000	-6.401797e+000	-6.401797e+000	-5.301513e+001	8.496333e+001	-2.750367e+002	-5.925459e+001	8.221147e+001	-2.777885e+002	-1.741540e+000	-5.969184e+000	-5.969184e+000	
5.610000e-001	-1.748746e+000	-6.393799e+000	-6.393799e+000	-5.625320e+001	-8.756195e+001	-2.675619e+002	-5.891053e+001	-5.236797e+001	-4.123680e+002	-1.768944e+000	-5.956182e+000	-5.956182e+000	
5.620000e-001	-1.754305e+000	-6.243703e+000	-6.243703e+000	-5.423452e+001	4.072357e+001	-1.392764e+002	-5.601944e+001	5.551371e+001	-3.044863e+002	-1.739563e+000	-5.903235e+000	-5.903235e+000	
5.630000e-001	-1.760565e+000	-6.428293e+000	-6.428293e+000	-6.174306e+001	-4.939175e+001	-2.293917e+002	-5.501176e+001	8.038674e+001	-2.796133e+002	-1.755874e+000	-6.013646e+000	-6.013646e+000	
5.640000e-001	-1.756605e+000	-6.400991e+000	-6.400991e+000	-5.497752e+001	8.947683e+001	-9.052317e+001	-6.504828e+001	8.203416e+001	-2.779658e+002	-1.734040e+000	-5.940458e+000	-5.940458e+000	
5.650000e-001	-1.765599e+000	-6.388822e+000	-6.388822e+000	-5.341926e+001	-5.886354e+001	-5.886354e+001	-5.313023e+001	6.283306e+001	-2.971669e+002	-1.758124e+000	-5.885528e+000	-5.885528e+000	
5.660000e-001	-1.786945e+000	-6.359979e+000	-6.359979e+000	-5.704877e+001	7.754467e+001	7.754467e+001	-6.742730e+001	-8.224131e+001	-2.622413e+002	-1.747271e+000	-5.999450e+000	-5.999450e+000	
5.670000e-001	-1.765116e+000	-6.359425e+000	-6.359425e+000	-5.636373e+001	7.611821e+001	7.611821e+001	-5.827180e+001	-7.987405e+001	-2.598740e+002	-1.757448e+000	-5.957634e+000	-5.957634e+000	
5.680000e-001	-1.757587e+000	-6.351801e+000	-6.351801e+000	-5.442639e+001	-7.953386e+001	1.004661e+002	-5.512915e+001	5.493822e+001	-1.250618e+002	-1.731067e+000	-6.043102e+000	-6.043102e+000	
5.690000e-001	-1.768244e+000	-6.452928e+000	-6.452928e+000	-5.260033e+001	7.645066e+001	7.645066e+001	-5.317281e+001	5.561262e+001	-1.243874e+002	-1.739152e+000	-6.013051e+000	-6.013051e+000	
5.700000e-001	-1.752814e+000	-6.404807e+000	-6.404807e+000	-5.627703e+001	-6.700365e+001	1.129963e+002	-5.437467e+001	-8.702879e+001	-8.702879e+001	-1.739044e+000	-6.009962e+000	-6.009962e+000	
5.710000e-001	-1.762193e+000	-6.429687e+000	-6.429687e+000	-5.231601e+001	7.168720e+001	2.516872e+002	-6.087650e+001	-7.972773e+001	-7.972773e+001	-1.734967e+000	-6.057469e+000	-6.057469e+000	
5.720000e-001	-1.777780e+000	-6.432215e+000	-6.432215e+000	-5.621159e+001	7.878464e+001	2.587846e+002	-5.618055e+001	7.886316e+001	-1.011368e+002	-1.744894e+000	-5.983908e+000	-5.983908e+000	
5.730000e-001	-1.763479e+000	-6.427536e+000	-6.427536e+000	-5.488077e+001	5.449046e+001	2.344905e+002	-5.210200e+001	7.951017e+001	-1.004898e+002	-1.743156e+000	-6.137342e+000	-6.137342e+000	
5.740000e-001	-1.766930e+000	-6.391738e+000	-6.391738e+000	-5.208679e+001	5.888212e+001	2.388821e+002	-5.535637e+001	6.073353e+001	-1.192665e+002	-1.748480e+000	-6.152459e+000	-6.152459e+000	
5.750000e-001	-1.772069e+000	-6.452458e+000	-6.452458e+000	-6.385906e+001	7.957346e+001	2.595735e+002	-5.946236e+001	6.614516e+001	-1.138548e+002	-1.733295e+000	-6.170834e+000	-6.170834e+000	
5.760000e-001	-1.762955e+000	-6.474216e+000	-6.474216e+000	-5.204145e+001	7.421436e+001	2.542144e+002	-5.117764e+001	8.615924e+001	-9.384076e+001	-1.755001e+000	-6.042557e+000	-6.042557e+000	
5.770000e-001	-1.759106e+000	-6.450267e+000	-6.450267e+000	-5.182538e+001	5.672148e+001	2.367215e+002	-5.225711e+001	8.520528e+001	-9.479472e+001	-1.734341e+000	-6.073097e+000	-6.073097e+000	
5.780000e-001	-1.757163e+000	-6.509929e+000	-6.509929e+000	-6.156225e+001	2.809716e+001	2.080972e+002	-5.670420e+001	5.790285e+001	-1.220971e+002	-1.750225e+000	-6.073285e+000	-6.073285e+000	
5.790000e-001	-1.772611e+000	-6.471202e+000	-6.471202e+000	-5.666675e+001	-8.981302e+001	9.018698e+001	-5.937158e+001	8.914285e+001	-9.085715e+001	-1.752470e+000	-6.078150e+000	-6.078150e+000	
5.800000e-001	-1.776918e+000	-6.498232e+000	-6.498232e+000	-5.429464e+001	-6.601943e+001	1.139806e+002	-5.823295e+001	8.393264e+001	-9.606736e+001	-1.740044e+000	-6.212364e+000	-6.212364e+000	
5.810000e-001	-1.766277e+000	-6.367927e+000	-6.367927e+000	-5.214008e+001	-6.938048e+001	1.106195e+002	-5.215417e+001	8.051165e+001	-9.948835e+001	-1.747872e+000	-6.107144e+000	-6.107144e+000	
5.820000e-001	-1.771687e+000	-6.444207e+000	-6.444207e+000	-5.504581e+001	7.653683e+001	7.653683e+001	-5.601035e+001	-7.913074e+001	-7.913074e+001	-1.737714e+000	-6.146922e+000	-6.146922e+000	
5.830000e-001	-1.757280e+000	-6.481780e+000	-6.481780e+000	-5.533256e+001	-8.094006e+001	9.905994e+001	-5.443772e+001	7.252378e+001	-1.074762e+002	-1.742556e+000	-6.082222e+000	-6.082222e+000	
5.840000e-001	-1.780348e+000	-6.561347e+000	-6.561347e+000	-5.580271e+001	6.870290e+001	6.870290e+001	-5.307368e+001	6.107793e+001	-1.189221e+002	-1.754137e+000	-6.151793e+000	-6.151793e+000	
5.850000e-001	-1.786815e+000	-6.470706e+000	-6.470706e+000	-5.990017e+001	6.785405e+001	6.785405e+001	-5.874317e+001	8.615358e+001	-9.384642e+001	-1.751910e+000	-6.208687e+000	-6.208687e+000	
5.860000e-001	-1.769742e+000	-6.607131e+000	-6.607131e+000	-5.459109e+001	6.360448e+001	6.360448e+001	-5.704107e+001	-7.591365e+001	-7.591365e+001	-1.755849e+000	-6.139746e+000	-6.139746e+000	
5.870000e-001	-1.783415e+000	-6.651111e+000	-6.651111e+000	-5.498531e+001	-8.464852e+001	9.535148e+001	-5.517525e+001	4.029434e+001	4.029434e+001	-1.753591e+000	-6.196814e+000	-6.196814e+000	
5.880000e-001	-1.784212e+000	-6.556141e+000	-6.556141e+000	-5.462646e+001	5.438374e+001	2.343837e+002	-5.337031e+001	8.278672e+001	8.278672e+001	-1.736221e+000	-6.087286e+000	-6.087286e+000	
5.890000e-001	-1.762291e+000	-6.677911e+000	-6.677911e+000	-5.890395e+001	6.563844e+001	2.456384e+002	-5.718898e+001	8.802710e+001	8.802710e+001	-1.742725e+000	-6.218565e+000	-6.218565e+000	
5.900000e-001	-1.767792e+000	-6.551413e+000	-6.551413e+000	-5.352754e+001	5.005550e+001	2.300555e+002	-6.195346e+001	6.383990e+001	6.383990e+001	-1.752177e+000	-6.178418e+000	-6.178418e+000	
5.910000e-001	-1.775228e+000	-6.625387e+000	-6.625387e+000	-5.265229e+001	-8.340887e+001	9.659113e+001	-5.375890e+001	5.693910e+001	5.693910e+001	-1.754073e+000	-6.184990e+000	-6.184990e+000	
5.920000e-001	-1.757588e+000	-6.588085e+000	-6.588085e+000	-5.621921e+001	7.309272e+001	7.309272e+001	-5.414545e+001	6.699196e+001	6.699196e+001	-1.729535e+000	-6.093462e+000	-6.093462e+000	
5.930000e-001	-1.764867e+000	-6.534394e+000	-6.534394e+000	-5.567746e+001	5.372250e+001	5.372250e+001	-5.499472e+001	6.727598e+001	6.727598e+001	-1.725960e+000	-6.319578e+000	-6.319578e+000	
5.940000e-001	-1.782217e+000	-6.665064e+000	-6.665064e+000	-5.048410e+001	-8.960638e+001	9.039362e+001	-6.065438e+001	4.174421e+001	4.174421e+001	-1.731219e+000	-6.199206e+000	-6.199206e+000	
5.950000e-001	-1.758872e+000	-6.711868e+000	-6.711868e+000	-5.368130e+001	7.099134e+001	7.099134e+001	-5.825016e+001	7.326111e+001	7.326111e+001	-1.727260e+000	-6.361984e+000	-6.361984e+000	
5.960000e-001	-1.774831e+000	-6.681403e+000	-6.681403e+000	-5.258144e+001	7.577837e+001	7.577837e+001	-5.833490e+001	6.951137e+001	6.951137e+001	-1.760861e+000	-6.336066e+000	-6.336066e+000	
5.970000e-001	-1.770207e+000	-6.707158e+000	-6.707158e+000	-5.507833e+001	8.744306e+001	8.744306e+001	-5.338149e+001	6.048073e+001	6.048073e+001	-1.750526e+000	-6.227808e+000	-6.227808e+000	
5.980000e-001	-1.760453e+000	-6.713094e+000	-6.713094e+000	-5.273958e+001	-7.940256e+001	1.005974e+002	-6.007318e+001	7.335479e+001	7.335479e+001	-1.735178e+000	-6.308507e+000	-6.308507e+000	
5.990000e-001	-1.767073e+000	-6.663344e+000	-6.663344e+000	-5.330945e+001	4.941959e+001	2.294196e+002	-5.383341e+001	5.524063e+001	5.524063e+001	-1.755158e+000	-6.262812e+000	-6.262812e+000	
6.000000e-001	-1.764824e+000	-6.886587e+000	-6.886587e+000	-5.278491e+001	-7.603978e+001	1.039602e+002	-5.214879e+001	7.579434e+001	7.579434e+001	-1.752540e+000	-6.252646e+000	-6.252646e+000	
6.010000e-001	-1.766144e+000	-6.715379e+000	-6.715379e+000	-5.596231e+001	7.135147e+001	7.135147e+001	-5.311496e+001	7.606600e+001	7.606600e+001	-1.745483e+000	-6.310567e+000	-6.310567e+000	
