Frequency	 |S11|	 Phase(S11)	 ExtPh(S11)	 |S21|	 Phase(S21)	 ExtPh(S21)	 |S12|	 Phase(S12)	 ExtPh(S12)	 |S22|	 Phase(S22)	 ExtPh(S22) 
5.000000e-001	-1.735242e-001	-2.019317e+000	-2.019317e+000	-6.680073e+001	4.154676e+001	4.154676e+001	-5.673749e+001	-5.264823e+001	-5.264823e+001	-9.482427e-002	-1.540313e+000	-1.540313e+000	
5.010000e-001	-1.645829e-001	-2.029571e+000	-2.029571e+000	-7.094262e+001	3.483752e+001	3.483752e+001	-7.022643e+001	-1.066195e+001	-1.066195e+001	-9.104213e-002	-1.552468e+000	-1.552468e+000	
5.020000e-001	-1.739235e-001	-2.029420e+000	-2.029420e+000	-6.067168e+001	7.706919e+001	7.706919e+001	-6.381340e+001	2.297687e+001	2.297687e+001	-9.229210e-002	-1.536063e+000	-1.536063e+000	
5.030000e-001	-1.722796e-001	-2.051978e+000	-2.051978e+000	-6.338942e+001	-5.303235e+001	-5.303235e+001	-6.522580e+001	-8.061647e+001	-8.061647e+001	-1.060916e-001	-1.527872e+000	-1.527872e+000	
5.040000e-001	-1.687512e-001	-2.066081e+000	-2.066081e+000	-6.303494e+001	4.548165e+001	4.548165e+001	-6.912752e+001	-6.419772e+001	-6.419772e+001	-8.737595e-002	-1.544240e+000	-1.544240e+000	
5.050000e-001	-1.656919e-001	-2.014132e+000	-2.014132e+000	-6.585513e+001	-1.060931e+000	-1.060931e+000	-7.545479e+001	-8.299877e+001	-8.299877e+001	-9.119438e-002	-1.558826e+000	-1.558826e+000	
5.060000e-001	-1.684456e-001	-2.076154e+000	-2.076154e+000	-6.592818e+001	1.991997e-001	1.991997e-001	-6.696098e+001	3.132869e+001	3.132869e+001	-1.012832e-001	-1.497273e+000	-1.497273e+000	
5.070000e-001	-1.593030e-001	-2.138583e+000	-2.138583e+000	-6.404492e+001	-3.520131e+001	-3.520131e+001	-6.583111e+001	6.933349e+001	6.933349e+001	-9.756120e-002	-1.616858e+000	-1.616858e+000	
5.080000e-001	-1.584607e-001	-2.066463e+000	-2.066463e+000	-6.273912e+001	7.333746e+001	7.333746e+001	-6.640885e+001	-4.699458e+001	-4.699458e+001	-9.636029e-002	-1.637406e+000	-1.637406e+000	
5.090000e-001	-1.704078e-001	-2.084446e+000	-2.084446e+000	-5.956789e+001	-2.951174e+001	-2.951174e+001	-6.385311e+001	8.047026e+001	8.047026e+001	-1.095590e-001	-1.549939e+000	-1.549939e+000	
5.100000e-001	-1.637264e-001	-2.068836e+000	-2.068836e+000	-6.229484e+001	-6.306860e+000	-6.306860e+000	-6.743109e+001	-6.497548e+001	1.150245e+002	-9.425737e-002	-1.550916e+000	-1.550916e+000	
5.110000e-001	-1.656340e-001	-2.171372e+000	-2.171372e+000	-6.633318e+001	-8.358231e+001	-8.358231e+001	-8.026904e+001	-6.663931e+001	1.133607e+002	-1.033441e-001	-1.647075e+000	-1.647075e+000	
5.120000e-001	-1.701065e-001	-2.073434e+000	-2.073434e+000	-6.216748e+001	-7.375657e+001	-7.375657e+001	-6.769226e+001	-5.139602e+001	1.286040e+002	-9.978636e-002	-1.660501e+000	-1.660501e+000	
5.130000e-001	-1.639091e-001	-2.121352e+000	-2.121352e+000	-6.854726e+001	4.176785e+001	4.176785e+001	-6.268658e+001	3.036192e+001	2.103619e+002	-9.933829e-002	-1.573623e+000	-1.573623e+000	
5.140000e-001	-1.747835e-001	-2.195866e+000	-2.195866e+000	-6.042923e+001	-8.649681e+000	-8.649681e+000	-6.328069e+001	6.451755e+001	2.445176e+002	-9.060766e-002	-1.609035e+000	-1.609035e+000	
5.150000e-001	-1.745161e-001	-2.098574e+000	-2.098574e+000	-6.082036e+001	7.288012e+001	7.288012e+001	-6.330280e+001	-5.790351e+001	1.220965e+002	-8.609009e-002	-1.644779e+000	-1.644779e+000	
5.160000e-001	-1.657975e-001	-2.098722e+000	-2.098722e+000	-6.369917e+001	-2.306492e+001	-2.306492e+001	-6.334888e+001	-8.320075e+001	9.679925e+001	-9.484852e-002	-1.597768e+000	-1.597768e+000	
5.170000e-001	-1.671594e-001	-2.178863e+000	-2.178863e+000	-6.901426e+001	-3.106523e+001	-3.106523e+001	-6.545197e+001	6.527125e+001	6.527125e+001	-1.047566e-001	-1.694168e+000	-1.694168e+000	
5.180000e-001	-1.688456e-001	-2.164426e+000	-2.164426e+000	-6.082420e+001	7.260978e+001	7.260978e+001	-6.504726e+001	-7.338813e+001	-7.338813e+001	-9.130281e-002	-1.639921e+000	-1.639921e+000	
5.190000e-001	-1.736479e-001	-2.159575e+000	-2.159575e+000	-6.089580e+001	-5.606157e+000	-5.606157e+000	-7.162224e+001	-2.267110e+000	-2.267110e+000	-1.004011e-001	-1.640664e+000	-1.640664e+000	
5.200000e-001	-1.698263e-001	-2.152249e+000	-2.152249e+000	-6.414992e+001	-4.763842e+001	-4.763842e+001	-6.724667e+001	2.252209e+001	2.252209e+001	-1.015698e-001	-1.734610e+000	-1.734610e+000	
5.210000e-001	-1.699704e-001	-2.162649e+000	-2.162649e+000	-6.593349e+001	-6.836489e+001	-6.836489e+001	-8.511858e+001	4.096239e+001	4.096239e+001	-9.671578e-002	-1.648160e+000	-1.648160e+000	
5.220000e-001	-1.533660e-001	-2.138403e+000	-2.138403e+000	-6.081826e+001	-1.458931e+001	-1.458931e+001	-8.071745e+001	-8.014770e+001	-8.014770e+001	-9.769507e-002	-1.708338e+000	-1.708338e+000	
5.230000e-001	-1.575024e-001	-2.144513e+000	-2.144513e+000	-6.626467e+001	-1.282310e+001	-1.282310e+001	-6.262051e+001	-3.123751e+001	-3.123751e+001	-9.440500e-002	-1.719109e+000	-1.719109e+000	
5.240000e-001	-1.693074e-001	-2.155627e+000	-2.155627e+000	-7.980319e+001	-6.565624e+001	-6.565624e+001	-6.609842e+001	4.247930e+001	4.247930e+001	-8.975409e-002	-1.728809e+000	-1.728809e+000	
5.250000e-001	-1.863402e-001	-2.150958e+000	-2.150958e+000	-5.936950e+001	2.770159e+001	2.770159e+001	-7.367765e+001	2.710338e+001	2.710338e+001	-9.065565e-002	-1.671285e+000	-1.671285e+000	
5.260000e-001	-1.731733e-001	-2.222816e+000	-2.222816e+000	-6.224948e+001	-4.061290e+001	-4.061290e+001	-6.133310e+001	-8.280085e+001	-8.280085e+001	-9.485030e-002	-1.711448e+000	-1.711448e+000	
5.270000e-001	-1.617982e-001	-2.137919e+000	-2.137919e+000	-6.199046e+001	4.453037e+001	4.453037e+001	-6.893309e+001	5.129815e+001	5.129815e+001	-1.017784e-001	-1.690435e+000	-1.690435e+000	
5.280000e-001	-1.666672e-001	-2.264966e+000	-2.264966e+000	-6.056642e+001	-8.499395e+001	-8.499395e+001	-6.818889e+001	-6.764423e+001	-6.764423e+001	-9.484224e-002	-1.695230e+000	-1.695230e+000	
5.290000e-001	-1.696167e-001	-2.189291e+000	-2.189291e+000	-6.011894e+001	6.229834e+001	-1.177017e+002	-6.531925e+001	2.253267e+001	2.253267e+001	-1.029870e-001	-1.748131e+000	-1.748131e+000	
5.300000e-001	-1.683667e-001	-2.180902e+000	-2.180902e+000	-7.003162e+001	8.353660e+001	-9.646340e+001	-6.333712e+001	-1.908351e+001	-1.908351e+001	-8.571653e-002	-1.629340e+000	-1.629340e+000	
5.310000e-001	-1.747931e-001	-2.182890e+000	-2.182890e+000	-6.748341e+001	-6.915355e+001	-6.915355e+001	-6.383444e+001	3.840871e+001	3.840871e+001	-9.752195e-002	-1.700507e+000	-1.700507e+000	
5.320000e-001	-1.812492e-001	-2.178372e+000	-2.178372e+000	-6.714571e+001	4.501611e+001	4.501611e+001	-6.750603e+001	-8.396577e+000	-8.396577e+000	-1.034360e-001	-1.701788e+000	-1.701788e+000	
5.330000e-001	-1.623955e-001	-2.208426e+000	-2.208426e+000	-6.574917e+001	3.103514e+000	3.103514e+000	-7.142673e+001	2.058064e+001	2.058064e+001	-1.038895e-001	-1.730854e+000	-1.730854e+000	
5.340000e-001	-1.702634e-001	-2.172639e+000	-2.172639e+000	-6.841298e+001	-3.074878e+001	-3.074878e+001	-5.838251e+001	8.020444e+001	8.020444e+001	-9.768625e-002	-1.751891e+000	-1.751891e+000	
5.350000e-001	-1.758295e-001	-2.206247e+000	-2.206247e+000	-6.949273e+001	2.594524e+001	2.594524e+001	-6.169827e+001	-7.753879e+001	1.024612e+002	-1.109217e-001	-1.740313e+000	-1.740313e+000	
5.360000e-001	-1.681815e-001	-2.229650e+000	-2.229650e+000	-6.129509e+001	-3.583421e+001	-3.583421e+001	-6.687722e+001	-8.587223e+001	9.412777e+001	-9.949157e-002	-1.739634e+000	-1.739634e+000	
5.370000e-001	-1.733828e-001	-2.289857e+000	-2.289857e+000	-7.144997e+001	-6.253898e+000	-6.253898e+000	-6.512832e+001	-4.637646e+001	1.336235e+002	-1.036163e-001	-1.740796e+000	-1.740796e+000	
5.380000e-001	-1.673977e-001	-2.318088e+000	-2.318088e+000	-6.384913e+001	-7.872501e+001	-7.872501e+001	-7.105759e+001	-7.419811e+001	1.058019e+002	-9.718934e-002	-1.704797e+000	-1.704797e+000	
5.390000e-001	-1.752137e-001	-2.258115e+000	-2.258115e+000	-6.682457e+001	3.039075e+001	3.039075e+001	-6.507408e+001	7.113687e+001	7.113687e+001	-9.669130e-002	-1.830502e+000	-1.830502e+000	
5.400000e-001	-1.742019e-001	-2.171561e+000	-2.171561e+000	-7.246729e+001	-6.775010e+001	-6.775010e+001	-6.147076e+001	4.322938e+001	4.322938e+001	-1.007884e-001	-1.755273e+000	-1.755273e+000	
5.410000e-001	-1.841912e-001	-2.301329e+000	-2.301329e+000	-7.550886e+001	4.199149e+001	4.199149e+001	-6.617465e+001	-7.761151e+001	-7.761151e+001	-1.061363e-001	-1.747297e+000	-1.747297e+000	
5.420000e-001	-1.836288e-001	-2.256125e+000	-2.256125e+000	-6.749288e+001	-8.731856e+001	-8.731856e+001	-7.310897e+001	5.740630e+001	5.740630e+001	-1.018344e-001	-1.757979e+000	-1.757979e+000	
5.430000e-001	-1.761882e-001	-2.241411e+000	-2.241411e+000	-6.288740e+001	-5.332178e+001	-5.332178e+001	-6.340178e+001	6.369345e+001	6.369345e+001	-9.501189e-002	-1.802138e+000	-1.802138e+000	
5.440000e-001	-1.729318e-001	-2.179637e+000	-2.179637e+000	-6.426379e+001	-4.784004e+001	-4.784004e+001	-7.225827e+001	4.380432e+001	4.380432e+001	-9.381552e-002	-1.759118e+000	-1.759118e+000	
5.450000e-001	-1.617056e-001	-2.197390e+000	-2.197390e+000	-6.707802e+001	8.256895e+001	8.256895e+001	-6.579588e+001	4.027428e+001	4.027428e+001	-9.474741e-002	-1.751159e+000	-1.751159e+000	
5.460000e-001	-1.743939e-001	-2.214798e+000	-2.214798e+000	-6.536870e+001	-1.857967e+001	-1.857967e+001	-8.496973e+001	-1.967833e+001	-1.967833e+001	-9.462046e-002	-1.747232e+000	-1.747232e+000	
5.470000e-001	-1.651879e-001	-2.337786e+000	-2.337786e+000	-6.025500e+001	-2.612790e+001	-2.612790e+001	-6.310214e+001	6.597528e+001	6.597528e+001	-9.121984e-002	-1.736057e+000	-1.736057e+000	
5.480000e-001	-1.791687e-001	-2.207453e+000	-2.207453e+000	-6.186792e+001	6.542478e+001	6.542478e+001	-6.599781e+001	5.742573e+001	5.742573e+001	-9.713428e-002	-1.827073e+000	-1.827073e+000	
5.490000e-001	-1.729556e-001	-2.301102e+000	-2.301102e+000	-6.763764e+001	4.967604e+001	4.967604e+001	-7.051422e+001	5.411031e+001	5.411031e+001	-9.998206e-002	-1.852710e+000	-1.852710e+000	
5.500000e-001	-1.891107e-001	-2.236106e+000	-2.236106e+000	-6.723820e+001	2.597270e+001	2.597270e+001	-6.628372e+001	-8.790016e+001	9.209984e+001	-1.005373e-001	-1.772689e+000	-1.772689e+000	
5.510000e-001	-1.648209e-001	-2.224910e+000	-2.224910e+000	-6.139685e+001	-8.066032e+001	-8.066032e+001	-6.297384e+001	2.746494e+001	2.074649e+002	-9.986802e-002	-1.792598e+000	-1.792598e+000	
5.520000e-001	-1.736506e-001	-2.227742e+000	-2.227742e+000	-6.402726e+001	-1.722347e+001	-1.722347e+001	-6.464200e+001	-1.448379e+001	1.655162e+002	-9.945807e-002	-1.835540e+000	-1.835540e+000	
5.530000e-001	-1.711455e-001	-2.259423e+000	-2.259423e+000	-6.767620e+001	1.528293e+001	1.528293e+001	-7.516561e+001	-6.695368e+001	1.130463e+002	-8.617200e-002	-1.796780e+000	-1.796780e+000	
5.540000e-001	-1.723080e-001	-2.286672e+000	-2.286672e+000	-6.642649e+001	-6.419763e+000	-6.419763e+000	-6.035879e+001	5.195105e+001	2.319511e+002	-9.931129e-002	-1.754273e+000	-1.754273e+000	
5.550000e-001	-1.782717e-001	-2.180960e+000	-2.180960e+000	-7.406867e+001	8.211449e+001	8.211449e+001	-7.185221e+001	-7.404984e+001	1.059502e+002	-9.703169e-002	-1.766038e+000	-1.766038e+000	
5.560000e-001	-1.818988e-001	-2.236508e+000	-2.236508e+000	-6.786920e+001	-6.420686e+001	1.157931e+002	-6.084054e+001	-3.888605e+001	1.411139e+002	-9.194083e-002	-1.802968e+000	-1.802968e+000	
5.570000e-001	-1.714617e-001	-2.292365e+000	-2.292365e+000	-7.150149e+001	-7.367059e+001	1.063294e+002	-8.270547e+001	-7.131513e+001	1.086849e+002	-9.916299e-002	-1.785703e+000	-1.785703e+000	
5.580000e-001	-1.718523e-001	-2.232810e+000	-2.232810e+000	-6.581158e+001	4.895611e+001	2.289561e+002	-6.287485e+001	3.711590e+000	1.837116e+002	-9.252294e-002	-1.685255e+000	-1.685255e+000	
5.590000e-001	-1.729037e-001	-2.221829e+000	-2.221829e+000	-6.015165e+001	8.576933e+001	2.657693e+002	-7.222688e+001	7.819373e+001	2.581937e+002	-9.308593e-002	-1.802613e+000	-1.802613e+000	
5.600000e-001	-1.732356e-001	-2.225967e+000	-2.225967e+000	-6.590377e+001	8.577261e+001	2.657726e+002	-6.503729e+001	6.736326e+001	2.473633e+002	-9.509831e-002	-1.806413e+000	-1.806413e+000	
5.610000e-001	-1.765296e-001	-2.216893e+000	-2.216893e+000	-6.658616e+001	-7.580244e+001	2.841976e+002	-6.271872e+001	-8.382486e+001	2.761751e+002	-9.672953e-002	-1.693144e+000	-1.693144e+000	
5.620000e-001	-1.869143e-001	-2.273305e+000	-2.273305e+000	-5.997909e+001	-4.576287e+001	3.142371e+002	-6.174711e+001	5.310844e+001	4.131084e+002	-8.971253e-002	-1.738670e+000	-1.738670e+000	
5.630000e-001	-1.706386e-001	-2.268802e+000	-2.268802e+000	-7.847252e+001	-6.836867e+001	2.916313e+002	-7.734548e+001	4.089560e+001	4.008956e+002	-9.910911e-002	-1.790125e+000	-1.790125e+000	
5.640000e-001	-1.759838e-001	-2.166429e+000	-2.166429e+000	-7.280800e+001	7.032008e+001	4.303201e+002	-6.496621e+001	-8.180586e+001	2.781941e+002	-9.829137e-002	-1.715222e+000	-1.715222e+000	
5.650000e-001	-1.820890e-001	-2.234760e+000	-2.234760e+000	-6.694513e+001	-6.992270e+001	4.700773e+002	-7.081801e+001	7.253165e+001	2.525316e+002	-9.170736e-002	-1.773881e+000	-1.773881e+000	
5.660000e-001	-1.678737e-001	-2.214271e+000	-2.214271e+000	-6.333948e+001	-6.358918e+001	4.764108e+002	-7.136969e+001	1.417143e+001	1.941714e+002	-9.224105e-002	-1.799943e+000	-1.799943e+000	
5.670000e-001	-1.828418e-001	-2.263410e+000	-2.263410e+000	-6.021026e+001	-8.631947e+001	4.536805e+002	-7.185494e+001	1.078323e+001	1.907832e+002	-9.691723e-002	-1.769560e+000	-1.769560e+000	
5.680000e-001	-1.784222e-001	-2.262998e+000	-2.262998e+000	-6.429638e+001	-2.461657e+001	5.153834e+002	-6.535944e+001	5.162198e+001	2.316220e+002	-9.752661e-002	-1.771748e+000	-1.771748e+000	
5.690000e-001	-1.760810e-001	-2.241907e+000	-2.241907e+000	-6.134175e+001	3.261822e+001	5.726182e+002	-6.139443e+001	-8.163554e+001	9.836446e+001	-9.677692e-002	-1.701254e+000	-1.701254e+000	
5.700000e-001	-1.778252e-001	-2.203587e+000	-2.203587e+000	-7.124313e+001	6.103215e+000	5.461032e+002	-7.219782e+001	8.412592e+001	8.412592e+001	-1.073018e-001	-1.781466e+000	-1.781466e+000	
5.710000e-001	-1.732303e-001	-2.256527e+000	-2.256527e+000	-6.531621e+001	-8.667054e+001	4.533295e+002	-6.259778e+001	-8.336708e+001	9.663292e+001	-9.435319e-002	-1.732281e+000	-1.732281e+000	
5.720000e-001	-1.773233e-001	-2.233389e+000	-2.233389e+000	-6.127819e+001	1.687465e+001	5.568747e+002	-6.291767e+001	6.505260e+001	6.505260e+001	-9.944001e-002	-1.822712e+000	-1.822712e+000	
5.730000e-001	-1.733682e-001	-2.114852e+000	-2.114852e+000	-6.000591e+001	2.608859e+001	5.660886e+002	-6.296714e+001	5.699354e+001	5.699354e+001	-9.495902e-002	-1.772698e+000	-1.772698e+000	
5.740000e-001	-1.794233e-001	-2.285072e+000	-2.285072e+000	-6.285846e+001	2.656067e+001	5.665607e+002	-6.701724e+001	-5.299768e+001	-5.299768e+001	-9.554313e-002	-1.711662e+000	-1.711662e+000	
5.750000e-001	-1.747387e-001	-2.226000e+000	-2.226000e+000	-7.355939e+001	-1.132982e+001	5.286702e+002	-6.167909e+001	-6.679021e+001	-6.679021e+001	-1.023790e-001	-1.830585e+000	-1.830585e+000	
5.760000e-001	-1.772970e-001	-2.210273e+000	-2.210273e+000	-6.193470e+001	8.721579e+000	5.487216e+002	-7.576504e+001	-6.521450e+001	-6.521450e+001	-1.036322e-001	-1.789137e+000	-1.789137e+000	
5.770000e-001	-1.694729e-001	-2.210720e+000	-2.210720e+000	-7.048141e+001	-2.387059e+001	5.161294e+002	-6.806765e+001	2.714904e+001	2.714904e+001	-9.451694e-002	-1.791380e+000	-1.791380e+000	
5.780000e-001	-1.711179e-001	-2.238579e+000	-2.238579e+000	-6.197660e+001	6.922949e+001	6.092295e+002	-6.560577e+001	-8.166787e+000	-8.166787e+000	-9.881370e-002	-1.782128e+000	-1.782128e+000	
5.790000e-001	-1.723456e-001	-2.297289e+000	-2.297289e+000	-6.346116e+001	-2.061944e+001	5.193806e+002	-6.718649e+001	2.708385e+001	2.708385e+001	-8.476249e-002	-1.723307e+000	-1.723307e+000	
5.800000e-001	-1.825452e-001	-2.264849e+000	-2.264849e+000	-6.795273e+001	-8.771284e+001	4.522872e+002	-6.919772e+001	1.048204e+000	1.048204e+000	-9.445689e-002	-1.796404e+000	-1.796404e+000	
5.810000e-001	-1.825907e-001	-2.255034e+000	-2.255034e+000	-6.567775e+001	6.085498e+001	4.208550e+002	-7.773482e+001	-7.450569e+001	-7.450569e+001	-9.694059e-002	-1.721536e+000	-1.721536e+000	
5.820000e-001	-1.797237e-001	-2.250707e+000	-2.250707e+000	-6.402859e+001	8.591132e+001	4.459113e+002	-6.387584e+001	2.596917e+000	2.596917e+000	-9.285153e-002	-1.787147e+000	-1.787147e+000	
5.830000e-001	-1.737458e-001	-2.199965e+000	-2.199965e+000	-6.210327e+001	7.063903e+000	3.670639e+002	-6.905561e+001	1.392468e+000	1.392468e+000	-9.802185e-002	-1.832332e+000	-1.832332e+000	
5.840000e-001	-1.762659e-001	-2.240702e+000	-2.240702e+000	-5.750821e+001	3.941536e+001	3.994154e+002	-7.165664e+001	4.058625e+001	4.058625e+001	-1.061938e-001	-1.764010e+000	-1.764010e+000	
5.850000e-001	-1.719790e-001	-2.249585e+000	-2.249585e+000	-6.411993e+001	-3.549355e+001	3.245064e+002	-7.317165e+001	-8.803801e+001	-8.803801e+001	-9.330465e-002	-1.766496e+000	-1.766496e+000	
5.860000e-001	-1.687433e-001	-2.190313e+000	-2.190313e+000	-6.314700e+001	6.131651e+001	4.213165e+002	-6.806237e+001	-2.375643e+001	-2.375643e+001	-9.180081e-002	-1.806853e+000	-1.806853e+000	
5.870000e-001	-1.717660e-001	-2.371324e+000	-2.371324e+000	-6.454550e+001	8.138754e+001	4.413875e+002	-7.239621e+001	3.378519e-002	3.378519e-002	-9.632697e-002	-1.829922e+000	-1.829922e+000	
5.880000e-001	-1.794941e-001	-2.303887e+000	-2.303887e+000	-6.092903e+001	-8.376205e+001	4.562379e+002	-6.339858e+001	7.484890e+001	7.484890e+001	-9.176189e-002	-1.820742e+000	-1.820742e+000	
5.890000e-001	-1.712028e-001	-2.273909e+000	-2.273909e+000	-6.161252e+001	5.567061e+001	5.956706e+002	-6.235395e+001	6.321857e+001	6.321857e+001	-1.022073e-001	-1.791041e+000	-1.791041e+000	
5.900000e-001	-1.798429e-001	-2.316228e+000	-2.316228e+000	-6.385522e+001	1.632952e+001	5.563295e+002	-7.010223e+001	5.624109e+001	5.624109e+001	-9.628628e-002	-1.852355e+000	-1.852355e+000	
5.910000e-001	-1.766506e-001	-2.295949e+000	-2.295949e+000	-6.154659e+001	8.547756e+001	6.254776e+002	-7.424208e+001	8.768983e+001	8.768983e+001	-9.005572e-002	-1.820699e+000	-1.820699e+000	
5.920000e-001	-1.796438e-001	-2.174426e+000	-2.174426e+000	-6.425471e+001	-4.016956e+001	4.998304e+002	-6.687896e+001	-6.356723e+001	1.164328e+002	-9.971308e-002	-1.723773e+000	-1.723773e+000	
5.930000e-001	-1.906190e-001	-2.313131e+000	-2.313131e+000	-5.718386e+001	-4.348584e+001	4.965142e+002	-6.223176e+001	8.452163e+001	8.452163e+001	-9.290515e-002	-1.819892e+000	-1.819892e+000	
5.940000e-001	-1.743295e-001	-2.246628e+000	-2.246628e+000	-6.371553e+001	6.211654e+001	6.021165e+002	-6.354677e+001	7.171170e+000	7.171170e+000	-9.746488e-002	-1.846887e+000	-1.846887e+000	
5.950000e-001	-1.796977e-001	-2.243440e+000	-2.243440e+000	-6.771958e+001	-2.938228e+001	5.106177e+002	-6.985483e+001	7.749148e+001	7.749148e+001	-9.825939e-002	-1.820594e+000	-1.820594e+000	
5.960000e-001	-1.790937e-001	-2.293634e+000	-2.293634e+000	-6.885186e+001	6.091850e+001	6.009185e+002	-7.618151e+001	-7.996306e+001	1.000369e+002	-1.122265e-001	-1.814186e+000	-1.814186e+000	
5.970000e-001	-1.845395e-001	-2.291741e+000	-2.291741e+000	-6.389660e+001	-7.640619e+001	4.635938e+002	-7.659260e+001	-4.904874e+001	1.309513e+002	-9.569448e-002	-1.786653e+000	-1.786653e+000	
5.980000e-001	-1.830756e-001	-2.338126e+000	-2.338126e+000	-6.023916e+001	-5.443288e+001	4.855671e+002	-6.466564e+001	-6.197614e+001	1.180239e+002	-9.296211e-002	-1.787241e+000	-1.787241e+000	
5.990000e-001	-1.735050e-001	-2.352465e+000	-2.352465e+000	-6.570726e+001	3.666204e+001	5.766620e+002	-5.856091e+001	8.019897e+001	8.019897e+001	-9.312565e-002	-1.775302e+000	-1.775302e+000	
6.000000e-001	-1.655036e-001	-2.246683e+000	-2.246683e+000	-6.179771e+001	-4.934502e+000	5.350655e+002	-7.299903e+001	-7.783605e+001	1.021640e+002	-9.843877e-002	-1.838619e+000	-1.838619e+000	
6.010000e-001	-1.883953e-001	-2.362503e+000	-2.362503e+000	-7.667036e+001	5.247034e+000	5.452470e+002	-6.241631e+001	7.311743e+001	7.311743e+001	-9.795074e-002	-1.787364e+000	-1.787364e+000	
6.020000e-001	-1.825119e-001	-2.346099e+000	-2.346099e+000	-7.190896e+001	9.696837e-001	5.409697e+002	-6.623082e+001	6.822884e+001	6.822884e+001	-8.927064e-002	-1.861513e+000	-1.861513e+000	
