Frequency	 |S11|	 Phase(S11)	 ExtPh(S11)	 |S21|	 Phase(S21)	 ExtPh(S21)	 |S12|	 Phase(S12)	 ExtPh(S12)	 |S22|	 Phase(S22)	 ExtPh(S22) 
5.000000e-001	-1.443009e-001	-2.045702e+000	-2.045702e+000	-7.016147e+001	-2.739880e+001	-2.739880e+001	-6.956181e+001	-8.152747e+001	-8.152747e+001	-9.515303e-002	-1.529382e+000	-1.529382e+000	
5.010000e-001	-1.604331e-001	-2.087301e+000	-2.087301e+000	-6.393912e+001	2.044617e+001	2.044617e+001	-6.256536e+001	6.264866e+001	-1.173513e+002	-9.615398e-002	-1.550753e+000	-1.550753e+000	
5.020000e-001	-1.551059e-001	-2.036752e+000	-2.036752e+000	-5.863602e+001	-7.567682e+001	-7.567682e+001	-6.061478e+001	-2.038026e+001	-2.003803e+002	-8.324140e-002	-1.521564e+000	-1.521564e+000	
5.030000e-001	-1.586022e-001	-2.039850e+000	-2.039850e+000	-7.778587e+001	-2.444208e+001	-2.444208e+001	-6.401923e+001	5.277582e+001	-1.272242e+002	-9.671803e-002	-1.597515e+000	-1.597515e+000	
5.040000e-001	-1.630213e-001	-2.081662e+000	-2.081662e+000	-6.893851e+001	5.538134e+001	5.538134e+001	-6.409407e+001	-2.783399e+001	-2.078340e+002	-8.963019e-002	-1.510390e+000	-1.510390e+000	
5.050000e-001	-1.550209e-001	-2.004509e+000	-2.004509e+000	-6.713330e+001	-5.395912e+001	-5.395912e+001	-7.244982e+001	1.088383e+000	-1.789116e+002	-9.150275e-002	-1.563760e+000	-1.563760e+000	
5.060000e-001	-1.542255e-001	-1.986888e+000	-1.986888e+000	-6.614551e+001	-2.270174e+001	-2.270174e+001	-6.653983e+001	-8.567619e+001	-2.656762e+002	-9.412744e-002	-1.585627e+000	-1.585627e+000	
5.070000e-001	-1.567752e-001	-2.048168e+000	-2.048168e+000	-6.127818e+001	6.355219e+001	6.355219e+001	-6.142059e+001	2.000465e+000	-1.779995e+002	-9.202820e-002	-1.623587e+000	-1.623587e+000	
5.080000e-001	-1.404980e-001	-2.076148e+000	-2.076148e+000	-6.503541e+001	-3.464691e+001	-3.464691e+001	-6.906358e+001	7.562617e+001	-1.043738e+002	-8.839389e-002	-1.579948e+000	-1.579948e+000	
5.090000e-001	-1.538206e-001	-2.094653e+000	-2.094653e+000	-6.122993e+001	6.818677e+001	6.818677e+001	-6.752369e+001	8.310869e+001	-9.689131e+001	-9.445860e-002	-1.592040e+000	-1.592040e+000	
5.100000e-001	-1.546578e-001	-2.052597e+000	-2.052597e+000	-6.541373e+001	2.390218e+001	2.390218e+001	-6.810416e+001	1.868939e+001	-1.613106e+002	-9.430282e-002	-1.602253e+000	-1.602253e+000	
5.110000e-001	-1.581290e-001	-2.117979e+000	-2.117979e+000	-7.244538e+001	5.370259e+001	5.370259e+001	-6.721228e+001	7.499647e+001	-1.050035e+002	-1.000620e-001	-1.595547e+000	-1.595547e+000	
5.120000e-001	-1.518501e-001	-2.020521e+000	-2.020521e+000	-6.774358e+001	4.570404e+001	4.570404e+001	-6.068201e+001	3.853272e+001	-1.414673e+002	-1.044374e-001	-1.612097e+000	-1.612097e+000	
5.130000e-001	-1.464300e-001	-1.990489e+000	-1.990489e+000	-6.321125e+001	7.644844e+001	7.644844e+001	-6.212315e+001	3.909851e+000	-1.760901e+002	-9.720301e-002	-1.603831e+000	-1.603831e+000	
5.140000e-001	-1.504237e-001	-2.111962e+000	-2.111962e+000	-6.253275e+001	4.986272e+001	4.986272e+001	-7.172852e+001	3.367935e+001	-1.463207e+002	-8.750326e-002	-1.579119e+000	-1.579119e+000	
5.150000e-001	-1.509720e-001	-2.076397e+000	-2.076397e+000	-6.306583e+001	6.610440e+001	6.610440e+001	-6.477722e+001	2.751517e+001	-1.524848e+002	-8.882869e-002	-1.615589e+000	-1.615589e+000	
5.160000e-001	-1.542896e-001	-2.071549e+000	-2.071549e+000	-6.579249e+001	-5.471664e+001	-5.471664e+001	-6.753150e+001	7.745154e+001	-1.025485e+002	-9.297088e-002	-1.613709e+000	-1.613709e+000	
5.170000e-001	-1.547950e-001	-2.066609e+000	-2.066609e+000	-6.808303e+001	-5.383371e+001	-5.383371e+001	-7.136446e+001	6.398885e+001	-1.160112e+002	-9.210574e-002	-1.568555e+000	-1.568555e+000	
5.180000e-001	-1.553944e-001	-2.170127e+000	-2.170127e+000	-7.041463e+001	-1.861085e+001	-1.861085e+001	-7.344540e+001	6.894197e+001	-1.110580e+002	-9.917250e-002	-1.621748e+000	-1.621748e+000	
5.190000e-001	-1.500071e-001	-2.148650e+000	-2.148650e+000	-6.558355e+001	5.346426e+001	5.346426e+001	-6.186237e+001	-2.423384e+001	-2.042338e+002	-1.015749e-001	-1.684359e+000	-1.684359e+000	
5.200000e-001	-1.545118e-001	-2.088753e+000	-2.088753e+000	-6.256655e+001	-2.144502e+001	-2.144502e+001	-7.104312e+001	6.412450e+000	-1.735876e+002	-8.708254e-002	-1.690499e+000	-1.690499e+000	
5.210000e-001	-1.507833e-001	-2.197356e+000	-2.197356e+000	-6.288318e+001	3.060441e+000	3.060441e+000	-6.310944e+001	1.186954e+001	-1.681305e+002	-9.410988e-002	-1.729034e+000	-1.729034e+000	
5.220000e-001	-1.498344e-001	-2.111488e+000	-2.111488e+000	-7.796086e+001	8.806261e+001	8.806261e+001	-7.447605e+001	-8.367816e+001	-2.636782e+002	-9.904304e-002	-1.616743e+000	-1.616743e+000	
5.230000e-001	-1.502991e-001	-2.129188e+000	-2.129188e+000	-6.800938e+001	5.120432e+001	5.120432e+001	-6.334855e+001	-4.865928e+001	-2.286593e+002	-9.990068e-002	-1.661189e+000	-1.661189e+000	
5.240000e-001	-1.611028e-001	-2.133401e+000	-2.133401e+000	-7.081987e+001	-5.313273e+001	-5.313273e+001	-5.989674e+001	1.705331e+001	-1.629467e+002	-8.961091e-002	-1.630102e+000	-1.630102e+000	
5.250000e-001	-1.581349e-001	-2.110797e+000	-2.110797e+000	-6.936822e+001	2.834449e+001	2.834449e+001	-6.713797e+001	-6.515254e+001	-2.451525e+002	-9.171033e-002	-1.687180e+000	-1.687180e+000	
5.260000e-001	-1.519772e-001	-2.148908e+000	-2.148908e+000	-6.194177e+001	-5.683170e+001	-5.683170e+001	-5.910005e+001	-6.094248e+001	-2.409425e+002	-9.659778e-002	-1.625461e+000	-1.625461e+000	
5.270000e-001	-1.537712e-001	-2.098215e+000	-2.098215e+000	-7.659227e+001	-7.222117e+001	-7.222117e+001	-6.502988e+001	-5.757511e+001	-2.375751e+002	-9.229284e-002	-1.767016e+000	-1.767016e+000	
5.280000e-001	-1.667672e-001	-2.215511e+000	-2.215511e+000	-7.597597e+001	-6.532259e+001	-6.532259e+001	-7.110277e+001	-4.647196e+001	-2.264720e+002	-9.241183e-002	-1.711943e+000	-1.711943e+000	
5.290000e-001	-1.524868e-001	-2.201783e+000	-2.201783e+000	-5.909577e+001	7.316794e+001	7.316794e+001	-6.402829e+001	1.674866e+001	-1.632513e+002	-1.041157e-001	-1.755327e+000	-1.755327e+000	
5.300000e-001	-1.536792e-001	-2.164066e+000	-2.164066e+000	-6.393578e+001	-4.011644e+001	-4.011644e+001	-7.101151e+001	-3.753620e+001	-2.175362e+002	-9.937936e-002	-1.711100e+000	-1.711100e+000	
5.310000e-001	-1.465598e-001	-2.198482e+000	-2.198482e+000	-6.923850e+001	-1.482167e+001	-1.482167e+001	-7.015879e+001	7.548928e+001	-1.045107e+002	-9.440280e-002	-1.666304e+000	-1.666304e+000	
5.320000e-001	-1.505344e-001	-2.148609e+000	-2.148609e+000	-7.077388e+001	4.065171e+001	4.065171e+001	-7.022477e+001	-5.062220e+001	-2.306222e+002	-9.738753e-002	-1.673237e+000	-1.673237e+000	
5.330000e-001	-1.478796e-001	-2.154909e+000	-2.154909e+000	-6.928416e+001	1.663489e+001	1.663489e+001	-6.609567e+001	-7.373218e+001	-2.537322e+002	-9.384029e-002	-1.654543e+000	-1.654543e+000	
5.340000e-001	-1.526927e-001	-2.128513e+000	-2.128513e+000	-7.726083e+001	-5.436135e+001	-5.436135e+001	-7.945877e+001	-6.260180e+001	-2.426018e+002	-8.893111e-002	-1.731296e+000	-1.731296e+000	
5.350000e-001	-1.553057e-001	-2.207268e+000	-2.207268e+000	-6.672741e+001	4.370832e+001	4.370832e+001	-6.654524e+001	-5.634517e+001	-2.363452e+002	-9.454767e-002	-1.699360e+000	-1.699360e+000	
5.360000e-001	-1.562254e-001	-2.150966e+000	-2.150966e+000	-7.046594e+001	3.170829e+001	3.170829e+001	-6.980962e+001	3.882543e+000	-1.761175e+002	-9.815012e-002	-1.701054e+000	-1.701054e+000	
5.370000e-001	-1.633050e-001	-2.094616e+000	-2.094616e+000	-6.041663e+001	7.934312e+001	7.934312e+001	-6.523123e+001	-4.396680e+001	-2.239668e+002	-9.850087e-002	-1.749976e+000	-1.749976e+000	
5.380000e-001	-1.503835e-001	-2.178461e+000	-2.178461e+000	-6.407937e+001	6.980853e+001	6.980853e+001	-6.039622e+001	5.560329e+001	-1.243967e+002	-1.006669e-001	-1.730159e+000	-1.730159e+000	
5.390000e-001	-1.522041e-001	-2.171095e+000	-2.171095e+000	-6.395789e+001	2.127110e+001	2.127110e+001	-6.607372e+001	-7.450772e+000	-1.874508e+002	-9.320568e-002	-1.729047e+000	-1.729047e+000	
5.400000e-001	-1.513703e-001	-2.243686e+000	-2.243686e+000	-8.190250e+001	3.311897e+001	3.311897e+001	-1.041971e+002	-4.418172e+001	-2.241817e+002	-1.000126e-001	-1.737668e+000	-1.737668e+000	
5.410000e-001	-1.613388e-001	-2.241755e+000	-2.241755e+000	-6.567733e+001	1.711578e+001	1.711578e+001	-6.574563e+001	2.612597e+001	-1.538740e+002	-9.770432e-002	-1.739823e+000	-1.739823e+000	
5.420000e-001	-1.553357e-001	-2.210271e+000	-2.210271e+000	-6.155258e+001	-8.461947e+001	-8.461947e+001	-6.270728e+001	-7.362861e+001	-2.536286e+002	-8.967037e-002	-1.743056e+000	-1.743056e+000	
5.430000e-001	-1.564753e-001	-2.198926e+000	-2.198926e+000	-6.691033e+001	8.674863e+001	-9.325137e+001	-7.976369e+001	-6.350536e+000	-1.863505e+002	-1.026194e-001	-1.777380e+000	-1.777380e+000	
5.440000e-001	-1.575816e-001	-2.189184e+000	-2.189184e+000	-6.443623e+001	4.398907e+001	-1.360109e+002	-6.552553e+001	-6.649129e+001	-2.464913e+002	-9.342131e-002	-1.766738e+000	-1.766738e+000	
5.450000e-001	-1.513105e-001	-2.172102e+000	-2.172102e+000	-6.918950e+001	-1.533592e+001	-1.953359e+002	-6.789975e+001	5.726218e+001	-1.227378e+002	-9.569034e-002	-1.784984e+000	-1.784984e+000	
5.460000e-001	-1.515375e-001	-2.215073e+000	-2.215073e+000	-6.029991e+001	5.049820e+001	-1.295018e+002	-6.343365e+001	-1.898485e+001	-1.989848e+002	-9.430513e-002	-1.777580e+000	-1.777580e+000	
5.470000e-001	-1.579190e-001	-2.265047e+000	-2.265047e+000	-6.488440e+001	-5.266835e+001	-2.326683e+002	-6.753415e+001	-4.739812e+000	-1.847398e+002	-9.938197e-002	-1.789692e+000	-1.789692e+000	
5.480000e-001	-1.594584e-001	-2.188191e+000	-2.188191e+000	-7.241996e+001	-6.402232e+001	-2.440223e+002	-6.327349e+001	5.719212e+000	-1.742808e+002	-9.474641e-002	-1.733888e+000	-1.733888e+000	
5.490000e-001	-1.593957e-001	-2.249371e+000	-2.249371e+000	-7.006012e+001	4.476014e+001	-1.352399e+002	-7.506863e+001	-3.879947e+001	-2.187995e+002	-9.232758e-002	-1.735588e+000	-1.735588e+000	
5.500000e-001	-1.618650e-001	-2.283803e+000	-2.283803e+000	-6.621887e+001	3.960868e+001	-1.403913e+002	-6.633659e+001	-6.157693e+000	-1.861577e+002	-8.622785e-002	-1.823774e+000	-1.823774e+000	
5.510000e-001	-1.551703e-001	-2.187471e+000	-2.187471e+000	-6.334594e+001	2.079453e+001	-1.592055e+002	-6.151144e+001	3.695039e+001	-1.430496e+002	-9.871897e-002	-1.818608e+000	-1.818608e+000	
5.520000e-001	-1.457724e-001	-2.183003e+000	-2.183003e+000	-6.858046e+001	-8.682162e+001	-2.668216e+002	-6.188625e+001	4.262276e+001	-1.373772e+002	-9.665182e-002	-1.740453e+000	-1.740453e+000	
5.530000e-001	-1.598546e-001	-2.212860e+000	-2.212860e+000	-6.878648e+001	6.648757e+001	-2.935124e+002	-5.707124e+001	6.482349e+001	-1.151765e+002	-8.961935e-002	-1.740621e+000	-1.740621e+000	
5.540000e-001	-1.624829e-001	-2.168844e+000	-2.168844e+000	-6.901888e+001	8.073683e+001	-2.792632e+002	-6.587224e+001	-4.751993e+000	-1.847520e+002	-1.031376e-001	-1.713649e+000	-1.713649e+000	
5.550000e-001	-1.488688e-001	-2.208016e+000	-2.208016e+000	-9.569973e+001	-1.248258e+001	-3.724826e+002	-7.970984e+001	-7.985177e+001	-2.598518e+002	-8.672349e-002	-1.735657e+000	-1.735657e+000	
5.560000e-001	-1.573893e-001	-2.218903e+000	-2.218903e+000	-6.611261e+001	2.759485e+001	-3.324052e+002	-8.655449e+001	-3.817610e+001	-2.181761e+002	-8.656908e-002	-1.706743e+000	-1.706743e+000	
5.570000e-001	-1.486303e-001	-2.238421e+000	-2.238421e+000	-7.508319e+001	3.759782e+001	-3.224022e+002	-6.514012e+001	-6.734609e+001	-2.473461e+002	-9.023253e-002	-1.731534e+000	-1.731534e+000	
5.580000e-001	-1.667142e-001	-2.208874e+000	-2.208874e+000	-6.509551e+001	-7.816739e+001	-4.381674e+002	-7.405494e+001	3.602228e+001	-1.439777e+002	-1.006013e-001	-1.719858e+000	-1.719858e+000	
5.590000e-001	-1.741684e-001	-2.202449e+000	-2.202449e+000	-6.726249e+001	4.201526e+001	-3.179847e+002	-7.048059e+001	-1.080156e+001	-1.908016e+002	-9.376477e-002	-1.767416e+000	-1.767416e+000	
5.600000e-001	-1.563693e-001	-2.186108e+000	-2.186108e+000	-6.918038e+001	-2.833575e+001	-3.883358e+002	-6.315955e+001	5.590361e+001	-1.240964e+002	-9.164366e-002	-1.756369e+000	-1.756369e+000	
5.610000e-001	-1.651670e-001	-2.226757e+000	-2.226757e+000	-6.287251e+001	-6.566474e+001	-4.256647e+002	-7.306720e+001	5.535017e+001	-1.246498e+002	-1.082520e-001	-1.723008e+000	-1.723008e+000	
5.620000e-001	-1.569150e-001	-2.258784e+000	-2.258784e+000	-6.290317e+001	-5.540714e+001	-4.154071e+002	-6.264746e+001	7.000905e+001	-1.099910e+002	-9.674911e-002	-1.775707e+000	-1.775707e+000	
5.630000e-001	-1.653498e-001	-2.232555e+000	-2.232555e+000	-6.865392e+001	2.570221e+001	-3.342978e+002	-6.726489e+001	3.089452e+001	-1.491055e+002	-9.462241e-002	-1.765295e+000	-1.765295e+000	
5.640000e-001	-1.556140e-001	-2.149971e+000	-2.149971e+000	-7.422693e+001	-7.853127e+001	-4.385313e+002	-7.250256e+001	3.303427e+001	-1.469657e+002	-8.936991e-002	-1.689619e+000	-1.689619e+000	
5.650000e-001	-1.564194e-001	-2.161265e+000	-2.161265e+000	-6.506495e+001	2.546901e+001	-3.345310e+002	-6.036459e+001	6.502540e+001	-1.149746e+002	-9.734211e-002	-1.740007e+000	-1.740007e+000	
5.660000e-001	-1.602956e-001	-2.178767e+000	-2.178767e+000	-6.326693e+001	3.044348e+001	-3.295565e+002	-7.092278e+001	-2.776072e+000	-1.827761e+002	-9.078302e-002	-1.788199e+000	-1.788199e+000	
5.670000e-001	-1.643701e-001	-2.253118e+000	-2.253118e+000	-6.913774e+001	8.435281e+001	-2.756472e+002	-7.355616e+001	4.127894e+001	-1.387211e+002	-8.631441e-002	-1.700333e+000	-1.700333e+000	
5.680000e-001	-1.747615e-001	-2.113057e+000	-2.113057e+000	-6.529465e+001	5.041437e+000	-3.549586e+002	-6.989796e+001	8.752643e+001	-9.247357e+001	-9.618283e-002	-1.755785e+000	-1.755785e+000	
5.690000e-001	-1.614734e-001	-2.182182e+000	-2.182182e+000	-7.553794e+001	-7.882996e+001	-4.388300e+002	-6.462778e+001	6.378315e+001	-1.162168e+002	-9.810654e-002	-1.710475e+000	-1.710475e+000	
5.700000e-001	-1.595137e-001	-2.170854e+000	-2.170854e+000	-6.744195e+001	2.918974e+001	-3.308103e+002	-6.419126e+001	6.165599e+001	-1.183440e+002	-1.025783e-001	-1.778312e+000	-1.778312e+000	
5.710000e-001	-1.657721e-001	-2.120383e+000	-2.120383e+000	-6.624445e+001	-3.144251e+001	-3.914425e+002	-6.429122e+001	-2.196660e+001	-2.019666e+002	-8.450399e-002	-1.789820e+000	-1.789820e+000	
5.720000e-001	-1.639545e-001	-2.243187e+000	-2.243187e+000	-7.058866e+001	-4.311013e+001	-4.031101e+002	-6.716960e+001	-2.417824e+000	-1.824178e+002	-9.316631e-002	-1.732713e+000	-1.732713e+000	
5.730000e-001	-1.577712e-001	-2.160395e+000	-2.160395e+000	-5.980150e+001	1.318137e+001	-3.468186e+002	-7.796546e+001	8.707679e+001	-9.292321e+001	-8.712959e-002	-1.762417e+000	-1.762417e+000	
5.740000e-001	-1.665192e-001	-2.165660e+000	-2.165660e+000	-6.583553e+001	4.326476e+001	-3.167352e+002	-6.759981e+001	-7.671252e+001	-7.671252e+001	-9.210273e-002	-1.774410e+000	-1.774410e+000	
5.750000e-001	-1.584007e-001	-2.227241e+000	-2.227241e+000	-6.858347e+001	-8.119602e+001	-4.411960e+002	-6.013033e+001	-7.660785e+001	-7.660785e+001	-8.901019e-002	-1.838605e+000	-1.838605e+000	
5.760000e-001	-1.642672e-001	-2.238098e+000	-2.238098e+000	-6.779524e+001	5.808109e+001	-3.019189e+002	-6.312171e+001	8.941773e+001	-9.058227e+001	-8.865826e-002	-1.683169e+000	-1.683169e+000	
5.770000e-001	-1.669031e-001	-2.150228e+000	-2.150228e+000	-6.479376e+001	-6.470309e+001	-4.247031e+002	-6.743108e+001	5.271836e+001	-1.272816e+002	-9.690179e-002	-1.773078e+000	-1.773078e+000	
5.780000e-001	-1.625402e-001	-2.260625e+000	-2.260625e+000	-6.219713e+001	-5.008389e+001	-4.100839e+002	-6.999933e+001	7.045998e+001	-1.095400e+002	-9.727774e-002	-1.803102e+000	-1.803102e+000	
5.790000e-001	-1.574721e-001	-2.214149e+000	-2.214149e+000	-6.649706e+001	-4.083358e+001	-4.008336e+002	-7.041315e+001	-8.045402e+001	-8.045402e+001	-9.200544e-002	-1.766684e+000	-1.766684e+000	
5.800000e-001	-1.585202e-001	-2.224621e+000	-2.224621e+000	-6.437061e+001	8.929991e+001	-2.707001e+002	-6.687284e+001	-8.255611e+001	-8.255611e+001	-1.056634e-001	-1.778399e+000	-1.778399e+000	
5.810000e-001	-1.680237e-001	-2.188795e+000	-2.188795e+000	-7.187657e+001	2.640000e+001	-3.336000e+002	-6.994168e+001	2.256602e+001	2.256602e+001	-8.642467e-002	-1.742952e+000	-1.742952e+000	
5.820000e-001	-1.668848e-001	-2.221037e+000	-2.221037e+000	-6.118374e+001	-2.513124e+001	-3.851312e+002	-6.344531e+001	-3.015383e+000	-3.015383e+000	-9.237982e-002	-1.828295e+000	-1.828295e+000	
5.830000e-001	-1.593844e-001	-2.267765e+000	-2.267765e+000	-7.090424e+001	-4.384321e+001	-4.038432e+002	-6.125757e+001	7.523463e+001	7.523463e+001	-9.247417e-002	-1.751916e+000	-1.751916e+000	
5.840000e-001	-1.741251e-001	-2.179295e+000	-2.179295e+000	-6.524214e+001	-8.221688e+001	-4.422169e+002	-6.800267e+001	8.565247e+001	8.565247e+001	-9.614087e-002	-1.770707e+000	-1.770707e+000	
5.850000e-001	-1.577669e-001	-2.239750e+000	-2.239750e+000	-6.060057e+001	-5.946376e+001	-4.194638e+002	-6.333637e+001	-8.669198e+001	9.330802e+001	-8.508585e-002	-1.764304e+000	-1.764304e+000	
5.860000e-001	-1.623439e-001	-2.208774e+000	-2.208774e+000	-7.310555e+001	-4.753029e+001	-4.075303e+002	-5.813726e+001	-3.312660e+000	1.766873e+002	-9.341812e-002	-1.732047e+000	-1.732047e+000	
5.870000e-001	-1.582153e-001	-2.223609e+000	-2.223609e+000	-6.758592e+001	4.825711e+001	-3.117429e+002	-7.396000e+001	-2.127790e+001	1.587221e+002	-9.902150e-002	-1.762618e+000	-1.762618e+000	
5.880000e-001	-1.561736e-001	-2.168066e+000	-2.168066e+000	-7.161840e+001	-7.846248e+001	-4.384625e+002	-6.010970e+001	-2.814812e+001	1.518519e+002	-9.759703e-002	-1.786170e+000	-1.786170e+000	
5.890000e-001	-1.720716e-001	-2.270405e+000	-2.270405e+000	-6.499069e+001	-8.727440e+000	-3.687274e+002	-6.943284e+001	2.747724e+001	2.074772e+002	-1.023180e-001	-1.782170e+000	-1.782170e+000	
5.900000e-001	-1.563477e-001	-2.231829e+000	-2.231829e+000	-6.173027e+001	-8.320842e+001	-4.432084e+002	-7.319251e+001	7.377995e+000	1.873780e+002	-9.323235e-002	-1.785336e+000	-1.785336e+000	
5.910000e-001	-1.605165e-001	-2.217511e+000	-2.217511e+000	-6.307360e+001	3.590876e+001	-3.240912e+002	-8.629072e+001	-4.314622e+001	1.368538e+002	-9.978573e-002	-1.765117e+000	-1.765117e+000	
5.920000e-001	-1.528061e-001	-2.213015e+000	-2.213015e+000	-6.726677e+001	7.631582e+001	-2.836842e+002	-6.861821e+001	-2.912876e+001	1.508712e+002	-9.481275e-002	-1.729343e+000	-1.729343e+000	
5.930000e-001	-1.670103e-001	-2.257854e+000	-2.257854e+000	-6.595630e+001	-8.657236e+001	-2.665724e+002	-5.905759e+001	6.295572e+001	2.429557e+002	-8.881064e-002	-1.717894e+000	-1.717894e+000	
5.940000e-001	-1.623050e-001	-2.284987e+000	-2.284987e+000	-6.188400e+001	7.349640e+001	-2.865036e+002	-6.890155e+001	3.220020e+001	2.122002e+002	-9.396047e-002	-1.741387e+000	-1.741387e+000	
5.950000e-001	-1.523830e-001	-2.228844e+000	-2.228844e+000	-6.864596e+001	1.096642e+001	-3.490336e+002	-6.929908e+001	-2.081793e+001	1.591821e+002	-9.759101e-002	-1.722605e+000	-1.722605e+000	
5.960000e-001	-1.544459e-001	-2.320204e+000	-2.320204e+000	-8.588863e+001	-6.516249e+001	-4.251625e+002	-5.910241e+001	7.798892e+001	2.579889e+002	-9.784628e-002	-1.792717e+000	-1.792717e+000	
5.970000e-001	-1.599781e-001	-2.260805e+000	-2.260805e+000	-6.239604e+001	-1.466427e+001	-3.746643e+002	-6.115092e+001	2.398838e+001	2.039884e+002	-1.004317e-001	-1.809672e+000	-1.809672e+000	
5.980000e-001	-1.573562e-001	-2.287079e+000	-2.287079e+000	-6.442088e+001	3.507901e+000	-3.564921e+002	-6.404955e+001	-8.248130e+001	9.751870e+001	-9.289644e-002	-1.790814e+000	-1.790814e+000	
5.990000e-001	-1.701475e-001	-2.243272e+000	-2.243272e+000	-6.957418e+001	3.082667e+001	-3.291733e+002	-7.190469e+001	3.961908e+001	2.196191e+002	-9.679073e-002	-1.843562e+000	-1.843562e+000	
6.000000e-001	-1.570349e-001	-2.323214e+000	-2.323214e+000	-6.865312e+001	-1.955126e+001	-3.795513e+002	-6.343315e+001	-7.049966e+001	1.095003e+002	-9.258942e-002	-1.738413e+000	-1.738413e+000	
6.010000e-001	-1.615417e-001	-2.300803e+000	-2.300803e+000	-5.840955e+001	-7.401619e+001	-4.340162e+002	-6.864423e+001	5.258050e+001	2.325805e+002	-9.674608e-002	-1.868960e+000	-1.868960e+000	
