!Keysight Technologies,M9374A,MY55442783,A.12.55.05
!Date: Thursday, May 20, 2021 18:43:26
!Correction: S11(Full 2 Port(1,2)) 
!S21(Full 2 Port(1,2)) 
!S12(Full 2 Port(1,2)) 
!S22(Full 2 Port(1,2)) 
!S2P File: Measurements: S11, S21, S12, S22:
# Hz S  RI   R 50
500000000 -0.8132053 0.08102075 0.00040896959 -0.0012502796 -0.00038091242 -0.0012667166 -0.81316984 0.076866455
501000000 -0.8134681 0.082230888 -0.00041082717 -0.0012714941 0.00049342035 -0.00082414469 -0.81518066 0.075694427
502000000 -0.81235021 0.083124779 -0.0013763445 -0.0018001862 7.7070348e-005 -0.00104816 -0.81419683 0.077054515
503000000 -0.81092495 0.082022652 0.00050031219 -0.0018340561 -0.00025308592 -0.00087968452 -0.81530279 0.076337695
504000000 -0.8106426 0.080817275 4.5831839e-005 -0.00070032472 -8.097988e-005 -0.0026856789 -0.81468189 0.077116281
505000000 -0.8103683 0.081679896 -0.00030553745 -0.0012137957 -0.0011060867 -0.0020930278 -0.81494892 0.076192565
506000000 -0.81096339 0.084131293 0.00074506621 -0.0019160364 -0.00086345046 -0.00098009361 -0.81471914 0.076371856
507000000 -0.81246275 0.085287042 -0.00046312241 -0.0021398328 -0.00069416792 -0.00019757226 -0.81440306 0.07855916
508000000 -0.81393683 0.084437422 -0.00034555042 -0.0011592961 -0.0004498355 -0.0018149245 -0.81467748 0.07680738
509000000 -0.81300724 0.084094413 -0.00047619801 -0.00039087681 -0.00081068429 -0.0016289599 -0.8147248 0.07818567
510000000 -0.81057978 0.084013708 0.0001105081 -0.00068283861 -0.00042289996 -0.0026505168 -0.81319481 0.079930663
511000000 -0.81132317 0.083291374 -0.00083415856 -0.0021814816 -0.00042912422 -0.00130648 -0.81397402 0.078764908
512000000 -0.81241149 0.084883407 0.00075411476 -0.002099857 -0.00026750867 -0.0015661528 -0.81372708 0.078369752
513000000 -0.81141716 0.084768325 -0.00082071737 -0.0017009054 -0.00059021701 -0.00069810217 -0.81551361 0.078922272
514000000 -0.80972165 0.084353119 0.00064414495 -0.0012225182 -0.00020143768 -0.0012451606 -0.81291497 0.079363666
515000000 -0.81071615 0.08493191 -7.5058648e-005 -0.002135776 -0.0015275761 -0.0017665344 -0.81366521 0.078953691
516000000 -0.81224048 0.086161368 -0.0001433006 -0.0012581613 -0.0013817142 -0.001385815 -0.81339467 0.079782978
517000000 -0.81243032 0.085249409 3.5426499e-005 -0.001873031 -6.8116162e-005 -0.00070872216 -0.81465596 0.080077395
518000000 -0.8121025 0.086211786 0.0003995283 -0.0015428646 0.00090466917 -0.0011267734 -0.81434977 0.078270353
519000000 -0.81208014 0.085349582 0.00018616173 -0.0011218789 0.00029980944 -0.0014855432 -0.81469887 0.08053682
520000000 -0.81155646 0.085707806 -2.0234093e-005 -0.0010138234 0.00049629685 -0.00044593416 -0.81416905 0.080999091
521000000 -0.81238276 0.086328767 0.0007580705 -0.0021538851 -0.00027940504 -0.0020049985 -0.81364179 0.081422195
522000000 -0.81166011 0.086227797 -0.00091689202 -0.00079033431 5.2552776e-005 -0.0010908223 -0.81249934 0.080467753
523000000 -0.81135249 0.085413054 0.00031056671 -0.0012808901 1.890253e-005 -0.0011014808 -0.81337285 0.080456667
524000000 -0.81211579 0.084973395 -0.00029982926 -0.0013313249 -0.00072171417 -0.0017352073 -0.812644 0.080670252
525000000 -0.8116616 0.08783716 -0.00053870369 -0.0012735788 -0.0012084609 -0.00074776675 -0.81408316 0.080318011
526000000 -0.81244588 0.084142089 -0.00090332853 -0.0018481256 0.00042697345 -0.0016325839 -0.81265342 0.082463421
527000000 -0.81296182 0.086325593 0.00067702954 -0.0018946093 0.00039456942 -0.0020952884 -0.8139236 0.079663493
528000000 -0.81212395 0.087814748 0.00064946205 -0.0010563029 -0.00051531743 -0.0019391516 -0.81221688 0.082546934
529000000 -0.8123349 0.087391555 0.00048116909 -0.0011361983 -0.001032872 -0.0013438649 -0.81301862 0.081683077
530000000 -0.81096298 0.088492952 -0.00062310917 -0.0014140762 -0.00094110216 -0.0015169374 -0.81409442 0.082847334
531000000 -0.81133723 0.087576292 0.00067971938 -0.0011665319 -0.00069883419 -0.0012214741 -0.81336278 0.082643308
532000000 -0.81237727 0.086916067 -0.00071265938 -0.00098630635 -0.0018582548 -0.0013554649 -0.81410301 0.082460672
533000000 -0.81170303 0.088619605 -0.00016993385 -0.00091171829 -0.00053358666 -0.0018376659 -0.81206709 0.083395675
534000000 -0.81224054 0.087305322 -0.0012576664 -0.0018706422 0.00031670602 -0.0013551302 -0.81450307 0.082419433
535000000 -0.8130011 0.089384817 0.00031221448 -0.0014193266 -7.6231758e-005 -0.0014125225 -0.8128162 0.083374083
536000000 -0.81145942 0.088359617 2.8051341e-005 -0.00066442875 0.00011023066 -0.0012421812 -0.81319684 0.082457028
537000000 -0.81016582 0.087512083 2.6016824e-005 -0.0015280222 -0.0012866028 -0.0012984156 -0.81395495 0.08301048
538000000 -0.81134111 0.088952608 -0.00020625693 -0.0019143838 0.00057759631 -0.0011796562 -0.81527358 0.083258122
539000000 -0.81151146 0.087079316 -0.0007605307 -0.0014133677 0.00026589146 -0.0017740778 -0.81399667 0.083504856
540000000 -0.81077713 0.089443766 -0.00093276956 -0.00075978955 1.7417342e-005 -0.00052909198 -0.81330222 0.083405867
541000000 -0.81208605 0.087323882 0.00052336516 -0.0018354413 -0.0008109918 -0.0024722726 -0.81243831 0.083336741
542000000 -0.8106879 0.090610079 -3.0417402e-007 -0.00077201496 0.00049385609 -0.001632025 -0.81397682 0.083927765
543000000 -0.81168365 0.088874795 0.00086564512 -0.001183868 -0.00056818879 -0.0010340017 -0.81360936 0.084310152
544000000 -0.81236333 0.088392057 -2.90203e-006 -0.0013702605 -0.00069168472 -0.0010983724 -0.81566066 0.083762594
545000000 -0.81159705 0.089201927 -0.00016663202 -0.0017233015 -0.0005188256 -0.0016074614 -0.81248146 0.084184803
546000000 -0.80981934 0.08985953 -0.0005083814 -0.0024460882 -0.00053229125 -0.001394901 -0.81320423 0.085187614
547000000 -0.81173623 0.089098811 -0.0011107139 -0.0020750952 -0.00072685734 -0.0018360937 -0.81398809 0.084746465
548000000 -0.81120563 0.091179833 -0.00037892573 -0.0012921451 0.00043785659 -0.0020783672 -0.81415284 0.085441537
549000000 -0.81125212 0.090094261 0.00017759178 -0.00093044422 0.00038274398 -0.000950496 -0.8134191 0.082781352
550000000 -0.80998623 0.091094628 0.00023706771 -0.0022396648 -5.1325271e-005 -0.0013389804 -0.81533742 0.084742993
551000000 -0.81078029 0.090013027 -0.00085928966 -0.0011459702 -0.00036099888 -0.0017813816 -0.81416863 0.08316572
552000000 -0.81194353 0.088841341 -0.00068376225 -0.0022040119 0.0004416997 -0.0014096684 -0.81285053 0.086177699
553000000 -0.81061113 0.090862691 -0.00054035813 -0.00085630617 -0.00033282986 -0.0018540093 -0.81240892 0.083564758
554000000 -0.81066018 0.091132611 -6.4665139e-005 -0.0018838637 0.00052656711 -0.0013064599 -0.81364894 0.08449237
555000000 -0.81113148 0.08994066 -6.2434621e-005 -0.00150684 -0.00033073625 -0.0014971268 -0.81295508 0.086372703
556000000 -0.81020588 0.091186628 -0.00036413679 -0.001898876 -0.00030822761 -0.00052390993 -0.81351715 0.085905932
557000000 -0.81138992 0.091172852 -0.00036410263 -0.0022150795 0.00012498307 -0.0015248666 -0.81421679 0.085303649
558000000 -0.81204176 0.091231383 -0.00123062 -0.001515527 -0.00048101993 -0.0015025346 -0.8127839 0.085324757
559000000 -0.81013107 0.08902435 -0.00056594034 -0.00074470136 -0.00086201646 -0.0016481887 -0.8143568 0.085782513
560000000 -0.81108707 0.090425931 -0.00034469203 -0.00088939891 -0.00053571584 -0.002205424 -0.81352311 0.086510561
561000000 -0.81031001 0.091552682 8.5116961e-005 -0.0023212286 0.00052881934 -0.0015207513 -0.81354094 0.085483372
562000000 -0.81121624 0.091296941 -0.00031588814 -0.001527973 -0.00029718116 -0.0021612612 -0.81226861 0.084912553
563000000 -0.81064236 0.090407647 -0.00050310406 -0.0026551387 -9.3480878e-005 -0.0017005992 -0.81509489 0.08659301
564000000 -0.81145835 0.091101766 0.00017735295 -0.0010689539 6.8425965e-005 -0.0015609608 -0.81350112 0.085447609
565000000 -0.81148195 0.091186889 -0.0013682323 -0.0019613779 0.00079000049 -0.0017842468 -0.81266838 0.086883225
566000000 -0.80988175 0.090929173 -0.00031303172 -0.0023804293 0.00036553579 -0.0011948148 -0.81291842 0.086502001
567000000 -0.81073558 0.090108544 -0.00060232077 -0.0015283936 -0.00079615571 -0.0013910315 -0.81397748 0.085355982
568000000 -0.8119598 0.090520434 0.00074678636 -0.0013657099 -0.00017681875 -0.0014404738 -0.81370658 0.086883351
569000000 -0.81171286 0.091853209 -0.00085448375 -0.0010404651 0.00059906085 -0.0015832261 -0.81267732 0.085560784
570000000 -0.80947816 0.090935066 -0.00017705988 -0.00095670886 -0.00052757323 -0.0018424807 -0.81360769 0.086577296
571000000 -0.81109029 0.090667836 9.1371854e-005 -0.00070699136 -0.00070200505 -0.001464038 -0.81220794 0.086919226
572000000 -0.80981845 0.091218501 0.00043874563 -0.0011099668 -0.00045492314 -0.0009093135 -0.81440848 0.085580356
573000000 -0.81076592 0.09219484 -0.00029440544 -0.0011297405 -3.6169524e-005 -0.0018349169 -0.81291163 0.087420985
574000000 -0.80954564 0.093571529 -0.00085061928 -0.00099991786 -0.00070151489 -0.0006446279 -0.81332052 0.086620614
575000000 -0.80957437 0.093373567 0.00063206692 -0.0013603009 0.00076283305 -0.0023651146 -0.81410503 0.086329743
576000000 -0.80956817 0.092882514 -0.0012872213 -0.0015458311 -0.00087717531 -0.00038221577 -0.81469965 0.087366879
577000000 -0.81047058 0.092410482 0.00024685229 -0.0018695872 -0.00031294848 -0.0013690435 -0.81262982 0.087560348
578000000 -0.8101657 0.092439525 -0.00046834012 -0.0015430962 -0.0006417546 -0.0021683504 -0.81218117 0.086093709
579000000 -0.80973411 0.092597894 -0.0010079397 -0.0023575255 -0.00011584561 -0.0013184992 -0.81271344 0.088862546
580000000 -0.81037772 0.092673205 -0.0011261757 -0.0019005073 0.00032300505 -0.0010951513 -0.81219161 0.088754304
581000000 -0.80960941 0.091565013 -0.00050526892 -0.0014453577 -0.0010721176 -0.0013735292 -0.81410855 0.088704325
582000000 -0.81006134 0.092130095 -0.00058215938 -0.0011048883 -0.00072029408 -0.0022828544 -0.81374973 0.086831167
583000000 -0.81114608 0.095023468 -7.5568663e-005 -0.001845084 -0.00096856261 -0.0015831013 -0.81478089 0.087756768
584000000 -0.81070673 0.091666259 5.2057923e-005 -0.0011053109 -0.0012728747 -0.0018900946 -0.81330949 0.089050815
585000000 -0.80978918 0.094346881 -8.0017518e-005 -0.0014667775 -0.00020458536 -0.001635064 -0.81349719 0.089833923
586000000 -0.81172723 0.092416041 -0.00054812175 -0.00076384225 -0.0011290701 -0.00098174647 -0.81441349 0.088106818
587000000 -0.80970341 0.094288014 -7.5312302e-005 -0.0013924947 0.00059493451 -0.0021740922 -0.81249833 0.089351758
588000000 -0.81102234 0.093356088 0.00040347211 -0.0016236407 -0.00013024081 -0.00091982726 -0.81227398 0.089795247
589000000 -0.81094986 0.093343154 -0.00020537912 -0.0018512679 -0.00093354343 -0.0022356971 -0.81347036 0.090260796
590000000 -0.81039882 0.095037602 -0.00047234265 -0.001826753 3.1834392e-005 -0.0019349104 -0.81239593 0.088138506
591000000 -0.80947369 0.095580742 0.00011803771 -0.0013421573 -0.00050069712 -0.0018355505 -0.81395626 0.089326821
592000000 -0.81048715 0.094085604 -9.5737363e-005 -0.0021065113 -0.00081010646 -0.0011276082 -0.81246078 0.090287685
593000000 -0.80993223 0.094612449 2.8725393e-005 -0.0015597243 -0.00081893516 -0.0012068053 -0.81354749 0.090414472
594000000 -0.80961972 0.096123219 -0.00039618713 -0.00056776404 0.00084389572 -0.00080810563 -0.81310374 0.089910604
595000000 -0.80937612 0.095997572 0.00043699844 -0.001482902 -1.273484e-005 -0.0019625276 -0.81322134 0.091280878
596000000 -0.81050646 0.095291652 -0.00036268707 -0.0014356128 -0.00038543926 -0.0012496519 -0.81396276 0.088139527
597000000 -0.81108195 0.094322599 -0.00015854597 -0.0021273901 -0.00022979693 -0.0011035941 -0.81328332 0.089579709
598000000 -0.80933785 0.096979417 -0.00072620873 -0.0010210371 0.00021943754 -0.0015230014 -0.81175095 0.090123802
599000000 -0.81096709 0.09614367 -0.0012160114 -0.0021065164 6.2667634e-005 -0.0024264525 -0.81350255 0.091801681
600000000 -0.81095845 0.097318649 -0.0011114352 -0.0024557861 -0.0013021899 -0.0017064903 -0.81232858 0.09061005
601000000 -0.80984849 0.097939178 3.11402e-005 -0.0022322189 -0.00058208633 -0.0012425197 -0.81266534 0.091377348
602000000 -0.80886155 0.096187778 -0.00084414089 -0.002380651 -0.00088820426 -0.0011025865 -0.81374127 0.091208383
603000000 -0.8105706 0.098377496 -0.00042336632 -0.0014231438 -0.00080191554 -0.0011887721 -0.81420499 0.091979221
604000000 -0.80843526 0.097318992 -0.002032703 -0.0020372588 -6.2997315e-005 -0.001771812 -0.81414181 0.092354737
605000000 -0.81052238 0.09753228 0.0007970783 -0.00045600167 -0.00029388981 -0.0014396879 -0.81211102 0.091444954
606000000 -0.80864292 0.097512268 0.0002301658 -0.0020393007 -0.00012064121 -0.0030931698 -0.81399626 0.091033101
607000000 -0.80947822 0.098500617 -0.0011618743 -0.00097759732 0.00079019496 -0.0022779556 -0.81163573 0.091986179
608000000 -0.80936134 0.09851902 -0.00032056554 -0.002378108 -0.00047682453 -0.0018989833 -0.81207645 0.09346772
609000000 -0.80907863 0.099294171 -0.00015989228 -0.0014223383 0.00049008208 -0.0013347201 -0.81245142 0.092315227
610000000 -0.80923301 0.10116253 -0.0014046548 -0.0026414481 -6.0872047e-005 -0.001592072 -0.81013417 0.094390206
611000000 -0.80849087 0.10103834 3.1270127e-005 -0.0022649539 -0.00070559152 -0.0013449694 -0.81231463 0.093371056
612000000 -0.80996686 0.098483384 -0.00048101519 -0.001960757 -0.00056151464 -0.0018996636 -0.81395805 0.093875453
613000000 -0.80868882 0.10022796 -0.00087273255 -0.00079797441 -0.00090161368 -0.0030819662 -0.8116107 0.092731923
614000000 -0.809394 0.10015555 -0.00035482735 -0.0015097357 -0.00041719101 -0.0017408547 -0.81267852 0.092924811
615000000 -0.80966413 0.097689919 8.2196195e-005 -0.0016498863 -3.0010349e-005 -0.0015569202 -0.81210321 0.094406448
616000000 -0.80723101 0.099915728 -0.00085569435 -0.0020479488 -0.0010021925 -0.001186115 -0.81242388 0.095010474
617000000 -0.80978233 0.10009228 -6.0099606e-005 -0.0018579403 -0.00065475208 -0.0026371568 -0.81150603 0.094257839
618000000 -0.8098051 0.099659868 0.00087798922 -0.0015675796 -0.00037216916 -0.0014571755 -0.80991834 0.09417209
619000000 -0.80824852 0.099311247 -0.00068517053 -0.0016074099 0.00054439751 -0.0018332326 -0.81178176 0.094111145
620000000 -0.80975932 0.10128104 0.00025958946 -0.0019903586 -0.00090051047 -0.001123997 -0.81177336 0.093358375
621000000 -0.8095026 0.1006661 -0.00059062248 -0.0015560158 -0.00074041367 -0.0016815157 -0.8104403 0.094057225
622000000 -0.80838782 0.10148799 9.5045041e-005 -0.0016341609 -0.0001601593 -0.0016982355 -0.8119272 0.095410354
623000000 -0.80779535 0.10139275 -0.00024661579 -0.0021000782 0.00070661755 -0.0015155615 -0.81219596 0.094375104
624000000 -0.81113809 0.10138851 0.00083858537 -0.0014066789 -0.00025586627 -0.0010702709 -0.81221169 0.09480013
625000000 -0.80779982 0.10370951 -3.9781022e-005 -0.0010703454 -0.00069328735 -0.0022738765 -0.8117947 0.095004998
626000000 -0.80917668 0.1019651 -0.0012237387 -0.0012510929 4.9396469e-005 -0.0024583072 -0.81198078 0.094858028
627000000 -0.80888337 0.10290435 -0.00035117389 -0.0017870136 -0.00023550064 -0.0015534733 -0.81122607 0.095913
628000000 -0.8090108 0.10312469 -4.7579502e-005 -0.0021499977 -5.0050359e-005 -0.0012941293 -0.8109076 0.095969737
629000000 -0.80876571 0.1034594 0.00010874263 -0.0023535301 0.00051763799 -0.0021051329 -0.81410086 0.096635275
630000000 -0.80845767 0.10420132 -0.00025266371 -0.0021128447 -0.00019329171 -0.0013577156 -0.81085968 0.097221836
631000000 -0.80748647 0.10271739 -0.00046646554 -0.0010105247 6.2740553e-005 -0.0018859531 -0.8126083 0.097303234
632000000 -0.80940801 0.10536051 -0.00026776563 -0.0024982681 0.00010993726 -0.0019385568 -0.81117946 0.09673097
633000000 -0.80895239 0.10463221 -0.00022444948 -0.0020997678 0.00025937706 -0.0018002162 -0.81064945 0.097275496
634000000 -0.80949169 0.10529567 0.0003782915 -0.0022555112 0.00013017491 -0.0017979896 -0.81263173 0.094637185
635000000 -0.80956596 0.10327613 -0.0011408358 -0.0023405124 0.00022306186 -0.0022500202 -0.81102353 0.096931688
636000000 -0.80765057 0.10336484 -0.0002027689 -0.0020054269 -0.00011640595 -0.0012713976 -0.81244481 0.097501367
637000000 -0.80873907 0.10386936 -0.00024521875 -0.0015212445 1.2726654e-005 -0.0011014388 -0.80980438 0.097819857
638000000 -0.80857599 0.10464823 -0.00062640983 -0.0025435502 2.1419106e-005 -0.0020556406 -0.8116504 0.097278595
639000000 -0.80874395 0.10551573 -0.00036389069 -0.0012178628 -0.00016394189 -0.0017394507 -0.81243235 0.098553687
640000000 -0.80792874 0.10501784 -0.00024141136 -0.0019367037 8.0264683e-005 -0.0024479099 -0.81250483 0.099215493
641000000 -0.80767387 0.1049633 -6.369967e-005 -0.0013735777 -0.00084917812 -0.0018425838 -0.80980539 0.099260405
642000000 -0.80775535 0.10659242 -0.00072692026 -0.0011678231 -0.00093952165 -0.0010383421 -0.81035334 0.097866744
643000000 -0.80946612 0.10712047 0.0002275656 -0.0016152336 -0.00014507046 -0.0023194165 -0.80987906 0.097259983
644000000 -0.80806744 0.10506844 -0.00068619428 -0.0021220546 -9.8095225e-005 -0.0014327822 -0.81125534 0.098708361
645000000 -0.80794376 0.10597372 -6.9177273e-005 -0.0016452413 0.0003075586 -0.0022128266 -0.81229448 0.097095184
646000000 -0.80834389 0.10691217 0.00026945578 -0.0020489211 -0.00068900734 -0.0015836392 -0.81168443 0.097781345
647000000 -0.80882061 0.10768524 0.00062357506 -0.0014162696 -0.00024902978 -0.0022755158 -0.81200397 0.099068277
648000000 -0.80719924 0.10668039 -0.00011340754 -0.002040046 -0.00071467215 -0.0022187412 -0.81232262 0.097665742
649000000 -0.80714709 0.10726111 -0.00026875956 -0.002332991 -0.00039423545 -0.0013160305 -0.81067181 0.09829431
650000000 -0.80785066 0.10765869 -0.00070530712 -0.0017124097 -0.00015512995 -0.0013169864 -0.81185019 0.098137364
651000000 -0.80846488 0.10666093 -1.128341e-005 -0.001051465 -0.00057565881 -0.0024051312 -0.81027508 0.099525549
652000000 -0.80834168 0.10672421 0.00039706434 -0.0018017219 -0.0006087792 -0.0015356964 -0.81035942 0.099174105
653000000 -0.8085916 0.10735123 -4.705523e-005 -0.0018831444 0.0012422052 -0.0022790104 -0.81145138 0.10078053
654000000 -0.80702424 0.10841085 -0.0011727199 -0.0025504928 -9.1466627e-006 -0.0018978223 -0.81235015 0.099567905
655000000 -0.8084296 0.10843571 0.00013792506 -0.0020332672 -0.0011034572 -0.0026638219 -0.8112666 0.099904351
656000000 -0.80895901 0.10872535 -5.104212e-005 -0.0015153908 -7.6824072e-005 -0.0028111457 -0.81214535 0.099776536
657000000 -0.80754793 0.107279 0.0002567253 -0.0012450296 -0.00010956675 -0.0025660363 -0.81270319 0.10081118
658000000 -0.80800861 0.10856278 0.00067568006 -0.0024909077 -0.00014201517 -0.00081461499 -0.81206971 0.099341445
659000000 -0.80770624 0.10773578 -0.00049757014 -0.0015728074 -0.0012590751 -0.00084066216 -0.81065476 0.099459648
660000000 -0.80826974 0.1097826 -0.00083353336 -0.0011311613 -0.00013058136 -0.0022378354 -0.81093276 0.10055181
661000000 -0.80853224 0.10926575 -0.00034671189 -0.0026472069 -0.00021544455 -0.0012892836 -0.8124758 0.099439189
662000000 -0.80831873 0.10958371 0.00069153873 -0.0020342809 8.1016558e-005 -0.0024518287 -0.8108229 0.10034428
663000000 -0.80938667 0.10730455 0.00049554819 -0.0016596565 -0.001700117 -0.00095583353 -0.81119096 0.10018222
664000000 -0.80852854 0.1090444 0.00020885517 -0.0022524006 7.5729848e-005 -0.0023820302 -0.81007516 0.10156441
665000000 -0.80858022 0.10820463 -0.0012251227 -0.0021046328 -0.00021860417 -0.0014616223 -0.81182277 0.099723443
666000000 -0.80876255 0.11020408 -0.00016663791 -0.0027826487 9.7475349e-005 -0.0016386688 -0.81114542 0.099646807
667000000 -0.80752182 0.10944206 -0.00026194958 -0.0030314443 -0.00092444289 -0.0011044627 -0.81203228 0.10128137
668000000 -0.8089928 0.10967673 -0.0006928714 -0.0024054942 -0.00074390951 -0.0017295295 -0.81093609 0.10203339
669000000 -0.8073895 0.10901026 8.3325765e-005 -0.001645479 -0.00021847278 -0.0023673982 -0.81085813 0.1002335
670000000 -0.80726326 0.1085583 0.00063224841 -0.001373888 -0.0019967605 -0.0020440053 -0.81139982 0.10159743
671000000 -0.80684006 0.10946298 -0.00090245187 -0.0019768169 -0.00054168853 -0.002057763 -0.81198901 0.10043395
