!Keysight Technologies,M9374A,MY55442783,A.12.55.05
!Date: Thursday, May 20, 2021 18:56:23
!Correction: S11(Full 2 Port(1,2)) 
!S21(Full 2 Port(1,2)) 
!S12(Full 2 Port(1,2)) 
!S22(Full 2 Port(1,2)) 
!S2P File: Measurements: S11, S21, S12, S22:
# Hz S  RI   R 50
500000000 -0.81169021 0.081609108 0.00083320303 -0.0012406138 -0.00057398592 -0.0015110254 -0.81293619 0.075776972
501000000 -0.81126243 0.079802185 0.00066347973 -0.00088206609 0.00045563222 -0.0010630146 -0.81501776 0.07531026
502000000 -0.81303579 0.082235664 -0.00054060086 -0.0019009718 0.0008938188 -0.0015830937 -0.81584948 0.075322732
503000000 -0.81264216 0.081049636 -0.00080470921 -0.0013172756 -0.00030361768 -0.0011587961 -0.81368989 0.074931301
504000000 -0.81061661 0.080543213 -0.00041403581 -0.00067152036 0.00059263455 -0.0025149565 -0.81360251 0.076069035
505000000 -0.81192738 0.082384869 -0.00018260993 -0.0015543308 -1.8114471e-005 -0.0014561105 -0.81435233 0.076291397
506000000 -0.81312013 0.082585573 0.00039693055 -0.0021994349 2.0251837e-005 -0.001490498 -0.81305665 0.075084656
507000000 -0.81265771 0.083354414 -0.00023104409 -0.0022701486 -0.0001803479 -0.000818295 -0.81381279 0.077786237
508000000 -0.81335014 0.082101181 -0.00047993369 -0.0011402377 -0.00060209178 -0.0012384718 -0.81411403 0.077368423
509000000 -0.81199282 0.08277294 -0.00046849705 -0.0027761408 -5.3884498e-005 -0.0018684722 -0.81446671 0.075636528
510000000 -0.81289768 0.081895262 0.00018270103 -0.0014637441 0.0007765136 -0.0014359889 -0.81253022 0.077827595
511000000 -0.81212533 0.082952574 0.00045146394 -0.0011794778 -0.00023445368 -0.0016126555 -0.81430662 0.078448854
512000000 -0.81097251 0.083328731 0.00023037841 -0.0024089091 -0.00065058901 -0.0014649519 -0.81372869 0.078437269
513000000 -0.81308675 0.082809113 -4.1407664e-005 -0.0024824834 -0.00010130941 -0.0016206623 -0.81350398 0.076493286
514000000 -0.81110477 0.082240984 0.00073226506 -0.0012101515 -0.00016145331 -0.0013373902 -0.81422478 0.077389397
515000000 -0.81235564 0.084406897 -0.00017181496 -0.00049879221 -0.0007665843 -0.0015576771 -0.81413299 0.077777483
516000000 -0.81222194 0.084766515 -0.0001776671 -0.00085164711 0.00014992694 -0.001698 -0.81455404 0.077933423
517000000 -0.81181455 0.084833644 -0.00025577561 -0.0013541841 -0.0012363534 -0.000201423 -0.81361812 0.078127675
518000000 -0.81201494 0.083719954 0.0004081165 -0.00062590936 0.0013645716 -0.0016808377 -0.81315023 0.078363352
519000000 -0.81272674 0.085173838 0.00024918397 -0.0022520227 4.3243748e-005 -0.0015826331 -0.81428081 0.080273762
520000000 -0.81082368 0.085452057 0.00018508566 -0.0021329108 -0.0015239659 -0.0007446552 -0.81300735 0.080179401
521000000 -0.81217426 0.084016398 -0.00034404383 -0.0015916729 0.0002779167 -0.0012394082 -0.8133952 0.078678451
522000000 -0.81346947 0.086320102 -0.00024450716 -0.0015522148 -0.00038300143 -0.0022072422 -0.81441754 0.077951722
523000000 -0.81181753 0.084851332 -0.00040556904 -0.0012749644 9.9603676e-006 -0.0014054392 -0.8146137 0.079116821
524000000 -0.81174344 0.086369433 -0.0006849122 -0.0012080381 -0.00042913941 -0.0012395194 -0.81284332 0.078804791
525000000 -0.81133527 0.085304514 -0.00056358916 -0.0010014335 0.00052090985 -0.00046324267 -0.81417984 0.081882939
526000000 -0.8115797 0.085043609 -0.00038078314 -0.0015682593 -0.00072178378 -0.00042668544 -0.81525689 0.079208516
527000000 -0.81123179 0.085543565 -0.00043068817 -0.0012852728 -0.00097798905 -0.00085475267 -0.81367195 0.080229335
528000000 -0.81248879 0.086464517 0.00029343151 -0.00091999758 -0.0013648634 -0.0011470914 -0.81295842 0.082170412
529000000 -0.81189203 0.08735282 -0.00077327917 -0.00087557139 -0.0012779044 -0.0015834805 -0.81296062 0.080586456
530000000 -0.81160229 0.086254157 -0.00018173314 -0.00070042466 0.0002750807 -0.0015058026 -0.81263334 0.079918496
531000000 -0.81181437 0.086513661 -0.0012749776 -0.001895941 0.00060696498 -0.0011140975 -0.81500328 0.081497408
532000000 -0.81029016 0.086878933 6.2455249e-005 -0.0014739026 -0.00034148959 -0.0010578844 -0.81349909 0.081379019
533000000 -0.81219542 0.08728531 -0.00086407689 -0.00091593876 -0.00010510427 -0.0015097653 -0.81482309 0.080835119
534000000 -0.81118411 0.085250258 -0.00049576914 -0.0011082951 -0.00041663612 -0.00080829347 -0.81459057 0.081664681
535000000 -0.81126004 0.087326758 -0.00075019308 -0.0014403966 -0.00083456741 -0.0001915865 -0.8134405 0.081234708
536000000 -0.8120079 0.08661253 0.00052271783 -0.0017233352 -0.0012849522 -0.0014968384 -0.81468761 0.081017368
537000000 -0.81112528 0.087743819 0.00059507863 -0.0017698547 -0.00048783954 -0.0018075265 -0.81437665 0.083314978
538000000 -0.81149358 0.087298505 0.00023826727 -0.0014033664 -0.00052083773 -0.0019605418 -0.81299287 0.081881464
539000000 -0.81119293 0.088146687 0.00019365392 -0.00084414257 -0.00030758031 -0.0013101207 -0.81253463 0.083116271
540000000 -0.8110491 0.088076256 -0.00096241548 -2.2597556e-005 -0.00025529441 -0.0012987837 -0.81428671 0.083601743
541000000 -0.81137896 0.08821521 -0.00062951434 -0.0024027934 0.000878516 -0.00043373508 -0.81254202 0.083134525
542000000 -0.81049311 0.088005073 -0.00020647985 -0.0016938212 -0.00088135421 -0.0020510275 -0.81422549 0.081694551
543000000 -0.81172329 0.087457746 -0.00079494121 -0.0013104094 -0.00075304543 -0.0019263311 -0.81326073 0.082524106
544000000 -0.81056154 0.089055963 0.00038870476 -0.0015945721 -0.00011975031 -0.00047966381 -0.8132863 0.083382457
545000000 -0.81203723 0.087827243 -0.00031355384 -0.0014256141 -0.00079093035 -0.00043175847 -0.81380475 0.084087253
546000000 -0.81156909 0.087247327 0.00056316028 -0.0014999257 -0.00099805649 -0.0018274209 -0.8130942 0.083511278
547000000 -0.81096119 0.088848636 0.00017121091 -0.0020577924 -0.00012456652 -0.0012235764 -0.81356412 0.083215505
548000000 -0.81057179 0.088911869 -0.00046907613 -0.0017355313 0.00021612625 -0.00085551303 -0.81412637 0.08428961
549000000 -0.80989885 0.08756531 5.9477647e-006 -0.00038514909 -0.00017052166 -0.00078536698 -0.81475526 0.083761163
550000000 -0.81041861 0.090381444 -0.0010884048 -0.0016343454 -0.00033283935 -0.0012241864 -0.81388921 0.084422044
551000000 -0.81112325 0.088457838 -0.0006828052 -0.0013658174 0.00014679164 -0.0018843797 -0.81428343 0.083538488
552000000 -0.81231576 0.086510219 0.00076418626 -0.0022358459 -0.0009863025 -0.001320261 -0.81301498 0.083044671
553000000 -0.81133682 0.088933051 0.0001655213 -0.0018329081 -0.00025874731 -0.00036018837 -0.81398344 0.083153509
554000000 -0.81147957 0.088847704 -0.0011972099 -0.002039667 0.00056268985 -0.00091674778 -0.81259543 0.084398031
555000000 -0.81150877 0.092456952 -0.0013974359 -0.0022627837 0.00041706252 -0.0018150832 -0.81386644 0.083457008
556000000 -0.81081825 0.088778868 0.0005480125 -0.0012367943 -0.00033785633 -0.0016312031 -0.81371373 0.085132986
557000000 -0.81163061 0.089424476 0.00046127228 -0.0020405259 -0.00057005428 -0.0012878486 -0.81473577 0.083383448
558000000 -0.81172252 0.090182289 -0.001088122 -0.0015127772 -0.0012732889 -0.0021622074 -0.81523013 0.084578127
559000000 -0.81115282 0.089512929 0.00014173874 -0.0016434635 -0.00038097473 -0.0004959004 -0.8146714 0.084183939
560000000 -0.8109054 0.089388371 -0.00019469192 -0.0015126605 1.9460191e-005 -0.0017026101 -0.8138783 0.084535241
561000000 -0.80998725 0.090155028 9.6282762e-005 -0.0013922035 6.3153173e-005 -0.00074147433 -0.81335205 0.084706083
562000000 -0.81112927 0.090425313 0.00029724149 -0.0028388493 -0.0003669314 -0.0021745663 -0.81281483 0.085417442
563000000 -0.81190848 0.089897223 -0.00026128345 -0.0021852884 0.00063825649 -0.0022373754 -0.81400293 0.085938998
564000000 -0.81056321 0.089792714 -5.2698615e-005 -0.00097769301 -0.00017820152 -0.002264291 -0.81402647 0.084144987
565000000 -0.81128269 0.089753442 -0.0011362975 -0.00096420397 -0.00013348518 -0.0011340835 -0.81317961 0.084032223
566000000 -0.81244951 0.08951512 -0.0010998899 -0.0021869964 -0.00025408249 -0.0023641267 -0.81393909 0.085143015
567000000 -0.81138015 0.090463653 -0.00044790097 -0.0014451821 0.00037128321 -0.00043888946 -0.81495011 0.084890857
568000000 -0.81151068 0.089739494 -0.0008822293 -0.0016763236 -0.00042686274 -0.0025858355 -0.81428415 0.084765173
569000000 -0.81218654 0.091906041 -0.00067275751 -0.00091581838 -0.00074796163 -0.0016220259 -0.81225985 0.086094365
570000000 -0.80984813 0.090869606 -0.00076776597 -0.001816586 -0.00085560803 -0.0017309592 -0.81146431 0.084752798
571000000 -0.80988145 0.090640545 0.00020813785 -0.0013873609 -0.00036582799 -0.0018788704 -0.81335336 0.085774869
572000000 -0.80963427 0.091065228 -0.00097634224 -0.0014418098 0.00032399021 -0.0016862975 -0.81243742 0.08515735
573000000 -0.81103826 0.091186538 -0.0011179287 -0.0021138247 8.6646425e-005 -0.0021916768 -0.81348073 0.08690358
574000000 -0.81102717 0.091138393 -0.0003122474 -0.0013144772 0.00038730062 -0.0010940809 -0.8138184 0.085234955
575000000 -0.81117129 0.091477118 -0.00011463237 -0.0015576092 0.00065798155 -0.0012007443 -0.81506228 0.087629512
576000000 -0.80977064 0.090016939 0.00014416235 -0.00090347358 0.00011040616 -0.00047183185 -0.81331706 0.086487934
577000000 -0.81086695 0.091675207 0.00043195591 -0.0014987105 -0.0010710328 -0.0020814021 -0.81311381 0.084480502
578000000 -0.81073242 0.091557577 -0.00091895647 -0.0015992791 -0.00045501496 -0.0017900451 -0.814798 0.085881703
579000000 -0.81032485 0.091526046 -0.00026197848 -0.0018916274 0.00023435056 -0.0013367826 -0.81496602 0.085637346
580000000 -0.80985159 0.090685956 0.00059582229 -0.0010896206 7.2405448e-005 -0.0024041901 -0.81319898 0.087350547
581000000 -0.8091414 0.089622676 -0.00086917332 -0.0010426651 -0.00064146216 -0.0019347689 -0.81459719 0.087605432
582000000 -0.80946165 0.091694862 -0.00088326616 -0.0020323931 0.0010760328 -0.0017246911 -0.81425667 0.08741764
583000000 -0.81023687 0.092581704 0.00017643804 -0.0015041769 3.3154101e-005 -0.0015879534 -0.81308717 0.087224394
584000000 -0.80987436 0.091448881 0.00084853487 -0.0013064167 -0.00029519689 -0.0021974051 -0.81300795 0.086063892
585000000 -0.8103112 0.090575121 -0.00081352249 -0.0028177127 -0.00024431047 -0.0010514373 -0.81303048 0.087515965
586000000 -0.81122822 0.093480155 -0.0001767349 -0.0011967401 0.00091129867 -0.0017027926 -0.81406927 0.08698114
587000000 -0.80984855 0.092294261 -0.00051418785 -0.00091044378 -0.00057756447 -0.0028984405 -0.81331962 0.089186646
588000000 -0.8115027 0.09327767 -0.000607447 -0.0018595856 -0.00041280169 -0.002062663 -0.81412482 0.088130914
589000000 -0.80883247 0.092195027 -0.00097203115 -0.0014021851 9.2577844e-005 -0.00038794932 -0.81397092 0.090438217
590000000 -0.80905634 0.092445925 -0.00064698939 -0.0018820186 9.7044329e-005 -0.002091056 -0.81258959 0.089088142
591000000 -0.81105775 0.093248345 0.0008855132 -0.0023895253 -0.00019078833 -0.00070238544 -0.81341147 0.087919816
592000000 -0.80947697 0.094365999 -0.0010192582 -0.0024232876 -4.0272429e-005 -0.0011964148 -0.81304145 0.09003628
593000000 -0.81116444 0.092971288 -0.00029235045 -0.0015173078 -0.00019556894 -0.0019692809 -0.81322992 0.088528402
594000000 -0.81051809 0.096060231 -0.00051518634 -0.0026476199 -0.00066053699 -0.0027590173 -0.81507987 0.087285228
595000000 -0.81067979 0.093136445 -0.0011355315 -0.0013964621 -0.00021665642 -0.00056987745 -0.81450188 0.089017354
596000000 -0.811023 0.093653657 0.00011525826 -0.00093451055 -0.0005446804 -0.0022094792 -0.81353223 0.090647541
597000000 -0.81030136 0.094635889 -0.00044462923 -0.0014328042 0.00036217977 -0.0010017238 -0.81153393 0.087251358
598000000 -0.80863827 0.095388226 0.00041905235 -0.0030213902 -0.0013350081 -0.001447394 -0.81296456 0.088562071
599000000 -0.80922425 0.095073253 -0.00065238861 -0.0019808109 0.0003207454 -0.0013414206 -0.81418574 0.089015014
600000000 -0.81031692 0.094780073 0.00029922862 -0.0019939721 -0.00098508212 -0.0028490457 -0.81336415 0.090109251
601000000 -0.80916005 0.097429395 -0.00016814777 -0.0021270514 -0.00075729721 -0.0017577464 -0.81344175 0.089041784
602000000 -0.80913198 0.094346263 0.00077016006 -0.0017862276 -0.00013199683 -0.0012933218 -0.81184649 0.089737304
603000000 -0.80949003 0.095231652 0.00037139576 -0.0013951386 -0.00080164103 -0.0024793309 -0.81234658 0.090968326
604000000 -0.81037056 0.096961141 0.00064734858 -0.0012373261 0.001015077 -0.0016387099 -0.81181383 0.091893859
605000000 -0.80912197 0.096799232 -0.00083005801 -0.0016562887 -0.00024982743 -0.0016115906 -0.81337464 0.089798868
606000000 -0.81057137 0.097261891 -0.000168363 -0.0015455211 -0.0003565776 -0.0014700257 -0.81217188 0.089075997
607000000 -0.80945057 0.097429685 -9.4365394e-005 -0.0011619643 -0.00027711611 -0.00042498426 -0.8139922 0.090222403
608000000 -0.80967265 0.097921103 0.00061991811 -0.0023100383 0.00018874343 -0.001171459 -0.81148088 0.090110637
609000000 -0.8089202 0.097633772 -0.00087604002 -0.0014897182 -0.00020205113 -0.0012550486 -0.81173122 0.090233997
610000000 -0.809304 0.096979819 -1.4581843e-005 -0.0016462884 -0.0014079738 -0.001420485 -0.81064981 0.091802552
611000000 -0.80894387 0.098004617 -3.5540434e-005 -0.00087151426 -0.00016405314 -0.0024703736 -0.81230223 0.091148622
612000000 -0.80893755 0.097836681 -0.00091716717 -0.0014410987 0.00056811026 -0.0018962038 -0.81161433 0.09167596
613000000 -0.80893707 0.097842239 0.00012164525 -0.0019329468 -0.002107512 -0.0014712728 -0.81206989 0.091081142
614000000 -0.80864418 0.097994424 -0.00081088569 -0.00087686838 -0.00036795725 -0.00073494879 -0.81409198 0.091880307
615000000 -0.80866408 0.099275433 0.00063788029 -0.00083167182 -0.00015106919 -0.0015488486 -0.81288797 0.091462314
616000000 -0.80757815 0.099232264 0.00094238971 -0.000790424 -0.00047856936 -0.002212045 -0.81180745 0.091285251
617000000 -0.80892366 0.098658986 -0.00091363408 -0.0015681621 -0.0010905425 -0.0018733398 -0.81332785 0.094195917
618000000 -0.80920237 0.09973073 -0.00080961909 -0.0010914546 -0.00056691881 -0.0017178825 -0.81176198 0.091850057
619000000 -0.80938393 0.10030506 -0.0006007753 -0.0023119119 -0.0010847644 -0.0019259694 -0.81041437 0.092533082
620000000 -0.8088432 0.10067473 4.3531702e-005 -0.00070601521 -0.00042732013 -0.0025857009 -0.81273776 0.092717633
621000000 -0.80799776 0.099968657 -0.00078084093 -0.0013633177 0.00017100983 -0.00098206988 -0.81266063 0.093483955
622000000 -0.80899066 0.10080642 -0.00065100845 -0.0013829865 -0.0010656941 -0.0023393102 -0.81249213 0.093786277
623000000 -0.80700892 0.09999574 -5.9755741e-005 -0.0028556704 -0.00017921423 -0.0014681788 -0.81287187 0.09365347
624000000 -0.80822903 0.10167287 0.00061900576 -0.0016716874 0.00060658663 -0.0020718467 -0.81212682 0.093019083
625000000 -0.80833858 0.10021178 -0.00055546919 -0.0013363563 -0.00029331865 -0.0011275418 -0.81400084 0.093866393
626000000 -0.80922508 0.10167135 0.00079986779 -0.0021309366 -0.0011461322 -0.0025140953 -0.81216317 0.094186798
627000000 -0.80961138 0.10102522 0.00053577119 -0.0022662978 -3.9643124e-005 -0.0030046015 -0.81278437 0.094133526
628000000 -0.80875456 0.10093115 0.00036407675 -0.0010621703 -0.0013667959 -0.0014968376 -0.81265348 0.095299385
629000000 -0.81011128 0.10232245 -0.0012742989 -0.0016226715 -0.00046811305 -0.0016313213 -0.81177765 0.093547218
630000000 -0.80937028 0.10280354 -0.00074844813 -0.0019151478 0.00014097156 -0.002066684 -0.81172925 0.095785961
631000000 -0.80931419 0.10213665 -0.00066568237 -0.00075693132 -0.00054666807 -0.0024886925 -0.81050515 0.096333645
632000000 -0.80918908 0.10233655 -0.00033069099 -0.0012530633 -0.0015603423 -0.0014231851 -0.8112101 0.095315412
633000000 -0.8095547 0.10408913 0.00026536486 -0.0014545687 0.00024743014 -0.0019757254 -0.81312668 0.096105419
634000000 -0.80774641 0.10282291 -0.00062082964 -0.0011258193 0.00010183271 -0.0026369148 -0.81179136 0.096243113
635000000 -0.80783963 0.10379422 -0.00054410653 -0.0029209424 -0.0006105288 -0.0015408449 -0.81345302 0.096045822
636000000 -0.80907208 0.10322402 -0.00047226489 -0.0019237876 -1.0788165e-005 -0.0025356729 -0.81175977 0.095868751
637000000 -0.80858117 0.10203069 -6.7312358e-005 -0.00088427099 -0.0011263218 -0.0011133725 -0.81094682 0.095214143
638000000 -0.80965954 0.10375582 -9.4173287e-005 -0.0011849866 -0.00077489298 -0.001822095 -0.81340021 0.093741573
639000000 -0.80913037 0.10434912 -0.00026995907 -0.0031742409 3.5034831e-005 -0.0018329729 -0.81125945 0.09543629
640000000 -0.80814707 0.10457927 0.0011903269 -0.001843499 0.00017311702 -0.0025965711 -0.81153446 0.094749816
641000000 -0.8083452 0.10476182 0.00065965101 -0.00096459384 0.0002152607 -0.0019923125 -0.81081218 0.09672223
642000000 -0.8064512 0.10414171 -0.0012706935 -0.0021599755 -0.00035836597 -0.0026893867 -0.81165141 0.097505808
643000000 -0.80851567 0.10525558 0.0013462554 -0.0023102432 -0.001071275 -0.0018068387 -0.81187272 0.096677721
644000000 -0.80674958 0.10375482 0.000652157 -0.0019196076 -0.00071008311 -0.0023006825 -0.8114115 0.096248694
645000000 -0.80885535 0.10371931 0.00057247392 -0.0019870671 -0.0004249847 -0.0019697393 -0.81117183 0.096491039
646000000 -0.80787808 0.10359141 -0.00029009808 -0.0015598872 -0.0003594571 -0.0014831825 -0.81126893 0.096351691
647000000 -0.80958021 0.10595543 -0.00072253135 -0.00221314 -0.00052434963 -0.0016269471 -0.81281173 0.096122533
648000000 -0.80840153 0.10601461 -5.4761735e-005 -0.0013007057 0.00072540622 -0.001472158 -0.81129289 0.096682645
649000000 -0.8088547 0.10536567 -0.0010308541 -0.0016805208 -0.00068722869 -0.0010864587 -0.81323898 0.097431779
650000000 -0.80844253 0.1049234 -4.7409296e-005 -0.0013607196 -0.00075125229 -0.0015932299 -0.81056184 0.097059906
651000000 -0.80958921 0.10526308 -0.0016081284 -0.0016979267 -0.00019830935 -0.0014843022 -0.81132448 0.09848132
652000000 -0.80786908 0.10488749 -0.0009598913 -0.0022897494 -0.00097907276 -0.0023530133 -0.81044012 0.097285412
653000000 -0.80796939 0.10706954 -0.00066114357 -0.0015652707 0.00062432536 -0.0025021769 -0.81181335 0.096886925
654000000 -0.80876487 0.10720488 0.00079111039 -0.0022136741 -0.0012431139 -0.0012286425 -0.81163561 0.098855563
655000000 -0.80930471 0.10670831 -0.00017490696 -0.0018033976 -6.6160734e-005 -0.0020110058 -0.81266588 0.097123966
656000000 -0.80848038 0.10670516 -0.0010897033 -0.0029312777 -0.00050334592 -0.0012453633 -0.81068194 0.098096251
657000000 -0.80813247 0.10640393 -0.00022131467 -0.0020592534 -0.00011599356 -0.0022014421 -0.81213063 0.098093882
658000000 -0.80929947 0.1061928 0.00013309723 -0.00053199643 0.00025291805 -0.0012771566 -0.81011152 0.098621741
659000000 -0.80778515 0.10635714 7.477394e-005 -0.0016745602 -0.00041609094 -0.0015803011 -0.81158483 0.098549284
660000000 -0.80767316 0.1072991 0.00037307516 -0.0020789874 -0.00012488963 -0.0014323043 -0.81181788 0.099356361
661000000 -0.80708486 0.10693622 -2.6665884e-005 -0.0015379585 0.00028573207 -0.0026449014 -0.81136018 0.098246828
662000000 -0.80818546 0.10732524 -0.00025250667 -0.0023099731 0.0004182155 -0.0020317594 -0.8111105 0.099345826
663000000 -0.80908203 0.10805167 -9.4051415e-005 -0.0022744383 -0.00036666912 -0.00076836452 -0.81210655 0.098661251
664000000 -0.80894035 0.10659376 -0.0010583788 -0.0015521188 0.00020676282 -0.002371592 -0.81177241 0.09869273
665000000 -0.80905819 0.10823913 0.00021880335 -0.0015873137 -2.4207675e-005 -0.0015855583 -0.81183046 0.10025251
666000000 -0.80815583 0.10691123 9.3626055e-005 -0.00084343506 -0.0001766857 -0.0016370111 -0.81096846 0.099965088
667000000 -0.80807799 0.10738743 -2.1906206e-005 -0.0027856398 -0.00080750941 -0.002133996 -0.81187356 0.098830424
668000000 -0.80790317 0.10671581 -0.00034612551 -0.0023647738 -0.00058931293 -0.00098094135 -0.81145674 0.099011049
669000000 -0.80954444 0.10785592 -0.00030981944 -0.0016751034 -0.00018565319 -0.0013761866 -0.81140882 0.099131644
670000000 -0.80808794 0.1082451 -0.00061083346 -0.00054746174 5.3663025e-005 -0.0019390786 -0.81102586 0.1005445
671000000 -0.80884165 0.10889012 -8.1759885e-005 -0.0020104479 -0.00087261008 -0.0020844499 -0.81267339 0.10039108
