!Keysight Technologies,M9374A,MY55442783,A.12.55.05
!Date: Thursday, May 20, 2021 19:02:52
!Correction: S11(Full 2 Port(1,2)) 
!S21(Full 2 Port(1,2)) 
!S12(Full 2 Port(1,2)) 
!S22(Full 2 Port(1,2)) 
!S2P File: Measurements: S11, S21, S12, S22:
# Hz S  RI   R 50
500000000 -0.81280535 0.080520958 0.00034976695 -0.0018874066 -0.0010530974 -0.00096762786 -0.81411302 0.075836837
501000000 -0.81293106 0.081626795 -0.00010438707 -0.0012030229 -0.0004239371 -0.0017121289 -0.81402886 0.073701806
502000000 -0.81236213 0.081877381 -0.00033562433 -0.00027319425 0.00034114334 -0.001743925 -0.81423342 0.0752322
503000000 -0.81144851 0.081059225 0.00084611593 -0.0011732776 -0.00075886009 -0.0015041491 -0.81300247 0.074778698
504000000 -0.81176925 0.082046732 -0.0014062232 -0.0015446852 -0.00010431453 -0.0011624735 -0.81553936 0.075338937
505000000 -0.81159765 0.081436381 -0.00066835736 -0.0017561801 -0.00053831714 -0.0021254618 -0.81395388 0.074241549
506000000 -0.81279892 0.081905544 7.0332368e-005 -0.001955563 -0.00020544113 -0.0015553229 -0.81293732 0.076513939
507000000 -0.81119025 0.081936985 -0.00021050891 -0.001703903 -0.00010260293 -0.0021683162 -0.81438142 0.076340646
508000000 -0.81197214 0.080869772 -0.00038526591 -0.00082245754 -0.00030912706 -0.002397259 -0.81572115 0.077240802
509000000 -0.81301284 0.083563164 -3.5502431e-005 -0.0017492895 7.5971715e-005 -0.00083332846 -0.81207287 0.076092273
510000000 -0.81201124 0.083574042 -0.00041908483 -0.0014807066 -3.7831387e-007 -0.0017809372 -0.81320286 0.075937279
511000000 -0.8119207 0.083169252 0.00026317019 -0.0003113772 -0.0010728488 -0.0013715693 -0.8154254 0.077419735
512000000 -0.81113267 0.08292304 -0.00050417986 -0.0011127606 0.00086059934 -0.0014169537 -0.81368172 0.076309942
513000000 -0.81118166 0.082839012 -0.00021996097 -0.00099158462 0.00011502265 -0.0003888357 -0.81435251 0.076005265
514000000 -0.81287146 0.083256997 0.00050292822 -0.001425714 0.00071562198 -0.00054920168 -0.81389695 0.076588459
515000000 -0.81273395 0.084808744 0.00084353698 -0.0013677153 0.0012198783 -0.0011657627 -0.8155455 0.078820609
516000000 -0.81430709 0.084368311 -3.3409353e-005 -0.0017338619 0.00027229841 -0.0013955546 -0.81323892 0.078735568
517000000 -0.8117907 0.085554667 -0.0013867122 -0.001528031 -0.00066269696 -0.0016912483 -0.81507689 0.076671839
518000000 -0.81379426 0.084818207 0.00090768747 -0.00037701058 -0.00043857057 -0.00076812098 -0.81297237 0.077668533
519000000 -0.81291848 0.083421968 -0.00027211377 -0.0028051261 -0.0011587254 -0.0012546337 -0.81405896 0.079427741
520000000 -0.81184727 0.084315524 -0.0010193995 -0.001621364 0.00047895228 -0.0012937753 -0.81286001 0.077654772
521000000 -0.812989 0.085416898 -0.00042398204 -0.0019375714 -0.00045540158 -0.00059874152 -0.81431997 0.078683294
522000000 -0.81233037 0.085117795 4.2105876e-005 -0.0011848792 -0.00091750559 -0.0013647566 -0.81488532 0.079085536
523000000 -0.81282461 0.08370886 -0.00032719376 -0.00078542595 -0.00013434082 -0.0011529912 -0.81272024 0.080209509
524000000 -0.81144279 0.085757598 -0.00090452057 -0.0011107398 -2.518914e-006 -0.00037267091 -0.81342548 0.079806805
525000000 -0.81116337 0.08541733 -0.00093592593 -0.0011845139 -0.00014346043 -0.0024364511 -0.81422544 0.078008182
526000000 -0.81133962 0.08421503 -0.00054458168 -0.0014478992 0.00041818898 -0.0012668595 -0.8150025 0.079251684
527000000 -0.8120212 0.085631624 -0.0003783626 -0.0022532095 -0.00026844675 -0.0020197995 -0.81433028 0.07821469
528000000 -0.81298143 0.085501663 0.00011352817 -0.0010283347 -0.00055060099 -0.0015899731 -0.81492794 0.079752184
529000000 -0.81194031 0.08574868 -0.0016841491 -0.0012726781 -0.00079484045 -0.0004815415 -0.81497431 0.080750227
530000000 -0.8124246 0.085912772 5.7186411e-005 -0.00094896049 -0.00020908492 -0.0015984735 -0.81458127 0.080445856
531000000 -0.81254208 0.085298352 0.00062106154 -0.0013769716 0.00019225941 -0.0024445751 -0.8142674 0.079978131
532000000 -0.81162339 0.084724665 0.00094782369 -0.0017244127 5.944813e-006 -0.00086773303 -0.81456 0.081190884
533000000 -0.81175113 0.086895809 -8.9141715e-005 -0.00047906168 2.6560791e-005 -0.00080571795 -0.81419659 0.081085078
534000000 -0.81201035 0.085697986 0.00034495877 -0.00092909072 -0.00025171114 -0.00065991393 -0.81349152 0.080867335
535000000 -0.8121056 0.086036772 -0.00013282301 -0.0014579013 0.00035098582 -0.0016195688 -0.81422585 0.081023209
536000000 -0.81182718 0.087121733 0.00024932198 -0.0013956734 -0.00017406148 -0.0022697193 -0.81488883 0.081499405
537000000 -0.81215596 0.085766755 0.00091861811 -0.0018830713 0.0004142934 -0.00052488066 -0.81429327 0.081469059
538000000 -0.81112915 0.086454272 -0.00026200325 -0.0015248678 -0.00020396474 -0.0024280204 -0.81408638 0.080711342
539000000 -0.81190962 0.088866174 -0.00056458369 -0.001140755 -0.00042333704 -0.00053337787 -0.81310141 0.080897927
540000000 -0.81199634 0.087369919 0.00015118311 -0.0015083697 -2.0715755e-005 -0.000699375 -0.8137334 0.081389815
541000000 -0.81233895 0.086624518 0.00047759968 -0.0024798715 -0.00054136646 -0.0011541471 -0.81364995 0.082725264
542000000 -0.81123728 0.088932656 1.2019174e-005 -0.00090784521 0.00023385974 -0.0023834272 -0.81335789 0.081766985
543000000 -0.81103295 0.08729618 -0.00042981535 -0.001260356 -0.000572388 -0.0017633013 -0.81461918 0.082754634
544000000 -0.81093943 0.087575182 7.6429853e-005 -0.0015762574 -0.0011053438 -0.00045961977 -0.81399447 0.083112441
545000000 -0.81356657 0.088327929 -0.00054321717 -0.0019171523 -0.0011187015 -0.0019181271 -0.8133834 0.082558103
546000000 -0.8107605 0.088561356 -0.00084613904 -0.0011667317 -0.00063993526 -0.0011509069 -0.8150093 0.0834722
547000000 -0.81115562 0.087765649 0.0002830773 -0.0014360468 -0.00033219648 -0.0016984785 -0.81454289 0.083610363
548000000 -0.81223834 0.08874207 -0.0008898268 -0.0023211851 -0.00075147726 -0.00098474661 -0.8141039 0.08279378
549000000 -0.81212384 0.08774475 -0.00013842351 -0.00061147631 -0.0016270437 -0.0015035104 -0.81355363 0.082786359
550000000 -0.80969369 0.088490486 0.00095885346 -0.0036892232 -0.00016390825 -0.0013680104 -0.81452012 0.083518192
551000000 -0.81098491 0.088655144 -6.0482784e-005 -0.00043077394 -6.1943181e-005 -0.0015912005 -0.81319344 0.082914636
552000000 -0.81128395 0.087076187 0.00037456132 -0.0016564793 -0.00070692936 -0.0021603638 -0.81390196 0.083104417
553000000 -0.81091082 0.088715136 -0.00040642789 -0.0026382287 0.00036928474 -0.00075296627 -0.8122195 0.083182335
554000000 -0.81096852 0.087750241 0.00052919262 -0.0021214865 -0.00031676592 -0.0023153834 -0.81253326 0.084681727
555000000 -0.81216955 0.08929731 -4.7935546e-006 -0.00098170259 0.00021045333 -0.0010853315 -0.81444937 0.082426555
556000000 -0.811777 0.087952025 0.00015189938 -0.0018834681 -0.00054288458 -0.00072912348 -0.81447554 0.082774505
557000000 -0.81143934 0.089283034 0.00018272712 -0.00066052959 -0.0010991023 -0.0030990024 -0.81350744 0.083345823
558000000 -0.81128383 0.089484952 2.216794e-005 -0.00065506576 0.000249698 -0.0011675672 -0.81317967 0.084104478
559000000 -0.81106037 0.088646337 5.9131045e-005 -0.00155906 -0.00051978126 -0.0014529924 -0.81383866 0.084638663
560000000 -0.80956048 0.088088833 -0.00051475142 -0.00087861449 -0.00047617618 -0.0019996522 -0.8128069 0.083857216
561000000 -0.81162131 0.087577932 -0.00064401567 -0.0016688412 -0.0002914622 -0.0019824172 -0.81264949 0.084117584
562000000 -0.81004858 0.089587964 -0.00032946398 -0.0016504646 -0.00015321218 -0.0018324625 -0.81321383 0.085713476
563000000 -0.81024706 0.0897751 -0.00041643626 -0.0020902944 3.1705204e-005 -0.001619653 -0.81272459 0.083913043
564000000 -0.81172419 0.09071783 -7.1409927e-006 -0.0014586301 0.00077091221 -0.0012153755 -0.81497204 0.084248304
565000000 -0.80978674 0.089314491 -0.0009714333 -0.0025167803 -0.00064936117 -0.0012640951 -0.81405759 0.084474631
566000000 -0.81143606 0.089541338 -0.00070393685 -0.0029810653 -0.0010683272 -0.0014969747 -0.81599987 0.084729396
567000000 -0.81067502 0.089552343 0.00061945699 -0.0015119958 -0.00037786181 -0.0025050009 -0.81293881 0.083345078
568000000 -0.80959624 0.089480706 4.4706958e-005 -0.0024822846 -0.00048891269 -0.0011183796 -0.81332356 0.084994152
569000000 -0.81180114 0.08982411 -0.00062377373 -0.002655457 0.00055055239 -0.0013193371 -0.81259686 0.086534217
570000000 -0.81023216 0.090186127 -0.00044981026 -0.00055940519 -0.00082092109 -0.002858843 -0.81512135 0.085509062
571000000 -0.81097829 0.089391783 -0.0015895417 -0.0012530467 -0.00041003223 -0.00056944473 -0.81425214 0.085699648
572000000 -0.80949324 0.090207152 -0.00062723923 -0.0016392982 0.00011522765 -0.002862154 -0.81493121 0.08476378
573000000 -0.81217605 0.090677798 -0.00071632996 -0.001908272 5.9421076e-005 -0.0016974116 -0.81278098 0.085524209
574000000 -0.81121838 0.090390868 0.00054345769 -0.00095633121 0.00033729908 -0.0015712455 -0.81423795 0.085567847
575000000 -0.81064051 0.090488903 0.0002615141 -0.002252247 9.1182686e-005 -0.0016434725 -0.8140431 0.085447744
576000000 -0.81010169 0.091517426 -0.00057864783 -0.0017938858 -0.00064219494 -0.00058313424 -0.81363982 0.085307077
577000000 -0.81182933 0.091744497 0.0003220535 -0.0022989586 1.4921852e-005 -0.0022963309 -0.81424254 0.086850122
578000000 -0.81131274 0.090893403 -4.1501808e-005 -0.0018216853 0.00033490552 -0.00094584614 -0.81437802 0.086984821
579000000 -0.81060684 0.090935886 -0.00018024417 -0.0015045225 -0.00015049538 -0.00181504 -0.81237441 0.085667238
580000000 -0.81344181 0.091227658 -0.0011067349 -0.00013277751 -0.00071271171 -0.00043446093 -0.81454778 0.085212022
581000000 -0.8116582 0.089700356 -0.00015932968 -0.0016147218 0.00030887823 -0.00093756162 -0.81265402 0.086717375
582000000 -0.81002647 0.090715654 0.00087236013 -0.0011086887 -2.4635776e-005 -0.0013583241 -0.81273514 0.085630439
583000000 -0.81057966 0.092485376 -0.00064226112 -0.0015768943 -0.00034379488 -0.0018303157 -0.8137871 0.087093994
584000000 -0.80994385 0.09056899 7.6803815e-005 -0.0012141973 -0.00038666232 -0.0011866987 -0.81330293 0.085184053
585000000 -0.8097412 0.091148064 -0.00023526933 -0.0010455279 -0.00034921305 -0.0011642164 -0.81543362 0.087276481
586000000 -0.8101005 0.091791272 -0.00051534828 -0.0015709647 -0.001393989 -0.0013249782 -0.81360513 0.085704081
587000000 -0.81061673 0.091889456 1.9609459e-005 -0.0010803838 0.00058235903 -0.0017556654 -0.81355786 0.085711122
588000000 -0.80980486 0.091996349 0.0010102644 -0.00079348678 -0.000130858 -0.0010110984 -0.81340379 0.088030308
589000000 -0.81049573 0.090656005 -0.00039872661 -0.001633844 0.00053241855 -0.0022730317 -0.81397527 0.087183572
590000000 -0.81003851 0.091368087 0.0006298392 -0.0024305389 -5.4282522e-005 -0.0025173563 -0.81339782 0.087945521
591000000 -0.80943233 0.094273277 -0.00020612977 -0.0023860098 0.00029640319 -7.0434988e-005 -0.81450874 0.086931854
592000000 -0.81044972 0.092745699 -0.00054320681 -0.0011899121 -0.000917617 -0.0017755134 -0.81389064 0.086805247
593000000 -0.80965769 0.092320144 -0.0010002067 -0.0010603261 -0.00083677378 -0.0024809239 -0.81283867 0.088457845
594000000 -0.80902606 0.09469188 0.00078149576 -0.0011381307 0.00085093669 -0.0016211297 -0.81373155 0.090131618
595000000 -0.80983281 0.093310207 -0.00064442668 -0.0018590604 -0.00036877749 -0.0013526235 -0.81376368 0.089689679
596000000 -0.81074154 0.094326384 -0.00060681748 -0.0013227569 0.00022926908 -0.0022173743 -0.81309587 0.08859542
597000000 -0.80994666 0.095240884 -0.00010701872 -0.0016378087 0.00033570899 -0.0017385421 -0.81100059 0.088403955
598000000 -0.81046897 0.095876008 -0.00075378339 -0.0024581656 9.2613038e-005 -0.00065698905 -0.81255233 0.089125022
599000000 -0.80923963 0.095049918 0.00040488801 -0.0021149321 0.00065367657 -0.0015640691 -0.81345809 0.089743651
600000000 -0.80975473 0.094778635 -0.0002984883 -0.0012956253 0.00014029158 -0.0018838329 -0.81353652 0.088483393
601000000 -0.81150216 0.09531083 5.9730304e-005 -0.0015832756 -0.00033074716 -0.0013323112 -0.81362695 0.089451
602000000 -0.80910498 0.094437107 -0.0008563851 -0.0013086229 -0.00063224742 -0.0013839485 -0.81195009 0.089465179
603000000 -0.80992484 0.094720662 0.00011854108 -0.0020754114 -0.000857751 -0.0014155712 -0.81355143 0.089414783
604000000 -0.80995816 0.097040348 0.00039447303 -0.0013467952 0.00020456161 -0.0019710877 -0.81248266 0.090771437
605000000 -0.81004465 0.097113736 -0.00095614709 -0.0006529261 0.00095670531 -0.002170712 -0.81326485 0.091936782
606000000 -0.81032187 0.095908411 -7.3196992e-005 -0.0016926741 -0.0017027912 -0.0020571346 -0.81139636 0.088863708
607000000 -0.80981171 0.096744768 0.00033125354 -0.0021442475 -0.00048771006 -0.0032868439 -0.81265128 0.089105427
608000000 -0.80965286 0.097918086 -0.00094809808 -0.0011685475 0.00012322798 -0.0015325102 -0.81141877 0.090671793
609000000 -0.80934525 0.097240902 -0.00052569679 -0.00066794333 0.00062885397 -0.0013591405 -0.81195617 0.090818122
610000000 -0.80951524 0.097655691 -0.00063351187 -0.002391892 -0.00108015 -0.0015017568 -0.81166577 0.090099327
611000000 -0.80925882 0.096591994 -0.00029717723 -0.0016470856 0.00021399718 -0.0017319327 -0.81230307 0.08996167
612000000 -0.8104229 0.099788368 -0.00020031174 -0.001410141 -0.00057494245 -0.0010373726 -0.81238276 0.089598246
613000000 -0.80991799 0.096268527 -0.00021448547 -0.0017829358 -0.00053223077 -0.0012447822 -0.81309378 0.090645768
614000000 -0.80865157 0.098361038 -0.00030972119 -0.0014547828 -0.0012473288 -0.00084965175 -0.81106263 0.090236433
615000000 -0.81037909 0.098250091 -0.00040688482 -0.0019597379 -0.00042723113 -0.0015947496 -0.81225032 0.092706874
616000000 -0.81042945 0.098433793 -0.00071572216 -0.0015445673 -0.00035378672 -0.00069625914 -0.81226772 0.092292674
617000000 -0.80913627 0.10042514 -0.00021070387 -0.0019176762 -0.0012624022 -0.00082334189 -0.81298453 0.091101885
618000000 -0.80974579 0.09932714 -0.0011360009 -0.0020487385 -0.00011408512 -0.0024781886 -0.81327492 0.091184571
619000000 -0.80960977 0.099576898 0.00081938301 -0.0023158824 -0.00026169536 -0.0017227278 -0.81186926 0.092578754
620000000 -0.80788833 0.098395295 -0.00018092028 -0.0014098678 -0.00099091942 -0.0018057552 -0.81143391 0.091341369
621000000 -0.80909586 0.099704295 -0.00073922815 -0.0015743088 -0.00018164158 -0.0011913788 -0.81296456 0.09378577
622000000 -0.8099581 0.098799974 -0.0004805403 -0.0016918577 0.00017683726 -0.0020727559 -0.81301147 0.092007853
623000000 -0.80828816 0.10008861 -0.00042234675 -0.0019500804 6.8698482e-006 -0.0030643281 -0.81214821 0.092992775
624000000 -0.80945891 0.099725589 0.0005287978 -0.0018413344 -0.00025391829 -0.0013770189 -0.81090403 0.094522081
625000000 -0.80863422 0.10016559 0.0003753471 -0.0015931026 0.00029233852 -0.00080247008 -0.81396663 0.093053609
626000000 -0.80949235 0.10135544 -0.00099288113 -0.0014465563 -0.00023415715 -0.0015363579 -0.81066567 0.091448463
627000000 -0.80916619 0.099929594 -0.00042552015 -0.002682721 -0.0009635216 -0.0014235313 -0.81125677 0.092941977
628000000 -0.81000435 0.10170417 0.00022328974 -0.0020972274 -0.00042711521 -0.0026135342 -0.81241435 0.094712198
629000000 -0.80929089 0.10111888 -0.00064221461 -0.0016781866 0.00018206681 -0.0012993722 -0.81225955 0.09416832
630000000 -0.80744225 0.10249545 -0.00098036742 -0.00087080081 -0.00042957609 -0.0014634278 -0.81298387 0.094733715
631000000 -0.80935961 0.10258032 0.0002486408 -0.0017347035 -4.0961953e-005 -0.00096907502 -0.81367415 0.094705783
632000000 -0.80809593 0.1011942 -0.00037443067 -0.00072559353 -0.00056823401 -0.0024506124 -0.8127082 0.094503529
633000000 -0.80916786 0.10103905 0.00025685065 -0.0015526329 -0.00026020265 -0.001760175 -0.81197494 0.094877973
634000000 -0.80959874 0.1037118 -8.4225212e-005 -0.0016469313 -0.0012315192 -0.0024470135 -0.81073964 0.095144376
635000000 -0.80785167 0.10171118 -8.8678265e-005 -0.0014484011 -0.00033418249 -0.001616323 -0.81312174 0.094675682
636000000 -0.80863589 0.10333676 0.00018558057 -0.0017215745 -0.00094713876 -0.0012484164 -0.8133086 0.095202312
637000000 -0.80934626 0.10326558 -0.00018171182 -0.0016338053 2.7744227e-005 -0.0020548897 -0.8113364 0.09612146
638000000 -0.80776578 0.10281999 -0.00074759952 -0.0018213212 -0.00027354565 -0.001550469 -0.81118804 0.095432214
639000000 -0.80892849 0.10414876 -0.00039958552 -0.0026114876 -0.00046208993 -0.0023082688 -0.81165618 0.094939299
640000000 -0.80896848 0.10280652 -0.0013970376 -0.0009129254 0.00030811681 -0.0013959077 -0.8109023 0.095445588
641000000 -0.8079862 0.10313989 -0.00064809562 -0.0018115251 0.00030832895 -0.0019510367 -0.81128103 0.095510207
642000000 -0.80981988 0.10482432 -0.00029576331 -0.0007237746 0.00086339458 -0.0017385108 -0.81202048 0.096407995
643000000 -0.80921721 0.10436635 -0.0004737713 -0.002652982 -0.00020009946 -0.0016891364 -0.81231755 0.095745981
644000000 -0.80756938 0.10435376 -0.00044774526 -0.0014465696 -0.00023750628 -0.0020004879 -0.81156218 0.096824534
645000000 -0.80867422 0.10427098 -0.00019515651 -0.0020224287 -0.00013653577 -0.0023094811 -0.81054544 0.095853016
646000000 -0.80910313 0.10267712 1.7722377e-005 -0.0022760741 -0.0013120661 -0.0011774567 -0.81212217 0.096413925
647000000 -0.80838615 0.10462623 -0.00074010674 -0.0022748103 -0.00076943316 -0.0016118039 -0.8113932 0.096449398
648000000 -0.80882674 0.10421655 0.00015564947 -0.0015913078 -0.00018859314 -0.0016797743 -0.81122065 0.097192839
649000000 -0.80937332 0.10497723 0.00033063494 -0.0020955384 -0.00056872313 -0.0014482494 -0.81127036 0.097120821
650000000 -0.8084603 0.10544188 -0.00058041309 -0.0016411111 0.00046548346 -0.0021810709 -0.81203669 0.096671298
651000000 -0.80857575 0.10531775 -0.00032371702 -0.0022116322 -0.00027468105 -0.001895071 -0.8123126 0.097474664
652000000 -0.80892444 0.1047025 -0.00085708278 -0.0017236845 -0.00031155974 -0.003199636 -0.8114121 0.097735815
653000000 -0.80771476 0.10452587 0.00016174208 -0.0019007049 -0.0010799312 -0.0017853369 -0.81210035 0.096389838
654000000 -0.80943316 0.10568634 -5.4911605e-005 -0.0020106817 0.00050091336 -0.0018922432 -0.8104977 0.097615995
655000000 -0.80810124 0.10537373 0.00091640349 -0.002081898 -0.00021298758 -0.0018532083 -0.81042325 0.098166771
656000000 -0.80781847 0.1061496 -0.00038255032 -0.0011812253 -0.00065485854 -0.00070653611 -0.81177276 0.097358942
657000000 -0.80809319 0.10665146 5.3448759e-005 -0.001924736 -0.00047057745 -0.002019776 -0.81170279 0.099139512
658000000 -0.80813128 0.10632726 -0.00059452676 -0.0022595983 -0.00057285797 -0.0016318335 -0.81140107 0.096271902
659000000 -0.80767715 0.10575747 0.00017692291 -0.0013553646 -0.00036530712 -0.0020541309 -0.81220651 0.097579241
660000000 -0.80829674 0.107115 -0.0011772208 -0.0024874057 0.00030361302 -0.0015847975 -0.81015283 0.098874316
661000000 -0.80896682 0.1054487 -0.00018512424 -0.0017977546 9.4011528e-005 -0.0015259982 -0.81219631 0.098584026
662000000 -0.80911595 0.10744973 2.1288645e-006 -0.001687505 -0.0010281742 -0.0022921336 -0.81173861 0.099403225
663000000 -0.8095054 0.10597949 -0.00025362539 -0.0011959274 -0.00066720619 -0.0023504649 -0.81190485 0.097043075
664000000 -0.80847389 0.1063512 0.0009832558 -0.0019208073 -0.0007953631 -0.0019145277 -0.81128407 0.09818995
665000000 -0.80816954 0.10661127 4.413892e-005 -0.0022137379 -0.0014984143 -0.0019874373 -0.8118425 0.098480426
666000000 -0.80881023 0.10861004 -0.00019600046 -0.0017729632 -0.00064708991 -0.0013818911 -0.81156224 0.098453805
667000000 -0.80934024 0.10721119 -0.00055594626 -0.001804053 -0.00079841231 -0.0021476429 -0.81165099 0.097337127
668000000 -0.80849069 0.10659093 0.00044953465 -0.0021119148 -0.00017948994 -0.0019065453 -0.811988 0.097921982
669000000 -0.80758923 0.10657534 -0.00055894413 -0.00041095255 -0.0012527741 -0.0018216415 -0.81188798 0.098784521
670000000 -0.80920893 0.10805713 -0.0011006398 -0.0014243764 -0.0013227321 -0.0024441949 -0.8125475 0.099210374
671000000 -0.80825335 0.10734285 0.00022771909 -0.0022306303 -0.00044062271 -0.0019428778 -0.81097209 0.098668061
