!Keysight Technologies,M9374A,MY55442783,A.12.55.05
!Date: Thursday, May 20, 2021 18:40:11
!Correction: S11(Full 2 Port(1,2)) 
!S21(Full 2 Port(1,2)) 
!S12(Full 2 Port(1,2)) 
!S22(Full 2 Port(1,2)) 
!S2P File: Measurements: S11, S21, S12, S22:
# Hz S  RI   R 50
500000000 -0.81166697 0.080867358 0.00039402433 -0.0018449032 -5.5989425e-005 -0.0015936118 -0.81422132 0.076912411
501000000 -0.81194568 0.083828025 -2.4869607e-005 -0.003243498 -0.0014425126 -0.0011558031 -0.81591725 0.075143553
502000000 -0.81194866 0.082201682 -0.00067767326 -0.00026698585 0.0010208045 -0.0022239189 -0.81588054 0.078035735
503000000 -0.81204784 0.082643479 0.00044736278 -0.0010971574 0.00075067964 -0.0013523245 -0.81237119 0.077433668
504000000 -0.8098045 0.081285685 0.00044482845 -0.00092499302 -0.00071745674 -0.0011318285 -0.81396705 0.076824002
505000000 -0.81206024 0.082171619 -0.0010623207 -0.0013422028 -0.0012139799 -0.0016586387 -0.81373137 0.077424422
506000000 -0.8122735 0.083085775 -0.0010269945 -0.0017382754 -4.3644239e-005 -0.0019447058 -0.81333029 0.076941192
507000000 -0.81341064 0.083422065 0.00021261515 -0.0010874552 0.0012111297 0.00010871558 -0.81333739 0.077551886
508000000 -0.81152189 0.084689312 -0.00053654751 -0.0015482067 0.00025163181 -0.0017438987 -0.81449401 0.078515917
509000000 -0.81172687 0.083851956 -0.00031487722 -5.3631693e-006 3.9264123e-006 -0.00040151575 -0.81230474 0.078656249
510000000 -0.81192994 0.085075751 -0.00099326146 -0.00081986585 -0.0008264372 -0.0013740566 -0.8125264 0.078728408
511000000 -0.81087834 0.085438423 -0.00043345685 -0.0015700831 -1.9557783e-005 -0.0011711788 -0.8128953 0.07866466
512000000 -0.81197894 0.082980648 -0.00031372777 -0.0018882788 -0.00052375247 -0.0013878625 -0.81341535 0.07906799
513000000 -0.81192547 0.084571101 -0.00041455438 -2.9536171e-005 -0.00024306588 -0.0024919598 -0.81483597 0.077125184
514000000 -0.81322008 0.084650919 0.001083261 -0.0018725386 -0.00053388346 -0.0013593605 -0.81285381 0.080041476
515000000 -0.81074381 0.083850421 -0.0011683279 -0.0015750885 0.00040902072 -0.00074525172 -0.81327403 0.080194898
516000000 -0.81253493 0.085513532 -0.0009869755 -0.0012059665 0.00036725667 -0.0019309138 -0.81384999 0.079174362
517000000 -0.81094372 0.086176999 -2.5298985e-005 -0.0023566759 -0.00021407651 -0.0016012745 -0.81280047 0.079239272
518000000 -0.81166381 0.086878568 -0.001064149 -0.00131885 -0.00037527611 -0.00084846147 -0.81182915 0.080081448
519000000 -0.81201953 0.085839726 -0.00025764608 -0.00092196214 -0.00055527891 -0.00083978387 -0.81316894 0.081997849
520000000 -0.81147289 0.08558093 -0.00047432951 -0.00102513 -0.00079722836 -0.0032690468 -0.81362855 0.080668949
521000000 -0.81094462 0.08813294 -0.00030981732 -0.0020868198 0.00030124435 -0.0021930134 -0.81409031 0.080577582
522000000 -0.8126654 0.086930983 -0.00085744949 -0.0010632293 -0.00016264102 -0.0010035487 -0.8135559 0.08126355
523000000 -0.81131613 0.086352788 -0.00093181484 -0.00048106004 -0.0014593698 -0.0010294567 -0.81470084 0.080269068
524000000 -0.81324577 0.087780975 -5.5922101e-005 -0.0019853474 -0.00039853939 -0.0011324909 -0.81430495 0.081327155
525000000 -0.81210953 0.087273441 0.00014017377 -0.00087779894 -0.00023934728 -0.00083691248 -0.81337637 0.082291961
526000000 -0.81084925 0.088262394 5.673532e-005 -0.00055919506 0.00059370208 -0.0020527253 -0.81224126 0.081405319
527000000 -0.81285918 0.087029271 -0.00065395795 -0.0016145639 -0.00016680502 -0.0021543112 -0.81376195 0.081440084
528000000 -0.81078285 0.087930605 0.00034136378 -0.0016932562 -0.00063136633 -0.0017752236 -0.81228185 0.082488872
529000000 -0.8106851 0.087376185 -0.00032703704 -0.0008934121 -9.3189577e-005 -0.0013209907 -0.8123858 0.082369551
530000000 -0.81207204 0.08758387 0.00022211642 -0.0010404651 -0.00087704411 -0.0025294232 -0.81302184 0.082614437
531000000 -0.81269199 0.087931007 7.7407058e-005 -0.001376912 0.00015526474 -0.0018554078 -0.81268835 0.082672186
532000000 -0.81192869 0.087835528 -0.00074545265 -0.0012363845 -0.00078130636 -0.0010280882 -0.81328446 0.081829295
533000000 -0.8113721 0.08687605 -1.7476065e-006 -0.0014773074 -0.00059014361 -0.0012005051 -0.81099057 0.083249353
534000000 -0.81227905 0.089165919 -0.00071925629 -0.0024064598 4.5887446e-005 -0.00073310622 -0.81269038 0.08306329
535000000 -0.81115049 0.08873833 0.00046909854 -0.0017241546 -0.0022850081 -0.0010800404 -0.81265426 0.082400851
536000000 -0.81108052 0.089083098 -0.0007367584 -0.0010879359 0.00081788807 -0.0022222297 -0.81215465 0.083652526
537000000 -0.81275702 0.08868552 0.00030059883 -0.0014556535 0.00060341984 -0.0022220088 -0.81304151 0.083324157
538000000 -0.81105715 0.088598035 0.0001715362 -0.0013468089 0.00042260173 -0.0014610051 -0.81219721 0.082299098
539000000 -0.81285894 0.089662381 0.00048314052 -0.0011333128 -0.00099648954 -0.00029845553 -0.81231189 0.083378218
540000000 -0.81091499 0.090885676 0.00035673869 -0.0016027497 -0.000457519 -0.0020835258 -0.81366563 0.084040649
541000000 -0.81044567 0.090448543 -0.00015893254 -9.9457444e-005 0.00031477463 -0.00053293718 -0.81286776 0.083871134
542000000 -0.80983126 0.090081684 -0.0014407814 -0.001397402 -0.00015683728 -0.0016707811 -0.81265724 0.083303325
543000000 -0.81147277 0.09015657 0.00054682483 -0.0016305799 -0.0003599879 -0.00098655862 -0.81242973 0.082222909
544000000 -0.81057268 0.090883061 -0.00072974106 -0.0014876859 -0.0007041585 -0.0016940725 -0.81346303 0.084535062
545000000 -0.81167823 0.088910639 -0.00051743683 -0.0013880227 0.00025651391 -0.0010400498 -0.81306142 0.085256368
546000000 -0.81324184 0.089516945 -0.0013752581 -0.00098245172 -0.00032781111 -0.00084167026 -0.81266856 0.085215874
547000000 -0.80992079 0.089796744 0.00075324462 -0.0020285523 -0.00077703467 -0.0018045797 -0.81363362 0.083661601
548000000 -0.81104791 0.090775117 -3.2661178e-006 -0.0012805505 -0.00057396758 -0.0019278427 -0.81288522 0.084519632
549000000 -0.81110585 0.090638824 0.00021020016 -0.001628932 -0.00081695331 -0.00091304409 -0.81187963 0.086752892
550000000 -0.80969387 0.090470716 -0.00050332758 -0.00061972602 -0.00035225839 -0.0012434411 -0.81317663 0.086052753
551000000 -0.81197649 0.091322511 -0.0005370272 -0.002030723 1.2615891e-005 -0.0018990882 -0.81340629 0.085424103
552000000 -0.81060964 0.091035068 -0.00088274025 -0.0012680006 0.000130831 -0.0018178285 -0.81143236 0.084300958
553000000 -0.81172627 0.089846238 -0.00046799265 -0.0016973783 -0.00059225841 -0.0018559913 -0.81241381 0.084031545
554000000 -0.81148326 0.091541655 -0.00039462568 -0.0012555724 0.00041071931 -0.00081761926 -0.8132357 0.084041581
555000000 -0.81186128 0.091960423 0.00031637805 -0.0020359126 -0.0011533857 -0.002875878 -0.81254762 0.085579909
556000000 -0.81134027 0.089688495 0.00011449596 -0.0014087688 -0.00064367248 -0.0015288783 -0.81274265 0.086596623
557000000 -0.81109661 0.090575568 0.00035987291 -0.0028119266 -0.00013892601 -0.00091844273 -0.81458324 0.085885257
558000000 -0.81078804 0.088353612 -5.1909814e-005 -0.0026775587 3.1312982e-005 -0.0013328366 -0.81348562 0.086963244
559000000 -0.81108749 0.090812042 0.00039892283 -0.00052445987 -0.00034066566 -0.0020757171 -0.81520462 0.086295925
560000000 -0.8113724 0.092333138 -0.00016636518 -0.0017031516 0.00021676518 -0.0012289094 -0.81341195 0.085107826
561000000 -0.80986798 0.090721153 0.00044984184 -0.00016200672 -0.0010342997 -0.0018981636 -0.81232405 0.084675282
562000000 -0.81017798 0.091162838 -0.00015845976 -0.0018644121 -5.5365585e-005 -0.0011436269 -0.81244129 0.086795926
563000000 -0.81196117 0.092307217 -0.00039596835 -0.001613147 -0.000808649 -0.0016816253 -0.81292009 0.087203458
564000000 -0.8102715 0.091055468 0.00037728166 -0.0017238175 -0.00038144569 -0.0016367821 -0.81237197 0.087164462
565000000 -0.81092179 0.090542339 -0.00066993758 -0.0016544661 -0.00050446671 -0.00066587754 -0.81243402 0.086636722
566000000 -0.81143582 0.091242433 -0.00034046944 -0.00044637223 0.00017815697 -0.0020710486 -0.81296271 0.086285941
567000000 -0.80957973 0.090555266 -0.00033122877 -0.0010928754 0.00040822264 -0.00063931523 -0.81223661 0.087305754
568000000 -0.81034702 0.091997676 -0.00020613256 -0.0014683203 -7.1353359e-005 -0.0011961199 -0.81081921 0.087696917
569000000 -0.8097989 0.092450738 -0.0010414679 -0.0018442923 -0.0011553681 -0.0017885956 -0.81236213 0.087691396
570000000 -0.81051075 0.093257308 -0.0004240569 -0.001305048 0.0001176317 -0.0016022486 -0.81344688 0.087123007
571000000 -0.81063044 0.09046974 -0.00062311877 -0.0011760771 -0.0002677078 -0.0019091398 -0.81257671 0.087795645
572000000 -0.81048143 0.09248703 0.00019191176 -0.0012292396 -0.00037393896 -0.001280367 -0.81217748 0.087393656
573000000 -0.81138605 0.092410751 0.00083009357 -0.0012167782 0.00012091899 -0.00060229865 -0.8124041 0.087967306
574000000 -0.80934453 0.092638731 -0.0001389821 -0.0015824226 -0.0007129602 -0.0013957053 -0.81263226 0.087361239
575000000 -0.81174636 0.091511667 -0.0014305258 -0.00021017478 -0.00028179082 -0.00082728779 -0.81343663 0.089834847
576000000 -0.80954146 0.092154838 0.00065131654 -0.00089218532 -0.00081682851 -0.0019748979 -0.81442732 0.08902923
577000000 -0.80994356 0.094176807 -0.00012564866 -0.0016824778 -0.00029794348 -0.0016182368 -0.81299442 0.08633174
578000000 -0.81176049 0.093759723 0.00011680035 -0.0015053999 -0.00070895615 -0.0023986131 -0.81339717 0.08823029
579000000 -0.8095724 0.093740374 0.00032684667 -0.0013631062 0.00017549268 -0.0011657039 -0.81341481 0.088194311
580000000 -0.81022179 0.092069812 -0.00047206669 -0.0019148542 -0.00032556709 -0.0015279043 -0.81206399 0.089387372
581000000 -0.809286 0.092502132 -0.00056620239 -0.0013345163 -0.00059412862 -0.0030118639 -0.81406206 0.088846922
582000000 -0.81000793 0.094037957 -4.2605487e-005 -0.0011477434 0.00035225612 -0.0020531523 -0.81428027 0.087295875
583000000 -0.8100785 0.094302967 -0.0001045801 -0.0018404017 -0.00046653487 -0.0016942902 -0.81423277 0.089407019
584000000 -0.81094879 0.094005518 -0.00047498202 -0.0026986497 -0.00041846276 -0.0013469022 -0.81212229 0.090556107
585000000 -0.8100993 0.095492676 -0.0011175624 -0.0016311209 -0.00094775745 -0.0009689997 -0.81355619 0.089767739
586000000 -0.81111348 0.094114095 -0.00052558188 -0.0018755007 -0.00098282506 -0.0028236555 -0.81261128 0.089137249
587000000 -0.81068218 0.095013469 -0.0001142403 -0.0015829897 -5.2099549e-005 -0.00017016262 -0.81146449 0.088083446
588000000 -0.80881107 0.095087782 -0.0010829327 -0.0017467398 -6.6425106e-005 -0.0012085222 -0.81216431 0.089334927
589000000 -0.80895984 0.094815813 -6.3683488e-005 -0.0013307608 -0.00077987154 -0.0019922031 -0.81245959 0.089812666
590000000 -0.80957949 0.09545058 8.9067186e-007 -0.0020863183 0.00022193162 -0.0016188157 -0.81177747 0.090502292
591000000 -0.80852604 0.09438853 4.3307642e-005 -0.0018051576 -0.00049967202 -0.0013526728 -0.81137598 0.089680806
592000000 -0.80843663 0.094935395 -0.00049625215 -0.0011562119 -0.00078344566 -0.00089193933 -0.81293142 0.090636104
593000000 -0.80942219 0.095429271 -0.00015386258 -0.00041087548 0.00034376717 -0.0018228153 -0.81259066 0.090351693
594000000 -0.80965936 0.096457832 0.00010878179 -0.0013886559 0.00043184165 -0.0024444645 -0.81230134 0.090133175
595000000 -0.81053162 0.095269412 0.00096818281 -0.0017760291 -0.00080899429 -0.0019168804 -0.81257617 0.090975642
596000000 -0.81100082 0.095794998 -0.00059249648 -0.0020863009 0.00050697965 -0.0028936411 -0.81211948 0.089017138
597000000 -0.81017679 0.096145615 -0.0003981546 -0.0023993389 -0.001137423 -0.0015024639 -0.81108207 0.089195549
598000000 -0.8097629 0.096153535 9.5063246e-005 -0.0015596617 0.00051770027 -0.0022762557 -0.81130165 0.090534583
599000000 -0.80971313 0.098154947 0.00015738327 -0.0012796037 9.1989205e-005 -0.0017229884 -0.81186527 0.092422172
600000000 -0.81156331 0.096369356 -0.0003131798 -0.0010041521 -0.00085523201 -0.00144022 -0.81336766 0.09130419
601000000 -0.80954731 0.098064467 -0.0011225785 -0.0025292411 -0.00036153474 -0.0013958899 -0.81257689 0.091533445
602000000 -0.80953932 0.097014487 -0.0012932335 -0.00088822941 -0.00091615546 -0.0021727858 -0.81256938 0.091982037
603000000 -0.81017357 0.097241029 -6.9913454e-005 -0.0017419766 -0.0007808067 -0.00059623236 -0.81197613 0.091299064
604000000 -0.80983645 0.096702524 -0.0010409806 -0.0013562039 -0.00071121083 -0.0023620967 -0.81098741 0.092277169
605000000 -0.80871069 0.097288676 0.00046858113 -0.0019906713 0.00041412225 -0.0024189479 -0.81018215 0.091787659
606000000 -0.80992609 0.096437268 -0.00084749574 -0.0013342057 -0.00014492836 -0.0014504603 -0.8118915 0.091520198
607000000 -0.80944568 0.097335346 0.00055861764 -0.0013691427 -0.00050542527 -0.0031645379 -0.81305748 0.091234237
608000000 -0.80851966 0.099729873 -0.00021123301 -0.0012974032 -0.00073173724 -0.0017674789 -0.81164688 0.091917709
609000000 -0.81019717 0.098386079 0.00069886143 -0.0029163829 -0.00014615421 -0.0013789709 -0.8108173 0.092366233
610000000 -0.80928367 0.099420466 -0.00097890932 -0.0010694764 -0.00037862454 -0.0014477223 -0.81119329 0.092125036
611000000 -0.80795217 0.099564143 -0.00049289485 -0.0021867615 0.00020773808 -0.0019450374 -0.81149882 0.092286944
612000000 -0.81042033 0.099675745 -0.00054729776 -0.0017783116 6.8303132e-005 -0.0021774503 -0.81180435 0.092368551
613000000 -0.80826288 0.099336006 -0.00016756728 -0.0020624297 -0.00039238404 -0.0028134512 -0.81183612 0.093446665
614000000 -0.80949634 0.10107183 0.00018930603 -0.0010556963 -0.00073637301 -0.00073293888 -0.81215745 0.093988597
615000000 -0.80975467 0.10065071 0.0010105285 -0.0019826051 -0.00025264488 -0.002165583 -0.81164891 0.09483207
616000000 -0.81003863 0.10132742 -0.00032055669 -0.0016001804 -0.00096575712 -0.00099025364 -0.81101006 0.094135024
617000000 -0.80803949 0.10085136 -0.0014278495 -0.00056180632 -0.00026673102 -0.0012540919 -0.81304121 0.094269343
618000000 -0.80936182 0.10123364 0.0001229155 -0.0011474934 -0.00097986276 -0.0012311745 -0.81260794 0.0936592
619000000 -0.80717403 0.10094888 0.00024883784 -0.0021146766 -0.00058317493 -0.0018418704 -0.81213188 0.094901174
620000000 -0.80809957 0.10069457 -0.0011569547 -0.0019584575 -0.00097048609 -0.0014546424 -0.81081891 0.095241353
621000000 -0.80846202 0.10143147 -0.00092703215 -0.0017134034 -0.0005839814 -0.00062511186 -0.81051034 0.096159123
622000000 -0.80927646 0.10131583 -5.3582018e-005 -0.0020498107 -6.3724583e-005 -0.001920421 -0.81100887 0.096204653
623000000 -0.80937392 0.10232725 -0.00067767157 -0.0021542436 -0.00028947229 -0.0023298033 -0.81128609 0.095994554
624000000 -0.80874324 0.10229733 -0.0017479867 -0.00140063 0.00030965736 -0.0021610043 -0.81138062 0.095133051
625000000 -0.80879569 0.10342164 -0.00068932242 -0.0020886287 -0.0013897343 -0.0018157011 -0.81184047 0.094880201
626000000 -0.80913001 0.10386793 0.000563359 -0.0012684613 -0.00054170715 -0.0014922855 -0.81145447 0.097196527
627000000 -0.80824685 0.10201138 -0.00057733146 -0.0014728644 -0.00078984228 -0.00061261252 -0.81007886 0.096358016
628000000 -0.80999041 0.10364392 -0.00028385752 -0.0015749653 7.1766335e-005 -0.0017943715 -0.81137139 0.096593842
629000000 -0.81032234 0.10332168 -0.00013125975 -0.0030570191 -0.00085750344 -0.00049484166 -0.81170356 0.097628497
630000000 -0.80783755 0.10294831 -2.341986e-005 -0.0010564142 -0.0002932355 -0.0011331374 -0.81020713 0.097341463
631000000 -0.80986655 0.10482084 0.00025433206 -0.0014461599 0.0005025249 -0.0017014596 -0.810395 0.097608037
632000000 -0.80998397 0.10287263 -7.9683217e-005 -0.001919425 -0.00087624858 -0.0015202842 -0.80963331 0.096860491
633000000 -0.80849135 0.10628459 2.3697805e-005 -0.0022768017 4.5234374e-005 -0.0010866456 -0.81242663 0.098096743
634000000 -0.80865413 0.10466291 0.00013258788 -0.0015809865 -0.001394692 -0.0019379085 -0.81126291 0.095991813
635000000 -0.80843037 0.10506839 0.00058864563 -0.0017223068 -0.00048695711 -0.0029948615 -0.81048697 0.098210961
636000000 -0.8080256 0.10559569 -0.00057550066 -0.0011132663 -9.1615721e-006 -0.00032897227 -0.81021333 0.096405737
637000000 -0.80979443 0.10446962 -0.0016924966 -0.0013447279 -0.00016384272 -0.0015173731 -0.80902869 0.098195016
638000000 -0.80916649 0.10461943 -0.00029856269 -0.0026567518 -0.00060811313 -0.0023685626 -0.80996072 0.096947834
639000000 -0.81031442 0.1051548 -0.00079363462 -0.0014406699 -0.0012712933 -0.0015472729 -0.81003928 0.098138951
640000000 -0.80817455 0.10619868 -0.0005727883 -0.0020841695 -0.0012337955 -0.0018931575 -0.81042403 0.097713642
641000000 -0.80953562 0.1074774 -0.0003312878 -0.0020084537 -0.0006686282 -0.0018083574 -0.81090027 0.098836809
642000000 -0.80866063 0.1050193 -0.00097944401 -0.0013991151 -0.00046954374 -0.0012495656 -0.81047297 0.097937502
643000000 -0.80955046 0.10604296 0.00085360464 -0.001542686 -0.00015927669 -0.0020459315 -0.81254256 0.09886387
644000000 -0.80927575 0.10703382 -0.00048007534 -0.0011805707 -0.00036537243 -0.00191657 -0.81137174 0.098240517
645000000 -0.80901253 0.10611163 0.00079512905 -0.0022956687 -0.00058327889 -0.0018050645 -0.81031263 0.09780173
646000000 -0.80675238 0.10677345 6.5769382e-005 -0.0022174907 -0.00041876172 -0.0020277984 -0.81105471 0.098271362
647000000 -0.8091135 0.10817578 -0.00029310927 -0.0019271404 -0.00071754958 -0.0023190491 -0.8102476 0.098144569
648000000 -0.80766016 0.10717598 -0.00089800206 -0.0018265805 -0.00060682237 -0.002586002 -0.81117052 0.098944612
649000000 -0.80769324 0.10786896 -0.0013751315 -0.002005511 -0.00069303892 -0.0023064043 -0.81005555 0.099788107
650000000 -0.80787605 0.1071634 -0.00034468927 -0.0017698467 9.6503078e-005 -0.002379362 -0.81090164 0.097974382
651000000 -0.80821216 0.10733014 -0.00088033715 -0.0015275365 -9.3728515e-005 -0.0026696981 -0.81079292 0.099039197
652000000 -0.80901754 0.10826171 -0.00032434062 -0.002181879 -0.00018383529 -0.0018245506 -0.81055391 0.099836886
653000000 -0.80779773 0.10874527 -0.0006624076 -0.0010241637 0.00016098197 -0.0018257061 -0.81032956 0.099511877
654000000 -0.80783898 0.1078805 -0.001444933 -0.0013261141 -0.00074033753 -0.0022146851 -0.8114354 0.099193685
655000000 -0.80726713 0.10958614 0.00028514207 -0.001989492 -0.00029160001 -0.0015658012 -0.81166196 0.099757507
656000000 -0.80798393 0.10885506 -0.00015044086 -0.00074408785 -0.00058105099 -0.0011533702 -0.81046587 0.099949121
657000000 -0.80821151 0.10906325 -4.0956843e-006 -0.0013840299 -0.00078600965 -0.0016498845 -0.8111856 0.1001028
658000000 -0.80876362 0.10940804 -0.00025656773 -0.001880395 0.00083151198 -0.0012242409 -0.8109023 0.099781506
659000000 -0.80760568 0.10875898 0.00078866741 -0.00061450683 0.0014313809 -0.0019495045 -0.8091324 0.10023205
660000000 -0.80820191 0.11053712 5.6875408e-005 -0.0014844155 -3.0901461e-005 -0.0010300211 -0.81052846 0.10018473
661000000 -0.80865026 0.10924674 -0.00026958101 -0.0019679002 0.00010546075 -0.00093701505 -0.81126493 0.099433064
662000000 -0.80777854 0.1079304 -0.00050972897 -0.0014944426 -0.00078644347 -0.002344941 -0.81143194 0.10021596
663000000 -0.80728322 0.10793506 -8.7952731e-006 -0.0017183602 -0.00073437073 -0.0021604458 -0.81121385 0.099909507
664000000 -0.80898792 0.11032378 -0.00063168129 -0.0018322562 -0.0004043662 -0.0014514604 -0.81143105 0.10071023
665000000 -0.80681115 0.10912495 0.00086928922 -0.001744066 -0.0003917049 -0.0018479336 -0.80944443 0.10131598
666000000 -0.80778402 0.11029134 -0.00037953595 -0.0016106773 -3.333277e-005 -0.0010774111 -0.81118476 0.10111474
667000000 -0.80710769 0.11013658 -0.0001845146 -0.0030295295 3.7623726e-005 -0.0014208668 -0.80990541 0.10081476
668000000 -0.80732739 0.10844114 -0.00054607348 -0.00057503465 0.0010038966 -0.0023001879 -0.81242323 0.10018636
669000000 -0.80749834 0.10935237 -3.6468893e-005 -0.0020513982 -0.00018602989 -0.0013102979 -0.81057036 0.10114869
670000000 -0.80868018 0.11027741 -6.9482056e-005 -0.0021511989 -0.0003590954 -0.0029094242 -0.81160063 0.10228347
671000000 -0.80699462 0.11000413 -0.0016662346 -0.0025685541 6.9545269e-005 -0.0015502913 -0.80933696 0.101482
