!Keysight Technologies,M9374A,MY55442783,A.12.55.05
!Date: Thursday, May 20, 2021 18:53:09
!Correction: S11(Full 2 Port(1,2)) 
!S21(Full 2 Port(1,2)) 
!S12(Full 2 Port(1,2)) 
!S22(Full 2 Port(1,2)) 
!S2P File: Measurements: S11, S21, S12, S22:
# Hz S  RI   R 50
500000000 -0.81114721 0.081568472 -0.0014094457 -0.00114015 -0.0014522647 -0.0019517216 -0.81366014 0.076313436
501000000 -0.81131679 0.081014141 -0.00019712615 -0.0013625841 2.5832327e-005 -0.0025810981 -0.81424081 0.076226115
502000000 -0.8115322 0.079508223 -0.00078588934 -0.0013857444 -8.0506914e-005 -0.0013350261 -0.81394809 0.076218776
503000000 -0.81102568 0.080685243 -4.103173e-005 -0.00098749844 -0.00051848835 -0.00080657046 -0.81541759 0.075531796
504000000 -0.81188387 0.083026238 -0.00084854692 -0.00073431747 -0.00030167113 -0.0010694382 -0.81451172 0.076767921
505000000 -0.81338716 0.081398457 0.00014694336 -0.0012548581 6.4532127e-005 -0.0016317092 -0.8155058 0.075478017
506000000 -0.81128782 0.081234932 -0.00074052677 -0.0014362717 -0.00056263409 -0.001574581 -0.8155129 0.077312365
507000000 -0.81180429 0.08234939 -0.00045586255 -0.0017382319 0.00075268949 -0.0011259628 -0.8139177 0.07669501
508000000 -0.81071758 0.082751758 -0.00056156423 -0.0017293264 -0.00048209424 -0.0020516538 -0.81481498 0.07734473
509000000 -0.81316435 0.083227076 -0.0013854686 -0.0017734622 0.00073594408 -0.0014778858 -0.81400156 0.075745158
510000000 -0.81232518 0.081010915 -0.00066704757 -0.0022353318 0.00075561123 -0.0017957386 -0.81333339 0.077656008
511000000 -0.81225085 0.084292799 -0.0017125807 -0.00082634093 0.00037874407 -0.001442683 -0.81434357 0.075964406
512000000 -0.81171203 0.083177894 0.0012397749 -0.001857375 -0.00031589766 -0.0010258603 -0.81483763 0.077785581
513000000 -0.81212366 0.08355201 0.00082672067 -0.002232579 3.7722621e-005 -0.0011613865 -0.81595784 0.077113196
514000000 -0.81121439 0.083263822 -0.000366361 -0.00011376765 -3.0046873e-005 -0.00066882442 -0.81397057 0.076282382
515000000 -0.81229436 0.084684722 -0.00059209188 -0.0019507229 -0.00079265906 -0.001402105 -0.81460667 0.078602947
516000000 -0.8107931 0.083669417 0.00020293788 -0.0020972295 -0.0001355479 -0.0019173963 -0.8138876 0.079255126
517000000 -0.81296062 0.084945463 -2.7619588e-005 -0.0015983662 0.0002311147 -0.001792576 -0.81285346 0.077822037
518000000 -0.81234479 0.084176511 0.00039062719 -0.0013540465 -0.00047157437 -0.0018499175 -0.81545109 0.078124687
519000000 -0.81100124 0.083635382 -7.5555545e-005 -0.0017748822 0.00059066992 -0.0022837091 -0.81419039 0.07890369
520000000 -0.81089318 0.084525891 -0.00085662463 -0.00053279311 0.00080047501 -0.00111352 -0.81358105 0.079473272
521000000 -0.81211632 0.085603565 -0.00074984063 -0.0012284372 -0.00029612461 -0.0020113823 -0.81462348 0.080098145
522000000 -0.81382519 0.084936127 -0.00073841744 -0.0017783302 0.0005736567 -0.00160768 -0.81422138 0.08023183
523000000 -0.81101871 0.084882602 -0.00025408031 -0.0018149489 -0.00048761501 -0.0015900986 -0.81270367 0.079257399
524000000 -0.81060898 0.084819607 8.1924722e-005 -0.0017974266 0.00042051671 -0.0012829833 -0.81494337 0.080843717
525000000 -0.81054032 0.085656881 8.0517908e-005 -0.00053492835 0.00013357993 -0.00089338497 -0.81443042 0.080362789
526000000 -0.81236857 0.085801043 -0.00020294708 -0.001066682 0.00037497905 -0.0028630327 -0.8127262 0.079513907
527000000 -0.81194025 0.087367475 0.0011289824 -0.0021952488 -4.8235474e-005 -0.0013042375 -0.81455696 0.081371248
528000000 -0.8112812 0.085910164 0.00014828562 -0.0010547761 0.00042819901 -0.0018781848 -0.81388611 0.081147663
529000000 -0.81199104 0.085807532 -0.00069671398 -0.0022123565 -9.2075577e-005 -0.00082265824 -0.81389982 0.08074785
530000000 -0.81250995 0.087980174 -0.00059602334 -0.0017575435 -6.4726402e-005 -0.001334295 -0.81341565 0.081305221
531000000 -0.81131566 0.086570382 0.00039743705 -0.0013600921 0.00081095472 -4.8548849e-005 -0.81377918 0.082117088
532000000 -0.81158513 0.087935381 -0.00016329021 -0.0026895737 -0.00056761422 -0.00098940742 -0.81342089 0.081862904
533000000 -0.81084532 0.087093189 0.00046508387 -0.0010738546 -0.0005213556 -0.00079650857 -0.81374681 0.081519969
534000000 -0.81002384 0.085452922 0.0018030648 -0.0016969177 0.00055788027 -0.0010291632 -0.81441081 0.080420978
535000000 -0.81049621 0.087296292 -0.00058124197 -0.0006058857 -0.00010707106 -0.0022274894 -0.81450194 0.082698517
536000000 -0.81158936 0.087241009 -0.00025034574 -0.00087932515 -0.00068362942 -0.0022366594 -0.81306738 0.082375862
537000000 -0.81126624 0.087582983 -0.0006071828 -0.0019210293 -0.00092552637 -0.00064052356 -0.81435865 0.082676202
538000000 -0.81099093 0.086723663 0.00047626451 -0.0015407031 0.00052637764 -0.00090149743 -0.81443161 0.082421131
539000000 -0.81064475 0.087435491 -0.0011758058 -0.0013797542 -0.00021704021 -0.0013027749 -0.81429482 0.083835877
540000000 -0.81148863 0.088695034 -0.00017977285 -0.0012209736 -0.0010438168 -0.0016700123 -0.81302845 0.081097417
541000000 -0.81166315 0.089017741 -0.00013023239 -0.00078907993 -0.00059550302 -0.0016192424 -0.81398928 0.082126737
542000000 -0.81063688 0.088822126 0.00022440677 -0.0011028223 -0.00087126601 -0.0010256596 -0.8138786 0.082899943
543000000 -0.81187165 0.089427501 0.00062834827 -0.0020662216 -0.00059491576 -0.0023624648 -0.81305099 0.082395427
544000000 -0.81227368 0.088757381 -0.00036117111 -0.0014661741 -8.3018444e-005 -0.0012932502 -0.81453842 0.08355204
545000000 -0.81116849 0.089001544 0.00020654252 -0.0010808512 -0.0010005824 -0.0017966647 -0.8131898 0.083472073
546000000 -0.81117773 0.088833228 -0.00033070167 -0.0010701632 -0.00013107891 -0.0020584275 -0.81346792 0.084177807
547000000 -0.8111549 0.087792456 -6.0840368e-005 -0.0013564281 -1.3950424e-005 -0.0016866022 -0.81411761 0.083987176
548000000 -0.81114316 0.088366576 -0.00022313479 -0.0014921336 -0.00053503655 -0.00075461512 -0.81396818 0.082855038
549000000 -0.81162024 0.088207804 -0.00090894528 -0.0013270705 -0.00061779039 -0.0015665429 -0.81402624 0.083181843
550000000 -0.81088769 0.08802776 0.00024621401 -0.00059672474 -0.00039296871 -0.00064314262 -0.8135702 0.084524959
551000000 -0.81059808 0.088750735 -5.1937306e-005 -0.0013025791 -2.97487e-005 -0.00077821402 -0.81355327 0.084042691
552000000 -0.81055319 0.08785966 -0.0002948808 -0.0021892467 -0.00079459866 -0.0024795074 -0.81403106 0.084041156
553000000 -0.81140119 0.090346657 -0.00047171197 -0.0017113333 0.00072263571 -0.0016917626 -0.81238526 0.083044805
554000000 -0.81047845 0.088484094 4.0245708e-005 -0.0020041184 -0.000162296 -0.0016017947 -0.8135373 0.084188841
555000000 -0.8105346 0.089276887 -7.6672331e-005 -0.0016325492 -0.00070054596 -0.0015706209 -0.81284177 0.083897248
556000000 -0.81155944 0.089739479 -0.00079732283 -0.0021605541 -1.293221e-005 -0.0013596722 -0.814533 0.083694339
557000000 -0.81151855 0.090070739 -0.0012695551 -0.0013406806 -0.00017713607 -0.0014694423 -0.81293797 0.082688659
558000000 -0.81029034 0.089391701 -0.00063447614 -0.0014621139 -0.00020593528 -0.0010136698 -0.81401634 0.084609933
559000000 -0.81093168 0.089584507 -0.0004572336 -0.0016603251 -0.00052801915 -0.00014130736 -0.81354886 0.08463937
560000000 -0.81240362 0.08947251 0.00031497623 -0.0013980834 -0.0011289663 -0.0015451673 -0.81450951 0.084085204
561000000 -0.81123388 0.089835353 -0.0010710099 -0.0014924752 -0.00063622824 -0.001614309 -0.81380159 0.08451122
562000000 -0.81028873 0.090192556 -0.00047031781 -0.0018434685 -0.00018342766 -0.0012791452 -0.81387901 0.08477322
563000000 -0.81069803 0.090308242 -0.0015665678 -0.0013136005 -0.00050699315 -0.00098985014 -0.81257921 0.085584931
564000000 -0.81279236 0.092062861 0.00029036697 -0.0011466515 -0.00032953016 -0.0015460374 -0.8150655 0.084213853
565000000 -0.81104296 0.089876883 0.00022285039 -0.0017527797 -0.0010796086 -0.0010030944 -0.81434774 0.085088149
566000000 -0.81130683 0.089769371 0.00016259073 -0.0014050558 -0.00015201337 -0.0011405834 -0.81419045 0.08438848
567000000 -0.80960405 0.090028539 -6.8760033e-005 -0.0015360652 0.00081852148 -0.001217898 -0.81363273 0.085129939
568000000 -0.8109495 0.091204435 -0.00058530574 -0.00068606663 -0.00022443336 -0.00097522821 -0.8135305 0.087090462
569000000 -0.81027168 0.090776734 -0.000353243 -0.0013903579 -3.0838561e-005 -0.0012285045 -0.81356537 0.085450038
570000000 -0.81084853 0.091552041 -0.00084679422 -0.00052665977 0.00019788217 -0.0016949516 -0.81381041 0.084302686
571000000 -0.8103469 0.091312744 -0.00062163459 -0.001592194 8.2871942e-005 -0.0012107472 -0.81433421 0.086286403
572000000 -0.80987996 0.090717398 -0.00059212645 -0.0014899434 7.5295255e-005 -0.0015838927 -0.81379586 0.085848361
573000000 -0.81038547 0.09165404 0.0010409404 -0.00090714515 -0.0001473458 -0.0018699843 -0.81390059 0.085970648
574000000 -0.80986404 0.092845701 -0.0010078825 -0.00079934101 -0.00067168265 -0.0021630093 -0.8141495 0.087031148
575000000 -0.80994564 0.092174336 -0.0005374485 -0.0019160741 0.0006842899 -0.0017540858 -0.8141852 0.087717786
576000000 -0.80992895 0.091051474 0.00052510458 -0.0011440396 -0.00068896788 -0.0019549474 -0.814605 0.086495392
577000000 -0.81146437 0.092072621 -0.00055539102 -0.0025053164 -0.00029088938 -0.0014216383 -0.81408912 0.086668521
578000000 -0.810408 0.092229933 -0.00022694125 -0.00098215591 -0.00044556987 -0.0019737366 -0.81539756 0.086382799
579000000 -0.80931789 0.092190407 -0.00031298987 -0.0017823617 -0.00028323414 -0.0019353779 -0.81394976 0.087810628
580000000 -0.80940729 0.09163624 -0.00067827624 -0.0021429048 0.00036512446 -0.0012359266 -0.81466573 0.086086713
581000000 -0.81030434 0.092271335 0.00013548322 -0.0016971662 -0.00024106809 -0.0021278481 -0.81243855 0.085324906
582000000 -0.81125772 0.092572786 3.2536653e-005 -0.0025248898 -0.0006469473 -0.00125729 -0.81305844 0.087483458
583000000 -0.81160599 0.093086973 0.00058437925 -0.0012984757 -0.0002273799 -0.0019305551 -0.81339306 0.087181285
584000000 -0.8102538 0.091937833 0.0002400974 -0.0016237939 -0.00050020224 -0.0010403187 -0.81449819 0.087825313
585000000 -0.80996561 0.094049484 -0.0002890864 -0.0014843541 -0.00024773763 -0.0011593308 -0.81485432 0.087355591
586000000 -0.81060356 0.09267956 -9.3445269e-005 -0.0013866075 -0.0013605908 -0.0010496916 -0.81318825 0.088618495
587000000 -0.81105769 0.093262091 -0.0009197935 -0.0020667152 -0.00075730513 -0.0016404917 -0.8123157 0.087786429
588000000 -0.80995047 0.093832046 0.00093515078 -0.00083569076 -0.0002624396 -0.0016647576 -0.81195569 0.088630714
589000000 -0.81108689 0.092954442 0.00033986845 -0.0020309479 -0.00082234497 -0.0016603208 -0.81338489 0.088131085
590000000 -0.80879503 0.094232962 -0.00024865451 -0.0012113019 -7.7914396e-005 -0.0016611489 -0.81293547 0.08817777
591000000 -0.80927682 0.093135625 -0.00091394293 -0.0017642545 -0.00013010955 -0.0010654639 -0.81369871 0.088600539
592000000 -0.81112969 0.092896625 0.00024565079 -0.0016193138 -0.00066577236 -0.0027929551 -0.8132152 0.087780498
593000000 -0.80957657 0.092781641 1.973935e-006 -0.0013746432 -0.00072740985 -0.0017625499 -0.81441128 0.087842844
594000000 -0.80776066 0.093594424 0.00022582356 -0.001202875 -0.00019443114 -0.0020563516 -0.81187326 0.090491608
595000000 -0.81002843 0.093910053 -0.00051364739 -0.00087409333 -0.00044035568 -0.0021672894 -0.81326795 0.089672238
596000000 -0.81005961 0.094507784 -0.00051372306 -0.0014150459 -0.0010866491 -0.0015043003 -0.8141591 0.089051962
597000000 -0.81112635 0.09580712 -0.00085914228 -0.0016777023 -0.00073152606 -0.0015877527 -0.81229264 0.088782333
598000000 -0.81075901 0.09498699 -0.00088757445 -0.0014280521 -0.00032678043 -0.0019755103 -0.81353396 0.090596333
599000000 -0.80944389 0.09458594 -0.00070319185 -0.0010390251 0.00056160317 -0.0022825499 -0.81247318 0.090078898
600000000 -0.80909842 0.094569497 -0.00044570619 -0.0012261184 -0.00052061013 -0.0019064862 -0.81373513 0.089957327
601000000 -0.80769807 0.096336976 -0.00061762484 -0.0019977188 0.00058691949 -0.0021200222 -0.81151611 0.090132996
602000000 -0.81032515 0.095351212 -0.00058752642 -0.0021497908 0.00029875591 -0.0015712839 -0.81190228 0.091468133
603000000 -0.80896425 0.095872842 4.6981081e-006 -0.0018859957 7.7702913e-005 -0.0030712637 -0.81320107 0.090113379
604000000 -0.80812573 0.096490234 -0.0012204421 -0.0013781114 -0.00010975311 -0.0018563222 -0.81127608 0.091655076
605000000 -0.80785942 0.09805125 -9.6765398e-005 -0.00086781388 -0.0011969863 -0.0014211768 -0.81262279 0.0902064
606000000 -0.80947721 0.095132463 -0.0004353399 -0.0010355974 0.00048640402 -0.0023282778 -0.81259882 0.090254329
607000000 -0.81021523 0.096632659 7.2149e-005 -0.0019599812 -0.00091980753 -0.0014296398 -0.81354129 0.08933764
608000000 -0.80948502 0.098297529 0.00024196177 -0.0029681614 -0.00034815603 -0.00068079343 -0.81314194 0.090978689
609000000 -0.80959338 0.098229051 -3.255855e-005 -0.0012257814 0.00028659622 -0.0019494871 -0.81247503 0.091094755
610000000 -0.80874312 0.097985551 5.2483163e-005 -0.0014443576 0.00037947579 -0.0020246028 -0.81293708 0.090779372
611000000 -0.80900812 0.097898774 -0.00059418334 -0.0022270933 -0.00044422469 -0.00084734638 -0.81208277 0.091760993
612000000 -0.80923301 0.097282648 -3.177844e-005 -0.00086982298 -0.0015899946 -0.001350287 -0.81256676 0.09280429
613000000 -0.80938399 0.098394722 0.00062179263 -0.0015967417 3.6817819e-005 -0.0020241134 -0.81200176 0.09236569
614000000 -0.80737948 0.098448746 -0.0022274088 -0.0021187204 -0.0006959177 -0.0022553417 -0.81287783 0.092179574
615000000 -0.80807579 0.098066606 -0.00018242432 -0.0005523556 -0.00015277193 -0.0015881995 -0.81202716 0.091173969
616000000 -0.80930781 0.098980926 0.00044482257 -0.0013585401 -0.00045864351 -0.0026287213 -0.81204343 0.092791893
617000000 -0.80830425 0.098948009 -0.00092088094 -0.00087958033 -0.00036662226 -0.00098524801 -0.81310558 0.093997687
618000000 -0.81051368 0.098519459 0.00018376707 -0.0021847812 -0.00016947401 -0.001713119 -0.81226516 0.092604473
619000000 -0.80821085 0.10046927 -0.00079706393 -0.001297918 -0.00029162029 -0.0017242752 -0.81311262 0.092762381
620000000 -0.80876118 0.098584734 -3.1645563e-005 -0.0010176178 0.00032012566 -0.0011576893 -0.811427 0.093332343
621000000 -0.80933762 0.10201605 0.00051501766 -0.0016549466 -0.00016264871 -0.0017713482 -0.81154132 0.094371222
622000000 -0.80972719 0.10092171 -0.00033431142 -0.0017770979 -9.7634045e-005 -0.0020693883 -0.81314963 0.094937041
623000000 -0.80857074 0.1000234 -0.00067904999 -0.0019481025 -0.00053125917 -0.001574214 -0.81059474 0.094882548
624000000 -0.80890763 0.099991553 0.00025269575 -0.00072713493 -0.00043901437 -0.0023015593 -0.81073332 0.094760053
625000000 -0.81021088 0.10127593 -0.00017878623 -0.001657598 -0.00090149202 -0.00091346761 -0.81079471 0.094662383
626000000 -0.80992442 0.10205273 0.00033155541 -0.0019787289 -0.00070646906 -0.002304883 -0.81214887 0.095536642
627000000 -0.80981022 0.10231254 0.00047625622 -0.0022276011 0.00041140124 -0.001073779 -0.81147093 0.093742542
628000000 -0.80834973 0.10153797 -1.4205207e-005 -0.0022089093 -0.00069449696 -0.0022145086 -0.81252009 0.094341516
629000000 -0.80995911 0.10279414 0.00028885514 -0.0017804847 -0.00032429537 -0.0025472888 -0.81343359 0.096615858
630000000 -0.8086248 0.10243963 -0.0010178091 -0.0016973461 -0.00048547046 -0.0019328672 -0.81170708 0.096004814
631000000 -0.80975384 0.10206209 -0.00017806372 -0.0018238318 -0.00033427993 -0.0017931105 -0.81192154 0.096509129
632000000 -0.81044269 0.1029127 3.4654906e-005 -0.0018579249 -0.00016097986 -0.0027152284 -0.81245697 0.095385961
633000000 -0.80893219 0.10348052 -0.00030768054 -0.0020705538 0.00026635794 -0.0021218925 -0.81353259 0.095570594
634000000 -0.80885005 0.10388962 0.00021174601 -0.00090035697 0.00080919103 -0.0018257619 -0.81228238 0.095132858
635000000 -0.8086533 0.10216822 -0.00013964152 -0.0011346313 -0.00091162801 -0.002011159 -0.81204605 0.09500099
636000000 -0.80987394 0.10373139 -0.00090612739 -0.0015274202 0.00037936078 -0.001386618 -0.81223363 0.096605055
637000000 -0.80903262 0.10384482 -0.00028097711 -0.0012139743 -9.8450495e-005 -0.0011796079 -0.81243157 0.095949583
638000000 -0.80861068 0.10424928 -0.00092311978 -0.0020400248 0.00032964518 -0.00205816 -0.81228495 0.095111899
639000000 -0.81075525 0.10529292 -0.0011326235 -0.0024450212 0.000451584 -0.0018800884 -0.8106969 0.095999092
640000000 -0.80894399 0.10466498 -0.0011440206 -0.0027379571 0.00049135031 -0.00098051026 -0.81185734 0.095817782
641000000 -0.80738604 0.10431075 -0.00082201354 -0.0015757435 -0.00090524135 -0.0018334985 -0.81183738 0.096568204
642000000 -0.8089239 0.10472066 -0.00035297524 -0.0026687616 0.0014176428 -0.0016328742 -0.81269932 0.09669555
643000000 -0.80974871 0.10601643 -0.0004229715 -0.0020639594 -0.00073802518 -0.0021264588 -0.8118245 0.097985968
644000000 -0.80641448 0.10402196 1.6989237e-005 -0.00214121 -0.00046611039 -0.0019113421 -0.81193119 0.096155465
645000000 -0.80876875 0.10534474 -0.00096733647 -0.0016496956 -0.00046122074 -0.0024883603 -0.81062907 0.096437193
646000000 -0.80693752 0.10402584 -0.00088669616 -0.0015670782 -0.00034993893 -0.0022961313 -0.81138569 0.097284473
647000000 -0.80766594 0.10416047 -0.00075065141 -0.0012968328 -0.00080093415 -0.001788568 -0.81253064 0.09628547
648000000 -0.80789715 0.10497239 -0.00037358861 -0.0028393129 0.00014568125 -0.002022695 -0.81178981 0.096788548
649000000 -0.80797845 0.10644341 -6.7696019e-005 -0.0014154963 0.00024260645 -0.0020627375 -0.81169975 0.097419463
650000000 -0.80842042 0.10626783 -0.00011191382 -0.0020591842 -0.00048049018 -0.0024031061 -0.81202447 0.097344458
651000000 -0.80822945 0.10658088 -9.0046247e-005 -0.0017100994 6.3780004e-005 -0.0013929268 -0.81091541 0.097617291
652000000 -0.80856758 0.10676194 1.8393815e-005 -0.0012381227 0.00044914469 -0.0016753229 -0.81108695 0.098575212
653000000 -0.80766749 0.1063025 4.4182707e-005 -0.0025135914 -0.00018160662 -0.0012562717 -0.80997175 0.09669742
654000000 -0.80740482 0.10737718 -0.0014636774 -0.0019721389 -0.00096451439 -0.0015493875 -0.81199628 0.09812396
655000000 -0.807311 0.10614622 0.00023113543 -0.0016796134 -0.0001394845 -0.0021300525 -0.81147975 0.098195657
656000000 -0.80835992 0.10705713 -0.00042411077 -0.0011027388 7.4084201e-005 -0.0028156112 -0.81129235 0.097455673
657000000 -0.80851316 0.10683762 -0.00030226997 -0.0013351084 -0.00042028612 -0.0018569047 -0.81134009 0.0990697
658000000 -0.80831742 0.1073377 0.00028631603 -0.0016415272 -0.00022109065 -0.0019841681 -0.81110293 0.098975621
659000000 -0.80794603 0.10706143 2.0010366e-006 -0.0011466073 -0.00044000338 -0.0014995049 -0.81216633 0.098434269
660000000 -0.80833507 0.10823042 0.00013673888 -0.0028017194 0.0004345185 -0.0019838081 -0.81151986 0.098006636
661000000 -0.8086217 0.10789347 0.00027704224 -0.0024479239 -0.00036727468 -0.0016526019 -0.81101871 0.098989174
662000000 -0.80668604 0.10702734 -0.00024459121 -0.0017074356 -0.00089510041 -0.0016192168 -0.81113869 0.09976428
663000000 -0.8083443 0.10814593 -0.00089748349 -0.0013562752 -0.0006809631 -0.0020048728 -0.8118664 0.098009348
664000000 -0.80737275 0.1059923 0.00060011767 -0.0018907628 -0.00080598355 -0.0031503406 -0.81300592 0.0996769
665000000 -0.80768991 0.10737091 0.00014509486 -0.0023441503 -0.00019599515 -0.0022617532 -0.8107993 0.099024311
666000000 -0.80792284 0.10618661 -0.00016223015 -0.0024012337 -0.00061964168 -0.0020637708 -0.81107485 0.098701797
667000000 -0.80852455 0.10768283 -0.0010283544 -0.0012536907 -0.00064137409 -0.0020491546 -0.81180912 0.099777311
668000000 -0.80924094 0.10842837 -0.00090484071 -0.0016483916 -0.00060444756 -0.0019147557 -0.81159425 0.09956938
669000000 -0.80820411 0.10733251 -0.0007935334 -0.0016235061 -0.00034442518 -0.0011282888 -0.80952638 0.099421859
670000000 -0.80813539 0.10726485 -0.00061670301 -0.0014519998 -0.00023486822 -0.0020641687 -0.81103462 0.10004803
671000000 -0.80746859 0.1085247 -0.00029358166 -0.0016890898 0.00014322819 -0.0022882908 -0.81124073 0.10078409
