!Keysight Technologies,M9374A,MY55442783,A.12.55.05
!Date: Thursday, May 20, 2021 19:12:34
!Correction: S11(Full 2 Port(1,2)) 
!S21(Full 2 Port(1,2)) 
!S12(Full 2 Port(1,2)) 
!S22(Full 2 Port(1,2)) 
!S2P File: Measurements: S11, S21, S12, S22:
# Hz S  RI   R 50
500000000 -0.81200737 0.079744257 0.0013349429 -0.0021544802 -9.0738533e-005 -0.0013409465 -0.81501144 0.074311987
501000000 -0.81224954 0.081228442 0.00080313243 -0.0012630742 -0.00010182598 -0.0018193021 -0.81603599 0.075145237
502000000 -0.81301373 0.08054363 -4.0648782e-005 -0.00060077832 -3.1936299e-005 -0.00048094732 -0.81570756 0.075098678
503000000 -0.8126964 0.080368929 0.00016538362 -0.0013709827 0.00042991128 -0.0017498685 -0.8169297 0.074639998
504000000 -0.81321365 0.08112514 -0.0002276684 -0.0014404281 9.7587777e-005 -0.0011922193 -0.81542093 0.075068168
505000000 -0.81364799 0.081695005 -0.00020017757 -0.00070344761 0.00029741984 -0.0019722877 -0.81510699 0.075784996
506000000 -0.81313086 0.080276094 7.8257071e-005 -0.0023801262 0.00025258175 -0.0019530376 -0.8134377 0.075264238
507000000 -0.8128503 0.080574766 0.00061085407 -0.0017782879 -0.00037902279 -0.0014405369 -0.81489342 0.076852597
508000000 -0.81255972 0.081537463 0.00032786818 -0.0020917801 -0.0001448374 -0.0017664522 -0.81438023 0.07667686
509000000 -0.81256032 0.082030341 -0.00025773229 -0.0024190741 0.000398915 -0.00070835702 -0.81572336 0.076265581
510000000 -0.81242353 0.083609745 -0.00039693012 -0.0019638699 -0.00056237401 -0.0015779245 -0.81301129 0.078287289
511000000 -0.81159222 0.081667215 0.00035888774 -0.00098203507 -0.00018769971 -0.002110522 -0.81481874 0.077560417
512000000 -0.81179476 0.081346571 -0.00060145097 -0.001276658 -0.00079508632 -0.00049262965 -0.81441492 0.076717928
513000000 -0.8139869 0.08274582 4.5649424e-005 -0.0011044175 0.00038330944 -0.0018317912 -0.81475401 0.07804808
514000000 -0.8113789 0.082166947 0.0004752297 -0.00052762579 3.325344e-005 -0.0023107373 -0.81448132 0.078845322
515000000 -0.812352 0.081831902 -6.2716033e-005 -0.0016460279 0.00088584173 -0.0008306668 -0.81385493 0.077262767
516000000 -0.81336361 0.083856985 -7.6363889e-005 -0.0019713859 0.00051809073 -0.0013384848 -0.81415033 0.077423021
517000000 -0.81186301 0.083923347 -2.0263358e-005 -0.0012651739 0.00048951252 -0.0012594986 -0.81478155 0.077609524
518000000 -0.81357753 0.084541477 -8.0907281e-005 -0.0014368548 0.00075978105 -0.00061466318 -0.81439924 0.076219536
519000000 -0.81330562 0.083127588 -0.00086459599 -0.0010219506 -0.00036917868 -0.0014938302 -0.81445378 0.079378128
520000000 -0.81132311 0.083851434 -0.00030764713 -0.0013680282 -0.00046520261 -0.00077309826 -0.81436497 0.078957699
521000000 -0.81065542 0.085876346 -0.00010892627 -0.00071917556 -0.00074586336 -0.0025252951 -0.81539506 0.078747727
522000000 -0.8134107 0.08266557 0.00051101367 -0.0013295892 9.7947319e-005 -0.0017230472 -0.81566978 0.079691224
523000000 -0.81342435 0.085382447 -0.00036505752 -0.00030202887 -0.00080200366 -0.0010281748 -0.81344473 0.077558003
524000000 -0.81205243 0.085199535 -0.001010516 -0.0017565817 -0.00032652164 -0.001998005 -0.81364757 0.078468122
525000000 -0.81248516 0.085128494 -0.00080897374 -0.0017625637 0.00032034851 -0.0014570284 -0.81527978 0.078681804
526000000 -0.8133893 0.08410041 -0.00056018651 -0.00073808135 -0.00069675711 -0.00133371 -0.81474322 0.079810098
527000000 -0.81267178 0.083782561 0.00061938638 -0.0013344807 -0.00043555576 -0.0016054661 -0.81531733 0.079431854
528000000 -0.81183994 0.085877396 -0.00035583053 -0.001136655 -8.8737885e-005 -0.0010683117 -0.81278062 0.079434261
529000000 -0.81251103 0.086463861 -0.0009454228 -0.0019855669 0.00026536486 -0.0022694003 -0.81438071 0.079969794
530000000 -0.81340212 0.085477352 0.00025025487 -0.0011231349 0.00075299281 -0.00144531 -0.81407428 0.080542877
531000000 -0.81191319 0.086956799 -0.0001153246 -0.00055273279 0.00011084974 -0.0014174923 -0.81381106 0.081549682
532000000 -0.8110581 0.085187599 -0.0010537914 -0.00061221729 0.00021367161 -0.00067679165 -0.81316578 0.078576222
533000000 -0.81147343 0.086918801 5.525447e-005 -0.0017506598 -0.00063271902 -0.001761761 -0.81380969 0.081006274
534000000 -0.81220865 0.086869344 -0.00014710466 -0.00069631007 3.4725759e-005 -0.00099268369 -0.81406105 0.080066636
535000000 -0.81141007 0.085875228 -0.00015834809 -0.0028506711 0.00091006473 -0.0016363764 -0.81334168 0.081065103
536000000 -0.81181222 0.086476006 -6.7437817e-005 -0.0018906447 0.00096925144 -0.00090020843 -0.81352025 0.080770232
537000000 -0.81202364 0.086686738 -0.0001029151 -0.0017417453 0.00021489822 -0.0017908514 -0.81382906 0.081214614
538000000 -0.81231838 0.086517386 -0.00026617874 -0.0017973676 -0.00035792857 -0.0015871982 -0.8144353 0.080587089
539000000 -0.81157899 0.08595062 -0.00053478952 -0.0023436637 -0.00091517618 -0.0011331829 -0.81367075 0.080640502
540000000 -0.81223136 0.086951375 -0.0013661856 -0.0016914866 -0.0001569728 -0.00052615744 -0.81246555 0.082467802
541000000 -0.81092864 0.088433273 -0.0010693782 -0.0019522383 -0.00054958521 -0.0024804824 -0.81571043 0.080936305
542000000 -0.81123757 0.087703735 0.00010789544 -0.0014278186 -0.0011190395 -0.0010615279 -0.81431037 0.082224727
543000000 -0.812576 0.08879324 0.00014826588 -0.0014380479 -0.00040299798 -0.0018057494 -0.81513137 0.081983075
544000000 -0.81138361 0.088120103 -8.6656029e-005 -0.0013807348 -0.00020004598 -0.0019256106 -0.81420708 0.083850153
545000000 -0.81191868 0.086451195 -0.00053268287 -0.0007951872 0.00015091337 -0.00082631345 -0.81347376 0.081847809
546000000 -0.81180602 0.08867202 0.00066174497 -0.0011647746 -2.0881169e-005 -0.0011812723 -0.81484693 0.082568221
547000000 -0.8125875 0.087389588 -0.00080862804 -0.0021250546 -0.0012285017 -0.0017588087 -0.81370378 0.081739627
548000000 -0.81160927 0.087472752 -0.00059935125 -0.00058548694 -0.00054754002 -0.001771779 -0.81514812 0.083294615
549000000 -0.81213886 0.088282056 -0.00098172366 -0.0011203614 0.00010884961 -0.0013761364 -0.81399131 0.081328683
550000000 -0.81070083 0.088334858 -0.00077019591 -0.0011245779 -0.00014147178 -0.0013719443 -0.8127889 0.084281422
551000000 -0.81200337 0.088628113 0.00058234774 -0.00085138495 -0.00093120692 -0.00083645992 -0.81454962 0.08308474
552000000 -0.81123269 0.088764139 -5.8274381e-006 -0.0022820192 -0.00092767965 -0.0021278253 -0.81421137 0.083138861
553000000 -0.81171381 0.088992484 -0.00013682203 -0.0017468709 -0.00057374005 -0.0018197885 -0.81200796 0.081587471
554000000 -0.81234044 0.08790601 0.00043052179 -0.0015613716 -0.00058809813 -0.0015224125 -0.81620377 0.082599208
555000000 -0.81092507 0.087511905 -0.00012827199 -0.00083318911 -0.00042121753 -0.0023295744 -0.81247354 0.083574772
556000000 -0.81067079 0.08832062 -0.00011987977 -0.0014208962 2.4898272e-005 -0.0016346361 -0.81599361 0.083133131
557000000 -0.81208009 0.088688239 -0.00065455068 -0.0023332026 0.00051125506 -0.0010776166 -0.81430811 0.083615296
558000000 -0.81253171 0.089008614 -0.001036866 -0.00094216288 -3.0744843e-005 -0.00088980893 -0.81295842 0.083354056
559000000 -0.81199676 0.088461079 0.0010533659 -0.0020439159 -0.00067856337 -0.0018602443 -0.81425506 0.08406017
560000000 -0.81191909 0.088976823 -6.9066409e-005 -0.00096621295 -0.00065045408 -0.0020318609 -0.81362927 0.083122142
561000000 -0.81239647 0.090506069 -0.00013671894 -0.0011179327 7.6265191e-005 -0.002298625 -0.81456465 0.083530128
562000000 -0.81205374 0.089375235 0.00032983461 -0.0011535787 0.0010599949 -0.0013570659 -0.81395918 0.084739633
563000000 -0.8122465 0.0889422 6.0964463e-005 -0.0026693488 -0.00051034999 -0.0017697368 -0.81355512 0.085751317
564000000 -0.81090188 0.089390419 -0.00027172931 -0.0014013287 -0.00080679398 -0.0020256413 -0.814969 0.083458416
565000000 -0.81129885 0.089819685 -0.00050286937 -0.002185547 -0.00061094284 -0.0019096546 -0.81382632 0.083456233
566000000 -0.81335288 0.088012904 -0.00041509105 -0.0011530233 -0.00053728395 -0.00055657956 -0.81513697 0.083978362
567000000 -0.81078625 0.089375377 -0.0012759565 -0.0019148862 -0.00083649572 -0.00093834818 -0.81382501 0.083081126
568000000 -0.81021547 0.090568461 -0.00066447136 -0.00080256385 -0.00020805665 -0.0012034096 -0.81289935 0.084174842
569000000 -0.81161076 0.089199662 0.00030996764 -0.0013261121 -3.7474059e-005 -0.0015536922 -0.8143732 0.085202642
570000000 -0.81203401 0.09022741 6.1933279e-005 -0.0013096085 6.323136e-005 -0.00081049278 -0.8135919 0.084281258
571000000 -0.81078565 0.087420441 -0.00054850214 -0.0017969578 -9.1803777e-005 -0.0016642238 -0.81495738 0.086011313
572000000 -0.81086367 0.088726431 -0.00010242654 -0.0017308783 -0.00056616915 -0.0022288784 -0.81381273 0.083825693
573000000 -0.81163687 0.090908423 -0.00063292048 -0.0016160463 0.00050614681 -0.0023123173 -0.81294113 0.085460104
574000000 -0.81008166 0.091665544 -0.00041549184 -0.0021040945 -4.7938582e-005 -0.00067219482 -0.81532037 0.085236073
575000000 -0.81035197 0.090433389 -0.00051098922 -0.0017050626 0.00031612592 -0.0022632822 -0.81341499 0.085756019
576000000 -0.81123322 0.089609645 0.00018545192 -0.00046047292 0.00011829333 -0.0023643558 -0.81385851 0.086156003
577000000 -0.81001729 0.090907469 0.00067472184 -0.002222979 -0.0011713756 -0.0014295829 -0.81384885 0.085861534
578000000 -0.81017202 0.092524767 -0.00086087757 -0.0019329765 1.6278412e-006 -0.0018620201 -0.8143943 0.085798122
579000000 -0.81059694 0.090651363 -0.00028180442 -0.0017293107 -0.00058982725 -0.0018394963 -0.8143422 0.085393347
580000000 -0.81099337 0.091109328 -0.00096306042 -0.0011032084 0.00069239148 -0.0017364249 -0.81249964 0.085362293
581000000 -0.81143832 0.091263004 -0.00017095542 -0.0016812028 -0.00037400072 -0.001981196 -0.81531823 0.084686689
582000000 -0.81096405 0.091157213 -0.00024082149 -0.001445865 -0.0002064838 -0.0012037887 -0.81410778 0.087358341
583000000 -0.81090087 0.093049616 -0.00023238335 -0.0021758152 -4.507809e-005 -0.0013079213 -0.81475651 0.086019255
584000000 -0.8112123 0.091487169 -0.00053788297 -0.0004752707 -0.00087049277 -0.00067163084 -0.81264788 0.087719217
585000000 -0.8101204 0.092052527 -7.1400362e-005 -0.00023165878 -0.00053356274 -0.0019159318 -0.81421995 0.086665235
586000000 -0.81126386 0.091248661 -0.00035069414 -0.002212449 0.00028981996 -0.00084196933 -0.8137235 0.08651758
587000000 -0.81028849 0.092300534 0.00012471098 -0.0015783262 -0.00092675426 -0.002209225 -0.81415129 0.08743868
588000000 -0.81072617 0.09198425 -0.00099798664 -0.0019252383 -0.00033891402 -0.00054790423 -0.81376362 0.085828088
589000000 -0.81094331 0.091856092 -0.00048141947 -0.0015504573 -5.0880528e-005 -0.0022070613 -0.81440341 0.087354511
590000000 -0.810444 0.092226095 -0.00057701173 -0.0020848494 -0.00046827449 -0.0022437475 -0.81348217 0.088262968
591000000 -0.81029135 0.093152381 0.00086819509 -0.0015196997 -0.00056230789 -0.0010629438 -0.81399238 0.087338045
592000000 -0.81174433 0.093443975 -0.0003705878 -0.001778457 7.0385628e-005 -0.0025461814 -0.81450325 0.088163555
593000000 -0.81040198 0.093244918 -0.00029239376 -0.0019284454 -0.00015075682 -0.00088826776 -0.81447101 0.088507287
594000000 -0.81147701 0.096129715 -0.0014640962 -0.0010922324 2.5895941e-005 -0.0016038701 -0.81360799 0.0887587
595000000 -0.81098449 0.093348034 -0.00096902548 -0.001244957 -0.0016604308 -0.0018722727 -0.81487578 0.089618593
596000000 -0.80932182 0.094321601 -0.00017501267 -0.0018752011 -0.00046737527 -0.00092105195 -0.81325966 0.087126724
597000000 -0.81066519 0.093631871 0.00025132697 -0.001594187 -0.00056945981 -0.0020487141 -0.81392604 0.08732944
598000000 -0.81049842 0.09420304 0.00010779416 -0.00083671155 -0.0011226988 -0.0016146366 -0.81296504 0.089085095
599000000 -0.81142539 0.094450504 -0.00017857198 -0.0028188778 -0.001191235 -0.001365217 -0.81373018 0.089743949
600000000 -0.80964369 0.095170669 -0.00037173848 -0.0007493631 -0.00070905109 -0.0015398598 -0.8133471 0.087979861
601000000 -0.81011564 0.094299994 -0.0013723687 -0.00089147798 -0.00057473319 -0.0013408464 -0.81298333 0.089120947
602000000 -0.81033647 0.094975464 0.00057458755 -0.0015591991 -0.0011408629 -0.0007657251 -0.81319988 0.089532293
603000000 -0.809937 0.0960759 -0.00098091736 -0.0014939116 -0.0012097781 -0.00081552076 -0.81409454 0.089037977
604000000 -0.80867785 0.095977664 -0.0012769881 -0.00066740898 -0.000233513 -0.0021644689 -0.81341469 0.090817742
605000000 -0.81037873 0.094463587 -0.00055242155 -0.0024886536 -0.00077911036 -0.0017360727 -0.81354964 0.090852708
606000000 -0.81058991 0.096617401 -0.00047796217 -0.001228916 0.00045202536 -0.0021423632 -0.81440842 0.089523487
607000000 -0.80962503 0.095031776 -3.5826168e-005 -0.0019861318 3.7029004e-005 -0.0015979055 -0.81284791 0.090271562
608000000 -0.81068677 0.097784951 -0.0010088258 -0.0016666768 -0.00019232497 -0.0018950918 -0.81360602 0.089641169
609000000 -0.80827916 0.095068276 -0.00071461295 -0.0021215517 -0.00055531092 -0.0019080947 -0.81166136 0.089414738
610000000 -0.81074238 0.09570577 0.00032720936 -0.0014284388 -0.00050120492 -0.0014258267 -0.81241 0.090396523
611000000 -0.81049865 0.096525602 0.00054502144 -0.0023876522 -0.00095844432 -0.0020860936 -0.81360942 0.090027571
612000000 -0.80981565 0.095805302 -0.00091046991 -0.0016854197 1.1286139e-005 -0.0016693698 -0.81172347 0.089805931
613000000 -0.80990803 0.097500093 -0.00057995447 -0.0016733516 0.00025115762 -0.003050426 -0.8121841 0.091006763
614000000 -0.80907387 0.09807574 -0.00014565462 -0.0022874607 1.4835462e-006 -0.0018384368 -0.813124 0.091157734
615000000 -0.80854124 0.095703036 0.00043176225 -0.00036683289 0.00067823497 -0.0014962958 -0.81387687 0.09232153
616000000 -0.80975878 0.098681413 -0.00027133524 -0.0011731797 -0.00077716791 -0.0017242023 -0.81249177 0.092337258
617000000 -0.80988073 0.10004847 -0.00066290167 -0.0011424806 0.00029636253 -0.00062612764 -0.8122853 0.092360482
618000000 -0.80880791 0.099324398 8.2699997e-005 -0.0023492542 0.0005312927 -0.0019166772 -0.81316799 0.092456199
619000000 -0.80908811 0.099019244 -0.0012247056 -0.001789319 0.00052767742 -0.0024632658 -0.81272066 0.092486002
620000000 -0.80851918 0.097388841 -4.7161622e-005 -0.0020955477 0.00033318985 -0.0023720041 -0.8139922 0.092533469
621000000 -0.80995089 0.09922564 -0.00065514963 -0.0013933411 -0.00096836867 -0.0014653945 -0.81149596 0.092985407
622000000 -0.80996591 0.099775337 -0.00059034134 -0.00098845409 -0.001079931 -0.0019840079 -0.81417048 0.09254881
623000000 -0.80990094 0.099224247 -0.00085636805 -0.0018117909 -0.0001081031 -0.0010598538 -0.81244332 0.093355991
624000000 -0.81052393 0.10016204 -0.00016788743 -0.0024830475 -0.00033226886 -0.0023084923 -0.812841 0.092272885
625000000 -0.80858088 0.10085298 0.00023917525 -0.0010502863 -0.00050952763 -0.0020298364 -0.81325501 0.094139114
626000000 -0.80942625 0.099752434 -0.00032347438 -0.002387881 -0.00053018023 -0.001785499 -0.81115437 0.092550077
627000000 -0.80966091 0.10008543 -0.00031468872 -0.00089495734 0.00029915231 -0.001810463 -0.81330049 0.093217604
628000000 -0.80954409 0.10119775 0.00014713957 -0.0015537384 0.00070474541 -0.0012104808 -0.81145871 0.093544126
629000000 -0.80996346 0.1019307 0.00021944764 -0.0014654215 -0.00045803134 -0.00068455935 -0.81185567 0.093639359
630000000 -0.80935419 0.10150342 -0.00028984371 -0.0012100822 -0.00074616342 -0.00078086247 -0.81307566 0.094140127
631000000 -0.8094759 0.10033644 -0.00090171548 -0.0019928899 -0.0012151821 -0.0015456086 -0.81168139 0.093456328
632000000 -0.80922228 0.10201333 0.00048108166 -0.0017855847 -0.00035968237 -0.0014489408 -0.81386453 0.094125979
633000000 -0.80907786 0.10122297 -0.00093106768 -0.0024486389 0.0004933353 -0.00090030354 -0.81152022 0.094220303
634000000 -0.8101216 0.1031957 -0.00052353193 -0.0022774544 -0.00061924674 -0.0012291602 -0.81205583 0.093792304
635000000 -0.81028897 0.1019921 -0.00014830656 -0.0017959141 -0.00068758341 -0.00092702801 -0.8124131 0.094164751
636000000 -0.80917174 0.10230742 -0.00068280724 -0.0015053755 -0.00031371412 -0.0015124033 -0.81313604 0.094968639
637000000 -0.81053197 0.10188163 -0.00088317308 -0.0010217988 -0.00028866762 -0.0016633857 -0.8113215 0.094201148
638000000 -0.80866021 0.10171008 -6.3585401e-005 -0.0019153331 -0.00064730301 -0.0023534275 -0.81250006 0.094750687
639000000 -0.8100906 0.10335092 4.6612964e-005 -0.0013093622 4.3132608e-005 -0.0017803031 -0.81261927 0.095623769
640000000 -0.81041449 0.10352419 -0.00094287033 -0.0021759013 -0.00010508028 -0.0011853097 -0.8122853 0.094742447
641000000 -0.80955696 0.1030584 -0.0010288244 -0.0016428797 -0.00045493923 -0.0019426108 -0.81133783 0.094827786
642000000 -0.80961639 0.10397343 -0.00051929697 -0.0020904464 -0.0011757537 -0.0014256407 -0.81249195 0.095470309
643000000 -0.80930758 0.10478804 -0.0012289739 -0.0029784369 -0.0009234756 -0.0014945401 -0.81132489 0.095176332
644000000 -0.80953199 0.10420621 -0.00049907644 -0.00202221 -0.00048520003 -0.0015215259 -0.81108618 0.09584263
645000000 -0.80951971 0.10440408 0.0004728623 -0.00197948 -0.0001792401 -0.00097735086 -0.81245613 0.09648288
646000000 -0.80974048 0.10314531 0.00026236867 -0.0018664658 -0.00078314805 -0.0020489993 -0.81300455 0.096961983
647000000 -0.81023139 0.10362592 -0.00033358822 -0.001489116 -7.5353717e-005 -0.00041322559 -0.81270397 0.095059991
648000000 -0.80789536 0.10328528 -9.1402173e-005 -0.0017843214 -0.0002139671 -0.0027469115 -0.81237912 0.095460556
649000000 -0.81032866 0.10366338 -0.00068059098 -0.0026835904 -6.2435982e-005 -0.0020122719 -0.81255758 0.097274125
650000000 -0.80854774 0.105032 -2.8906545e-005 -0.0011712878 0.00057042344 -0.00081275654 -0.81145608 0.098022893
651000000 -0.80983573 0.10426274 -0.00090687047 -0.0018361544 0.0005700388 -0.0020242208 -0.81268412 0.096232101
652000000 -0.80937028 0.10378404 -0.00051715004 -0.0020751788 -0.0014406812 -0.0023239162 -0.81169599 0.096133292
653000000 -0.80911982 0.10704902 -0.0005112082 -0.0025843468 -0.00058960379 -0.000984299 -0.81214786 0.095646821
654000000 -0.80794567 0.10678863 -0.0011167933 -0.0021981553 -0.00066756364 -0.0010448525 -0.81291443 0.097463906
655000000 -0.8082698 0.1057742 -7.9792859e-005 -0.0022713658 -0.00031192091 -0.0013730255 -0.81116205 0.098915651
656000000 -0.80938745 0.10561825 -0.00057506928 -0.0018785059 -0.0003170369 -0.0020992113 -0.81267089 0.096932776
657000000 -0.80897462 0.10564241 0.00038315586 -0.0018667101 -0.00041401986 -0.001174967 -0.81227672 0.098661564
658000000 -0.80974901 0.1059407 -0.00044465804 -0.0021938568 9.8256292e-005 -0.003080606 -0.81145465 0.097541079
659000000 -0.80876279 0.10601582 -0.00061489607 -0.0021448797 -0.00044085807 -0.0013700051 -0.81197923 0.098806277
660000000 -0.80878651 0.10651407 -0.00013763344 -0.0014381936 -0.00095929741 -0.0024053191 -0.81212968 0.097301409
661000000 -0.80872214 0.10476387 -0.00076110795 -0.0029536658 -0.0013017808 -0.002312501 -0.8123045 0.098732233
662000000 -0.80892164 0.10672409 0.00051249453 -0.0024180675 0.00062892726 -0.00095757341 -0.81244326 0.097416863
663000000 -0.80880558 0.10628802 -0.00042075617 -0.0010294743 -0.00042280182 -0.0016358108 -0.81139672 0.098040298
664000000 -0.80863196 0.10635463 -0.0002096731 -0.001792123 -0.00052631955 -0.0012260514 -0.8113578 0.097891942
665000000 -0.80828273 0.10601537 6.0091053e-005 -0.0020036171 -0.00021728275 -0.0014107401 -0.8112306 0.098026805
666000000 -0.80856681 0.10745666 -0.0012927999 -0.0028462042 -0.00086856139 -0.0017014463 -0.81232649 0.098892257
667000000 -0.80938107 0.10697155 0.00020756877 -0.0025740101 -7.4510121e-005 -0.00091540738 -0.812383 0.097647592
668000000 -0.81156045 0.10630938 -0.0001838209 -0.0017949316 -8.7453454e-006 -0.0011005603 -0.81269246 0.099105239
669000000 -0.80889064 0.10695822 0.00013968206 -0.0012948193 -0.00056318025 -0.0014050948 -0.81098431 0.099588677
670000000 -0.8078081 0.10683653 0.00053247774 -0.0020574944 -0.00064201385 -0.0015665931 -0.81161541 0.09982463
671000000 -0.80896753 0.10705809 0.00099456252 -0.0010477896 0.00056845974 -0.0011395765 -0.81147373 0.099192277
