!Keysight Technologies,M9374A,MY55442783,A.12.55.05
!Date: Thursday, May 20, 2021 18:33:43
!Correction: S11(Full 2 Port(1,2)) 
!S21(Full 2 Port(1,2)) 
!S12(Full 2 Port(1,2)) 
!S22(Full 2 Port(1,2)) 
!S2P File: Measurements: S11, S21, S12, S22:
# Hz S  RI   R 50
500000000 -0.81224364 0.085133329 -0.00014292933 -0.0022264596 0.00082311349 -0.0012856628 -0.8126477 0.078402512
501000000 -0.81250393 0.083859563 -0.00014612442 -0.0010060056 -0.00051577931 -0.0012486603 -0.81375498 0.07859841
502000000 -0.81296164 0.085479327 0.00049243611 -0.0025437477 0.00071120326 -0.0014758077 -0.81325936 0.078860469
503000000 -0.81171066 0.08342766 7.7401637e-006 -0.0020239751 -0.0012373631 -0.0019198167 -0.81243986 0.078239776
504000000 -0.81114358 0.085339963 0.00019640845 -0.0020817851 -0.00055432564 -0.0022946703 -0.81312168 0.077565439
505000000 -0.81163651 0.084581234 5.1097777e-005 -0.00071144098 -0.0014591705 -0.00082476385 -0.81277645 0.079017922
506000000 -0.81066239 0.08614371 -0.0014097072 -0.0010589964 0.00033764297 -0.0026645805 -0.81231147 0.078823961
507000000 -0.8110829 0.086780578 -0.0008917136 -0.0010305892 0.00041879778 -0.0009515069 -0.812783 0.080378398
508000000 -0.81099498 0.085307397 -0.00035731524 -0.00065456389 0.00011778871 -0.00075223058 -0.81271619 0.080944896
509000000 -0.81064439 0.086884417 -9.1308117e-005 -0.00041272916 -0.0011471063 -0.0015320146 -0.81175137 0.081482463
510000000 -0.81107754 0.086219877 -0.00022420494 -0.0010488553 -0.0005760137 -0.00093131466 -0.81291538 0.080442019
511000000 -0.81277603 0.087249875 8.3702682e-005 -0.0013914098 0.00012973072 -0.0011517574 -0.81106269 0.079300627
512000000 -0.81100237 0.086408734 0.00043599671 -0.00086936419 0.00033481148 -0.0017734428 -0.81284779 0.081700228
513000000 -0.810803 0.086562149 -0.00077595934 -0.0019299084 -0.00048062368 -0.0022352203 -0.81324232 0.080024123
514000000 -0.81129336 0.086371042 9.0018868e-005 -0.00079071621 -0.0013979451 -0.0016583625 -0.81272179 0.082875349
515000000 -0.8109917 0.087622121 0.00063920737 -0.001425436 0.00014856957 -0.0017583441 -0.81338573 0.081639536
516000000 -0.81291616 0.08676856 -0.0013025844 -0.00031087425 0.00038011326 -0.00057843246 -0.81226128 0.081701659
517000000 -0.81201011 0.087786973 0.00061910792 -0.0026622706 -0.00016705415 -0.0012362844 -0.81268495 0.081487402
518000000 -0.81174016 0.087296017 -0.00085345382 -0.0009792007 0.0012602722 -0.00078671519 -0.8144682 0.08251904
519000000 -0.81100976 0.087832935 -0.00035657949 -0.001220132 6.8678428e-006 -0.00043239573 -0.81153113 0.084083505
520000000 -0.81254447 0.087593831 -0.00078915118 -0.0011130043 -5.57167e-005 -0.0024268229 -0.81189877 0.082778379
521000000 -0.80847448 0.089058451 -0.0011832491 -0.0010866617 0.00051886408 -0.00083671708 -0.81099629 0.084305532
522000000 -0.81189013 0.090466648 -0.0006931572 -0.00049461838 -0.00049177423 -0.0010302308 -0.81291515 0.084030733
523000000 -0.81074017 0.088150799 -0.00088644336 -0.0018776223 -0.00012580994 -0.0015196351 -0.81298012 0.082668371
524000000 -0.81181747 0.089419588 -0.00021117103 -0.0011929788 0.00016718572 -0.0018825838 -0.81335551 0.084264494
525000000 -0.81090432 0.089683726 -0.00053728517 -0.0018560509 0.00021305068 -0.00072305294 -0.81286597 0.08338993
526000000 -0.81080383 0.089090928 0.00029992475 -0.0007327295 0.00033413651 -0.00099066156 -0.81228298 0.082828842
527000000 -0.81164432 0.090284705 0.00074495125 -0.0026090462 -0.00047353926 -0.00062536914 -0.81316084 0.084887311
528000000 -0.81152147 0.089394301 0.00046379134 -0.0014739562 -0.00081873708 -0.00079772971 -0.81057763 0.083035283
529000000 -0.81148213 0.090183064 0.00016147913 -0.0019468283 -0.00043054592 -0.0011372495 -0.81274587 0.084216386
530000000 -0.81148607 0.090473525 0.00059501798 -0.0014652751 -0.00062082795 -0.0013263199 -0.81220293 0.08463759
531000000 -0.81263793 0.090478547 -0.00027321011 -0.0024285337 -0.00074787211 -0.0010535094 -0.81218445 0.083299756
532000000 -0.810045 0.091813706 2.7056452e-005 -0.00094222388 -0.00025244485 -0.0023351852 -0.81175137 0.084480137
533000000 -0.81174541 0.091114782 -0.00021993385 -0.00064131519 -0.00084411912 -0.0014986834 -0.81145972 0.085026816
534000000 -0.81290334 0.090005748 -0.00044366569 -0.00164691 -0.00011057628 -0.0012133874 -0.81314921 0.084860712
535000000 -0.81161582 0.091422103 -0.0004445838 -0.0021757076 -0.00018596437 -0.0015996915 -0.81051767 0.0848324
536000000 -0.81125182 0.090344109 0.00050689635 -0.0010362286 0.00028697093 -0.00071141362 -0.81150144 0.085426427
537000000 -0.81000596 0.091344111 -1.7932425e-005 -0.0025970798 -0.00054146466 -0.0012535111 -0.8125841 0.086130276
538000000 -0.80991864 0.091757134 -9.8749573e-005 -0.00064169808 -0.00041955756 -0.0020346744 -0.81193215 0.084726796
539000000 -0.81144512 0.09167894 -0.00089907146 -0.0015598036 0.00084467186 -0.001556289 -0.81179732 0.085744143
540000000 -0.81017339 0.089951359 1.997827e-005 -0.0016743133 -0.00069423154 -0.0011758264 -0.81258708 0.085845955
541000000 -0.81007111 0.092774749 0.00033451337 -0.00068254856 -0.00010552741 -0.0011095895 -0.81208158 0.08586207
542000000 -0.80991727 0.090689711 0.001185887 -0.0011524969 5.6479716e-005 -0.0013137606 -0.8116883 0.085811988
543000000 -0.81004053 0.090731204 -0.00023229269 -0.0020830939 0.00050479098 -0.0022622284 -0.81100893 0.086621635
544000000 -0.81121528 0.092429675 -0.0009336088 -0.002573455 -0.00083175296 -0.0027873579 -0.81503564 0.085653163
545000000 -0.81245571 0.092297509 -0.00038837269 -0.00038440037 0.0007166196 -0.0020191292 -0.81217718 0.087559909
546000000 -0.81140554 0.092585981 0.00026673006 -0.0021140988 -0.00069846632 -0.0012290339 -0.81114399 0.086332545
547000000 -0.81057698 0.092127867 -0.00046798639 -0.00081622216 -0.00016068091 -0.001630789 -0.81119561 0.088123821
548000000 -0.8106519 0.093448304 0.0006321214 -0.0017679589 0.00073036284 -0.001131761 -0.81189042 0.088292383
549000000 -0.80991215 0.093604997 -0.00047928203 -0.0016038249 -0.00045049808 -0.00093465694 -0.81189114 0.08830864
550000000 -0.81164169 0.091724522 0.00012252477 -0.0012581656 -0.0010009399 -0.001241943 -0.81244874 0.08669316
551000000 -0.81067789 0.093343921 0.00011934061 -0.001931925 -0.00042575621 -0.0013336331 -0.81311709 0.087154493
552000000 -0.81114948 0.091680326 0.00023200075 -0.0021517288 0.0010616948 -0.0010657252 -0.8123548 0.087723166
553000000 -0.80976981 0.093174919 -0.00078779866 -0.0018999606 -0.00011444335 -0.00085868966 -0.81185049 0.087163724
554000000 -0.8097744 0.092098892 0.00026326897 -0.00092538533 -0.00077065447 -0.0010703385 -0.81252402 0.087958351
555000000 -0.81027406 0.0928436 -0.00056078983 -0.0011458212 0.00030275004 -0.00094984402 -0.81226128 0.087843619
556000000 -0.81201959 0.092381366 0.00092230405 -0.0024542857 -0.00024705086 -0.001529193 -0.81352246 0.088139601
557000000 -0.8106851 0.093048953 0.0001087581 -0.0020115632 -0.00047863656 -0.0012388092 -0.81094158 0.089159839
558000000 -0.81064695 0.093421206 -3.085161e-005 -0.00014886985 0.00066690525 -0.0018798994 -0.81238055 0.088330753
559000000 -0.8104226 0.093321174 -0.00067716581 -0.0024788214 -0.00028599123 -0.00085125328 -0.8118462 0.086998522
560000000 -0.8108204 0.094312452 -0.0013143993 -0.0012728481 -0.00048769897 -0.0022372722 -0.8108263 0.089568369
561000000 -0.81119591 0.094809212 -0.00042670802 -0.0011833791 -0.00074707682 -0.00074448826 -0.81223786 0.088907458
562000000 -0.81135195 0.094620883 -0.00089186744 -0.0015049995 -0.00041744678 -0.00147905 -0.81193358 0.08862301
563000000 -0.81125277 0.093055509 0.00027215015 -0.0012113987 0.00078439416 -0.0015056011 -0.81215471 0.0900978
564000000 -0.80971837 0.093945064 -0.00021817404 -0.0012206166 -0.00018303258 -0.0013585606 -0.81160015 0.088637933
565000000 -0.81065363 0.09449669 1.9753912e-005 -0.0010372204 0.00019696385 -0.0013531409 -0.81299937 0.088508584
566000000 -0.81037748 0.094656579 -0.00036468462 -0.0014708005 -0.0001119334 -0.00086050748 -0.81215155 0.088562109
567000000 -0.81024289 0.093428642 -0.00038680565 -0.001321951 -0.00026596835 -0.0013799141 -0.8118493 0.086612083
568000000 -0.81092477 0.095384575 -3.7164184e-005 -0.0021956789 -0.0010201688 -0.0010558048 -0.81208974 0.087056801
569000000 -0.81108081 0.093697034 -0.0011335834 -0.0016710801 -0.00034243392 -0.0016717976 -0.81146628 0.088934042
570000000 -0.81004244 0.0939871 0.00066434097 -0.0018122201 -0.0008118219 -0.0016920079 -0.81123126 0.088349253
571000000 -0.80946457 0.094479106 0.00045468783 -0.0010806679 7.3529991e-006 -0.0010721334 -0.81102014 0.091210216
572000000 -0.80924028 0.095582642 -0.00083624496 -0.0010440233 -0.00065640098 -0.0012811543 -0.81141645 0.090668842
573000000 -0.81046641 0.095054448 0.00017748702 -0.00053847284 -2.7732092e-005 -0.0019975672 -0.8128916 0.09080822
574000000 -0.80941504 0.095510945 -0.00025837068 -0.0013951579 -0.00078023307 -0.0019938601 -0.81255358 0.089951836
575000000 -0.8103494 0.095955007 -0.00029583077 -0.001708031 0.00036757847 -0.00088211463 -0.81329352 0.090988986
576000000 -0.8105498 0.09548559 -3.0313113e-005 -0.0016141353 -0.0011553699 -0.00091841526 -0.81160772 0.091487475
577000000 -0.80960929 0.095300384 -0.0005594957 -0.0018965765 0.0001441132 -0.0029978049 -0.81129587 0.090292186
578000000 -0.81031424 0.096208096 -0.0003692793 -0.0021151393 0.00029218473 -0.0010962444 -0.81199998 0.090457797
579000000 -0.80947363 0.096653186 -0.00035220565 -0.0025078696 -6.8511006e-005 -0.0014033176 -0.81235945 0.090998217
580000000 -0.80993515 0.095711946 -0.00034277025 -0.0019578768 -0.00039981047 -0.0011823538 -0.81276232 0.088990331
581000000 -0.81056565 0.094899043 3.8934402e-005 -0.0016231188 -4.6465797e-005 -0.0017176552 -0.81174117 0.091053784
582000000 -0.80815035 0.096935175 0.00080634322 -0.0011628835 -0.00066326256 -0.0017416709 -0.81261075 0.090488873
583000000 -0.8104313 0.096560389 -0.00028859716 -0.0011502436 -0.00069880777 -0.0014688208 -0.81087267 0.091852233
584000000 -0.81072503 0.096406803 0.00039511573 -0.0016766345 -0.00056096859 -0.00099776976 -0.81054509 0.091512851
585000000 -0.81030184 0.0972578 -0.00043613219 -0.0017845045 0.00078307779 -0.0013753019 -0.81145573 0.091850609
586000000 -0.81027263 0.096594453 -0.0011669841 -0.00075469218 -0.00044649874 -0.00097680662 -0.81118363 0.0908871
587000000 -0.8088336 0.098249897 -0.00011296451 -0.001558095 -0.00091078214 -0.0015321188 -0.80977857 0.091216043
588000000 -0.80796307 0.097871661 0.00054603862 -0.0014762857 0.00061390147 -0.0019280014 -0.81100661 0.091916054
589000000 -0.8100071 0.097215995 0.00016359155 -0.0020495059 -7.1984919e-005 -0.0022240989 -0.81165135 0.093531534
590000000 -0.80929554 0.098020688 0.00058278919 -0.0015526055 -0.001289781 -0.0012266538 -0.80938017 0.090370558
591000000 -0.80966705 0.096953854 -0.0013790764 -0.003142826 -0.00082637195 -0.0012713594 -0.81118298 0.092426933
592000000 -0.81073129 0.09759894 0.00043316878 -0.0012478809 -0.00094919367 -0.00046447371 -0.81027073 0.091648944
593000000 -0.80912727 0.09927053 0.0002412446 -0.0015093843 -0.00112899 -0.0014603996 -0.81152064 0.091782995
594000000 -0.8098157 0.097042821 -1.8431576e-005 -0.0015485984 -0.0013190091 -0.00060652243 -0.81164604 0.092731282
595000000 -0.80853337 0.098222129 -0.00052744616 -0.0019986539 -0.00075483916 -0.0024862743 -0.81258196 0.09445072
596000000 -0.80850613 0.099224471 0.00010186163 -0.00092514348 0.00024504177 -0.0021412049 -0.81107199 0.094339028
597000000 -0.80900562 0.099686489 5.1266878e-005 -0.0011868835 0.00031575261 -0.00078502396 -0.8103407 0.093583539
598000000 -0.80889177 0.099614814 -0.00034057349 -0.001669824 -8.1753875e-005 -0.00081033335 -0.81159973 0.093730345
599000000 -0.81005472 0.099336728 -0.00075925142 -0.0013639128 0.00045317443 -0.003157499 -0.81226516 0.092745624
600000000 -0.80841595 0.099956729 -0.00050094433 -0.00089690887 -0.00063044345 -0.0021648295 -0.8120234 0.093656331
601000000 -0.81051886 0.10063764 -0.00038855796 -0.0021110491 -0.00099224318 -0.0017128094 -0.81101573 0.093626991
602000000 -0.80912918 0.10103528 0.00048526959 -0.0015476891 -0.0016893626 -0.0013277959 -0.8119151 0.095346659
603000000 -0.81132317 0.10079674 -0.00062793883 -0.0013882398 -0.00063864799 -0.0015106581 -0.81134653 0.09546721
604000000 -0.80932796 0.099608667 -0.00017242778 -0.00072295178 3.9824932e-005 -0.0010839729 -0.81098121 0.094719775
605000000 -0.80979776 0.10148858 -0.00016114452 -0.0023604573 -0.00016449437 -0.0018035473 -0.81123352 0.093309551
606000000 -0.80894041 0.10103656 -0.00021292301 -0.0010770004 -0.00034091921 -0.0013579538 -0.81165957 0.09407901
607000000 -0.80966616 0.10166677 -0.00055170187 -0.0018112431 -0.00011270391 -0.00091677118 -0.81228048 0.094629832
608000000 -0.81009817 0.1026883 -0.0010849802 -0.0017061569 0.00032652714 -0.001677776 -0.81108463 0.095377073
609000000 -0.80816811 0.099635422 6.3302497e-005 -0.0015391386 3.207699e-005 -0.00086672138 -0.80958468 0.096283264
610000000 -0.80758941 0.10193793 4.5719866e-005 -0.0014535076 -0.00089202449 -0.00090832438 -0.81089735 0.096482381
611000000 -0.80800223 0.10176282 0.00031993695 -0.0020571263 2.1893165e-005 -0.002082936 -0.80996859 0.096296728
612000000 -0.80870891 0.10236891 0.00047759613 -0.0016291623 -0.001750572 -0.0015991876 -0.8117674 0.093893506
613000000 -0.80864447 0.10384682 -0.00044899227 -0.001876356 1.9352372e-005 -0.0023467196 -0.80974066 0.096387491
614000000 -0.80853224 0.10326758 0.0003770311 -0.0021517985 0.00031939452 -0.0027328304 -0.81063861 0.097261928
615000000 -0.80903566 0.10228859 0.0010980247 -0.0014943071 -0.00021655059 -0.0020697049 -0.81118661 0.096857503
616000000 -0.80901772 0.10369153 -0.00053763582 -0.0022224723 0.00042514305 -0.0019928121 -0.81011277 0.098199777
617000000 -0.80941856 0.10351681 -0.0002707988 -0.0026336994 -0.00060663553 -0.0023600012 -0.81019288 0.097241804
618000000 -0.80824912 0.10255069 -0.00153458 -0.0019308225 -0.00033649511 -0.0014219576 -0.81073087 0.096635468
619000000 -0.80796635 0.10425454 -0.00082392967 -0.00098211551 -0.00053359458 -0.0014318872 -0.81141877 0.096587971
620000000 -0.8082062 0.10472766 -0.00044777602 -0.0023871507 0.00087688828 -0.003087766 -0.80921113 0.097311325
621000000 -0.80999249 0.10301852 -1.9197036e-005 -0.001040049 -0.0007226023 -0.0029283667 -0.81022537 0.096467525
622000000 -0.80953878 0.10420422 0.00058786402 -0.0013766191 -0.00057298917 -0.0026232554 -0.81066543 0.096871614
623000000 -0.80812079 0.10543456 -0.00050717872 -0.002370294 -0.00024761894 -0.0015528939 -0.81125206 0.099364318
624000000 -0.80851406 0.10396091 -0.00048695461 -0.0020511369 -0.0012149322 -0.0015021134 -0.81120932 0.098837085
625000000 -0.80784857 0.10581147 -0.00036706321 -0.0015833044 0.00077264174 -0.0020553921 -0.81010878 0.09775041
626000000 -0.80963582 0.10459389 -0.0006132875 -0.0018951171 -0.00048130544 -0.0019109618 -0.80941761 0.098781891
627000000 -0.80876333 0.10628673 -0.00021744799 -0.0015738076 -0.00092300546 -0.0019646182 -0.80902028 0.098044798
628000000 -0.80767566 0.10607506 0.00047309068 -0.0025969506 -0.00051989598 -0.002189666 -0.81109375 0.099933915
629000000 -0.80827594 0.10873107 0.00038603603 -0.0022401614 -0.00059497525 -0.002830595 -0.80994004 0.099560797
630000000 -0.80881661 0.1060877 -0.00014257173 -0.00095653761 4.9708979e-005 -0.0022355686 -0.80940324 0.10042362
631000000 -0.80903125 0.10664968 -9.05548e-005 -0.002318861 -0.00084662944 -0.00098686351 -0.81053472 0.1001117
632000000 -0.80910605 0.10732876 0.0004532008 -0.0012218487 -0.0009148157 -0.0020513823 -0.80921578 0.099052802
633000000 -0.80902487 0.10831153 -0.0014822541 -0.0023472304 0.00028407489 -0.0018741231 -0.81011409 0.097685188
634000000 -0.8076582 0.10790331 -7.6621167e-005 -0.0015976082 0.001016355 -0.0011109337 -0.80986977 0.1004022
635000000 -0.80811751 0.10703871 -0.00041280632 -0.0020186547 -0.00023820721 -0.0018430243 -0.81003261 0.10063119
636000000 -0.80722785 0.10763666 -3.5910209e-005 -0.0014108324 -0.00011120813 -0.0017834884 -0.81256324 0.099649213
637000000 -0.80832148 0.10738878 0.00038295746 -0.0018480716 -0.00029602973 -0.001857668 -0.80862957 0.10014326
638000000 -0.80819005 0.10842728 0.00013199657 -0.0018329165 -0.0002893176 -0.0013069519 -0.80902928 0.10048321
639000000 -0.8081392 0.10861488 0.00031905013 -0.0018143221 0.00018815392 -0.0013896797 -0.81028157 0.10063417
640000000 -0.80762917 0.10876101 -0.00045911773 -0.002102335 -0.0005235399 -0.00097261614 -0.8096115 0.10014138
641000000 -0.80847901 0.10866622 0.00041685652 -0.00071123772 0.00024760992 -0.0014591953 -0.80843782 0.10058472
642000000 -0.80759758 0.10905442 1.0247384e-005 -0.0017295816 -0.00029323914 -0.0016752883 -0.81053764 0.10142403
643000000 -0.80690849 0.10760895 -0.00097169285 -0.001897377 -0.00034605063 -0.0015533766 -0.80989993 0.10113707
644000000 -0.80772281 0.10899457 0.00023871071 -0.001896705 -0.0012529203 -0.001490312 -0.81115317 0.10309931
645000000 -0.80791402 0.10772357 -0.00035940594 -0.002045349 -0.00057172281 -0.0016388751 -0.81091875 0.10209186
646000000 -0.80713111 0.1103254 -0.00045434822 -0.0019044657 -0.00087497086 -0.0015393749 -0.80843234 0.10168549
647000000 -0.80828434 0.10964668 -0.0011437881 -0.0018382306 0.00010461416 -0.0015466267 -0.81055444 0.10303777
648000000 -0.80691963 0.11036538 -0.00042258709 -0.0016091901 -0.0004608522 -0.0018502362 -0.80984092 0.10234202
649000000 -0.80929941 0.11092933 -1.81632e-005 -0.0006256717 -0.00060771441 -0.002531602 -0.81015772 0.10261499
650000000 -0.80678713 0.11057001 -0.00075644825 -0.0018283655 0.00028998867 -0.001631649 -0.80988657 0.10295814
651000000 -0.80900121 0.11056897 -0.00042130519 -0.002088778 -0.00052149617 -0.0015073032 -0.81033671 0.10271996
652000000 -0.80826193 0.11127885 -0.00047555653 -0.0023670702 0.00020791555 -0.0016249096 -0.80962515 0.10412918
653000000 -0.80744916 0.11266226 -0.0012196489 -0.0014467562 -0.00027709274 -0.0011524777 -0.80937386 0.10269148
654000000 -0.80683732 0.1124763 0.00012440556 -0.0017642685 3.8129867e-005 -0.0021833132 -0.81055623 0.1024644
655000000 -0.80798167 0.11154975 -0.00046758959 -0.0019661635 -0.00077544991 -0.001672329 -0.80995435 0.10380571
656000000 -0.80821258 0.11167127 0.0001314524 -0.0013704468 -0.0001998607 -0.0011393433 -0.80986696 0.10301396
657000000 -0.80980849 0.11171123 -0.00018753164 -0.0030227539 -0.00069526391 -0.0015884411 -0.80994552 0.10267553
658000000 -0.80872357 0.11160998 0.00025480951 -0.0021184231 -0.00072492362 -0.0019636846 -0.81134617 0.10235508
659000000 -0.80689681 0.11195052 0.00012977222 -0.0020406754 8.0854043e-005 -0.0018750723 -0.81004035 0.10340141
660000000 -0.8070851 0.11297817 -0.0010989547 -0.0017615827 -0.00051605719 -0.0011809954 -0.80992544 0.10347212
661000000 -0.80686736 0.11244477 -0.00024963965 -0.0014081509 -0.00089634606 -0.0023948224 -0.8085916 0.10315236
662000000 -0.80637932 0.11216973 -0.0011103448 -0.001976558 -0.0012747078 -0.0014241787 -0.81166738 0.1039829
663000000 -0.80853999 0.11100601 -0.00067887816 -0.0012402481 -0.00031936486 -0.0022583713 -0.80959934 0.10317424
664000000 -0.80771381 0.11275663 0.00058078358 -0.0014983484 -0.00024923921 -0.00086402561 -0.81002206 0.10576402
665000000 -0.80833513 0.11383202 -0.0005345082 -0.0027202172 -0.00091088575 -0.001822448 -0.81029087 0.10573536
666000000 -0.80836171 0.11279546 -0.00061977486 -0.0010949847 -0.00051261176 -0.0027527583 -0.81157029 0.10545511
667000000 -0.80710799 0.11292851 -0.00093334733 -0.001477613 -0.0002978906 -0.0012749848 -0.80968583 0.10248544
668000000 -0.80702776 0.11197306 -0.00029721344 -0.0020060795 -0.0008171926 -0.0025569887 -0.8102358 0.10391995
669000000 -0.8068583 0.11282308 -0.0001172409 -0.0022026871 -0.00082836533 -0.0018655151 -0.80879498 0.10507507
670000000 -0.80751669 0.11214186 -0.00037498944 -0.0022185487 -0.00038393339 -0.0024178249 -0.80865753 0.10558487
671000000 -0.808541 0.11247669 -0.00049287418 -0.0013948904 -0.00021755646 -0.0027948762 -0.80957341 0.10329712
672000000 -0.80834734 0.11220691 -0.00090144365 -0.001173513 0.00029787925 -0.0013104479 -0.80873549 0.10414909
