!Keysight Technologies,M9374A,MY55442783,A.12.55.05
!Date: Thursday, May 20, 2021 18:49:55
!Correction: S11(Full 2 Port(1,2)) 
!S21(Full 2 Port(1,2)) 
!S12(Full 2 Port(1,2)) 
!S22(Full 2 Port(1,2)) 
!S2P File: Measurements: S11, S21, S12, S22:
# Hz S  RI   R 50
500000000 -0.81437224 0.081216179 -0.0012468284 -0.0012148753 -0.0012231674 -0.0018247608 -0.81451553 0.075698614
501000000 -0.81333411 0.080178402 -0.00023309418 -0.00099267019 0.00015940632 -0.0018098142 -0.81384337 0.074148931
502000000 -0.81324118 0.080741175 -0.00048130838 -0.0012762508 -0.00017200751 -0.0013052941 -0.81260169 0.075757205
503000000 -0.81199247 0.081719361 -0.00027281942 -0.00075960043 -0.00054256973 -0.0014433672 -0.81340563 0.076027177
504000000 -0.81308812 0.080843568 0.00083939388 -0.0019243753 -0.00064354466 -0.00013342772 -0.81492788 0.075046524
505000000 -0.81223083 0.081758484 8.0459671e-005 -0.0010095675 -0.0012473728 -0.00070806307 -0.81470823 0.076203123
506000000 -0.81219959 0.080911614 -0.00056907313 -0.0023492563 0.0001338353 -0.0014420022 -0.81446296 0.075942189
507000000 -0.81240016 0.08246778 0.00087085145 -0.0012896708 -0.00038331808 -0.0019448256 -0.81352264 0.076950625
508000000 -0.81078964 0.083801664 0.00021886939 -0.0018588753 0.00021948552 -0.0010211668 -0.81525832 0.075971335
509000000 -0.81189841 0.083322041 -0.0008038102 -0.0014802986 -0.00098652637 -0.0013806055 -0.81431627 0.076701894
510000000 -0.81061816 0.084852926 0.0007286974 -0.0020330504 -0.0012596505 -0.0021062379 -0.81405944 0.075136408
511000000 -0.81117064 0.084513441 0.00062986882 -0.0019741873 -0.00073458726 -0.0013925486 -0.81314319 0.077564545
512000000 -0.81187057 0.082004271 -0.00017473895 -0.0010062996 -0.00015144538 -0.0013615127 -0.81555325 0.077248
513000000 -0.81151259 0.083740845 -0.00045410881 -0.0010673398 -2.2796263e-005 -0.0015280321 -0.81376791 0.077169873
514000000 -0.81152433 0.08396858 0.00014634256 -0.00051340088 -0.00034438938 -0.00013880141 -0.81333309 0.078546509
515000000 -0.81148106 0.084449112 -0.00063412485 -0.0020094367 -0.00092954701 -0.0022356501 -0.81386846 0.078373641
516000000 -0.81142092 0.084374033 0.00037440762 -0.0021004444 -0.00059102091 -0.00055812183 -0.81362402 0.07776019
517000000 -0.81094122 0.08569628 -0.00071477285 -0.0002923409 7.0187627e-005 -0.0014854865 -0.81495935 0.077247344
518000000 -0.81284183 0.085102007 -1.0083385e-005 -0.001339116 -0.00030331447 -0.0017978994 -0.81301934 0.078496985
519000000 -0.81211048 0.083900228 -0.0011854827 -0.0020929992 -0.00076982216 -0.0019831185 -0.81359637 0.080062672
520000000 -0.81121933 0.08417967 -0.0005545725 -0.0013005382 -0.00044161358 -0.00098573195 -0.81400764 0.078568362
521000000 -0.81229252 0.084998019 -0.00070374203 -0.0024248622 -0.00047596983 -0.0018647083 -0.81432366 0.080298588
522000000 -0.81481308 0.084948309 0.00010258536 -0.001647423 -0.00050156465 -0.0016104018 -0.81388426 0.078679904
523000000 -0.81212187 0.084268562 -0.000217768 -0.00077111891 -0.00058601832 -0.0017733906 -0.81323665 0.079103917
524000000 -0.80996943 0.086417869 0.00016699535 -0.0016786646 -0.0012053117 -0.0014339105 -0.81375211 0.081149288
525000000 -0.81196225 0.086112976 0.00063920434 -0.0013073497 0.00046612151 -0.0018158047 -0.81382835 0.081024945
526000000 -0.81338483 0.087198816 -0.0013011881 -0.0017772322 -0.00066843629 -0.001626929 -0.81374055 0.080359891
527000000 -0.81176096 0.087387249 0.00082064234 -0.0015064959 0.00107583 -0.0022583683 -0.814174 0.080729507
528000000 -0.81142551 0.086845048 0.00058659562 -0.0019588103 -0.00038090293 -0.00060508889 -0.81363267 0.08189214
529000000 -0.81330472 0.087328754 0.00041937915 -0.0013320895 0.00013340189 -5.363295e-005 -0.81222326 0.081662282
530000000 -0.81232983 0.087688833 -0.00069128099 -0.0018419246 0.0002288611 -0.0017342702 -0.81315476 0.081002153
531000000 -0.81177491 0.085769191 0.001017806 -0.0014735619 2.7908065e-006 -0.0016021127 -0.81627488 0.082097702
532000000 -0.81054115 0.087976135 -0.00016939797 -0.0013888858 -0.00025319849 -0.00092069682 -0.81336123 0.081038453
533000000 -0.81183952 0.087150015 0.00069914432 -0.0018122762 -0.00023979446 -0.0023731519 -0.81382978 0.081058949
534000000 -0.81314236 0.088650443 0.00024198617 -0.00060779694 0.00036298169 -0.0010809628 -0.81545192 0.082592241
535000000 -0.81211501 0.088098139 0.00045746355 -0.0016234275 -0.00066889706 -0.0013289747 -0.8117606 0.082270071
536000000 -0.81121361 0.086088888 -0.00091688224 -0.0025083884 -0.00037861106 -0.00163104 -0.81321496 0.082741842
537000000 -0.80988598 0.08801242 1.3647281e-005 -0.0024008439 -0.0010101127 -0.0012544749 -0.81407422 0.081905179
538000000 -0.81150174 0.088023931 -0.0007419305 -0.0024586455 0.00045855381 -0.0019260813 -0.81235784 0.083221838
539000000 -0.81183153 0.088277146 -0.00026081727 -0.0022789561 -0.00045433739 -0.0016021825 -0.81374002 0.08259844
540000000 -0.8111102 0.088129006 -0.00018757608 -0.0025660146 0.00079318834 -0.0010372379 -0.812895 0.082269736
541000000 -0.812392 0.087544732 0.00013169933 -0.0021172117 -0.00010204979 -0.00037199096 -0.81352985 0.083991326
542000000 -0.81123233 0.088069081 0.00049417216 -0.0016501686 -0.00019396139 -0.001837894 -0.81377894 0.082759164
543000000 -0.81197858 0.087404028 -0.00024062426 -0.002231743 0.00018363088 -0.0015415458 -0.81420016 0.081693374
544000000 -0.81027579 0.08851964 -0.00032095565 -0.0012197458 -1.8805955e-006 -0.00073727226 -0.81345242 0.084231451
545000000 -0.81266302 0.088671878 -0.00017763019 -0.0012912888 -0.00013091679 -0.001348893 -0.81397498 0.081947103
546000000 -0.81302798 0.088590376 -0.00042005666 -0.0014607483 -0.00050264748 -0.0020378355 -0.8115012 0.083825618
547000000 -0.8112728 0.088516466 6.1518796e-005 -0.00068341143 0.00017694753 -0.0020990737 -0.81303239 0.082710564
548000000 -0.81093121 0.087990716 -0.00019625828 -0.0025620703 -8.0675294e-005 -0.0021353324 -0.81478471 0.085543901
549000000 -0.81242478 0.090337798 -0.001542062 -0.0024108433 0.0005441478 -0.00082829728 -0.81312597 0.08292333
550000000 -0.81107551 0.089674093 0.00087206491 -0.0012005571 -0.00015519187 -0.0010969801 -0.81433398 0.084182292
551000000 -0.81234217 0.088141575 -0.00064451201 -0.0018549224 -0.00014370475 -0.0011030554 -0.81398523 0.084399149
552000000 -0.81068939 0.088312335 -0.00058182131 -0.0020677289 7.8669742e-005 -0.0013033253 -0.81285119 0.083336599
553000000 -0.81176299 0.088955358 0.0010046847 -0.001988916 -0.0010453908 -0.0021669248 -0.81395245 0.083198503
554000000 -0.8115465 0.088986307 -0.00089158176 -0.0011610474 -0.00042254725 -0.0017021542 -0.81375939 0.084818199
555000000 -0.81079865 0.089134522 -0.0010169675 -0.0010685101 -0.00042167149 -0.00103934 -0.8145026 0.084255487
556000000 -0.81212431 0.090226434 0.00030431966 -0.00063714659 0.00031620232 -0.0021512196 -0.81422782 0.085657321
557000000 -0.81141853 0.088758342 -0.00027615085 -0.0023924795 -4.1823507e-005 -0.0028413371 -0.81235504 0.084626995
558000000 -0.81291133 0.088686891 0.0006558536 -0.0016074345 -3.8189086e-005 -0.00095615204 -0.81408709 0.083836496
559000000 -0.81024462 0.090813234 -0.00081184367 -0.0020539011 -0.0007725826 -0.0014485839 -0.81437147 0.086893447
560000000 -0.81040835 0.090927593 -0.00019620266 -0.0022261967 -0.00014766068 -0.0010795566 -0.81388271 0.085099965
561000000 -0.81255537 0.091053642 6.5483138e-005 -0.0015379664 0.00069218443 -0.00089778105 -0.81133825 0.084647797
562000000 -0.81227106 0.088867813 -0.0014718589 -0.0012670523 -0.00089537422 -0.0013034458 -0.81416541 0.084182277
563000000 -0.81139553 0.091418333 0.00053253787 -0.00062114146 -0.0002965653 -0.0017509346 -0.81247455 0.085590169
564000000 -0.81180906 0.091073193 -1.6279366e-005 -0.0017828125 -7.7498757e-005 -0.00055382802 -0.81462842 0.084765077
565000000 -0.81098819 0.090806693 0.0011030446 -0.0018259101 -0.0010069547 -0.0019621057 -0.81245345 0.0837515
566000000 -0.80904311 0.090176538 -0.00030294817 -0.0013715706 5.7408e-005 -0.00042134785 -0.81330091 0.08547347
567000000 -0.81107974 0.090395615 -0.00036465231 -0.0014755027 0.00021451621 -0.0012011356 -0.81241059 0.084780484
568000000 -0.81179518 0.090365991 0.00034508554 -0.0018680746 -0.0010064725 -0.001434098 -0.81475407 0.086253837
569000000 -0.81063914 0.091686085 -0.0005491912 -0.0022788991 -0.0012394903 -0.0018110853 -0.81404114 0.085746653
570000000 -0.81215739 0.09116704 0.00059973757 -0.0014131437 9.905632e-005 -0.0019084573 -0.81405586 0.08570382
571000000 -0.81124121 0.091420934 -0.00076104823 -0.0022994739 0.00016120916 -0.000889524 -0.8143667 0.086419329
572000000 -0.80978274 0.091292746 -0.00030083919 -0.0015172136 -0.00029982906 -0.0015230565 -0.8135466 0.085276186
573000000 -0.81112456 0.091376945 -0.0010471699 -0.0014675609 -0.00045197795 -0.0024410717 -0.81347811 0.087471999
574000000 -0.81085932 0.090834051 -0.0012852371 -0.0021290598 -0.00083440507 -0.0014889333 -0.81295651 0.087632895
575000000 -0.81028301 0.091639079 -0.00011605523 -0.00063068984 -0.00043024469 -0.00097297196 -0.81435084 0.0880474
576000000 -0.81109875 0.09204331 -0.00068007794 -0.0024056451 -0.00018496398 -0.0027551271 -0.81251287 0.086008765
577000000 -0.81149673 0.091744922 -0.0014062847 -0.0021426135 -0.00020383453 -0.0024300879 -0.81440175 0.086647697
578000000 -0.81158227 0.09261059 -0.00073693611 -0.00039344025 -0.00077656127 -0.0012380816 -0.81291354 0.086492047
579000000 -0.81020242 0.091898419 4.7899184e-006 -0.0014677779 -1.6081904e-005 -0.0010749112 -0.8126961 0.08653871
580000000 -0.80975735 0.092234887 0.00078388152 -0.0017622346 -0.00012954412 -0.0012187458 -0.81365436 0.088568807
581000000 -0.81095791 0.090503864 0.0008704355 -0.0023133631 -0.00040679221 -0.0024339352 -0.81308252 0.086995989
582000000 -0.81033182 0.091526411 -0.0004118419 -0.0017203153 0.0002985051 -0.0015546064 -0.81397325 0.08766292
583000000 -0.81161678 0.092210613 0.00026950263 -0.001690128 -0.00056974945 -0.0018096326 -0.81361806 0.086695358
584000000 -0.80933559 0.093090057 -0.0005888645 -0.0015105854 -0.0010735441 -0.0019429522 -0.81242824 0.087566391
585000000 -0.80887944 0.091741271 -0.00038132467 -0.00093693298 -7.7526274e-005 -0.0011530875 -0.81254923 0.088395752
586000000 -0.81024975 0.093851283 -0.00082866865 -0.00166967 0.0003421671 -0.0013635991 -0.81228656 0.087378345
587000000 -0.8089031 0.094324604 0.00016613217 -0.0017735246 -0.0013292587 -0.0011270677 -0.8124103 0.088210292
588000000 -0.8089841 0.092975155 -0.0010810946 -0.0015091518 -0.00026936847 -0.0021283044 -0.81420404 0.086830579
589000000 -0.81082845 0.094933562 -0.00046797178 -0.0010334805 -4.7582442e-005 -0.0013813168 -0.81339365 0.088629499
590000000 -0.81052256 0.093084194 -0.0013526605 -0.0016152129 -0.0003520856 -0.00071679201 -0.81257087 0.087963775
591000000 -0.80970818 0.094050027 0.00026746359 -0.0023147578 -0.0011191119 -0.0017192779 -0.81238335 0.088037752
592000000 -0.81141549 0.093712986 -0.00044943785 -0.0014785983 -0.0007669183 -0.0018060417 -0.81482166 0.086985275
593000000 -0.81082314 0.092874713 -0.00097325334 -0.001326015 -0.0006873539 -0.0016412395 -0.8148073 0.090237387
594000000 -0.80899167 0.094534621 2.0546864e-005 -0.0029907806 -0.00069197849 -0.00061748887 -0.81450176 0.088471793
595000000 -0.81109118 0.095451638 -0.00067416666 -0.0019569616 -0.00035228991 -0.0011713542 -0.81461841 0.090826832
596000000 -0.80965286 0.094845936 -0.00057714671 -0.0022772455 -0.00042398417 -0.0011346837 -0.81151396 0.090109058
597000000 -0.81004131 0.095260583 -7.8620658e-005 -0.00176056 -0.0010556555 -0.0018644014 -0.81264919 0.088681035
598000000 -0.81094158 0.095451631 0.00042424834 -0.0022675113 -0.00028404116 -0.00095005846 -0.81396043 0.089984402
599000000 -0.81040621 0.094675265 -0.0014053495 -0.0016407844 -0.0011595892 -0.0016709571 -0.81216162 0.089129962
600000000 -0.81024098 0.097857483 0.00055362855 -0.0022270696 -0.0006059556 -0.0023937181 -0.81242222 0.089012668
601000000 -0.81040663 0.095421426 -0.00050899241 -0.0015082136 -0.00053200492 -0.0021442755 -0.8129921 0.089906931
602000000 -0.81090128 0.094590835 0.00027179092 -0.0021470389 6.5216591e-005 -0.0015411587 -0.81201345 0.090285845
603000000 -0.81047785 0.097365826 -0.00022504175 -0.0022850765 0.00034721274 -0.00099060952 -0.81165856 0.088711284
604000000 -0.80890805 0.095722422 4.6440666e-005 -0.0016719656 -0.0011652361 -0.0011896066 -0.81212819 0.092621624
605000000 -0.81112719 0.096337236 -0.00034839998 -0.0021112429 -0.00026768452 -0.0007326515 -0.81403428 0.092555322
606000000 -0.80967438 0.095256269 0.00030570885 -0.0019344565 -0.00027379862 -0.0020798461 -0.81269336 0.091044411
607000000 -0.81068611 0.097638063 0.00056329754 -0.0014467211 0.00081276312 -0.00095691707 -0.81202519 0.089461215
608000000 -0.81135553 0.098066412 -0.00074652914 -0.00069720839 -0.00033701747 -0.0014976982 -0.81170267 0.091483451
609000000 -0.81027156 0.097645983 -0.0010816136 -0.00053394458 -0.00010621228 -0.0019947563 -0.81244195 0.091763884
610000000 -0.80769664 0.098512322 -0.00036026668 -0.0016785947 -0.00098778319 -0.0019704995 -0.81107867 0.091522746
611000000 -0.81021857 0.097209491 0.00027062561 -0.0018797467 -0.00023293663 -0.0018886642 -0.81145817 0.091270268
612000000 -0.80827457 0.097744301 0.00026016746 -0.00078963436 -0.00056358188 -0.0010400134 -0.81147641 0.09245339
613000000 -0.80938196 0.098096095 -0.00029607277 -0.0012318866 -8.3441912e-005 -0.0019802239 -0.81175798 0.092273235
614000000 -0.80915213 0.10037512 -0.0010546572 -0.0025473817 -0.00077867939 -0.0019053166 -0.81441748 0.092286132
615000000 -0.80762035 0.098135263 2.1540018e-005 -0.00051328249 -0.0010369471 -0.0017113559 -0.81258947 0.092538908
616000000 -0.80982316 0.099757828 -0.00062921405 -0.0013774371 -0.00042357939 -0.0016712602 -0.81251073 0.090962432
617000000 -0.80903137 0.099874996 -0.00050864177 -0.00052493776 -0.00024355184 -0.0020883577 -0.81282729 0.09306816
618000000 -0.80993301 0.10086475 6.7572852e-005 -0.00047983942 -0.00028506183 -0.0016895063 -0.8124944 0.092243642
619000000 -0.80959404 0.10176691 -0.00025282442 -0.0016872316 -0.00029770963 -0.0022196171 -0.81330138 0.093747348
620000000 -0.8092069 0.10004827 -0.00040829723 -0.0022101069 -0.00077651761 -0.0011182681 -0.81296098 0.092838749
621000000 -0.80983305 0.098888546 0.0015208473 -0.0013396424 8.5907624e-005 -0.0012719006 -0.81109726 0.093349338
622000000 -0.80802774 0.099938735 -0.00065933191 -0.0014429219 0.00096915569 -0.0011992961 -0.81119347 0.092426084
623000000 -0.80860674 0.10199213 0.00014148412 -0.0015058774 -0.00019667394 -0.0025778094 -0.8120867 0.094155423
624000000 -0.80853182 0.10111652 0.00010957826 -0.0025285906 0.00079900061 -0.0010021065 -0.81248093 0.093941331
625000000 -0.80994654 0.10168526 0.00029191081 -0.0010311241 0.00015577066 -0.00029874666 -0.81172037 0.093734138
626000000 -0.80832386 0.10069831 -0.00044713067 -0.0013916983 -0.00051688531 -0.0011549107 -0.81119967 0.095272891
627000000 -0.80941081 0.10266037 0.00030672309 -0.0016718083 0.00059121556 -0.0019147577 -0.81171083 0.095785238
628000000 -0.80874193 0.10285402 0.00012318202 -0.0014367967 -0.00021496128 -0.0017236078 -0.81165367 0.095422991
629000000 -0.80872947 0.10403503 2.6123744e-005 -0.0024233703 -0.00016723784 -0.00070476253 -0.8120147 0.094600618
630000000 -0.80896866 0.10282604 -0.00083169446 -0.0016067651 0.00031157371 -0.0014726808 -0.8119911 0.095271446
631000000 -0.8092128 0.10352316 0.00089804758 -0.0015061358 0.00035890509 -0.0010071609 -0.81232125 0.095393836
632000000 -0.80753952 0.10279366 -0.00047034436 -0.0011985347 0.00046610646 -0.0025403625 -0.81048131 0.095058873
633000000 -0.80881143 0.101862 -0.0010736062 -0.0019098093 -0.001124458 -0.0016632787 -0.81210011 0.094926834
634000000 -0.80985212 0.10395387 4.956358e-005 -0.0014526815 -0.00046856352 -0.00227195 -0.81169659 0.09568315
635000000 -0.80914491 0.10157788 3.9546587e-005 -0.001618948 0.00014365347 -0.00145626 -0.81242806 0.095243208
636000000 -0.80718571 0.10312463 0.00075577566 -0.0021596781 -0.000814692 -0.0017366786 -0.8109588 0.094876252
637000000 -0.80859643 0.10147534 -0.00043318089 -0.0016072206 -0.00027479616 -0.0016201359 -0.81094867 0.094836533
638000000 -0.8084349 0.10370371 0.00017270578 -0.0026313188 -0.00048530556 -0.0019006761 -0.81343728 0.097514808
639000000 -0.80895585 0.10447395 -0.0011338549 -0.001816067 0.00024011456 -0.0018108023 -0.81194425 0.096704289
640000000 -0.8086797 0.10560361 -0.00037373352 -0.0012549673 0.00020702682 -0.0010433396 -0.81108993 0.09647996
641000000 -0.80913085 0.10434473 -0.00067404774 -0.0022180625 -0.0004902996 -0.0018805866 -0.81104338 0.096821204
642000000 -0.80938798 0.10607931 -0.00093849201 -0.0014796167 3.0294113e-005 -0.0018906966 -0.81137878 0.095991969
643000000 -0.80851835 0.10465211 -0.00081968482 -0.0014584156 -0.00039416502 -0.002607919 -0.81184059 0.096752822
644000000 -0.80986303 0.10641281 -0.00058414665 -0.0025046638 -0.00021820895 -0.0013361393 -0.81319296 0.096202776
645000000 -0.80744702 0.1048381 -0.00028492964 -0.00040714449 -0.00060408242 -0.0014367552 -0.81283814 0.096732363
646000000 -0.80814415 0.10562269 8.6084707e-005 -0.0018736951 -0.00048865232 -0.00070177636 -0.81198764 0.097462788
647000000 -0.809448 0.10496689 -3.3995264e-005 -0.00070408639 -0.00021836383 -0.0024774633 -0.81184757 0.098115727
648000000 -0.80872428 0.10664301 0.00017655404 -0.0019392896 0.00033110633 -0.0024220904 -0.81196302 0.097702309
649000000 -0.80738908 0.10644985 -0.00093133084 -0.00087502494 -0.00061123702 -0.0024313338 -0.81026566 0.097397499
650000000 -0.80888999 0.10505434 0.00071737397 -0.0025970316 -0.0011137936 -0.0026855287 -0.81169146 0.098554976
651000000 -0.80907613 0.10726048 -0.0011276344 -0.0015755212 -0.00028996481 -0.0013593987 -0.80999619 0.09806481
652000000 -0.80839354 0.10587453 -0.00038512438 -0.001142922 0.00061740045 -0.0013540768 -0.81060308 0.098187082
653000000 -0.8084293 0.10489153 -0.0013550689 -0.0014572814 -0.00022018136 -0.0014903344 -0.81172687 0.098264866
654000000 -0.80800205 0.10724105 -0.00028475534 -0.0018134534 7.3186791e-005 -0.0021036125 -0.81156111 0.097628459
655000000 -0.80772144 0.10744672 -0.00036060909 -0.0015777191 -8.1736129e-005 -0.0013852856 -0.81061178 0.098448053
656000000 -0.80949014 0.10791578 -0.00050713564 -0.0016740476 2.5901136e-005 -0.0017697192 -0.81166786 0.098724037
657000000 -0.80904013 0.10696132 -0.00025681511 -0.001923395 0.00047396505 -0.0012796927 -0.81262994 0.09755037
658000000 -0.80822253 0.10825395 -0.00065741077 -0.0016170726 -0.0010231346 -0.00090829632 -0.81092471 0.099215344
659000000 -0.80827582 0.10705145 1.2841095e-005 -0.0017862034 -0.00050483731 -0.0019430382 -0.8109287 0.098726727
660000000 -0.80826902 0.10703426 -5.8044716e-006 -0.002119564 0.00052927923 -0.001966849 -0.81054497 0.099362634
661000000 -0.80884534 0.10773498 -0.00047022096 -0.0015443881 -8.596648e-005 -0.0013889576 -0.8111133 0.099729523
662000000 -0.80835503 0.10776631 0.00036569187 -0.0023516098 -1.2321455e-005 -0.002771406 -0.81040484 0.099139705
663000000 -0.80760658 0.10605637 -0.0005144687 -0.00098731311 -0.00054747914 -0.0016469017 -0.81041813 0.098552659
664000000 -0.80888212 0.10728347 -0.00033939927 -0.0024604057 -0.00010219981 -0.0026271271 -0.81172317 0.10022146
665000000 -0.80888909 0.10692678 0.00074856268 -0.0017257807 -0.0010415983 -0.0017871374 -0.81221426 0.099264435
666000000 -0.80796731 0.10640147 -0.00046480581 -0.0019510768 -0.0001405514 -0.0022095367 -0.81039244 0.098751932
667000000 -0.80730528 0.10934494 1.7619428e-005 -0.0022033863 -0.0008834349 -0.0015911537 -0.81144077 0.099701084
668000000 -0.80907327 0.10779955 -0.00080120354 -0.0022530563 -0.00058837497 -0.0029506739 -0.81142896 0.09754727
669000000 -0.80770415 0.10842772 -0.00097932119 -0.0016403367 -0.00031839311 -0.002411284 -0.81137002 0.099020258
670000000 -0.80803269 0.10926111 6.6867557e-005 -0.0017580901 -0.0010025201 -0.0015240044 -0.81081283 0.10089448
671000000 -0.80782771 0.11018814 -0.00061190862 -0.0020584853 -0.0011351423 -0.0012335014 -0.81166446 0.10012727
