!Keysight Technologies,M9374A,MY55442783,A.12.55.05
!Date: Thursday, May 20, 2021 18:46:40
!Correction: S11(Full 2 Port(1,2)) 
!S21(Full 2 Port(1,2)) 
!S12(Full 2 Port(1,2)) 
!S22(Full 2 Port(1,2)) 
!S2P File: Measurements: S11, S21, S12, S22:
# Hz S  RI   R 50
500000000 -0.81127352 0.080899283 -0.00023678999 -0.0016780763 -0.00056034309 -0.002696519 -0.81440079 0.075183615
501000000 -0.81236607 0.08110144 -0.0010902672 -0.00088261027 0.00017597327 -0.0015272517 -0.81584001 0.076446965
502000000 -0.81202477 0.083212525 -0.00020760631 -0.0025773691 5.3514384e-005 -0.001369718 -0.81566572 0.077286758
503000000 -0.81168628 0.083154581 0.0011490179 -0.00070220861 0.00061929668 -0.0017429746 -0.8154906 0.075495452
504000000 -0.81206203 0.08332628 0.00031469349 0.00020396915 0.00021810112 -0.00065714092 -0.81369972 0.07681343
505000000 -0.81195825 0.082012981 -0.00051285059 -0.0011380633 -0.00026020469 -0.0016395884 -0.8144387 0.076354139
506000000 -0.8134957 0.081155568 -0.00096684357 -0.0016639775 -0.00062097958 -0.0030081021 -0.81400305 0.075745098
507000000 -0.81205529 0.084316812 -4.7021218e-005 -0.00069625786 -0.00014366471 -0.0018078251 -0.81284791 0.077536166
508000000 -0.81132454 0.083251886 -0.00095228991 5.0819563e-005 -0.00028716563 -0.0015166539 -0.81249642 0.077968039
509000000 -0.81197995 0.084552936 0.00012670967 -0.0012843502 0.00036931943 -0.0010442974 -0.81363732 0.076705046
510000000 -0.8123821 0.082531303 -0.00095219217 -0.0020879139 0.00042157256 -0.0022471044 -0.81315762 0.077350296
511000000 -0.8124786 0.08433646 -1.6735205e-005 -0.0018634578 -0.00074317184 -0.0016461703 -0.81334263 0.077627957
512000000 -0.81291801 0.085219286 0.0003990049 -0.0012798592 -0.00085109327 -0.001385583 -0.81407857 0.076677613
513000000 -0.81451631 0.08482831 -5.3289456e-005 -0.0016923519 -0.00026268384 -0.00092451606 -0.81433779 0.077590771
514000000 -0.81146216 0.084946789 0.00083801721 -0.0017141772 -0.0007183539 -0.0011047361 -0.81479561 0.078671478
515000000 -0.8115027 0.085499428 0.00021349372 -0.0014838178 0.00076297141 -0.001138106 -0.8133567 0.077693671
516000000 -0.81252778 0.082779966 2.2537923e-005 -0.0026389768 0.00091779785 -0.0013777701 -0.814372 0.079387493
517000000 -0.81181419 0.086707972 -0.0002782704 -0.0007313111 0.00070310029 -3.0616273e-005 -0.81221294 0.079689063
518000000 -0.81221724 0.085278265 -6.9716167e-005 -0.0022063642 0.00047539288 -0.00055139203 -0.81606454 0.078495979
519000000 -0.81168473 0.084075883 -0.00041789393 -0.000792559 0.0010056541 -0.0014179652 -0.8134715 0.080758914
520000000 -0.81117147 0.084162459 -0.00091497088 -0.0010928664 0.00052620843 -0.0018233003 -0.81205583 0.07986325
521000000 -0.81192905 0.08606483 7.4962234e-005 -0.0011622085 -0.00075118669 -0.00070893462 -0.81360722 0.07977169
522000000 -0.81121099 0.085044123 3.4764428e-006 -0.0013099925 -0.00037603427 -0.0014724665 -0.81380582 0.08053311
523000000 -0.81147283 0.086313352 0.00060519652 -0.00090814295 0.0004899138 -0.00092645787 -0.81376791 0.080342956
524000000 -0.81095886 0.086019166 -0.00020603376 -0.00086709642 -0.00015864486 -0.0010482076 -0.81443548 0.080217041
525000000 -0.81099212 0.086753845 -0.00012272499 -0.0010406747 0.00017972491 -0.0018591916 -0.81308788 0.080154881
526000000 -0.81067258 0.085723095 0.00064946752 -0.0016622174 2.6232374e-005 -0.00084516872 -0.81417233 0.081567973
527000000 -0.81229955 0.086555712 0.00010716645 -0.0020190661 -0.00059534551 -0.00040551298 -0.81370127 0.080010012
528000000 -0.81232929 0.087752827 -0.00055879558 -0.0017518394 -0.00015966489 -0.0011018263 -0.81251395 0.081598885
529000000 -0.81277829 0.088212892 0.00058985868 -0.0016290878 0.00096228684 -0.0016518353 -0.81293553 0.081166379
530000000 -0.81062925 0.087167419 -0.0004930537 -0.0012054063 -3.3791985e-005 -0.0012111596 -0.81212157 0.080891535
531000000 -0.81197816 0.085874669 0.00030597838 -0.0019794053 0.00038820057 -0.0010391747 -0.81425011 0.081376702
532000000 -0.81180459 0.087044463 -0.00029749135 -0.0024106971 -0.0010069094 -0.0018300369 -0.81359214 0.080308355
533000000 -0.81156075 0.086649843 -0.00015955926 -0.0019474495 1.6744991e-006 -0.00078964117 -0.8131538 0.082537703
534000000 -0.81296581 0.086811014 -0.00038006334 -0.0010911147 -0.00067913072 -0.00098833779 -0.81315261 0.082385182
535000000 -0.81233567 0.087677561 0.00049166754 -0.0026886021 0.0001150852 -0.00066554814 -0.81445569 0.0822054
536000000 -0.81210601 0.087567538 0.00076330046 -0.0020861242 0.00034865621 -0.001249768 -0.81388026 0.082639106
537000000 -0.81071299 0.086711667 0.00015866426 -0.00091618131 -0.00021089872 -0.0015701581 -0.8137942 0.081823349
538000000 -0.81247872 0.087655783 0.00089830038 -0.0010628818 -0.00068257959 -0.0016295651 -0.81130803 0.081269123
539000000 -0.81099933 0.087511286 0.00049642066 -0.0021312456 -0.00076639955 -0.00072951807 -0.8136875 0.082119606
540000000 -0.81279755 0.087258555 -0.00058084418 -0.0020434558 0.00035984913 -0.00059238455 -0.81400853 0.084862351
541000000 -0.81038004 0.089536086 0.00043506143 -0.0014865377 -0.00036774893 -0.00063676224 -0.81257808 0.083314672
542000000 -0.81172842 0.088661611 9.6579883e-005 -0.0017479646 0.00026533025 -0.0014367551 -0.81480455 0.083355248
543000000 -0.81043041 0.088310473 -5.7916299e-005 -0.0017131905 0.00034213805 -0.0017479523 -0.81297898 0.083045848
544000000 -0.81085443 0.089403257 -8.2671017e-005 -0.0011062389 -0.00016566191 -0.0012488686 -0.81479126 0.083234601
545000000 -0.81251484 0.089515649 0.00014131219 -0.0012560774 -0.0013163461 -0.0013394189 -0.81359434 0.083085433
546000000 -0.80999374 0.090188622 -0.00029046589 -0.0016629056 9.9913777e-005 -0.0018645102 -0.8137058 0.083951086
547000000 -0.8111074 0.089715146 -0.0014056732 -0.00068502204 -0.0014745328 -0.00028847688 -0.81293255 0.083323084
548000000 -0.81155032 0.090241432 -1.7029261e-005 -0.001382246 -8.7608096e-005 -0.0030237662 -0.81387609 0.084126249
549000000 -0.81235087 0.090196237 -8.9115449e-005 -0.001901887 -0.00062732422 -0.0012062244 -0.81452221 0.086076744
550000000 -0.81079859 0.089763053 -0.0009954453 -0.0019130028 0.00089899835 -0.00090499863 -0.81288576 0.085902795
551000000 -0.81196404 0.090120383 -0.0003295358 -0.0014856461 -0.00025556481 -0.0012725501 -0.81355333 0.084444866
552000000 -0.81194359 0.090399146 -0.00075836212 -0.0017979344 -0.00011580427 -0.0010007236 -0.81420523 0.085274726
553000000 -0.81061131 0.090775833 -0.00036519984 -0.001336552 -0.00054104551 -0.0011561962 -0.81408232 0.084918849
554000000 -0.81214815 0.089625664 -0.00012234085 -0.001725862 0.00038469315 -0.0019957842 -0.81398189 0.08407674
555000000 -0.8114357 0.090499319 0.00013359074 -0.0023097033 -2.7875505e-005 -0.0012189718 -0.81438303 0.084064975
556000000 -0.80974114 0.0895155 -0.00031948261 -0.0018884242 -0.00060549547 -0.00045799377 -0.81313771 0.085027777
557000000 -0.8112306 0.09104877 3.8586273e-005 -0.00095777842 -1.0967579e-005 -0.00025632154 -0.81382644 0.085080989
558000000 -0.81077772 0.089855962 -3.8755181e-007 -0.0015496733 -0.00080353284 -0.0017668941 -0.81356585 0.084865376
559000000 -0.80998391 0.089892603 -0.00030065645 -0.0010956441 -0.0008306611 -0.0023508556 -0.81362313 0.086899035
560000000 -0.81199062 0.09115006 0.0004104024 -0.00053689355 -0.00052358047 -0.00075462571 -0.8142792 0.083523288
561000000 -0.81080401 0.09023755 -0.00056549784 -0.0018868537 -0.00065595959 -0.0014827652 -0.81279087 0.085396506
562000000 -0.81130558 0.091768384 -7.2557705e-005 -0.0017861745 -0.0011394378 -0.0011883965 -0.81373161 0.084993772
563000000 -0.81111825 0.090976961 -0.0010673894 -0.0018937793 -0.0009068558 -0.0022303893 -0.8131597 0.086627118
564000000 -0.81131238 0.090025157 -0.00057782116 -0.0011387618 -0.00079158461 -0.00074430736 -0.8132869 0.085620888
565000000 -0.80928487 0.090974644 -9.1435664e-005 -0.0005507326 -0.00044061834 -0.00042397974 -0.81270725 0.086415477
566000000 -0.80964845 0.090195872 -0.00043364201 -0.0016857526 -0.0014883887 -0.0023909879 -0.81391549 0.085157722
567000000 -0.81153417 0.090150103 0.00014716023 -0.0015984678 -0.00056745741 -0.0018882203 -0.81361419 0.085694298
568000000 -0.81109333 0.090883657 -0.0010205128 -0.001292462 -0.00035986831 -0.0014038745 -0.81423354 0.084585577
569000000 -0.81161296 0.091316678 -0.00070044835 -0.0012110268 0.00017962418 -0.0014196477 -0.81235629 0.086357132
570000000 -0.81042022 0.09007661 9.6097196e-005 -0.0014611892 -0.00032660746 -0.001443964 -0.81435275 0.085870914
571000000 -0.81081098 0.091839463 1.4622678e-005 -0.0017265255 -0.00045090244 -3.3072854e-005 -0.81295991 0.087618761
572000000 -0.80912262 0.090754852 -0.0016914266 -0.0011091965 0.00043851623 -0.00066768483 -0.81122917 0.087626867
573000000 -0.81106842 0.091531366 -0.00014584821 -0.0017633749 -0.00026451892 -0.00091745314 -0.81342423 0.086942397
574000000 -0.80970699 0.09220928 0.00024514354 -0.0010453691 -0.001169511 -0.0017448947 -0.81380117 0.087828249
575000000 -0.81028032 0.091655731 0.0003847944 -0.0018113493 -0.00061890425 -0.0028087308 -0.81480312 0.087924547
576000000 -0.81121242 0.092334904 -0.00020184876 -0.0018513059 -0.00044260942 -0.0010504406 -0.81420845 0.086398706
577000000 -0.81095153 0.090632424 -0.0007772781 -0.00097239134 -0.00075409515 -0.001863528 -0.81234807 0.086698778
578000000 -0.81243587 0.090420432 0.00039407308 -0.0017879531 -0.00041429556 -0.0020393 -0.81403744 0.086567447
579000000 -0.81004739 0.093212292 -0.00073233945 -0.0017806059 -0.0013175928 -0.00039976984 -0.81399566 0.087291725
580000000 -0.80997854 0.091534086 -0.0012683821 -0.0019679428 -0.00017594344 -0.0011474591 -0.81220716 0.087734513
581000000 -0.80935907 0.091876395 -9.6387339e-005 -0.0015233152 -0.000517893 -0.0016235776 -0.81310195 0.087120533
582000000 -0.81055093 0.093186259 -0.00050901435 -0.0019019071 -0.00052832934 -0.0016175533 -0.81324154 0.087556273
583000000 -0.81146038 0.093711495 0.00053033611 -0.0014310329 0.00034540729 -0.0020432358 -0.81347317 0.08921878
584000000 -0.80993688 0.092147879 -9.6121847e-005 -0.00050938764 0.0002313719 -0.0022200183 -0.81281716 0.088397875
585000000 -0.81118941 0.092057556 -0.0012091054 -0.00093130308 -9.7526616e-005 -0.001549848 -0.8137809 0.088565901
586000000 -0.81010664 0.094127655 -0.00064190157 -0.0016280293 3.2312641e-005 -0.0020709694 -0.81406111 0.088990323
587000000 -0.8099587 0.094222799 -6.0570863e-005 -0.0018901563 0.00016334577 -0.0025932253 -0.81309873 0.088316485
588000000 -0.80965555 0.094102323 -0.00093321508 -0.0023084749 -0.00073324924 -0.0016827731 -0.81407994 0.088745736
589000000 -0.81114262 0.094420873 -0.0012138713 -0.0022149156 -0.00016129082 -0.0012520754 -0.8122406 0.089216553
590000000 -0.81075841 0.094143748 -0.00085810013 -0.0014818463 0.00024722604 -0.0017394231 -0.81261384 0.087692879
591000000 -0.80963629 0.09449105 -0.00019220715 -0.0017890364 -0.0011225626 -0.0017664706 -0.8139478 0.0898472
592000000 -0.81100535 0.093872152 -0.00031209021 -0.0018427732 0.00030725624 -0.0018372101 -0.81424528 0.088848248
593000000 -0.80834359 0.09446501 1.8795525e-006 -0.0021699588 0.00034521168 -0.0009125605 -0.81318158 0.088529564
594000000 -0.80956483 0.095000282 -0.00042241771 -0.0012833389 0.0011942512 -0.0016117798 -0.81211197 0.088841818
595000000 -0.81076759 0.093728691 -0.00042523269 -0.0012779284 -0.0016287039 -0.0011258431 -0.81474382 0.089548141
596000000 -0.81088388 0.094391592 -0.00052124506 -0.0026728145 -0.0010292019 -0.0028435129 -0.81372011 0.089085765
597000000 -0.81158835 0.096185222 0.00012630929 -0.00013100948 -0.00093124493 -0.00069227262 -0.81204581 0.089273192
598000000 -0.81013787 0.097111575 -0.00062740332 -0.0006421982 -0.00020134465 -0.0014443266 -0.81357819 0.089416198
599000000 -0.80979687 0.095735535 0.00047499311 -0.001526549 -2.8721988e-005 -0.0021610917 -0.81306273 0.08886037
600000000 -0.81093919 0.095169671 0.00010091244 -0.0024361401 -0.00027728989 -0.00084605359 -0.81288171 0.090400286
601000000 -0.80951095 0.096080765 -0.00047790891 -0.0010239636 -0.00055144518 -0.0016849525 -0.81222802 0.090272233
602000000 -0.80973417 0.096427605 -0.00012898662 -0.0017128527 -0.00033816966 -0.002482621 -0.81339461 0.090725541
603000000 -0.8104862 0.097093731 0.00024865635 -0.0020172133 -0.00013472349 -0.0012645728 -0.81279427 0.090689071
604000000 -0.80861723 0.097818218 0.00027146804 -0.0012279635 -0.0006345202 -0.0020197891 -0.81350082 0.09031263
605000000 -0.80993277 0.097197041 -0.0010275039 -0.0017976768 -0.00053645164 -0.0017402429 -0.81274468 0.091196254
606000000 -0.80989474 0.098412924 -0.00011319636 -0.00071595679 -0.00063098967 -0.0010441033 -0.81328243 0.091936655
607000000 -0.80959368 0.098103665 -0.0002298858 -0.0021540795 -0.00055887038 -0.00086075929 -0.81187588 0.090326451
608000000 -0.81055945 0.098557875 -0.0010482357 -0.00097982923 -0.0002724987 -0.0014263659 -0.8130827 0.092051148
609000000 -0.80974334 0.098647296 -0.00061095477 -0.0025217866 -0.0014346357 -0.0015198975 -0.81396347 0.092017561
610000000 -0.80942404 0.097723544 -0.0010851906 -0.0017231992 -0.00084566313 -0.0012046961 -0.81125021 0.09194915
611000000 -0.80948704 0.099167578 -2.0385958e-005 -0.0024654318 -0.00074904895 -0.0013758657 -0.81232834 0.092510357
612000000 -0.80942094 0.097522326 -0.00027168816 -0.0018703169 -0.00070295681 -0.0010304195 -0.81306726 0.092406698
613000000 -0.80966133 0.099092275 -0.0003704837 -0.0018122289 -0.00096449314 -0.0024919428 -0.81135201 0.091405407
614000000 -0.80809766 0.098837152 -0.00053577038 -0.001358179 -0.0014010927 -0.002033202 -0.81235433 0.09232793
615000000 -0.80955702 0.099577643 -0.00040195513 -0.0013022731 -0.00058204448 -0.0018799199 -0.81233138 0.094185583
616000000 -0.80847698 0.10029217 -0.00075304194 -0.0026001604 -0.00089018635 -0.0012122846 -0.81056291 0.093007192
617000000 -0.80962151 0.10022064 -0.00038102485 -0.0015916906 0.00024354295 -0.0014295073 -0.81241745 0.094167575
618000000 -0.80941474 0.099752821 -0.00065121596 -0.0010687375 -0.00049868657 -0.001984938 -0.81267405 0.093960792
619000000 -0.8096962 0.10057639 -0.00063857879 -0.0013642821 -0.00025196245 -0.0011061027 -0.81198043 0.093414716
620000000 -0.80901086 0.099459462 -0.00082827953 -0.002110668 -0.0012158611 -0.0020406086 -0.81287318 0.093745813
621000000 -0.81065416 0.099908046 -0.00025545011 -0.0023005158 9.0602698e-005 -0.0011818471 -0.81147945 0.092965342
622000000 -0.80905294 0.099771924 -0.00029137102 -0.0024869791 0.0011307665 -0.00029054645 -0.81205827 0.094676293
623000000 -0.80793226 0.10199831 -0.00032170789 -0.00057500321 -0.00070279301 -0.0018026303 -0.81322527 0.095153056
624000000 -0.80722207 0.10208391 -0.00027442776 -0.0022274358 -0.0002993813 -0.0017441051 -0.81156814 0.095161468
625000000 -0.80897242 0.10195266 -0.00012725219 -0.001386155 -0.0002737804 -0.0012970448 -0.81289637 0.093165509
626000000 -0.80801231 0.1021768 -0.0010790123 -0.0022074862 -3.688275e-005 -0.0022066559 -0.81241143 0.094722733
627000000 -0.80889678 0.10177128 0.00078602991 -0.0024948905 -0.00037212609 -0.00075033266 -0.81273586 0.092424244
628000000 -0.80912995 0.10321286 -0.00086830783 -0.0019896217 -0.0011781448 -0.0026245008 -0.81100512 0.096983142
629000000 -0.8071624 0.10245965 -0.0003027287 -0.0028982435 -0.00072292966 -0.0012121553 -0.81203103 0.096182197
630000000 -0.80857223 0.10101003 -0.000326757 -0.0018981204 -0.00050672074 -0.001612969 -0.81207752 0.095484696
631000000 -0.81005353 0.10267422 -0.000581145 -0.0014061906 0.00042173799 -0.0013496833 -0.81375104 0.095320515
632000000 -0.80955511 0.10379241 -6.420006e-005 -0.0022314917 -0.00092914316 -0.0020025782 -0.81259704 0.094702803
633000000 -0.80916315 0.10317011 -0.000636496 -0.0011823076 -0.00045523836 -0.0016541627 -0.81228352 0.096044138
634000000 -0.80867791 0.1027678 -0.00018156973 -0.0017245784 -0.00099641539 -0.0018020016 -0.8130734 0.096520573
635000000 -0.80893177 0.10357 -0.0009974495 -0.0016576125 -0.0003371643 -0.0022484714 -0.81060612 0.095688984
636000000 -0.80787557 0.10453704 0.00030047513 -0.0018786918 -0.00056334143 -0.00089046377 -0.81253153 0.096134797
637000000 -0.80864966 0.10513017 -0.00064510491 -0.0028341464 -0.00049212301 -0.0016324118 -0.81129032 0.096569866
638000000 -0.80917472 0.10292687 -0.00094210892 -0.0016460142 -0.00092373457 -0.0011389091 -0.81273544 0.097256258
639000000 -0.80953312 0.10595913 0.0011434002 -0.0023484607 -0.00062792987 -0.0024742477 -0.81177402 0.09577886
640000000 -0.80904847 0.10402199 -0.00031306365 -0.0012073033 8.8445551e-005 -0.0010968799 -0.8103112 0.097694583
641000000 -0.80918133 0.10380714 1.616915e-005 -0.00061786565 -0.0003410558 -0.0016764683 -0.81172079 0.098551668
642000000 -0.80831546 0.10346527 -0.0011497848 -0.0012642398 -2.7003516e-005 -0.0014473684 -0.81313062 0.097213618
643000000 -0.80776423 0.10514947 0.00055287173 -0.00058918464 0.00082032697 -0.00087113248 -0.8115738 0.097014405
644000000 -0.80815083 0.10581007 -0.00048958854 -0.0013842564 -0.0010022285 -0.0017444496 -0.81281894 0.0979072
645000000 -0.80806822 0.10474066 -4.1370353e-005 -0.0018519622 -0.0002780522 -0.0022248346 -0.81109959 0.096921198
646000000 -0.80950332 0.10518088 0.00016563859 -0.0017273668 0.00014834492 -0.0029181908 -0.8105827 0.097515032
647000000 -0.80849969 0.10492262 -0.00055461947 -0.001564152 -0.00064100762 -0.0015198918 -0.81041789 0.097463354
648000000 -0.80838859 0.10692172 -8.9932662e-005 -0.0023519108 -0.00025773098 -0.0017829146 -0.81181896 0.098046437
649000000 -0.80828542 0.10691617 -0.00089905108 -0.001235364 -0.00093476917 -0.0022068119 -0.81188607 0.098825425
650000000 -0.80676669 0.1059309 -0.00094327808 -0.0018141587 -0.00057856215 -0.0023837234 -0.81076801 0.098694392
651000000 -0.80841535 0.10713239 -0.00099163235 -0.0012187193 -0.00015007584 -0.0014538146 -0.8108359 0.098288521
652000000 -0.80819261 0.1070414 -1.8288862e-005 -0.0015386164 -0.00095659401 -0.002261109 -0.81150079 0.099068053
653000000 -0.80844158 0.10737164 -0.00069606211 -0.0019197919 -0.00015321458 -0.0014589031 -0.81211728 0.097867504
654000000 -0.80865544 0.10679016 -0.00078027952 -0.0015648471 -0.00056220114 -0.0020182028 -0.81188518 0.097922862
655000000 -0.80735511 0.10754031 0.0007474742 -0.00088160648 0.00029284577 -0.0028024744 -0.80988955 0.098538816
656000000 -0.80797601 0.10611447 0.00059994211 -0.0018655857 0.00043385709 -0.0019878785 -0.81232738 0.098208837
657000000 -0.80836487 0.10776858 -0.0006713742 -0.0021393767 -0.0002873739 -0.0025285608 -0.81086916 0.098963186
658000000 -0.8081491 0.1070074 3.3734334e-005 -0.0019761566 -0.00042194748 -0.0017389471 -0.8094179 0.098036952
659000000 -0.80795789 0.10750254 -0.00021146657 -0.0018982034 -0.00067560165 -0.0011173568 -0.81201732 0.098704807
660000000 -0.80890137 0.10913296 -0.00079503655 -0.001475636 -0.00036458694 -0.0016392081 -0.81158495 0.10053448
661000000 -0.80770642 0.1086204 -0.00031341671 -0.0015177696 4.6053057e-005 -0.001552993 -0.81133616 0.099838339
662000000 -0.80705136 0.10841066 -0.0010672591 -0.0026352161 -0.00073909643 -0.0020278997 -0.81198925 0.10171773
663000000 -0.80964804 0.10972837 0.00044241891 -0.0018844152 0.00054749363 -0.0021228378 -0.81067699 0.099154949
664000000 -0.80697179 0.10668743 -0.00036643856 -0.0017000629 -0.00023595412 -0.0017763264 -0.81221348 0.099030942
665000000 -0.80827755 0.10872805 0.00011831553 -0.0012065328 -0.00048548297 -0.0014755388 -0.81172848 0.10020183
666000000 -0.80837715 0.1080296 0.00077461672 -0.0011837205 -0.00047571692 -0.0021303652 -0.81205446 0.099651836
667000000 -0.80825967 0.10986043 -5.2022471e-005 -0.0017418485 -0.0012717922 -0.0016627358 -0.81154382 0.099179111
668000000 -0.80854994 0.10804179 -0.00087954209 -0.001397704 -0.00032679198 -0.0017430581 -0.81080413 0.099796809
669000000 -0.80802745 0.10847776 -0.0010400384 -0.0013569767 -0.00069340371 -0.0020610704 -0.80919576 0.09906967
670000000 -0.80803108 0.10860344 0.00075973244 -0.0019352343 -0.00044494277 -0.0016746048 -0.81202513 0.099839464
671000000 -0.8076396 0.10961568 0.00039832972 -0.0019477252 -3.0343972e-005 -0.0014512681 -0.81096321 0.10026452
