!Keysight Technologies,M9374A,MY55442783,A.12.55.05
!Date: Thursday, May 20, 2021 18:36:57
!Correction: S11(Full 2 Port(1,2)) 
!S21(Full 2 Port(1,2)) 
!S12(Full 2 Port(1,2)) 
!S22(Full 2 Port(1,2)) 
!S2P File: Measurements: S11, S21, S12, S22:
# Hz S  RI   R 50
500000000 -0.81176454 0.082632288 -0.00025168221 -0.0027650839 0.0014301181 -0.0010652337 -0.813905 0.076367334
501000000 -0.81214118 0.083553441 -0.00046737585 -0.0016816505 0.00033266551 -0.0017463262 -0.81149018 0.077688821
502000000 -0.81160754 0.083886959 -0.00028570869 -0.00072615646 -0.0015986364 -0.0017650216 -0.81368977 0.079141326
503000000 -0.81199092 0.082549259 -0.00098428456 -0.0020471946 -0.00060616719 -0.0015548768 -0.81296968 0.075590596
504000000 -0.81042403 0.083423555 -0.0010672625 -0.0017544101 -0.00060430478 -0.0009957219 -0.81376076 0.077359378
505000000 -0.81205004 0.082236506 0.00027413596 -0.0017212809 9.5119598e-005 0.00010955405 -0.81278729 0.077065825
506000000 -0.81164032 0.083843127 0.00021077949 -0.0011201077 -5.5013272e-005 -0.0004474787 -0.81245136 0.078963414
507000000 -0.81049824 0.083928518 -0.00023898332 -0.0015024805 -5.0443541e-005 -0.0014474037 -0.81206596 0.080211706
508000000 -0.81322199 0.084957927 -0.00010234434 -0.00094772608 -3.9577e-005 -0.00062985765 -0.81389934 0.079023845
509000000 -0.8106429 0.085799813 -0.00083526672 -0.0021691681 0.00021313727 -0.0021260139 -0.81408483 0.078816943
510000000 -0.81274122 0.083853543 0.00028379686 -0.0023498882 -0.00024247808 -0.0025714252 -0.81111991 0.078552336
511000000 -0.81117415 0.086382225 -0.00043940192 -0.0014339571 -0.00085666979 -0.0023773662 -0.81228781 0.078322761
512000000 -0.812608 0.08399722 -0.00055735931 -0.0017350926 0.00025987378 -0.001204196 -0.81251264 0.080194846
513000000 -0.81238377 0.083578371 -0.00033209092 -0.0014296111 -0.0016599967 -0.0020698404 -0.8135972 0.07944572
514000000 -0.81155384 0.085039407 -0.0010370174 -0.0015922619 -0.0012328525 -0.0017507849 -0.8118639 0.079863757
515000000 -0.8110463 0.086096637 -0.00089865713 -0.0008779295 -0.00025414641 -0.0017258936 -0.81304651 0.081173234
516000000 -0.81204015 0.08569245 6.3665873e-005 -0.0015932554 0.00032330761 -0.0016760263 -0.81225973 0.080415271
517000000 -0.81085485 0.086695217 0.00074266421 -0.0012952834 0.00029191113 -0.0016528728 -0.81256801 0.080300018
518000000 -0.81234384 0.088092111 0.00039504989 -0.0013643858 0.00010995063 -0.0010466847 -0.81149751 0.079916567
519000000 -0.81239921 0.086200543 -0.00117764 -0.00081918575 -0.0006577032 -0.0013275308 -0.81351066 0.080557778
520000000 -0.81069285 0.085990287 0.00023491119 -0.001658184 -0.00071174739 -0.00063723332 -0.81352586 0.08157666
521000000 -0.81066835 0.08690916 6.7101981e-005 -0.0019619211 0.00207862 -0.00068495469 -0.81209731 0.081286259
522000000 -0.81183666 0.085961826 0.00054209121 -0.0021056766 0.00056426891 -0.0011928106 -0.81255621 0.08284843
523000000 -0.81177324 0.083582409 -0.0010176083 -0.0029919292 -0.00018937512 -0.0013790998 -0.81153774 0.081213668
524000000 -0.81201226 0.087329134 -0.00060326525 -0.00086740416 0.00056948327 -0.0022861508 -0.81150579 0.081660815
525000000 -0.81035447 0.087217897 -0.0011432032 -0.0010438833 0.00056980661 -0.0022944075 -0.81156456 0.081716284
526000000 -0.8124181 0.087649927 -0.00014790257 -0.001965981 -0.0001918239 -0.00090344175 -0.81109625 0.082797833
527000000 -0.81307554 0.088507451 0.00098479469 -0.0015290807 -0.00037594369 -0.0017962118 -0.81364506 0.083161272
528000000 -0.81101799 0.087140307 -0.0007607186 -0.0014565387 -0.00026410271 -0.0017989584 -0.81191832 0.081818536
529000000 -0.81125563 0.088423207 0.00039410053 -0.0018035941 0.00077147386 -0.0021841181 -0.81206268 0.082869463
530000000 -0.81232691 0.088708602 -0.00014704867 -0.001126745 -0.00023341225 -0.00099692389 -0.81264365 0.082606345
531000000 -0.8105188 0.089611031 -0.00070726371 -0.0023098739 -0.0004595998 -0.002124757 -0.81338722 0.08456175
532000000 -0.81063145 0.088311076 0.0001959604 -0.00056642923 -0.00064197241 -0.00095821562 -0.81172872 0.083214648
533000000 -0.81094825 0.090276897 -0.0002581976 -0.00041246854 3.6778805e-005 -0.0016874915 -0.81268764 0.082544744
534000000 -0.81198329 0.089545019 5.5067158e-005 -0.0018747931 0.00037509538 -0.001153585 -0.81375962 0.083792239
535000000 -0.81131601 0.08998625 -0.00068586861 -0.0017334564 -0.00064284093 -0.0016977779 -0.81097329 0.084170215
536000000 -0.81183326 0.089282781 0.00014563744 -0.0019158467 0.00026848126 -0.0018044729 -0.81170583 0.084313005
537000000 -0.81153131 0.089531757 -0.0010552289 -0.0016413983 -0.00043493175 -0.0010306189 -0.81131089 0.083761245
538000000 -0.81189841 0.090816617 -0.00083120429 -0.001790712 -0.00012332929 -0.0016547956 -0.81175882 0.083515622
539000000 -0.81181109 0.090186454 -2.7511665e-005 -0.0012735312 -0.0010432007 -0.0013241584 -0.81249046 0.085069582
540000000 -0.81187284 0.08999905 0.00065352104 -0.0014837384 0.00031187228 -0.0014255982 -0.8118999 0.083898149
541000000 -0.8111642 0.089613818 0.00028486064 -0.00099890737 -0.00071854104 -0.0020901491 -0.81269979 0.084704541
542000000 -0.81229407 0.09020374 -0.00019643213 -0.0017924909 -0.00025265868 -0.0013768651 -0.81220835 0.084658034
543000000 -0.8118605 0.090817168 -0.0013042777 -0.002745741 -2.5446339e-005 -0.00094165414 -0.81151485 0.086315557
544000000 -0.81055427 0.090453856 -0.00048923132 -0.0015025914 -0.00017698275 -0.0013511326 -0.81175953 0.08564578
545000000 -0.81171495 0.089678489 -0.00091634516 -0.0017690597 -0.00073544774 -0.0016019037 -0.81197661 0.085730247
546000000 -0.81219441 0.091709889 -0.00059940811 -0.0018017758 -2.3012286e-005 -0.0011215457 -0.81338716 0.08476723
547000000 -0.81023633 0.089537382 0.0010294197 -0.0015947577 -0.00085341668 -0.0018250073 -0.81394237 0.08544375
548000000 -0.80992913 0.091700271 -0.00028811651 -0.0015434622 2.6860393e-005 -0.0013950951 -0.81198597 0.08517912
549000000 -0.81124288 0.09083534 0.00020369187 -0.0024996696 -0.0003860234 -0.0013394209 -0.81158394 0.085823774
550000000 -0.81008196 0.090966344 -0.001196288 -0.0019690623 -9.9885889e-005 -0.0007598119 -0.81071287 0.086173922
551000000 -0.81126243 0.091047332 -9.6434596e-005 -0.0016949753 -9.4854156e-005 -0.0019599586 -0.81179404 0.086784847
552000000 -0.81033313 0.09120363 -0.00014874915 -0.0016445771 -0.0008649042 -0.0023942797 -0.81289798 0.085476391
553000000 -0.80989879 0.092800081 -8.6439417e-005 -0.0012812369 -0.00015937247 -0.0018538362 -0.81337291 0.086146541
554000000 -0.81101388 0.090170711 0.00047223642 -0.001840309 -0.0010941025 -0.0022077416 -0.81071144 0.085750379
555000000 -0.81164432 0.092696369 -0.0004108749 -0.0019200586 -0.00029496072 -0.0016261836 -0.8112421 0.087474756
556000000 -0.8100304 0.091578133 -0.00010287539 -0.0015604412 -0.0010090714 -0.0018347042 -0.81260026 0.085667022
557000000 -0.80948591 0.091572106 -0.00077871594 -0.00064310065 0.00030340711 -0.0017711945 -0.81254721 0.086202607
558000000 -0.81159127 0.091660276 -0.00069986482 -0.0022573108 -0.0010720645 -0.0025403551 -0.81317729 0.086617753
559000000 -0.81113988 0.091128558 -7.8187644e-005 -0.0013723896 -0.00039552504 -0.0014064981 -0.811786 0.088145532
560000000 -0.81040019 0.091596201 1.5047554e-005 -0.0023260575 7.5498545e-005 -0.0011367879 -0.81083912 0.086927794
561000000 -0.80992484 0.092293233 -7.1874943e-005 -0.001133217 0.00030256016 -0.00072602648 -0.8133741 0.0861056
562000000 -0.81115079 0.091751419 0.00015327634 -0.0011027209 -0.00012852663 -0.002726614 -0.81380588 0.086874634
563000000 -0.81015193 0.091432855 -0.0008098394 -0.003122872 -0.00038553838 -0.00066378369 -0.81186873 0.088399313
564000000 -0.81013429 0.092110217 4.7033209e-005 -0.0011651638 -0.00014193328 -0.0012779732 -0.81290013 0.087166615
565000000 -0.81013215 0.092424676 -0.00037964145 0.00025954517 -0.0003550711 -0.001547121 -0.81171578 0.086728245
566000000 -0.81063014 0.091956891 -0.0001132898 -0.0016167032 -0.00088737009 -0.0011297654 -0.81267643 0.088033535
567000000 -0.81114072 0.094029821 -0.00065462227 -0.00078157865 -0.00010793746 -0.0015191302 -0.81164938 0.087096862
568000000 -0.81027389 0.092646584 0.00058556686 -0.0011703118 0.00080058526 -0.0021538869 -0.81297565 0.088006221
569000000 -0.80964661 0.09302853 -0.00075661193 -0.00097724877 -0.0010698726 -0.0012499158 -0.81183183 0.085728191
570000000 -0.8111605 0.0931734 -0.00021595879 -0.0021760948 -1.0308407e-005 -0.0021712473 -0.81126678 0.087505564
571000000 -0.8102085 0.093376286 -0.00090186205 -0.0014477895 0.00043850142 -0.0024776843 -0.81108928 0.089616753
572000000 -0.8112902 0.092771716 -0.00020127808 -0.0010267547 -0.00051711156 -0.0016988158 -0.81111956 0.088486776
573000000 -0.81050193 0.09351889 -0.00042165117 -0.0017895342 -0.00056615251 -0.0010717663 -0.80981511 0.087216735
574000000 -0.80971402 0.09474992 0.00025339131 -0.0013549958 -0.00067596801 -0.0022511913 -0.81406677 0.08767546
575000000 -0.81164581 0.094570398 -0.00055033801 -0.0019321903 -0.00078440487 -0.0016825361 -0.81309301 0.088156842
576000000 -0.80905294 0.093964711 0.00016505153 -0.0010257791 -0.00051592622 -0.001600106 -0.81143558 0.088605672
577000000 -0.81039912 0.093202583 -0.00015623409 -0.00052507746 0.00071141112 -0.0023273579 -0.81378102 0.089107141
578000000 -0.81000423 0.094820186 -0.00061733596 -0.0027933368 -0.00053043186 -0.0017060959 -0.81159991 0.088517725
579000000 -0.81013727 0.093180425 8.2503284e-005 -0.00040224165 -0.00040716189 -0.0013687385 -0.81082433 0.0890131
580000000 -0.80965817 0.094738618 -0.00042607955 -0.0013943521 -0.00063855818 -0.001688516 -0.81208533 0.089977868
581000000 -0.80867732 0.09416566 -0.00148113 -0.0015516429 -0.0004532288 -0.0011289582 -0.81216508 0.089761615
582000000 -0.81073409 0.095152862 0.00074816257 -0.0015065186 0.00022828123 -0.0036781367 -0.81271625 0.088335358
583000000 -0.8113153 0.09516158 -0.00060200674 -0.0016720863 -0.00014228748 -0.002021604 -0.81242412 0.089928165
584000000 -0.81065512 0.094315261 -0.00054307998 -0.0016769661 0.00019705103 -0.0029476809 -0.8124789 0.090278357
585000000 -0.81041509 0.094477154 -0.00027613959 -0.001456155 -0.00037175027 -0.0023339854 -0.81231952 0.088741377
586000000 -0.80955291 0.094763339 -0.00024859607 -0.0011771651 -0.00049628725 -0.0015887748 -0.81140292 0.089872807
587000000 -0.81075811 0.093935087 -0.00012948901 -0.0020405331 0.00045163496 -0.00065493636 -0.81243485 0.090837561
588000000 -0.80882484 0.095702894 -0.0015472345 -0.0017312709 2.8131315e-005 -0.0014788994 -0.81167072 0.090761602
589000000 -0.81110603 0.093300208 -0.00070583454 -0.0020296948 -0.00040183289 -0.0015602933 -0.8131001 0.088613823
590000000 -0.81063557 0.096812859 0.00025044917 -0.0016276805 -0.00057994726 -0.0010237104 -0.81159377 0.089997277
591000000 -0.81081289 0.096699931 0.00014164686 -0.0004790955 -0.00037980211 -0.002545337 -0.81111234 0.089148648
592000000 -0.81004602 0.09633255 -0.000444868 -0.0027480209 3.7955902e-005 -0.0033403949 -0.81224912 0.090345182
593000000 -0.81077224 0.096802324 0.00022803528 -0.0020311589 -0.0018289066 -0.0019103974 -0.81179506 0.091936879
594000000 -0.81069702 0.096033238 7.021553e-005 -0.0010520101 0.00049557764 -0.0016893668 -0.81134897 0.091470078
595000000 -0.80930376 0.096503668 -0.00064866425 -0.00093108322 0.00039464294 -0.0011636694 -0.81152844 0.089930356
596000000 -0.81191099 0.097072743 -0.00037454846 -0.0014381685 0.00041564499 -0.0020920781 -0.81120288 0.09188094
597000000 -0.81009942 0.097375378 0.00033125066 -0.0016847769 -0.0016561532 -0.0013403991 -0.81231523 0.091243088
598000000 -0.81040049 0.098576777 -0.00017101744 -0.00176536 -0.00033725711 -0.0017117447 -0.81194651 0.090622671
599000000 -0.80966073 0.097911641 -0.0010448744 -0.0017556855 -0.00042991948 -0.0012379277 -0.81114107 0.091690011
600000000 -0.80765885 0.098031595 -0.0011932099 -0.0014611899 -0.00078956765 -7.652866e-005 -0.81190431 0.093487434
601000000 -0.80957556 0.098135576 -5.0767518e-005 -0.0017930939 -0.0012501884 -0.0019096738 -0.81136417 0.092158444
602000000 -0.81034786 0.098169997 0.0003470878 -0.0015051798 -0.00079604198 -0.002502427 -0.81146401 0.091116153
603000000 -0.8092832 0.098461859 -0.00070889812 -0.0022330361 -0.00091071794 -0.0014922905 -0.81172031 0.091651857
604000000 -0.80900729 0.097871043 -0.00038673359 -0.00078989682 -5.8157209e-005 -0.0014637613 -0.80997109 0.092382737
605000000 -0.80888999 0.09854351 -0.00067962491 -0.0010819123 0.00018115489 -0.00021467659 -0.81047422 0.093814708
606000000 -0.80904865 0.099885784 0.00040608249 -0.0015225185 -0.00063732296 -0.0017608192 -0.81098324 0.091857702
607000000 -0.81087607 0.099437654 0.00013244513 -0.0010928145 -0.0010277415 -0.0016031377 -0.8098647 0.093104936
608000000 -0.81063229 0.099022396 -0.00064249407 -0.0015198789 -0.00069082651 -0.00096626428 -0.81069303 0.093460508
609000000 -0.80759388 0.099556655 -2.0295138e-005 -0.0013656892 -0.00090764364 -0.001189494 -0.81133026 0.093019672
610000000 -0.80866325 0.10037699 -0.00015865017 -0.0011409723 -0.0010423246 -0.0017322623 -0.81073684 0.093474835
611000000 -0.81029421 0.099491745 7.3952615e-005 -0.0025221615 -2.9225246e-005 -0.0014757366 -0.81138343 0.094504289
612000000 -0.80850691 0.10021432 -0.00064418657 -0.0011280878 0.00053711078 -0.0013064947 -0.81032068 0.094870359
613000000 -0.80764699 0.10025118 -6.9356094e-005 -0.0017552144 -0.0012968065 -0.0021251852 -0.80958521 0.09443631
614000000 -0.80967402 0.10055588 -0.00034278168 -0.00073552219 -0.00045700427 2.4417252e-005 -0.81071776 0.094497614
615000000 -0.80901855 0.10233114 -0.00067779061 -0.0013873477 -0.00087240862 -0.0020310532 -0.81016171 0.093921013
616000000 -0.81009656 0.10297795 6.1976629e-005 -0.0021877782 -0.00012722725 -0.0012524893 -0.81149429 0.094389349
617000000 -0.80891508 0.1023993 0.00019762933 -0.0015966551 -0.00015970628 -0.0016859113 -0.80929351 0.096259169
618000000 -0.808891 0.10276278 -0.00023248974 -0.0011720903 -2.3957302e-005 -0.0012199259 -0.80877507 0.095801271
619000000 -0.80804521 0.10276431 -0.00097279262 -0.00063710014 -6.4011336e-005 -0.0008962772 -0.80974144 0.09454862
620000000 -0.80706114 0.10243988 -0.0005183891 -0.00095572346 -0.0013233008 -0.0030129256 -0.81051326 0.095300868
621000000 -0.80751848 0.10329115 -0.00014729224 -0.0018811893 -0.00038920913 -0.002027648 -0.80886662 0.095108539
622000000 -0.80824506 0.1028157 0.00012302035 -0.0012213421 -0.00086422946 -0.0012729926 -0.81002134 0.095433667
623000000 -0.80896354 0.10209864 -8.2643928e-005 -0.0016184517 -0.0016358561 -0.0017911947 -0.81031257 0.095778428
624000000 -0.80804449 0.10203164 -0.00035633327 -0.001762095 -0.0013910448 -0.0015112355 -0.81092358 0.095554382
625000000 -0.80949819 0.10419387 -0.00057315407 -0.0021704158 -0.00018677239 -0.0024661191 -0.81085694 0.096727759
626000000 -0.80726576 0.10486476 -0.00011575987 -0.0010948003 0.00025750403 -0.001471136 -0.81021255 0.096219905
627000000 -0.80820841 0.10374502 -0.00029666992 -0.0028395623 -0.00028455639 -0.0016652268 -0.81051958 0.097259879
628000000 -0.80918568 0.10449886 -0.00076505565 -0.0012521888 -0.0019211189 -0.0014232395 -0.8113004 0.098308556
629000000 -0.80839121 0.1047405 -0.00038791978 -0.0020927268 -0.0017059129 -0.001535465 -0.81063277 0.098882645
630000000 -0.80707765 0.10418155 -0.00037150955 -0.0011396975 0.00038076696 -0.001862022 -0.8112607 0.097776711
631000000 -0.80784661 0.10476357 -0.00052818604 -0.0020379503 5.4750923e-005 -0.0016703713 -0.81109625 0.096798241
632000000 -0.81001037 0.10532235 -0.00063796737 -0.001868297 -0.0010090391 -0.00092326576 -0.80993354 0.097942941
633000000 -0.80923402 0.105528 -1.0343803e-006 -0.0013216861 -0.00080918608 -0.001999652 -0.81063497 0.097434029
634000000 -0.80841935 0.10538314 -3.7270347e-005 -0.0021697222 -0.00012166115 -0.0018835971 -0.80999529 0.097165428
635000000 -0.80941439 0.10441398 9.5576361e-005 -0.0026742865 0.0001597036 -0.0021634919 -0.80886346 0.097177245
636000000 -0.80853045 0.10577393 -0.00024147367 -0.0015732442 -0.00011268808 -0.0021807752 -0.81171161 0.097962774
637000000 -0.80801165 0.10615627 -0.00039238355 -0.0021076838 -0.00047799505 -0.0010947883 -0.80943519 0.098281153
638000000 -0.80807775 0.10493832 -0.00010718234 -0.0013504415 8.3242794e-006 -0.0018632275 -0.80984986 0.098484136
639000000 -0.8084771 0.10827769 8.5490428e-005 -0.00114584 -0.00030997276 -0.0017850907 -0.81036836 0.099723905
640000000 -0.80762833 0.10751528 -0.0001124523 -0.0019075845 -1.7114548e-006 -0.0020146291 -0.81046879 0.098629802
641000000 -0.80836117 0.1063548 -0.00024895064 -0.0019847944 -0.00062399253 -0.003102775 -0.80957919 0.097998522
642000000 -0.80727381 0.10643218 -0.00024704056 -0.0020037028 -5.5347242e-005 -0.00145962 -0.81165707 0.10110525
643000000 -0.80723172 0.10763279 -0.00024209083 -0.0018636864 -0.0003337441 -0.0018101784 -0.81025815 0.098937415
644000000 -0.807293 0.10683888 -0.00053404178 -0.0022052897 0.00042538965 -0.001722231 -0.81079614 0.099134229
645000000 -0.80843753 0.10795733 -0.00052908243 -0.0025840143 0.0001623928 -0.0014940548 -0.81096137 0.09863364
646000000 -0.8097319 0.10670317 -0.00093870866 -0.0020634078 -0.00019018831 -0.002313249 -0.8096289 0.099025272
647000000 -0.8079958 0.10904065 0.00040963988 -0.0013620405 3.1083502e-005 -0.0015723036 -0.80963582 0.099034056
648000000 -0.80959827 0.10739834 -0.00029582233 -0.0017280687 -0.0011955255 -0.0012422284 -0.8099243 0.098894745
649000000 -0.80829203 0.10859386 -0.00059286645 -0.00203946 -0.00052407797 -0.0012117267 -0.81170434 0.10088445
650000000 -0.80723828 0.10808001 0.00020913799 -0.0019358408 -0.00081821112 -0.002542367 -0.80961496 0.10004591
651000000 -0.80709314 0.10952029 -0.00025585666 -0.0017603952 -0.0009938007 -0.0017934166 -0.80930382 0.10091373
652000000 -0.80873364 0.10807986 -7.1083385e-005 -0.0014068986 0.00014919111 -0.0012634045 -0.80898589 0.099818103
653000000 -0.80877948 0.1081467 -0.00040371364 -0.002267526 0.00092760788 -0.0021354863 -0.81104457 0.099234045
654000000 -0.80907917 0.10898877 0.00013733316 -0.0019036513 -0.00076384074 -0.0015241181 -0.81014776 0.10027546
655000000 -0.80713809 0.10924049 0.00042738422 -0.0017012279 0.00040791178 -0.0022608354 -0.80987442 0.10090767
656000000 -0.80712825 0.11010571 0.00026685672 -0.0016521011 -0.0005061095 -0.00084387162 -0.80957043 0.10169584
657000000 -0.80766082 0.10838553 -1.3570985e-005 -0.00068531319 0.00016623507 -0.0013898198 -0.81073833 0.10222439
658000000 -0.80962878 0.10873981 0.00018776832 -0.002252952 9.445312e-005 -0.0023050644 -0.809843 0.1004301
659000000 -0.80787492 0.11031166 0.00041527129 -0.0017018394 -1.1460517e-005 -0.0017929707 -0.81191337 0.10110391
660000000 -0.80848676 0.11074285 -0.00012881869 -0.0017535536 0.001242253 -0.0012679945 -0.81009078 0.10231402
661000000 -0.80806804 0.10919627 -0.001110111 -0.0019158061 -0.00028706799 -0.001682132 -0.80973554 0.10066324
662000000 -0.80776638 0.11012071 0.00038191568 -0.0019879905 -0.00029612333 -0.0017918397 -0.8109557 0.10145787
663000000 -0.80871856 0.10930288 -0.00050980161 -0.001930402 0.00019915128 -0.0022127861 -0.80935717 0.10213345
664000000 -0.807854 0.10941901 4.5913479e-005 -0.0017576915 -0.00044921692 -0.0015719233 -0.8106969 0.10179895
665000000 -0.80788469 0.11192552 -0.00062150741 -0.0014163471 -0.00015989513 -0.0023261746 -0.8093003 0.10308553
666000000 -0.80803698 0.11096047 -0.00078472868 -0.0019774742 -0.00073408376 -0.0016533509 -0.81097096 0.10207913
667000000 -0.80771285 0.11119132 -0.0014431754 -0.0031491725 -0.00069945166 -0.0017725974 -0.80885041 0.10169104
668000000 -0.80931813 0.1104179 -0.00031927635 -0.0024524948 -0.0013910494 -0.0011445263 -0.80955124 0.10178106
669000000 -0.80849606 0.10989033 0.00040107171 -0.0022078119 0.00076681509 -0.0022511412 -0.811149 0.10218234
670000000 -0.8073349 0.11107338 0.00034744243 -0.002718118 -9.4065887e-005 -0.0016682009 -0.80924302 0.10327367
671000000 -0.80678123 0.11059751 0.0003072148 -0.0019233131 -9.8864868e-005 -0.0018774896 -0.8097564 0.1014564
