!Keysight Technologies,M9374A,MY55442783,A.12.55.05
!Date: Thursday, May 20, 2021 19:06:05
!Correction: S11(Full 2 Port(1,2)) 
!S21(Full 2 Port(1,2)) 
!S12(Full 2 Port(1,2)) 
!S22(Full 2 Port(1,2)) 
!S2P File: Measurements: S11, S21, S12, S22:
# Hz S  RI   R 50
500000000 -0.81218189 0.082841203 -0.0014093812 -0.0015781518 -0.00055003364 -0.001633751 -0.81380993 0.073557161
501000000 -0.81256098 0.081239872 -0.00064556272 -0.0022517398 0.00088286417 -0.0018606381 -0.81486988 0.07513573
502000000 -0.81337309 0.079939052 -0.00077913213 -0.00045972769 -1.3626784e-005 -0.001294003 -0.81486732 0.074720927
503000000 -0.81287968 0.080622219 -0.00064880826 -0.0012110353 -0.00048175949 -0.0025126375 -0.81395012 0.07512226
504000000 -0.81243747 0.080514766 -0.00043590827 -0.00034101834 -0.00052020134 -0.0010879984 -0.81433499 0.075588576
505000000 -0.81279147 0.080264881 -5.8159117e-006 -0.0015468987 -9.8184741e-005 -0.0013464625 -0.81376517 0.074912205
506000000 -0.81332713 0.080710277 -4.3338543e-005 -0.0018628434 -0.00041733534 -0.0014983442 -0.81457889 0.075003527
507000000 -0.81225145 0.081169225 0.00021989137 -0.00090498623 -0.00012788556 -0.0016575719 -0.81470317 0.075390361
508000000 -0.81254143 0.082386933 -0.0004000146 -0.0012765613 -0.00086520938 -0.0021473649 -0.81507456 0.076204263
509000000 -0.81315666 0.081991799 0.00019332847 -0.00083753298 -0.00089727866 -0.0015669453 -0.81377041 0.077628411
510000000 -0.81315452 0.082700051 0.00020177518 -0.0010640377 0.00081037753 -0.0015923606 -0.81296372 0.077774204
511000000 -0.81300265 0.082301572 0.00014146262 -0.0008479454 -0.0012170416 -0.0014944234 -0.8153668 0.077590503
512000000 -0.81201297 0.0825691 0.00071278523 -0.0013140638 -0.00062027824 -0.0017440958 -0.81400287 0.076741531
513000000 -0.81212366 0.083992995 -0.00076863717 -0.0017696294 0.00012992512 -0.0010370626 -0.81430864 0.07733871
514000000 -0.81255203 0.082774207 -0.00064471178 -0.0012972135 0.00028142825 -0.0010938662 -0.81445485 0.079054669
515000000 -0.81295472 0.083427347 -0.00021140663 -0.0019816498 3.5542937e-005 -0.00072821166 -0.81399399 0.076918118
516000000 -0.81201142 0.081928916 -0.00037110169 -0.0019653789 1.165687e-005 -0.00028826646 -0.81431299 0.078404903
517000000 -0.8124373 0.084993772 -0.00049956079 -0.00074727234 -0.00029647382 -0.00056499772 -0.81372553 0.078322344
518000000 -0.81330818 0.08229471 0.0001534332 -0.00053119368 0.00052468997 -0.0013570023 -0.81467801 0.077168018
519000000 -0.81283528 0.083554767 -0.00010956104 -0.0017781267 -0.00078370277 -0.00023142689 -0.81372905 0.079370134
520000000 -0.81180382 0.083850361 -0.00037377191 -0.0016691568 0.00041516955 -0.00054562971 -0.81374133 0.07935755
521000000 -0.81182319 0.083553426 -0.00036252456 -0.0019206612 0.00020659655 -0.0027592601 -0.81543595 0.079253338
522000000 -0.81236631 0.083272137 -0.00018869322 -0.0014602444 -0.00043597681 -0.0011325611 -0.81513542 0.079164594
523000000 -0.8129155 0.084895 -0.00048475125 -0.00012493761 -0.00018144828 -0.0017540311 -0.81332833 0.079258852
524000000 -0.81101876 0.08453884 -0.00043917596 -0.001332494 0.00020867887 -0.0012706283 -0.81509942 0.079548381
525000000 -0.81105322 0.084315754 0.00039271259 -0.00046555069 -0.00051136175 -0.0011804361 -0.81492406 0.080652602
526000000 -0.81188905 0.08612024 -0.00023012063 -0.00090887741 -5.9257491e-005 -0.0014410487 -0.8133266 0.080350153
527000000 -0.81197876 0.083828822 0.00011733817 -0.002535651 -0.00056019425 -0.0012114694 -0.81381732 0.079342864
528000000 -0.81237537 0.085704051 0.0004015321 -0.0016930174 -0.00049672095 -0.0012150296 -0.81315821 0.080085725
529000000 -0.81186241 0.085676685 0.00070438912 -0.00087358814 0.00060089381 -0.0025071821 -0.8145687 0.078526057
530000000 -0.81223911 0.085497238 8.7527398e-005 -0.0021634037 0.0011082857 -0.0013096096 -0.81547803 0.080781743
531000000 -0.81184232 0.086261325 0.00042479913 -0.0017235817 -0.00083127222 -0.001816023 -0.81424278 0.080929704
532000000 -0.81141233 0.085415803 0.00010560083 -0.0016459252 -0.00018089647 -0.00051647355 -0.81337494 0.079658456
533000000 -0.81224644 0.085923426 0.00062000472 -0.00042643028 -0.00060043676 -0.001055644 -0.81378365 0.079995207
534000000 -0.81275415 0.087080121 0.00092802156 -0.0024338681 -0.00088270707 -0.0010604364 -0.81315488 0.080882914
535000000 -0.81232667 0.085831158 -0.0010182103 -0.00066977722 0.00012709058 -0.0012876639 -0.81259179 0.080009259
536000000 -0.81096178 0.086171083 -0.00053880853 -0.0010842888 0.00023398451 -0.0023167746 -0.81430006 0.081817552
537000000 -0.81127417 0.086489759 0.00070165086 -0.0020569635 0.00060004031 -0.0017194806 -0.81463605 0.081220843
538000000 -0.81219083 0.087866746 -3.3435968e-005 -0.001277244 0.0007123496 -0.0021044959 -0.81387872 0.08112631
539000000 -0.81258297 0.087384745 0.00017588647 -0.00092647498 8.7508943e-006 -0.0015401262 -0.81410563 0.082088172
540000000 -0.81270409 0.086729959 -0.00032788652 -0.0021318686 0.0005584553 -0.0014741003 -0.81250489 0.082886092
541000000 -0.81281769 0.087610886 -0.00054242212 -0.0010415682 -0.00044505933 -0.0020017449 -0.81422246 0.082126401
542000000 -0.81368345 0.087784491 -0.0010576047 -0.0011841917 -0.00038576036 -0.0017866134 -0.81332457 0.081538595
543000000 -0.81227738 0.087263428 -7.8499594e-005 -0.001111808 2.3514687e-005 -0.0013185022 -0.81334531 0.08190649
544000000 -0.81127596 0.087060459 -0.00083521713 -0.0012391723 -0.00044817358 -0.0015384974 -0.81331205 0.082218066
545000000 -0.81225806 0.087367356 -0.0006284056 -0.00017259392 -0.00055086298 -0.0013426235 -0.81303531 0.082941927
546000000 -0.81293148 0.088958308 -0.00094680797 -0.0010524326 0.00070583879 -0.001547653 -0.81338543 0.082074717
547000000 -0.81125593 0.088505678 -0.00046453238 -0.0012984304 -0.0011226499 -0.0030032622 -0.81457525 0.081680298
548000000 -0.81172717 0.0901158 -7.458136e-005 -0.0022776546 -0.0011975183 -0.0015740864 -0.8133139 0.082944579
549000000 -0.8108294 0.089697793 -0.0011314225 -0.0018360771 -0.00049462001 -0.0013527187 -0.81334537 0.08394932
550000000 -0.81214333 0.087804206 7.7217082e-005 -0.0013731951 -0.00032724644 -0.0019305657 -0.81493431 0.084509894
551000000 -0.81214136 0.088060699 0.00092422415 -0.0013115786 -7.6180528e-005 -0.001350648 -0.81483805 0.083466828
552000000 -0.81186813 0.088382818 0.00045663025 -0.0012708525 7.13849e-005 -0.00081968872 -0.81374121 0.081992425
553000000 -0.81244129 0.088410974 0.00018492507 -0.0017051389 -0.00033070092 -0.0019134044 -0.81401652 0.083426297
554000000 -0.81078166 0.090606302 0.00041585712 -0.0016415572 -0.00041338438 -0.0015196102 -0.81498665 0.083741106
555000000 -0.81073254 0.088704415 -0.00012879274 -0.0017340444 -0.00010243155 -0.0011017889 -0.81477982 0.084675133
556000000 -0.81237733 0.088432781 7.5671349e-005 -0.0015487574 3.1245938e-005 -0.0014043212 -0.81405085 0.08526352
557000000 -0.8126924 0.088103071 -0.00026972397 -0.0018265313 0.00024109875 -0.0010403553 -0.81389403 0.084926121
558000000 -0.81233335 0.090056442 0.0004577268 -0.0020902113 3.4903089e-005 -0.0018148869 -0.815548 0.08334624
559000000 -0.81117558 0.088400729 2.6064386e-006 -0.0014669484 -0.0010997257 -0.00129401 -0.81408083 0.083896667
560000000 -0.81013411 0.090109304 0.00071458519 -0.0018942896 -0.00016248575 -0.001293488 -0.81469089 0.083201021
561000000 -0.81229997 0.0883426 -0.0011490749 -0.00025630306 0.00019149706 -0.001754308 -0.81388211 0.082543589
562000000 -0.81089056 0.088574097 0.00050836708 -0.0014379723 -0.00041155028 -0.0013927924 -0.81557244 0.085480802
563000000 -0.8123073 0.0890297 0.00063445041 -0.0013134291 -0.001016337 -0.0021404412 -0.8143332 0.085205115
564000000 -0.81062084 0.089535944 -0.00021626045 -0.0023066266 -0.00038045744 -0.0020492421 -0.81415212 0.085073352
565000000 -0.81142211 0.089503147 -0.00070152234 -0.001884599 5.4898674e-006 -0.0020982283 -0.81530797 0.085838035
566000000 -0.81120336 0.090309262 -0.00043450337 -0.0014207611 -0.00075566355 -0.0011351741 -0.81371951 0.085262939
567000000 -0.81221867 0.089620098 -5.3836182e-005 -0.0016272513 0.00024128087 -0.0012380307 -0.81514275 0.085191667
568000000 -0.81119376 0.089903437 -0.00060950016 -0.0013296474 -0.00010968276 -0.00048831076 -0.81293881 0.08437144
569000000 -0.8118825 0.090435803 4.7108795e-005 -0.00086726708 -0.00015779084 -0.0005745301 -0.81337029 0.082641065
570000000 -0.81108367 0.089942887 -0.0011986165 -0.0012091384 -0.00015988891 -0.0012630926 -0.81294566 0.084625028
571000000 -0.81217426 0.089895122 0.00027616802 -0.0013505091 -0.00047755847 -0.00080451445 -0.81419766 0.08534506
572000000 -0.80976301 0.090369031 -0.00039341536 -0.0023481695 -0.0006653078 -0.0025476313 -0.81400448 0.085748546
573000000 -0.81157827 0.090150751 -0.0012730714 -0.0018942439 0.00050620042 -0.0013514537 -0.81371248 0.085689425
574000000 -0.80968839 0.090787865 0.00064076565 -0.00098206848 0.00034430617 -0.002058211 -0.81468105 0.085629515
575000000 -0.81033015 0.091369726 -0.00058543007 -0.0010773311 -0.0011537744 -0.0013883157 -0.8130343 0.087135583
576000000 -0.81168032 0.089373551 0.00086470024 -0.0016775444 -0.00068900303 -0.0006029213 -0.81385463 0.085487105
577000000 -0.81091315 0.091317639 0.00026176014 -0.0017031699 -0.00013628883 -0.0009999082 -0.8137328 0.085650407
578000000 -0.81167465 0.090642378 -0.0010233934 -0.0016372377 6.69742e-005 -0.0005228814 -0.81186414 0.08671762
579000000 -0.81081939 0.091823652 -0.00030354029 -0.0016959325 -0.00061747263 -0.001531538 -0.81544071 0.085206233
580000000 -0.81126702 0.089679062 6.3671678e-006 -0.0019397787 0.00015918449 -0.0013867511 -0.81330848 0.087493092
581000000 -0.8110429 0.090844639 -0.00080998655 -0.001958556 -0.00024568761 -0.0014149771 -0.81295872 0.085800387
582000000 -0.81042814 0.09070003 0.00041391896 -0.0014109641 -0.00032599273 -0.0015718266 -0.81352299 0.086471573
583000000 -0.81153244 0.091171108 5.3023108e-005 -0.00046167697 -0.0006806046 -0.0014002146 -0.81221855 0.086144827
584000000 -0.80964363 0.090944819 -0.00036599423 -0.0018985136 -0.00069481111 -0.0013270454 -0.81336236 0.08863318
585000000 -0.81177557 0.091351502 -0.00092309783 -0.00072942732 0.00043216269 -0.00025657436 -0.8133356 0.086590908
586000000 -0.81095225 0.092212938 0.00021339272 -0.0015372841 -0.00030671177 -0.00071230705 -0.8146531 0.087602019
587000000 -0.81099397 0.093233444 0.00051076838 -0.0021865328 -0.0010555979 -0.0012259489 -0.81252539 0.087786831
588000000 -0.81130302 0.092984818 -0.0010773592 -0.001475588 0.00067930022 -0.001750167 -0.81390476 0.086858243
589000000 -0.81149513 0.093418784 -0.00037596092 -0.0019898491 1.8278371e-005 -0.0018869721 -0.81287557 0.089215957
590000000 -0.81073284 0.093235433 -0.00053196773 -0.0010368802 -0.00019954338 -0.001919054 -0.81235135 0.087243833
591000000 -0.80978626 0.092166625 -0.0012729107 -0.0013393895 -0.00022845875 -0.0023444497 -0.81362122 0.087669507
592000000 -0.80972618 0.09236183 -0.00045672659 -0.001337559 -0.00019238783 -0.00064816343 -0.81352228 0.087006085
593000000 -0.81111443 0.093114473 -0.00011809095 -0.0016500774 -0.00041349317 -0.0012116646 -0.81466663 0.087650195
594000000 -0.81038177 0.094475232 -0.0012888985 -0.0015914603 -0.0002961703 -0.0022626664 -0.8130427 0.088253036
595000000 -0.8106693 0.094173469 -0.00076865719 -0.0016584471 -0.0002681328 -0.0019730618 -0.81267577 0.087207012
596000000 -0.81011826 0.093033724 -0.00031970406 -0.0019820286 -0.00048501417 -0.0013445668 -0.81284821 0.090010367
597000000 -0.81105179 0.09501493 -0.00021907774 -0.0013621825 -0.0011525063 -0.00065302738 -0.81370842 0.08891499
598000000 -0.81084251 0.09396439 -0.00011019338 -0.0013115177 -0.00021900451 -0.002295489 -0.81382525 0.088678211
599000000 -0.80945867 0.09405987 -3.2304539e-005 -0.0025138238 -0.00066557963 -0.0015032188 -0.81268704 0.088773802
600000000 -0.81059283 0.095569409 -0.00041631929 -0.0014222946 0.00058970816 -0.0019363222 -0.8127439 0.088945806
601000000 -0.81006724 0.094645903 -0.00021709152 -0.0016767401 -0.00050942239 -0.0025947881 -0.81346077 0.088969573
602000000 -0.81025839 0.093388461 0.00075629819 -0.0013464158 -0.001778101 -0.0016285428 -0.81232911 0.089052483
603000000 -0.81071573 0.094791599 0.00047836849 -0.0013067964 0.00022822157 -0.0016374093 -0.81321484 0.088786811
604000000 -0.8099947 0.095451407 -0.0007466547 -0.0013068494 2.5231579e-005 -0.0024819337 -0.81303024 0.091269284
605000000 -0.8104443 0.096610129 0.0006538473 -0.0010518339 -9.8089549e-005 -0.0015007108 -0.81374645 0.090182655
606000000 -0.81096512 0.095913887 2.6121897e-005 -0.0019403966 -0.00052234979 -0.001979145 -0.81226838 0.088561602
607000000 -0.81036007 0.096400864 0.00013138524 -0.0010507475 -0.00057218596 -0.0019036768 -0.81444144 0.09019649
608000000 -0.81202561 0.096975736 -0.00019085717 -0.0015890884 0.00056919566 -0.00097545696 -0.81316239 0.091437541
609000000 -0.8086955 0.095830917 7.0294554e-005 -2.0015948e-005 -0.00085466047 -0.0012751641 -0.81261247 0.090595767
610000000 -0.80935001 0.097113073 -7.3640003e-006 -0.0013436944 -0.00033334451 -0.0017457132 -0.81244791 0.090190016
611000000 -0.81057256 0.098139033 -0.0010441857 -0.001539213 -0.00073500624 -0.0014294689 -0.81190592 0.090058759
612000000 -0.80937606 0.097031303 -0.00033184548 -0.0026474816 1.9981057e-005 -0.0015059058 -0.81335503 0.090279244
613000000 -0.81101024 0.097369641 -0.00020737518 -0.0012522528 -0.00047075789 -0.00093499303 -0.81299257 0.089752153
614000000 -0.80747014 0.098128952 -0.00024614664 -0.0019074582 -0.00054715079 -0.0020513718 -0.81440419 0.089936882
615000000 -0.80940545 0.096948832 -0.0004651784 -0.0019905178 -0.00043275213 -0.0015884037 -0.81319708 0.091446169
616000000 -0.81084627 0.09813977 0.00027285368 -0.0022822507 -0.00023705809 -0.0016631444 -0.81278795 0.09271767
617000000 -0.81109387 0.098594807 0.00079011987 -0.0025938398 0.00034515341 -0.0024401308 -0.81354862 0.091511346
618000000 -0.80951607 0.098837666 -0.00046200128 -0.0025406184 -0.00051938952 -0.0018691943 -0.8116523 0.093217753
619000000 -0.80904603 0.099300973 -0.00028079798 -0.0015142517 -0.00064194889 -0.0019595439 -0.81196171 0.093055256
620000000 -0.80953407 0.096811853 0.00043094432 -0.0014524581 -0.00065414241 -0.0024645422 -0.81195849 0.091987386
621000000 -0.81053591 0.098051146 4.6104811e-005 -0.0011498424 -0.00031560814 -0.0011505008 -0.81104833 0.093188383
622000000 -0.80955625 0.099129848 0.00064035808 -0.0025027345 -0.0005505734 -0.0018977665 -0.81301332 0.091906533
623000000 -0.80773371 0.099680856 0.00012423622 -0.0016883117 -0.00066335627 -0.0023122556 -0.81261492 0.091357611
624000000 -0.80857402 0.098712675 -0.00051456544 -0.0011705002 0.00030579031 -0.0023016387 -0.81112921 0.093292125
625000000 -0.80875808 0.099187143 -0.00030836024 -0.0020964562 -0.00051712058 -0.0012814905 -0.81162506 0.091889895
626000000 -0.80950987 0.10080262 0.0009511059 -0.0019191861 -0.00065838819 -0.0011895781 -0.81264234 0.093310006
627000000 -0.81044751 0.10155331 -0.001315144 -0.00085686153 -0.00064238015 -0.002265848 -0.81298393 0.091015957
628000000 -0.80939102 0.10008395 0.00023438327 -0.0023285456 -0.0015286357 -0.0023696269 -0.81387019 0.09291295
629000000 -0.80979657 0.10163043 0.00023631443 -0.0012475346 -0.0011946229 -0.0019319433 -0.81168157 0.093950011
630000000 -0.80946314 0.10027333 -0.00058434374 -0.0014885146 -0.00092706992 -0.0019783208 -0.81385499 0.093700051
631000000 -0.80964983 0.10200267 -0.0011092582 -0.0016808645 2.114065e-005 -0.0019026247 -0.81283098 0.094476543
632000000 -0.80902153 0.10258394 -0.0009678136 -0.0024697306 0.00039671507 -0.0018407947 -0.81192929 0.094552748
633000000 -0.81032169 0.10033848 -0.00077887799 -0.0015780514 -0.00055959547 -0.0020628399 -0.8124513 0.094864309
634000000 -0.80769324 0.10375678 -0.00076866191 -0.0012820471 8.1681901e-005 -0.001253331 -0.81308079 0.094946742
635000000 -0.80837387 0.10166148 -4.8880825e-005 -0.0017465081 -0.0015685367 -0.0017956952 -0.81215101 0.094372496
636000000 -0.8092491 0.10272627 -0.00096988596 -0.0018830684 -0.00064359658 -0.0013582724 -0.81206673 0.095271923
637000000 -0.80853093 0.10342801 -0.00048076434 -0.0021749851 -3.2434287e-005 -0.0014164477 -0.81053472 0.09560816
638000000 -0.80906767 0.10388428 -0.00017718655 -0.0023748551 -0.00025388107 -0.0018277835 -0.81336868 0.096938983
639000000 -0.80917358 0.10239423 -0.00019480995 -0.0017898266 -5.1157891e-005 -0.0017032721 -0.8108114 0.096169196
640000000 -0.80883384 0.10301727 0.00050350151 -0.0021718142 -2.4560715e-005 -0.0024887056 -0.81141585 0.095759116
641000000 -0.80912274 0.10345609 0.00023311777 -0.0017493441 0.00016313342 -0.0019334981 -0.8115074 0.094560236
642000000 -0.80919892 0.10398533 6.0572911e-005 -0.0010890526 -0.00062433415 -0.0010604053 -0.81282914 0.095343091
643000000 -0.80945909 0.10364219 -0.00010248639 -0.00071688415 0.00017598887 -0.00082584802 -0.81183863 0.094826892
644000000 -0.80964231 0.10362892 -0.0003610421 -0.0014961509 -0.0013596212 -0.0018706386 -0.81277943 0.096787877
645000000 -0.80888754 0.10450862 -0.00058321276 -0.0013470234 -0.00050264975 -0.0023057777 -0.81137991 0.096535526
646000000 -0.80881053 0.10366557 5.3834308e-005 -0.0022381416 0.00053060899 -0.00026275098 -0.81160825 0.096174411
647000000 -0.8096475 0.10555762 -0.00080906472 -0.0014213409 -4.6400532e-005 -0.00088464608 -0.81202251 0.095793672
648000000 -0.80861431 0.10510438 0.0002107036 -0.0016937782 -0.00030950323 -0.0013193373 -0.81151241 0.095520511
649000000 -0.80887753 0.10446744 -0.0012616821 -0.0011956329 -0.0012333771 -0.0021620009 -0.8107087 0.097978532
650000000 -0.80872738 0.1039087 -0.00054247386 -0.0017331856 -0.00012725004 -0.0022116511 -0.81102377 0.097827204
651000000 -0.80909449 0.10653049 -0.0010595568 -0.0012433701 -0.00041274453 -0.0016992339 -0.81254023 0.097348116
652000000 -0.80954778 0.10481677 -0.00096315111 -0.0021122766 0.00053513004 -0.0015909657 -0.81219709 0.097517177
653000000 -0.80913937 0.10410429 -0.0011559771 -0.0019891816 5.3944914e-005 -0.0013100199 -0.81101292 0.096131712
654000000 -0.80877274 0.10483218 -0.00067486067 -0.0020645882 -0.00057458208 -0.0023030259 -0.8113063 0.097854801
655000000 -0.80828393 0.10613076 -0.00072212645 -0.0019440022 -0.00014319805 -0.0013978686 -0.81206834 0.099700905
656000000 -0.80899948 0.10495598 0.00033395336 -0.0011068619 -0.00052913703 -0.0021618665 -0.81253415 0.097665437
657000000 -0.8088398 0.10572591 6.3535437e-005 -0.0011401492 -0.00060015992 -0.00084448245 -0.81295729 0.097398885
658000000 -0.80938876 0.10596839 0.00012833287 -0.00093689247 -0.00077720615 -0.0016692171 -0.81025457 0.098020867
659000000 -0.80945832 0.105949 0.00024404135 -0.0027709596 0.00022197275 -0.0016470941 -0.81218809 0.097455561
660000000 -0.80915403 0.10722011 -0.00020116227 -0.0032047173 0.00015180762 -0.0018193738 -0.81180984 0.096718565
661000000 -0.80997229 0.10658784 -0.00096484483 -0.00141981 0.00053266925 -0.0017995472 -0.81192797 0.099752322
662000000 -0.80906725 0.10635536 -0.0012828142 -0.0018066358 -0.0010399297 -0.0015724055 -0.81225228 0.098203935
663000000 -0.80852181 0.10671755 0.0013289283 -0.0020380998 -0.0019493942 -0.0015398538 -0.81134814 0.098422512
664000000 -0.8087312 0.1065473 -0.00081635051 -0.0018448457 -0.00081565714 -0.0025069879 -0.81122595 0.099435024
665000000 -0.80920398 0.10824634 -0.00044424366 -0.0021422384 0.00015142414 -0.0021876884 -0.81192368 0.10002214
666000000 -0.80869287 0.10792119 -0.00019799887 -0.00066485477 -0.00022678208 -0.0018352761 -0.81219512 0.098114915
667000000 -0.8081612 0.10674325 -0.00039397529 -0.0015741225 -0.00062613731 -0.0026547911 -0.81115544 0.099128589
668000000 -0.80880314 0.10717424 -0.0011116646 -0.0021530881 -0.00067583041 -0.0020470908 -0.81130242 0.098697156
669000000 -0.80815691 0.10848428 -0.00030710953 -0.0017649415 -0.00029690011 -0.0015933525 -0.81087434 0.097472422
670000000 -0.80945331 0.10813363 -6.8491529e-005 -0.0013022585 -0.00045638203 -0.0016677793 -0.81076229 0.10000201
671000000 -0.80803782 0.10857019 -0.00082416675 -0.0014808802 -0.00034149562 -0.0022268197 -0.81286448 0.099248752
