!Keysight Technologies,M9374A,MY55442783,A.12.55.05
!Date: Thursday, May 20, 2021 18:59:37
!Correction: S11(Full 2 Port(1,2)) 
!S21(Full 2 Port(1,2)) 
!S12(Full 2 Port(1,2)) 
!S22(Full 2 Port(1,2)) 
!S2P File: Measurements: S11, S21, S12, S22:
# Hz S  RI   R 50
500000000 -0.81223881 0.08025381 -0.0001102533 -0.0016911987 0.00044728827 -0.0011984654 -0.81391603 0.075181477
501000000 -0.81175554 0.079667032 -4.6461588e-005 -0.0019144831 2.523852e-005 -0.00074233225 -0.81421274 0.075583294
502000000 -0.81258327 0.082060575 -0.0010165084 -0.0011740086 -0.00091265544 -0.00089352083 -0.81352031 0.075543039
503000000 -0.81163669 0.07963492 0.00019406779 -0.0012500269 5.5689095e-005 -0.0010428664 -0.81481946 0.075678565
504000000 -0.81084067 0.081353948 0.00042260854 -0.0010834142 0.00022545764 -0.00070132816 -0.81478113 0.075083107
505000000 -0.81248325 0.079834618 0.00024536051 -0.0012827058 -0.0013105508 -0.0011507375 -0.81513804 0.076439686
506000000 -0.81107664 0.081652112 0.00020657404 -0.0010138097 0.00038968746 -0.0014251287 -0.81295836 0.074337021
507000000 -0.81258523 0.082409956 -0.00042462064 -0.0019597423 -0.0008342996 -0.0011395498 -0.81409854 0.076648816
508000000 -0.81259996 0.083619669 -4.4815724e-006 -0.0022954314 -0.00054475246 -0.0016708547 -0.81444824 0.076621361
509000000 -0.81159633 0.084169731 -0.00021794725 -0.0014917029 -0.00012192927 -0.0020384514 -0.81444699 0.077537321
510000000 -0.8118487 0.084342614 -0.00034971867 -0.001673923 0.00065939309 -0.0016968236 -0.8141275 0.076175876
511000000 -0.81127661 0.083105147 0.00043387379 -0.0017059459 -0.00023185533 -0.001043053 -0.81265938 0.078408249
512000000 -0.81234473 0.083725758 7.0875387e-005 -0.002105389 -0.00016588627 -0.0012005471 -0.81552333 0.076170467
513000000 -0.81349254 0.085240714 -0.00089605054 -0.0013352925 -0.00080637453 -0.00080962636 -0.8147651 0.078393541
514000000 -0.812163 0.082721792 -0.00099316461 -0.0015831917 0.00048745019 -0.00050162041 -0.81336653 0.077887289
515000000 -0.8111397 0.083594009 -0.00081561413 -0.0014445982 -0.00022823046 -0.001304778 -0.81547749 0.077335469
516000000 -0.81225383 0.083161324 -0.00030066323 -0.00072957296 -9.7945333e-005 -0.00099938863 -0.81369746 0.078460269
517000000 -0.81159979 0.08571291 -0.00011971821 -0.0027429659 -0.0004204993 -0.0019071095 -0.81357241 0.078008331
518000000 -0.81130713 0.08408501 5.5011342e-006 -0.0016555471 0.00054724893 -0.0010582772 -0.81419116 0.077160314
519000000 -0.81180018 0.085097447 -0.0019216897 -0.0013641332 -0.00034305188 -0.0021490753 -0.81482387 0.079496115
520000000 -0.81172103 0.08316078 -0.00064076256 -0.00096535555 -0.00010511003 -0.0016745271 -0.81399822 0.078310534
521000000 -0.81106246 0.084883004 -6.5162909e-005 -0.00095562008 -0.0019255218 -0.0018446755 -0.81387633 0.078376353
522000000 -0.81275445 0.084882855 -0.00026153485 -0.0012093415 -0.00023743938 -0.00092579989 -0.81358606 0.080122136
523000000 -0.81272316 0.084324434 0.00027764609 -0.001604749 -0.00057555747 -0.0020093643 -0.81473207 0.079912007
524000000 -0.81243867 0.08619535 0.00011993683 -0.0019580282 -0.00059948413 -0.00044098558 -0.81339872 0.079515547
525000000 -0.81200176 0.08360786 0.00043911126 -0.00097275386 0.00078174128 -0.0018513614 -0.81354266 0.079718105
526000000 -0.81069738 0.086546615 -0.00021069284 -0.0018986604 0.00095687225 -0.0015036266 -0.81397307 0.080408908
527000000 -0.81224519 0.083947174 4.2820007e-005 -0.0019936699 -8.1216305e-005 -0.0016969921 -0.81392848 0.080764227
528000000 -0.81218266 0.085910819 -7.8867615e-006 -0.00094283657 -0.0012128713 -0.0012177619 -0.81294465 0.080573611
529000000 -0.8132025 0.086733133 -0.00092895294 -0.0010149442 -0.00052629074 -0.00027993962 -0.81433129 0.080112904
530000000 -0.81180996 0.087235704 -0.0014051994 -0.0013727018 -0.00044782434 -0.0017401273 -0.81387877 0.08125025
531000000 -0.81254649 0.086946636 -0.0010349124 -0.0010531332 -0.0012256103 -0.0022519345 -0.81371778 0.081757747
532000000 -0.81040043 0.085517019 -0.00051585352 -0.0017898564 -0.00063834747 -0.0024896492 -0.81320322 0.080749817
533000000 -0.81131715 0.086147793 0.00035703724 -0.00095481385 -4.9693219e-005 -0.0014383434 -0.81361669 0.082892321
534000000 -0.80941707 0.086537145 6.04165e-005 -0.001634266 -0.00091043609 -0.0011870617 -0.81359291 0.082192264
535000000 -0.8110947 0.088032402 0.0004898138 -0.0018105897 -0.00025357908 -0.0020635491 -0.81289947 0.080985002
536000000 -0.81159669 0.086626858 -0.00023479733 -0.0016034772 -0.00068842765 -0.0011579784 -0.8146686 0.082268201
537000000 -0.81188685 0.086272836 0.00032346707 -0.0016458789 -0.00075273885 -0.0019827969 -0.8131603 0.082706809
538000000 -0.8115195 0.087409496 -0.00083583017 -0.0012091245 -0.0002161701 -0.0013588184 -0.81267798 0.083295666
539000000 -0.81239039 0.087119445 0.00026899032 -0.0013388409 -0.00052389363 -0.0017780011 -0.81375092 0.082178771
540000000 -0.81193131 0.089217275 -0.0010171238 -0.0010526001 -0.00015565394 -0.0010019796 -0.81094015 0.083600737
541000000 -0.81130892 0.086679004 0.00013405965 -0.0021936698 0.00039775638 0.00015827508 -0.81366909 0.081705436
542000000 -0.81134945 0.089054897 3.5703379e-005 -0.0011039273 0.0005162544 -0.0015718979 -0.81358624 0.082671784
543000000 -0.81098264 0.086896054 -0.00031353268 -0.0016708674 -0.00012189672 -0.0014551355 -0.81311721 0.081803381
544000000 -0.81113714 0.088240869 2.1772108e-005 -0.0010287776 -2.5400428e-005 0.00018714876 -0.81357414 0.082950629
545000000 -0.81120247 0.087247603 -0.00014709457 -0.0008032305 -0.00091212918 -0.00080529036 -0.81435579 0.083363451
546000000 -0.81195623 0.08841189 -0.00080228708 -0.0010930838 -0.00071474374 -0.0015019864 -0.81243998 0.083231032
547000000 -0.81207913 0.088826388 -0.00055925892 -0.0020713247 -0.00081054313 -0.00015825358 -0.81311423 0.082478106
548000000 -0.81002027 0.086660333 0.00052957807 -0.00087142445 4.2964672e-005 -0.0021842869 -0.81433547 0.082852624
549000000 -0.8117643 0.088733718 -0.00031528046 -0.0016939443 -0.001589765 -0.0011843559 -0.81290549 0.083537243
550000000 -0.81150681 0.088794425 -0.00033064891 -0.0017761216 -0.00066659262 -0.0015413408 -0.81311345 0.084406503
551000000 -0.81152117 0.089676812 -2.9759012e-005 -0.0022170602 -0.00032744999 -0.0016893238 -0.81439495 0.083347999
552000000 -0.81082642 0.087969951 -0.00064606685 -0.00073361024 -0.00024035112 -0.0014092166 -0.81453007 0.084542997
553000000 -0.81133646 0.088777564 -0.0010809688 -0.0018765553 0.00034842614 -0.0012204295 -0.8128683 0.082362145
554000000 -0.81074744 0.087632984 -0.00047748588 -0.00047055434 -0.00061721983 -0.0024907568 -0.8136459 0.084062688
555000000 -0.81040996 0.089932963 -0.00049346965 -0.00045774592 -0.00027178839 -0.0018025986 -0.81417543 0.083250158
556000000 -0.81191772 0.089822479 0.00025093084 -0.0022791224 0.00010290155 -0.0010440613 -0.813155 0.083697096
557000000 -0.8112402 0.089916445 -0.0010363495 -0.0019986376 -0.00031881529 -0.001405298 -0.8156926 0.084955029
558000000 -0.81114459 0.088852979 -0.00040130335 -0.0013900207 -0.00043517459 -0.0018261345 -0.81317776 0.084525995
559000000 -0.81254786 0.088491589 -0.00012662639 -0.0018325715 1.1853126e-005 -0.0015845891 -0.81419027 0.084571481
560000000 -0.81083667 0.090225734 -0.00024443236 -0.0023208985 6.2342675e-005 -0.0017611235 -0.81278038 0.084279433
561000000 -0.81168407 0.089587115 -0.00025480834 -0.0014975633 -0.00090864056 -0.0013724583 -0.81395543 0.085633919
562000000 -0.81053519 0.091549039 0.0012751037 -0.0015545113 -0.00014085812 -0.0017413867 -0.81390947 0.084894054
563000000 -0.8126061 0.088600576 -9.4791867e-005 -0.0020693352 0.00014286816 -0.0011753528 -0.8141678 0.085044228
564000000 -0.81072283 0.089723416 0.00023286835 -0.0011038021 -0.0004087362 -0.0023395952 -0.81367201 0.084790781
565000000 -0.81064016 0.090380438 -0.0010139958 -0.0021267186 -0.00031367023 -0.0018930378 -0.81283283 0.0849315
566000000 -0.8110711 0.090515077 -0.0014861756 -0.00052555301 -0.0006352138 -0.0012767019 -0.81392264 0.08483199
567000000 -0.81071675 0.091011345 -0.0012264883 -0.0020087741 -0.00055320456 -0.0014346875 -0.81323034 0.083890937
568000000 -0.81185693 0.090108491 9.1807124e-005 -0.0021788324 -0.0014287394 -0.0019248159 -0.81362092 0.084927134
569000000 -0.81098902 0.090909272 -0.00062743324 -0.001298702 0.00029940443 -0.0014952121 -0.81352627 0.084271781
570000000 -0.81028777 0.091385864 0.00037090215 -0.0010304924 0.00033680495 -0.0012443996 -0.81251729 0.086199008
571000000 -0.81231838 0.090874672 0.00038542706 -0.0021571233 -0.00058121665 -0.001773369 -0.81428206 0.085936546
572000000 -0.81106997 0.089965336 0.00034030838 -4.5531598e-007 -0.00011309397 -0.0019406283 -0.8140282 0.086779654
573000000 -0.81134272 0.090950869 -0.00037404223 -0.0010689716 0.00031076485 -0.0014211859 -0.81499141 0.085494794
574000000 -0.81078357 0.090811394 0.00060137 -0.001608019 -0.00062755466 0.00017084071 -0.8143959 0.085873447
575000000 -0.8097946 0.091005333 -0.0002855054 -0.0010394639 -0.00069759868 -0.0011556566 -0.81516236 0.086239181
576000000 -0.81074196 0.089467078 6.6385946e-005 -0.000925395 0.00033684005 -0.0025049583 -0.8139258 0.085468926
577000000 -0.81165892 0.090223029 -0.00037502192 -0.0022795016 -0.00038759361 -0.0020425096 -0.81382686 0.085924819
578000000 -0.8105104 0.091150291 -0.00023144016 -0.0022430711 -0.00054802099 -0.0021100303 -0.81266272 0.086691491
579000000 -0.80963278 0.092597805 0.00043544057 -0.0015793481 7.2309114e-005 -0.0019969367 -0.81477791 0.085673578
580000000 -0.81100428 0.091326594 -0.00019733331 -0.001512731 -0.00064595736 -0.0017802076 -0.81335658 0.086745359
581000000 -0.8100065 0.090922862 0.00020676838 -0.001704749 -0.00022662703 -0.001509584 -0.81259787 0.085046194
582000000 -0.81043893 0.09137743 0.00029175868 -0.001966096 -0.00020186066 -0.00094181095 -0.81364858 0.086541027
583000000 -0.81022942 0.091699757 -0.00050637871 -0.0015583395 0.00040234081 -0.0013461623 -0.81433135 0.086127847
584000000 -0.81090194 0.092300549 -0.00018475515 -0.00098335079 -3.0416468e-005 -0.0013806425 -0.81405801 0.08771348
585000000 -0.80970043 0.093748711 0.00016746382 -0.0021152117 -0.00072022429 -0.0013619538 -0.81351066 0.088304438
586000000 -0.81045115 0.091830857 -0.00015821353 -0.00069534825 0.00019025628 1.7222505e-005 -0.81219792 0.08819893
587000000 -0.81012285 0.093251251 -0.00057623803 -0.00090923795 0.00037218479 -0.0016525188 -0.81391937 0.088168457
588000000 -0.80981272 0.09305872 0.00049629435 -0.0023041863 -0.00058177131 -0.00079373323 -0.81503546 0.089161374
589000000 -0.81022888 0.092468791 -0.0010098857 -0.0017969112 -0.00069097499 -0.0024623687 -0.81440341 0.087330505
590000000 -0.81033468 0.09381213 -0.00035811868 -0.0014857082 1.1991083e-006 -0.00024780925 -0.81304997 0.087450475
591000000 -0.81026214 0.093262441 -0.00082417298 -0.002523052 -0.00076973659 -0.0014584442 -0.81326318 0.08976011
592000000 -0.80997932 0.094400316 0.00056553358 -0.00098112179 -0.00077863369 -0.001531887 -0.81371611 0.088535018
593000000 -0.8095966 0.092999287 -0.0014771511 -0.00069046876 -0.00017539956 -0.0016446103 -0.81414944 0.087924309
594000000 -0.80979913 0.09362822 0.00015375965 -0.0018217464 -0.00028784573 -0.0010703559 -0.81292927 0.088733077
595000000 -0.80979151 0.093832314 -0.00013887831 -0.002397622 0.00056810305 -0.0016514783 -0.81296152 0.088462263
596000000 -0.80872583 0.09587843 -0.00026175292 -0.0012730673 -4.2574491e-005 -0.0016006549 -0.81329298 0.089243792
597000000 -0.8105405 0.095278405 -0.0002051183 -0.00098551624 -0.00067750778 -0.0025900151 -0.81361789 0.089479305
598000000 -0.8094458 0.093142211 -0.000485203 -0.0020180985 -0.00026995709 -0.0013410021 -0.8136245 0.090274155
599000000 -0.81004083 0.093533814 -0.00041433636 -0.0020463099 -0.00059927191 -0.0014709142 -0.81276244 0.088885307
600000000 -0.80947298 0.095515735 -0.0010990036 -0.00065220782 0.00063329411 -0.00052499137 -0.81266081 0.089622118
601000000 -0.80861884 0.095896594 -0.0007142821 -0.00032147192 -3.521136e-005 -0.00086475641 -0.81241351 0.090080842
602000000 -0.81028831 0.094659977 -0.00026443222 -0.0019819539 -0.00049018022 -0.0019101718 -0.81241167 0.089392744
603000000 -0.8087669 0.095735677 -6.065108e-005 -0.00091605255 -1.9785595e-005 -0.00088882347 -0.81183833 0.090860568
604000000 -0.8096745 0.097854614 0.00059797656 -0.0012403603 -8.0508551e-005 -0.0014055369 -0.81213313 0.091059588
605000000 -0.8079918 0.097174026 -9.9426965e-005 -0.0021755109 -0.00035291753 -0.0006993452 -0.813326 0.089688189
606000000 -0.80990577 0.095909372 -0.00064171012 -0.0008520878 1.1308552e-005 -0.00088227808 -0.81257588 0.090230256
607000000 -0.80986357 0.096828006 -0.00056821381 -0.00059945934 -0.00074445806 -0.0017097816 -0.81221163 0.090713069
608000000 -0.81055772 0.095396735 -7.2916038e-005 -0.0016416754 0.00037436068 -0.0010997385 -0.81222171 0.091641448
609000000 -0.81070912 0.096178688 -0.0010899547 -0.0018749762 -0.00041389064 -0.00060252624 -0.81432843 0.089856088
610000000 -0.80934149 0.09527839 -0.0013884616 -0.0013439786 -0.00030964302 -0.0026449107 -0.81130612 0.092413031
611000000 -0.80835307 0.097670101 -0.00084291445 -0.0018078286 -0.00037673235 -0.0023821313 -0.8127774 0.091337599
612000000 -0.8097207 0.096410848 7.1792143e-005 -0.00080486719 0.00037771984 -0.0025748666 -0.8115375 0.091217682
613000000 -0.80927086 0.097722508 0.00076131988 -0.0013062605 -0.00048040992 -0.0015737503 -0.81130862 0.09267024
614000000 -0.81131005 0.09889742 0.00012009951 -0.00097235962 0.00043501277 -0.0017548271 -0.81229573 0.092444882
615000000 -0.80878472 0.097658619 -0.00013947634 -0.0016372219 -0.0013889729 -0.0013353282 -0.81310689 0.09096387
616000000 -0.80988437 0.097753562 -0.0006372403 -0.0010883394 -0.001011232 -0.0018603379 -0.81236237 0.092659503
617000000 -0.8087914 0.098484941 -0.00039732986 -0.0021658551 0.00016711594 -0.0020853672 -0.81178677 0.094445832
618000000 -0.80890226 0.098171718 -0.00039280899 -0.0012035858 -0.00066027755 -0.00094061153 -0.81167912 0.093228318
619000000 -0.80819297 0.09911035 -4.1433377e-005 -0.0019645356 -0.00011352615 -0.0011209372 -0.81269807 0.093069859
620000000 -0.80862576 0.10080224 -0.00057323225 -0.0017711519 9.0182102e-006 -0.0010121932 -0.81317592 0.094009288
621000000 -0.81033456 0.099815398 0.00038361223 -0.0018968941 0.00012050807 -0.0019111142 -0.81054586 0.092950337
622000000 -0.808523 0.098493002 -0.00060764077 -0.0013538906 -0.00014277207 -0.0020127848 -0.81158739 0.092749648
623000000 -0.80883259 0.10091005 -0.00029694644 -0.001342257 0.00014500759 -0.0015981866 -0.81230849 0.093736835
624000000 -0.80961865 0.099448808 0.0001141806 -0.0013731801 -0.0016508346 -0.0018531739 -0.81180984 0.092580728
625000000 -0.80912614 0.10171779 -0.00064627454 -0.0027137464 -0.00029871386 -0.0018848891 -0.81194621 0.09381409
626000000 -0.80936968 0.10031438 -0.00069150253 -0.0019870896 9.1719576e-006 -0.001811751 -0.81206256 0.094149046
627000000 -0.80994904 0.099611074 -0.00036522723 -0.0014300835 -0.00094458443 -0.0020474666 -0.81108201 0.09289892
628000000 -0.80968595 0.10280609 -0.00091205101 -0.0025702261 -0.00028812684 -0.0012982247 -0.81217414 0.094765358
629000000 -0.80855244 0.10148893 -0.00087176141 -0.0017905313 0.00026814887 -0.0021649322 -0.81388199 0.095302172
630000000 -0.80918866 0.10176335 -0.00046027181 -0.0016298123 0.00021078248 -0.0028192983 -0.81201023 0.095502704
631000000 -0.8093304 0.10180275 -0.00055463769 -0.0026071512 -0.000234451 -0.0020463117 -0.81338239 0.095938504
632000000 -0.80850929 0.10312564 -0.0015604582 -0.00176892 0.00022210914 -0.0015033619 -0.81039119 0.094061896
633000000 -0.8083204 0.10156436 -2.9008403e-005 -0.0021555976 -0.0014012196 -0.0018540199 -0.81083375 0.096050747
634000000 -0.81010163 0.10213003 0.00086326955 -0.0030907206 -0.0011001289 -0.0012073168 -0.81256443 0.09452264
635000000 -0.80913055 0.10303548 6.6084867e-005 -0.0016734186 0.0001184816 -0.002221501 -0.81263393 0.09535747
636000000 -0.80751139 0.10371795 -0.00075723714 -0.0016494791 -0.00098430924 -0.0017184045 -0.81263828 0.094943509
637000000 -0.80951381 0.10283792 -0.00052681059 -0.00073993375 -0.00033020336 -0.0021746219 -0.8116377 0.095766403
638000000 -0.80995029 0.10356091 -0.00063312589 -0.0012345737 -0.00025150331 -0.0016687149 -0.81116551 0.095752351
639000000 -0.80871439 0.10478382 -0.00024394281 -0.0018373964 -0.00039864154 -0.0013169296 -0.81124133 0.095594011
640000000 -0.80865532 0.10464326 -0.00067899481 -0.0027324157 -0.00048359713 -0.0010690702 -0.81235045 0.094254635
641000000 -0.80871612 0.10339443 -0.00039681591 -0.0026550167 -0.00081668596 -0.002981398 -0.81128561 0.096912637
642000000 -0.80819607 0.10360077 -0.0010679213 -0.0017774068 -0.00071369146 -0.0013249135 -0.81219333 0.095974118
643000000 -0.80791795 0.10493263 -0.00035465608 -0.00226102 0.00021207817 -0.0033880048 -0.81131786 0.096339755
644000000 -0.80771315 0.10403821 -3.6824858e-005 -0.0021773465 -0.0017383272 -0.0020098984 -0.81198943 0.096589595
645000000 -0.80863786 0.1041406 -0.0002025914 -0.0024475562 -0.00086066977 -0.0018529786 -0.8113597 0.096573442
646000000 -0.80717313 0.10462403 -0.00026921212 -0.0024528522 -0.00044084786 -0.0014964353 -0.81243312 0.096492425
647000000 -0.80862594 0.10574212 1.6921451e-005 -0.00084764033 -1.5452397e-005 -0.0026060266 -0.81159973 0.096606024
648000000 -0.80766797 0.10539163 -0.00036064084 -0.0012050339 0.00081686914 -0.0015797957 -0.81149089 0.098046429
649000000 -0.80871218 0.10468526 0.00046853637 -0.00069802307 0.00010236014 -0.0016578393 -0.81086856 0.098495722
650000000 -0.80987173 0.105152 -0.00079022924 -0.0008918097 -0.00054649456 -0.0015363571 -0.81207043 0.096633315
651000000 -0.80827987 0.10502129 0.00068489363 -0.0017344381 8.5896907e-005 -0.0017962457 -0.81145883 0.097020008
652000000 -0.80737388 0.10648417 0.00044910258 -0.00086728041 -0.0011464764 -0.0016343326 -0.81186682 0.098783866
653000000 -0.80750537 0.10391265 0.00039776356 -0.002067934 -0.001483764 -0.0018956688 -0.81155825 0.098077789
654000000 -0.80803663 0.10668628 -0.00067017 -0.0013076945 -0.0011008093 -0.0016198449 -0.81181985 0.097850502
655000000 -0.80738163 0.1053702 -0.00029801615 -0.001584081 -0.00028607759 -0.0027263272 -0.81205678 0.098409854
656000000 -0.8071894 0.10603705 0.0001281498 -0.0017659904 -2.8467652e-005 -0.0016760756 -0.81179929 0.098300807
657000000 -0.80988383 0.10483542 -0.00076136983 -0.0021817551 0.00016839584 -0.0027396262 -0.811692 0.096636832
658000000 -0.80821311 0.10788327 -0.00066895422 -0.0023517935 -0.00085059775 -0.0017661962 -0.81136161 0.097296938
659000000 -0.8083626 0.10636366 -0.00054668461 -0.0021149574 -0.00019201271 -0.0021294914 -0.81078559 0.098282762
660000000 -0.80746669 0.10797809 -0.00076811493 -0.0021813374 -0.0007708979 -0.0020807269 -0.81196874 0.097983174
661000000 -0.80948967 0.10589546 -0.0008368956 -0.0016614387 -0.00064247142 -0.0016045857 -0.81114566 0.098943815
662000000 -0.80830723 0.10744467 -9.6680909e-005 -0.0023193609 0.00013311362 -0.00094487262 -0.81248581 0.099650435
663000000 -0.80768377 0.10839518 0.00013757218 -0.0011607531 -0.00014687282 -0.0019915823 -0.81136757 0.099219956
664000000 -0.80798668 0.10521543 -0.0011390211 -0.0017839608 -0.00095852377 -0.0021493197 -0.81112432 0.10024153
665000000 -0.80944294 0.10841818 -0.00035677996 -0.001976595 0.0008524232 -0.0027043982 -0.812778 0.099065594
666000000 -0.80897468 0.10734456 -0.00047999655 -0.002562786 -0.00037573205 -0.0022410646 -0.81129974 0.099437617
667000000 -0.80915707 0.10790256 -0.0022397244 -0.0022374971 -0.00071191817 -0.0021804718 -0.81112635 0.099781744
668000000 -0.80817819 0.10904422 -0.00012807205 -0.0016640708 -0.0013184142 -0.0012447493 -0.81210715 0.097721763
669000000 -0.80855334 0.10822083 -0.0015244071 -0.0020605947 0.00016854906 -0.0016010081 -0.80995929 0.099018596
670000000 -0.80723256 0.10868413 -0.00098898762 -0.001976595 -0.00031745029 -0.0011527113 -0.81161207 0.099357329
671000000 -0.80753011 0.10761624 -0.00039778021 -0.0020255712 -0.00080721785 -0.0022377295 -0.81154305 0.10061579
