!Keysight Technologies,M9374A,MY55442783,A.12.55.05
!Date: Thursday, May 20, 2021 19:09:20
!Correction: S11(Full 2 Port(1,2)) 
!S21(Full 2 Port(1,2)) 
!S12(Full 2 Port(1,2)) 
!S22(Full 2 Port(1,2)) 
!S2P File: Measurements: S11, S21, S12, S22:
# Hz S  RI   R 50
500000000 -0.81340653 0.07949511 0.00068755925 -0.00096011045 -0.00046083578 -0.0016839313 -0.81567705 0.076078989
501000000 -0.81402695 0.081665389 -0.00042225968 -0.0020942071 0.00035910934 -0.00090441585 -0.81636465 0.074062467
502000000 -0.81355512 0.081167191 -0.00048245699 -0.00068510196 -0.0012027564 -0.00083884248 -0.81605411 0.074430995
503000000 -0.81191945 0.08123666 -0.00046421375 -0.0016749102 0.0010408558 -0.0012836178 -0.81482369 0.074750945
504000000 -0.81277454 0.082021214 0.00059779553 -0.00074283156 0.00077463081 -0.00069240486 -0.81638074 0.075265162
505000000 -0.81317168 0.080708057 0.00050044374 -0.00080190593 0.00067590788 -0.0013427202 -0.81577355 0.075569116
506000000 -0.81232542 0.081445783 -0.00025492941 -0.0020626062 -3.4153491e-005 -0.0024305549 -0.81407773 0.074935593
507000000 -0.81181479 0.080887601 0.00049622892 -0.0018360304 0.00040886283 -0.00037086284 -0.81447023 0.076264635
508000000 -0.81273252 0.081466615 -0.00013546782 -0.0024355645 0.00038989668 -0.0016138522 -0.81458229 0.075844973
509000000 -0.81308454 0.082322724 0.00027260443 -0.0011369108 -0.00071348064 -0.00064124225 -0.8148312 0.075437225
510000000 -0.81147206 0.082451694 -8.4399668e-005 -0.0018315692 0.00078807498 -0.0012078153 -0.81442869 0.076187201
511000000 -0.81324673 0.082728334 0.00027103303 -0.0012787152 0.00047301335 -0.0012639822 -0.81487966 0.076383449
512000000 -0.81187928 0.083064966 -6.8736437e-005 -0.00089745363 0.00059470453 -0.00036160456 -0.81443727 0.076405115
513000000 -0.81447095 0.080829643 0.0009278481 -0.0012020185 0.00026804773 -0.0016641534 -0.81441998 0.076931752
514000000 -0.8139503 0.083542831 0.00029794881 -0.0011701279 0.00046324934 -0.0018484484 -0.81493509 0.077461578
515000000 -0.81261539 0.082993194 0.00054715062 -0.0012271949 -0.00046355647 -0.0018391559 -0.81480366 0.078539401
516000000 -0.81202716 0.083061986 0.00065783336 -0.0017314055 0.00082181272 -0.0024359801 -0.81504208 0.076853439
517000000 -0.8122139 0.083409235 0.00032067951 -0.0012291536 -0.0012015022 -0.0011276726 -0.81299555 0.077794187
518000000 -0.81322879 0.083562896 -7.3645082e-005 -0.0018280239 -2.6955177e-005 -0.0010326629 -0.81463295 0.077838413
519000000 -0.81304729 0.083498672 0.00046215157 -0.0019905115 0.00077132182 -0.0023156644 -0.8143571 0.078861527
520000000 -0.81098962 0.084895842 -0.0012511145 -0.0021885172 -4.2828244e-005 -0.0022346966 -0.8137694 0.078706451
521000000 -0.81312722 0.083174892 -0.00066388212 -0.0023713694 -0.00067671336 -0.0012466008 -0.81584471 0.079390928
522000000 -0.81400979 0.083264969 0.00018368318 -0.002214177 -0.0011790522 -0.00071758829 -0.81383502 0.081145532
523000000 -0.81363565 0.083433382 -0.00014368154 -0.0011586251 -0.00011443328 -0.0010818628 -0.81334621 0.078442439
524000000 -0.81108779 0.08543992 0.00014251989 -0.0010881352 -0.00081699836 -0.0019346066 -0.81567085 0.078693442
525000000 -0.81176198 0.083656259 0.00015730559 -0.0012870088 -0.00026869506 -0.0012798529 -0.81505078 0.079872996
526000000 -0.81364334 0.085548729 -0.00056570186 -0.00098689203 0.00019188978 -0.0016032867 -0.81377852 0.079422511
527000000 -0.81372279 0.085361212 0.00025441445 -0.0013485778 -0.00087663933 -0.0017510348 -0.81431866 0.080696471
528000000 -0.81188238 0.08584439 0.00092853495 -0.0017750229 0.0005626565 -0.0023437319 -0.81417513 0.079612292
529000000 -0.81293672 0.085781313 0.00083175575 -0.0017046278 -0.0011008893 -0.0010266886 -0.81318855 0.080512904
530000000 -0.81290805 0.086589389 -0.00087089231 -0.0010859536 -0.001465862 -0.00094194303 -0.81521147 0.078571737
531000000 -0.81134582 0.085077524 7.7271368e-005 -0.0016209196 5.010355e-005 -0.0010499284 -0.81530058 0.080199689
532000000 -0.81189513 0.086801797 0.00076302642 -0.00083803106 -0.00075886893 -0.00081231055 -0.81367606 0.080646813
533000000 -0.81343871 0.086645968 0.00054410094 -0.0010837027 -0.00066024804 -0.0023364648 -0.81465203 0.08150588
534000000 -0.81307173 0.086778387 0.00040068521 -0.001069715 -0.00010399617 -0.001922467 -0.81388164 0.080238014
535000000 -0.81307483 0.086840838 0.00032446277 -0.0017460543 -0.00039677846 -0.0011015756 -0.81449807 0.081863798
536000000 -0.81144571 0.08597596 0.00028130942 -0.0011406034 -0.001312914 -0.0019316725 -0.81299376 0.081323832
537000000 -0.81215978 0.085117139 0.00028767646 -0.0011649561 -0.00087186496 -0.0017864334 -0.81447798 0.081236124
538000000 -0.81164098 0.087113738 3.3287302e-005 -0.0017645949 -3.7800441e-005 -0.0025701676 -0.81301302 0.080247834
539000000 -0.81187946 0.086965442 0.00023348791 -0.0013079309 -0.00043427839 -0.00084498897 -0.81402194 0.081973754
540000000 -0.8111189 0.088134833 -0.00051974063 -0.0018401196 -0.00013688784 -0.002024428 -0.81514585 0.080192648
541000000 -0.81241524 0.088172205 -0.00012685059 -0.0011198822 -0.0010019577 -0.0015964803 -0.81380773 0.080975309
542000000 -0.81259125 0.08839573 0.00060976314 -0.0021815002 -0.0010373225 -0.0016514078 -0.81360096 0.081617102
543000000 -0.81035393 0.085388683 -0.00036973038 -0.0018119696 0.00042312889 -0.0012473828 -0.81509602 0.081372663
544000000 -0.81150734 0.088507302 -0.00035732388 -0.00095010176 -0.00059888221 -0.0014115357 -0.81472003 0.083662048
545000000 -0.8118782 0.087483957 -0.0010929352 -0.0021443181 -4.4084159e-006 -0.0024758503 -0.81552559 0.083083071
546000000 -0.81211042 0.087428741 0.00049523066 -0.0014454417 -0.00036095708 -0.00064687512 -0.81463844 0.082286522
547000000 -0.81233943 0.087938219 -0.00043300964 -0.00056089729 0.00085164007 -0.0019914545 -0.81382054 0.081442751
548000000 -0.81104928 0.088748902 0.001186909 -0.0018703321 -0.00012051291 -0.0010538651 -0.81438857 0.084652826
549000000 -0.810592 0.087828092 0.00010749759 -0.0016772576 -0.00059164775 -0.0018780044 -0.81345719 0.08342997
550000000 -0.81140161 0.089548633 -0.00025798217 -0.0019842794 8.9866817e-006 -0.0013058109 -0.81488872 0.084560029
551000000 -0.81289512 0.089393869 0.00043459868 -0.0012263885 -0.00013312387 -0.0015974825 -0.81389052 0.081203334
552000000 -0.81158769 0.089313202 -0.00042709729 -0.0013375159 -0.00019803981 -0.0017060152 -0.8139869 0.084404171
553000000 -0.81185293 0.088747181 -0.00030776835 -0.0016462466 -0.00016359525 -0.001550753 -0.81321985 0.08282581
554000000 -0.81184459 0.088415325 -0.0001199198 -0.0024762945 -0.00099508488 -0.0014535309 -0.81329972 0.083015047
555000000 -0.8124969 0.088149965 0.00046081655 -0.0020314099 6.0033399e-005 -0.001308171 -0.81368852 0.083722033
556000000 -0.81068414 0.088628411 -5.290642e-005 -0.0016674368 -0.00043859324 -0.0019139025 -0.81392169 0.08350125
557000000 -0.81134838 0.088705495 -0.001147229 -0.0018338325 0.00014451306 -0.0012197213 -0.81398982 0.084158294
558000000 -0.81126881 0.089093223 -0.001070165 -0.0013483142 -0.00055827835 -0.0011807299 -0.81367624 0.085207038
559000000 -0.81164587 0.088218741 -0.00077683956 -0.0011158629 0.00050034176 -0.0021646442 -0.81382662 0.084061682
560000000 -0.81197751 0.088020563 -0.00076898281 -0.0018665396 -0.00096521375 -0.0015810175 -0.81410384 0.082703441
561000000 -0.81133103 0.088580772 0.00021424687 -0.0014660843 -0.00043459449 -0.0012532568 -0.81459123 0.084207267
562000000 -0.81044436 0.08910007 0.00028400874 -0.001199197 -0.00062003901 -0.0010707297 -0.81431109 0.083728932
563000000 -0.81000561 0.090043716 0.00038274413 -0.0012464259 -0.00012181666 -0.0018122904 -0.81446153 0.085025981
564000000 -0.81090575 0.089090072 -0.001042622 -0.0020483157 -0.0011200693 -0.00076842448 -0.81434834 0.084292732
565000000 -0.81048214 0.089426972 0.00026094471 -0.0023476453 0.00027857005 -0.0012101749 -0.81285608 0.085427493
566000000 -0.81159043 0.08945106 -0.00092084421 -0.001742249 -2.3743698e-005 -0.0017773776 -0.81409889 0.087254129
567000000 -0.81122833 0.089724362 -0.00028044821 -0.0014733394 -0.0004050165 -0.0011195324 -0.81380981 0.084313855
568000000 -0.81237763 0.089587003 0.00021098895 -0.00093404477 0.00038117677 -0.0019642573 -0.81441593 0.084700406
569000000 -0.81370401 0.091139264 -0.0011146142 -0.001081655 -0.00085883884 -0.0023591481 -0.81408137 0.083278231
570000000 -0.81155741 0.091308504 -0.0010299627 -0.00054477598 -0.00014206956 -0.0012053165 -0.81332695 0.084072344
571000000 -0.81052929 0.090009123 -0.00052200386 -0.0012434949 -0.00052000978 -0.0014459942 -0.81521839 0.085848652
572000000 -0.81096804 0.089763582 0.00015075775 -0.0013432973 -0.00024146964 -0.0015453668 -0.81301403 0.084903069
573000000 -0.81306404 0.090679295 0.0011334782 -0.0018061858 0.0006636036 -0.002434212 -0.81400955 0.085858859
574000000 -0.81054342 0.090925522 0.00016312829 -0.0026682257 -0.00063901331 -0.0021386251 -0.81310117 0.084330752
575000000 -0.81140846 0.090427004 -0.00032711768 -0.0024768838 -0.00068465405 -0.0025237391 -0.81385875 0.086924158
576000000 -0.81011987 0.088999771 -0.00093814021 -0.0011434609 0.00083049882 -0.0017161877 -0.81289625 0.085930385
577000000 -0.81146091 0.091103069 -0.00075637281 -0.0012307805 -9.9218287e-006 -0.0022704306 -0.8149485 0.084785558
578000000 -0.81226534 0.091336742 -6.361882e-005 -0.002000072 -1.7438257e-005 -0.00053228822 -0.81460416 0.085734919
579000000 -0.8101126 0.090905912 -0.00095121452 -0.0014179354 -0.00107216 -0.0013859284 -0.81411213 0.086155221
580000000 -0.81118929 0.091061354 -0.00083651481 -0.0020744761 -0.00020634098 -0.0014014058 -0.81347138 0.087551937
581000000 -0.81128573 0.09090542 -0.00067740149 -0.0022174688 -0.0013779044 -0.00057329767 -0.81496429 0.087016642
582000000 -0.81080186 0.093128599 0.00087146979 -0.00061539456 -0.0020151315 -0.0021061185 -0.8151598 0.085894458
583000000 -0.81105703 0.092194259 -0.00019701051 -0.00051729532 -0.00094137684 -0.001327122 -0.8141076 0.086360447
584000000 -0.81062931 0.092630267 -0.00098599319 -0.0017515091 -0.0015421137 -0.0019743219 -0.81377023 0.088026419
585000000 -0.81191987 0.092046 -0.00074213091 -0.0012369863 -0.00088517892 -0.00039180089 -0.8138715 0.087792307
586000000 -0.81082278 0.092680022 -0.00047843094 -0.0023521909 -0.0003631454 -0.00092747196 -0.8136912 0.087889925
587000000 -0.8117786 0.091705598 -0.00014293316 -0.0014287484 -0.001561014 -0.0020364868 -0.81503183 0.085744433
588000000 -0.81053472 0.092230141 0.0002856871 -0.00070118037 0.00053586694 -0.00078465516 -0.81435633 0.08685752
589000000 -0.81204242 0.09217792 0.00077124627 -0.0016459067 -3.0179312e-006 -0.0016608548 -0.81481749 0.086527847
590000000 -0.81140769 0.092379436 -0.00018855701 -0.0012240601 0.00086647127 -0.0021985515 -0.81313014 0.0875227
591000000 -0.8105042 0.093330473 -0.00054631999 -0.00032320363 -0.0015942223 -0.0022256786 -0.81398404 0.08782807
592000000 -0.81139123 0.093330868 4.026134e-005 -0.0022754848 -0.00045510242 -0.0014956465 -0.81427389 0.086757429
593000000 -0.80981582 0.092444867 -0.0015164521 -0.0018431756 0.00022572851 -0.0025243335 -0.81347913 0.087074354
594000000 -0.80992973 0.093593813 -0.000457494 -0.0014588999 0.00042529657 -0.0014981449 -0.81314617 0.088429801
595000000 -0.80879384 0.093368284 -0.00064905779 -0.0017440675 -0.00045672376 -0.0011926024 -0.81297803 0.087476902
596000000 -0.81104106 0.095139794 -0.00052243879 -0.0015664357 -0.00064535282 -0.0020190335 -0.81356448 0.086336181
597000000 -0.81126899 0.093358144 0.00035682492 -0.0018362589 -0.00020901639 -0.0017124647 -0.81248677 0.088019937
598000000 -0.8109529 0.093831323 -0.00079647923 -0.0018404102 -0.00012282487 -0.0014589657 -0.81222415 0.087406382
599000000 -0.80957747 0.093366437 -0.00064743916 -0.0014087285 -0.00050498545 -0.0021509468 -0.81390655 0.088553444
600000000 -0.80979729 0.094683021 -0.0005524414 -0.0010416937 -0.00051426986 -0.0025700806 -0.81307977 0.089156277
601000000 -0.81053203 0.095821165 -0.00068488676 -0.0013245193 -0.00020056794 -0.0015098656 -0.81333238 0.088886708
602000000 -0.81064528 0.093332961 0.00053145067 -0.0017962479 -0.00063393859 -0.0018110097 -0.81472868 0.089398466
603000000 -0.81031805 0.095950224 0.00045861825 -0.0017232714 -0.00038946545 -0.0013676883 -0.81413889 0.0888993
604000000 -0.81012696 0.096371241 -0.0010987296 -0.0019185968 -0.00097730197 -0.0013938089 -0.81401736 0.088426314
605000000 -0.80853844 0.096987687 -0.00082390616 -0.0011690913 -0.00051744317 -0.001756789 -0.81491429 0.089609563
606000000 -0.81019658 0.096906014 -0.0007379945 -0.0015879348 -0.00016927638 -0.002412108 -0.81190032 0.089678958
607000000 -0.81053251 0.09515734 -0.00029134753 -0.0015108502 -0.0007368846 -0.00075098552 -0.81238234 0.089514114
608000000 -0.80984902 0.096954651 -0.00046461259 -0.0022708434 -0.00027327787 -0.0013405514 -0.81346327 0.089782208
609000000 -0.81169152 0.098111115 -0.00076353143 -0.0019587581 -0.00038506617 -0.0022989754 -0.81395704 0.090086102
610000000 -0.80925387 0.096746586 -0.0018173134 -0.0013496127 -0.00036668018 -0.0018107342 -0.81252629 0.090683445
611000000 -0.80946565 0.097238511 -0.00056940346 -0.0011960166 -0.0014071683 -0.0016217903 -0.81256199 0.09075889
612000000 -0.81020695 0.097490013 -0.00021552449 -0.0011498132 -0.0010703116 -0.0014470809 -0.81119722 0.090500966
613000000 -0.80843312 0.097320981 -0.0001819748 -0.00270753 -0.00043894377 -0.0017117624 -0.81305707 0.091831498
614000000 -0.80914348 0.09797857 0.00045668022 -0.0014840045 -4.2861735e-005 -0.0011737498 -0.81355953 0.09069071
615000000 -0.80980194 0.097400978 -0.00081628904 -0.0011712149 -7.5618787e-005 -0.0015109957 -0.81290358 0.091559723
616000000 -0.81066316 0.097996727 -0.00017218383 -0.0024418207 -0.00141909 -0.0012029976 -0.81206065 0.090726756
617000000 -0.80980951 0.098789714 -7.6551674e-005 -0.0022946019 -0.0004147274 -0.0014046042 -0.81472421 0.092837587
618000000 -0.8095088 0.099058084 -0.00016314255 -0.0017948746 -0.0002095736 -0.0015017267 -0.81135881 0.091880441
619000000 -0.8101958 0.09964975 -0.00074364117 -0.0023763471 0.00065002113 -0.0017653357 -0.81275874 0.093052529
620000000 -0.80972272 0.099135146 -0.00069399009 -0.001739616 0.00062164973 -0.0014210095 -0.81315649 0.093097337
621000000 -0.81027317 0.098572768 -0.00037591069 -0.0030766805 7.5838434e-005 -0.0013942539 -0.81330943 0.092775494
622000000 -0.81047553 0.09972395 -0.00066702656 -0.0024389839 0.00036075353 -0.0018911945 -0.8139326 0.093005329
623000000 -0.80818117 0.099030137 -0.00065427605 -0.00096035079 -0.00014065768 -0.0013317293 -0.81126207 0.09224996
624000000 -0.81097102 0.098879263 -0.00091901538 -0.0015859045 -0.0012718671 -0.0016118528 -0.8122651 0.092548765
625000000 -0.80882096 0.10216338 0.00046048401 -0.0019582415 -0.0009345914 -0.0014637619 -0.81348372 0.092511296
626000000 -0.80958188 0.10097381 -0.00064684107 -0.00170634 -0.00060947594 -0.0016287128 -0.81296879 0.095047176
627000000 -0.81060737 0.10186365 0.00082550466 -0.0024840797 -0.00053254544 -0.0019556505 -0.81244028 0.092640795
628000000 -0.81013596 0.10060116 -0.0007648769 -0.0013504873 -0.00025625693 -0.0015396641 -0.81208295 0.094440326
629000000 -0.80903786 0.1008962 0.00039693789 -0.0012015615 -0.00066841632 -0.0019523611 -0.81293249 0.093568236
630000000 -0.81023461 0.10107622 -0.00024255217 -0.00044630375 -0.00014910742 -0.000689896 -0.81249058 0.093839385
631000000 -0.8099826 0.10084547 0.00069607078 -0.00090035831 -0.00043532532 -0.0015642913 -0.81349903 0.095086798
632000000 -0.80960584 0.10149818 -0.00040973118 -0.0017736859 0.00032005392 -0.0012613835 -0.81297135 0.094547324
633000000 -0.80868894 0.10276778 -0.00026419054 -0.0013522843 -0.00040239099 -0.0020973256 -0.8120622 0.0946045
634000000 -0.80990428 0.10327698 -0.00035106397 -0.0011567044 -0.00053823122 -0.00091733871 -0.81129479 0.094682477
635000000 -0.80973113 0.1012954 -0.0011697024 -0.0017705346 -0.00018423788 -0.001820999 -0.8121801 0.094293758
636000000 -0.80933064 0.10276557 -0.0008129825 -0.0010193887 0.00014976104 -0.0016309328 -0.81238061 0.094932981
637000000 -0.80886042 0.10149359 4.745914e-005 -0.0023239492 -0.00090753991 -0.00099507929 -0.81201625 0.09395054
638000000 -0.80962461 0.10187514 7.5422999e-005 -0.00043218574 -0.00074103969 -0.0027357244 -0.81191951 0.094806336
639000000 -0.80887455 0.10331171 0.00015486577 -0.0022255743 -0.00099726673 -0.0020232433 -0.81353849 0.094937958
640000000 -0.80863839 0.10410323 -0.00041873934 -0.0023454539 -0.00049437542 -0.0020662758 -0.81069303 0.095489003
641000000 -0.80764812 0.10272752 -0.00063819473 -0.001116138 -0.00029951759 -0.00095914002 -0.8116011 0.095439583
642000000 -0.80889899 0.10365775 -0.00015852263 -0.0007522105 -0.00051045528 -0.0015036665 -0.81278282 0.096152589
643000000 -0.80938113 0.10385208 -0.00055216794 -0.0025577757 0.00059737772 -0.0015524792 -0.81183195 0.095479771
644000000 -0.80953801 0.10381366 -0.00015833134 -0.00096374709 -0.00061347533 -0.001780996 -0.81144756 0.096721023
645000000 -0.80853599 0.10409476 -0.00047653474 -0.0024607447 -0.00049359456 -0.0011050511 -0.81329912 0.095663957
646000000 -0.80976671 0.10267506 -0.0005849764 -0.0015149318 -0.00013832725 -0.0017922424 -0.81135929 0.095717244
647000000 -0.8103267 0.10433894 -0.001165714 -0.0017361498 2.7364529e-005 -0.00091238163 -0.81233972 0.096776083
648000000 -0.80859417 0.10527666 -0.00072953012 -0.0014646746 0.00015945104 -0.0016427599 -0.81299657 0.098201707
649000000 -0.80735761 0.10595197 -0.0018600107 -0.0018282998 -0.00055538572 -0.0012594003 -0.81271279 0.09732262
650000000 -0.81046951 0.10368536 -0.00010686366 -0.0018992326 -0.00026453697 -0.0024705445 -0.81196254 0.097190246
651000000 -0.80931854 0.10468702 -0.00076966919 -0.001249644 -0.0012655762 -0.0022714231 -0.81145716 0.096800268
652000000 -0.80774575 0.10362398 0.00060976919 -0.0026361712 -0.00014638624 -0.0014668127 -0.81074852 0.096918203
653000000 -0.80901366 0.10375454 1.9545614e-005 -0.0012508405 0.00090175361 -0.001473401 -0.80946112 0.096962206
654000000 -0.80869573 0.10642417 -0.00051685097 -0.0010225752 -0.00031417905 -0.0020554804 -0.81342953 0.098671809
655000000 -0.80751747 0.10596824 -0.0006966723 -0.002094253 -0.00031103764 -0.0013214726 -0.81265336 0.097814143
656000000 -0.80904174 0.10670059 -0.00017164735 -0.0019417081 -0.00012173493 -0.0022215776 -0.81233954 0.09690854
657000000 -0.80886436 0.10538966 0.00047170385 -0.0018354362 -0.00082223141 -0.0013021827 -0.81179231 0.097698286
658000000 -0.81090146 0.10676466 -0.00048413803 -0.0027372323 -3.5411464e-005 -0.0034916373 -0.81113726 0.098359294
659000000 -0.80970031 0.10614234 -0.00087882055 -0.00082679163 -0.00060955557 -0.00032667367 -0.81199223 0.098165669
660000000 -0.81057578 0.10695639 -0.00028105444 -0.0012187059 -0.00056658324 -0.002007751 -0.81144404 0.097501151
661000000 -0.80874228 0.10784606 0.00017204673 -0.0018209009 -0.00018677433 -0.0015190346 -0.81223089 0.098097086
662000000 -0.80939507 0.10561112 -3.7743419e-005 -0.0019995589 -0.000114353 -0.0017636431 -0.81148636 0.099014938
663000000 -0.8102898 0.10585963 -0.00023873153 -0.0023249472 -0.00012847316 -0.0022319385 -0.81183118 0.097937442
664000000 -0.80786747 0.1075195 -0.00034643745 -0.0021355532 -0.0005967035 -0.0023779795 -0.81174165 0.098568723
665000000 -0.80820417 0.10811357 -0.0011118603 -0.0015266879 -0.00052501733 -0.0017695762 -0.81047302 0.099414594
666000000 -0.80971617 0.10702034 -0.00047828132 -0.00091958372 -0.00010872291 -0.0020284976 -0.81165963 0.098433092
667000000 -0.80865091 0.10693605 -0.00021163873 -0.0014004858 -0.00038090965 -0.002422971 -0.8123095 0.099574611
668000000 -0.80824494 0.10613019 -0.00013776949 -0.0016120865 -0.0013415196 -0.0026240614 -0.81140345 0.096989118
669000000 -0.80883068 0.10690282 -0.00078774977 -0.00197843 0.00028252791 -0.0014371638 -0.81132245 0.099692561
670000000 -0.80749738 0.10693449 -0.00045256686 -0.0030874414 0.00034992499 -0.0021660377 -0.81108165 0.100233
671000000 -0.80934298 0.10922044 -1.5765741e-005 -0.0012808493 0.00039977225 -0.0016717575 -0.81220734 0.098389395
