Frequency	 |S11|	 Phase(S11)	 ExtPh(S11)	 |S21|	 Phase(S21)	 ExtPh(S21)	 |S12|	 Phase(S12)	 ExtPh(S12)	 |S22|	 Phase(S22)	 ExtPh(S22) 
5.000000e-001	-1.747071e+000	-5.036373e+000	-5.036373e+000	-5.772645e+001	-8.694540e+001	-8.694540e+001	-5.296154e+001	-6.821997e+001	-6.821997e+001	-1.717651e+000	-4.626400e+000	-4.626400e+000	
5.010000e-001	-1.763849e+000	-5.020861e+000	-5.020861e+000	-5.608958e+001	5.851106e+001	-1.214889e+002	-5.969531e+001	6.059101e+001	6.059101e+001	-1.719306e+000	-4.787234e+000	-4.787234e+000	
5.020000e-001	-1.751541e+000	-5.117304e+000	-5.117304e+000	-5.672604e+001	-7.159009e+001	-2.515901e+002	-5.537882e+001	7.514874e+001	7.514874e+001	-1.696371e+000	-4.612900e+000	-4.612900e+000	
5.030000e-001	-1.751205e+000	-5.088148e+000	-5.088148e+000	-5.826714e+001	-7.805148e+001	-2.580515e+002	-5.785788e+001	-7.179406e+001	1.082059e+002	-1.715066e+000	-4.581144e+000	-4.581144e+000	
5.040000e-001	-1.774657e+000	-5.072688e+000	-5.072688e+000	-5.400397e+001	-7.712012e+001	-2.571201e+002	-5.925024e+001	7.657643e+001	7.657643e+001	-1.712135e+000	-4.666702e+000	-4.666702e+000	
5.050000e-001	-1.757719e+000	-5.014338e+000	-5.014338e+000	-5.418457e+001	-7.033124e+001	-2.503312e+002	-5.758761e+001	6.442928e+001	6.442928e+001	-1.720152e+000	-4.713292e+000	-4.713292e+000	
5.060000e-001	-1.752755e+000	-5.209120e+000	-5.209120e+000	-5.082879e+001	6.447166e+001	-1.155283e+002	-6.874027e+001	-2.834281e+001	-2.834281e+001	-1.720466e+000	-4.656076e+000	-4.656076e+000	
5.070000e-001	-1.744734e+000	-5.210145e+000	-5.210145e+000	-6.002839e+001	-2.480158e+001	-2.048016e+002	-6.053955e+001	-6.429298e+001	-6.429298e+001	-1.703768e+000	-4.771222e+000	-4.771222e+000	
5.080000e-001	-1.742567e+000	-5.092021e+000	-5.092021e+000	-5.319523e+001	5.907131e+001	-1.209287e+002	-5.892113e+001	-6.238304e+001	-6.238304e+001	-1.706138e+000	-4.801011e+000	-4.801011e+000	
5.090000e-001	-1.748613e+000	-5.104643e+000	-5.104643e+000	-5.676086e+001	8.835422e+001	-9.164578e+001	-5.689291e+001	-7.152495e+001	-7.152495e+001	-1.718703e+000	-4.634232e+000	-4.634232e+000	
5.100000e-001	-1.769864e+000	-5.232488e+000	-5.232488e+000	-5.783845e+001	7.229187e+001	-1.077081e+002	-6.030620e+001	8.856593e+001	-9.143407e+001	-1.714973e+000	-4.766313e+000	-4.766313e+000	
5.110000e-001	-1.769883e+000	-5.128761e+000	-5.128761e+000	-5.147985e+001	7.467896e+001	-1.053210e+002	-5.414878e+001	3.040551e+001	-1.495945e+002	-1.720068e+000	-4.721040e+000	-4.721040e+000	
5.120000e-001	-1.772349e+000	-5.131782e+000	-5.131782e+000	-5.675112e+001	6.808609e+001	-1.119139e+002	-5.390180e+001	5.117607e+001	-1.288239e+002	-1.714592e+000	-4.687619e+000	-4.687619e+000	
5.130000e-001	-1.752898e+000	-5.293147e+000	-5.293147e+000	-5.828460e+001	6.688591e+001	-1.131141e+002	-5.205493e+001	-8.500384e+001	-2.650038e+002	-1.708886e+000	-4.792714e+000	-4.792714e+000	
5.140000e-001	-1.764728e+000	-5.231532e+000	-5.231532e+000	-5.489460e+001	-8.165238e+001	-8.165238e+001	-5.726905e+001	2.081396e+001	-1.591860e+002	-1.715391e+000	-4.802663e+000	-4.802663e+000	
5.150000e-001	-1.752489e+000	-5.316767e+000	-5.316767e+000	-5.754661e+001	5.237502e+001	5.237502e+001	-5.640971e+001	-6.935103e+001	-2.493510e+002	-1.712841e+000	-4.853177e+000	-4.853177e+000	
5.160000e-001	-1.746216e+000	-5.170273e+000	-5.170273e+000	-5.781537e+001	7.556408e+001	7.556408e+001	-5.251661e+001	7.315120e+001	-2.868488e+002	-1.721416e+000	-4.798461e+000	-4.798461e+000	
5.170000e-001	-1.762083e+000	-5.188728e+000	-5.188728e+000	-6.558109e+001	-5.122166e+001	-5.122166e+001	-5.681425e+001	7.332934e+001	-2.866707e+002	-1.726637e+000	-4.884989e+000	-4.884989e+000	
5.180000e-001	-1.746105e+000	-5.131536e+000	-5.131536e+000	-5.673399e+001	-8.612866e+001	-8.612866e+001	-5.871975e+001	5.375244e+001	-3.062476e+002	-1.715893e+000	-4.805292e+000	-4.805292e+000	
5.190000e-001	-1.762790e+000	-5.208982e+000	-5.208982e+000	-5.621889e+001	-7.630740e+001	-7.630740e+001	-6.157225e+001	-8.534113e+001	-4.453411e+002	-1.717313e+000	-4.877655e+000	-4.877655e+000	
5.200000e-001	-1.769212e+000	-5.261774e+000	-5.261774e+000	-5.606490e+001	8.463856e+001	-9.536144e+001	-5.759521e+001	1.157062e+001	-3.484294e+002	-1.698902e+000	-4.785418e+000	-4.785418e+000	
5.210000e-001	-1.748179e+000	-5.255069e+000	-5.255069e+000	-6.604461e+001	-2.716773e+001	-2.071677e+002	-5.635287e+001	4.037507e+001	-3.196249e+002	-1.735959e+000	-4.915941e+000	-4.915941e+000	
5.220000e-001	-1.736669e+000	-5.278631e+000	-5.278631e+000	-5.570607e+001	-5.869608e+001	-2.386961e+002	-6.200994e+001	4.707122e+001	-3.129288e+002	-1.707626e+000	-4.932427e+000	-4.932427e+000	
5.230000e-001	-1.762234e+000	-5.269564e+000	-5.269564e+000	-6.190640e+001	-8.259084e+001	-2.625908e+002	-5.637609e+001	4.842913e+001	-3.115709e+002	-1.724315e+000	-4.976747e+000	-4.976747e+000	
5.240000e-001	-1.770723e+000	-5.234849e+000	-5.234849e+000	-5.462222e+001	8.420655e+001	-2.757934e+002	-5.568834e+001	8.978790e+001	-2.702121e+002	-1.715444e+000	-4.831064e+000	-4.831064e+000	
5.250000e-001	-1.749505e+000	-5.397932e+000	-5.397932e+000	-5.649541e+001	7.881156e+001	-2.811884e+002	-5.806216e+001	-8.946677e+001	-2.694668e+002	-1.723577e+000	-4.944729e+000	-4.944729e+000	
5.260000e-001	-1.746176e+000	-5.374446e+000	-5.374446e+000	-5.212194e+001	2.721890e+001	-3.327811e+002	-6.814946e+001	-2.649288e+001	-2.064929e+002	-1.728893e+000	-5.001282e+000	-5.001282e+000	
5.270000e-001	-1.750110e+000	-5.318894e+000	-5.318894e+000	-6.183909e+001	3.397673e+001	-3.260233e+002	-5.750844e+001	7.053379e+001	-1.094662e+002	-1.712169e+000	-4.933940e+000	-4.933940e+000	
5.280000e-001	-1.743274e+000	-5.367644e+000	-5.367644e+000	-5.917687e+001	6.258226e+001	-2.974177e+002	-5.228082e+001	-8.728118e+001	-8.728118e+001	-1.718754e+000	-5.047084e+000	-5.047084e+000	
5.290000e-001	-1.767126e+000	-5.406010e+000	-5.406010e+000	-5.456176e+001	6.755141e+001	-2.924486e+002	-5.462849e+001	-8.623508e+001	-8.623508e+001	-1.716191e+000	-4.990901e+000	-4.990901e+000	
5.300000e-001	-1.766431e+000	-5.385031e+000	-5.385031e+000	-5.317168e+001	8.556777e+001	-2.744322e+002	-5.404562e+001	5.521878e+001	-1.247812e+002	-1.705370e+000	-4.807929e+000	-4.807929e+000	
5.310000e-001	-1.746255e+000	-5.411301e+000	-5.411301e+000	-5.784519e+001	-8.088134e+001	-2.608813e+002	-5.490997e+001	7.555116e+001	-1.044488e+002	-1.717500e+000	-4.992932e+000	-4.992932e+000	
5.320000e-001	-1.776267e+000	-5.248470e+000	-5.248470e+000	-5.639157e+001	7.915665e+001	-2.808433e+002	-5.683574e+001	5.812055e+001	-1.218795e+002	-1.701232e+000	-4.918547e+000	-4.918547e+000	
5.330000e-001	-1.744889e+000	-5.391607e+000	-5.391607e+000	-5.747375e+001	-3.942526e+001	-3.994253e+002	-5.987117e+001	-8.386446e+001	-8.386446e+001	-1.713863e+000	-4.991932e+000	-4.991932e+000	
5.340000e-001	-1.751836e+000	-5.335963e+000	-5.335963e+000	-5.568284e+001	8.407344e+001	-2.759266e+002	-6.263095e+001	-4.898847e+001	-4.898847e+001	-1.722548e+000	-5.023217e+000	-5.023217e+000	
5.350000e-001	-1.748699e+000	-5.481564e+000	-5.481564e+000	-5.581761e+001	6.494191e+001	-2.950581e+002	-5.988634e+001	-8.699371e+001	-8.699371e+001	-1.723409e+000	-5.150551e+000	-5.150551e+000	
5.360000e-001	-1.757020e+000	-5.431428e+000	-5.431428e+000	-5.775415e+001	6.686355e+001	-2.931364e+002	-5.899384e+001	-8.017548e+001	-8.017548e+001	-1.713684e+000	-4.996474e+000	-4.996474e+000	
5.370000e-001	-1.767542e+000	-5.457760e+000	-5.457760e+000	-7.013816e+001	-8.675239e+001	-2.667524e+002	-5.594852e+001	-8.294997e+001	-8.294997e+001	-1.723638e+000	-5.145750e+000	-5.145750e+000	
5.380000e-001	-1.749869e+000	-5.492637e+000	-5.492637e+000	-5.492572e+001	5.356927e+001	-3.064307e+002	-5.632687e+001	-6.554818e+001	-6.554818e+001	-1.722033e+000	-5.049809e+000	-5.049809e+000	
5.390000e-001	-1.751063e+000	-5.442585e+000	-5.442585e+000	-5.518049e+001	-8.187394e+001	-4.418739e+002	-5.353730e+001	7.178421e+001	7.178421e+001	-1.715955e+000	-5.193426e+000	-5.193426e+000	
5.400000e-001	-1.756344e+000	-5.415764e+000	-5.415764e+000	-5.615135e+001	-7.196729e+001	-4.319673e+002	-5.797771e+001	-8.110697e+001	9.889303e+001	-1.726978e+000	-5.116702e+000	-5.116702e+000	
5.410000e-001	-1.763860e+000	-5.546982e+000	-5.546982e+000	-5.438852e+001	8.727772e+001	-4.527223e+002	-5.579791e+001	7.461197e+001	7.461197e+001	-1.711929e+000	-5.020939e+000	-5.020939e+000	
5.420000e-001	-1.767082e+000	-5.451612e+000	-5.451612e+000	-6.423742e+001	-8.859276e+001	-4.485928e+002	-5.819032e+001	7.800900e+001	7.800900e+001	-1.717855e+000	-5.072088e+000	-5.072088e+000	
5.430000e-001	-1.748549e+000	-5.436400e+000	-5.436400e+000	-5.855257e+001	4.388945e+001	-3.161106e+002	-5.674827e+001	7.717430e+001	7.717430e+001	-1.716111e+000	-5.121905e+000	-5.121905e+000	
5.440000e-001	-1.755529e+000	-5.527477e+000	-5.527477e+000	-5.820323e+001	-5.700686e+001	-4.170069e+002	-5.677143e+001	7.350281e+001	7.350281e+001	-1.714235e+000	-5.140542e+000	-5.140542e+000	
5.450000e-001	-1.742400e+000	-5.461127e+000	-5.461127e+000	-5.836500e+001	4.826847e+001	-3.117315e+002	-6.863560e+001	-4.642660e+001	-4.642660e+001	-1.721842e+000	-5.094950e+000	-5.094950e+000	
5.460000e-001	-1.754463e+000	-5.565186e+000	-5.565186e+000	-5.590879e+001	-4.199523e+001	-4.019952e+002	-5.611763e+001	-8.987791e+001	-8.987791e+001	-1.715772e+000	-5.075296e+000	-5.075296e+000	
5.470000e-001	-1.758403e+000	-5.480897e+000	-5.480897e+000	-5.698579e+001	8.414568e+001	-2.758543e+002	-5.781017e+001	7.171790e+001	-1.082821e+002	-1.711905e+000	-5.112684e+000	-5.112684e+000	
5.480000e-001	-1.748526e+000	-5.477138e+000	-5.477138e+000	-5.705408e+001	6.273045e+001	-2.972695e+002	-5.439921e+001	8.087360e+001	-9.912640e+001	-1.707753e+000	-5.266005e+000	-5.266005e+000	
5.490000e-001	-1.766557e+000	-5.487516e+000	-5.487516e+000	-6.417865e+001	5.676114e+001	-3.032389e+002	-5.290073e+001	7.983702e+001	-1.001630e+002	-1.709213e+000	-5.241145e+000	-5.241145e+000	
5.500000e-001	-1.763963e+000	-5.607559e+000	-5.607559e+000	-6.312352e+001	4.519199e+001	-3.148080e+002	-5.174239e+001	8.474163e+001	-9.525837e+001	-1.726773e+000	-5.267640e+000	-5.267640e+000	
5.510000e-001	-1.771649e+000	-5.522174e+000	-5.522174e+000	-5.852235e+001	6.856905e+001	-2.914310e+002	-5.969676e+001	3.541670e+001	-1.445833e+002	-1.719279e+000	-5.105522e+000	-5.105522e+000	
5.520000e-001	-1.752988e+000	-5.508014e+000	-5.508014e+000	-5.275876e+001	8.797536e+001	-2.720246e+002	-5.681853e+001	6.205716e+001	-1.179428e+002	-1.700872e+000	-5.186851e+000	-5.186851e+000	
5.530000e-001	-1.745438e+000	-5.479314e+000	-5.479314e+000	-5.781005e+001	6.479155e+001	-2.952085e+002	-5.501452e+001	6.830994e+001	-1.116901e+002	-1.713637e+000	-5.139847e+000	-5.139847e+000	
5.540000e-001	-1.737884e+000	-5.520649e+000	-5.520649e+000	-5.195557e+001	6.464577e+001	-2.953542e+002	-5.304776e+001	-8.820721e+001	-8.820721e+001	-1.724468e+000	-5.245614e+000	-5.245614e+000	
5.550000e-001	-1.763851e+000	-5.567412e+000	-5.567412e+000	-5.785892e+001	7.325601e+001	-2.867440e+002	-5.533610e+001	8.213830e+001	-9.786170e+001	-1.713892e+000	-5.249065e+000	-5.249065e+000	
5.560000e-001	-1.771043e+000	-5.514127e+000	-5.514127e+000	-5.845900e+001	-2.023900e+001	-3.802390e+002	-5.466694e+001	5.936721e+001	-1.206328e+002	-1.716303e+000	-5.288841e+000	-5.288841e+000	
5.570000e-001	-1.751308e+000	-5.527888e+000	-5.527888e+000	-6.203014e+001	4.400133e+001	-3.159987e+002	-6.084672e+001	-8.689437e+001	-8.689437e+001	-1.715144e+000	-5.283067e+000	-5.283067e+000	
5.580000e-001	-1.768760e+000	-5.540892e+000	-5.540892e+000	-5.369147e+001	8.965595e+001	-2.703441e+002	-5.918952e+001	8.943089e+001	-9.056911e+001	-1.709204e+000	-5.289432e+000	-5.289432e+000	
5.590000e-001	-1.764032e+000	-5.574011e+000	-5.574011e+000	-5.975365e+001	-6.334047e+001	-2.433405e+002	-6.583293e+001	5.369923e+001	-1.263008e+002	-1.701105e+000	-5.251259e+000	-5.251259e+000	
5.600000e-001	-1.762529e+000	-5.509067e+000	-5.509067e+000	-6.668875e+001	-8.569784e+001	-2.656978e+002	-5.341906e+001	-8.200757e+001	-2.620076e+002	-1.726976e+000	-5.275210e+000	-5.275210e+000	
5.610000e-001	-1.756118e+000	-5.554072e+000	-5.554072e+000	-5.827584e+001	8.425831e+001	-2.757417e+002	-5.966031e+001	8.757304e+001	-2.724270e+002	-1.702644e+000	-5.293795e+000	-5.293795e+000	
5.620000e-001	-1.748765e+000	-5.619495e+000	-5.619495e+000	-5.642938e+001	6.648522e+001	-2.935148e+002	-5.640491e+001	5.926271e+001	-3.007373e+002	-1.716160e+000	-5.329780e+000	-5.329780e+000	
5.630000e-001	-1.758563e+000	-5.608000e+000	-5.608000e+000	-5.410144e+001	8.516125e+001	-2.748387e+002	-5.434645e+001	3.996538e+001	-3.200346e+002	-1.705625e+000	-5.288506e+000	-5.288506e+000	
5.640000e-001	-1.762425e+000	-5.548265e+000	-5.548265e+000	-6.692577e+001	-7.946060e+001	-2.594606e+002	-5.696982e+001	-8.886414e+001	-4.488641e+002	-1.720383e+000	-5.288786e+000	-5.288786e+000	
5.650000e-001	-1.755551e+000	-5.598923e+000	-5.598923e+000	-5.647317e+001	8.535166e+001	-2.746483e+002	-5.497017e+001	8.671152e+001	-4.532885e+002	-1.721125e+000	-5.379161e+000	-5.379161e+000	
5.660000e-001	-1.763900e+000	-5.474001e+000	-5.474001e+000	-5.679233e+001	-7.490167e+001	-2.549017e+002	-5.707377e+001	6.868741e+001	-4.713126e+002	-1.723743e+000	-5.288998e+000	-5.288998e+000	
5.670000e-001	-1.768949e+000	-5.622875e+000	-5.622875e+000	-5.371284e+001	-8.844848e+001	-2.684485e+002	-5.384946e+001	-8.681002e+001	-4.468100e+002	-1.718932e+000	-5.282681e+000	-5.282681e+000	
5.680000e-001	-1.768281e+000	-5.697407e+000	-5.697407e+000	-5.515017e+001	-8.487862e+001	-2.648786e+002	-6.883420e+001	-4.786742e+001	-4.078674e+002	-1.715368e+000	-5.225495e+000	-5.225495e+000	
5.690000e-001	-1.771365e+000	-5.556856e+000	-5.556856e+000	-5.741277e+001	8.496550e+001	-2.750345e+002	-5.481641e+001	6.657307e+001	-2.934269e+002	-1.713628e+000	-5.224478e+000	-5.224478e+000	
5.700000e-001	-1.757826e+000	-5.716757e+000	-5.716757e+000	-5.356260e+001	-7.959720e+001	-2.595972e+002	-5.389387e+001	-6.692809e+001	-4.269281e+002	-1.711774e+000	-5.340292e+000	-5.340292e+000	
5.710000e-001	-1.762361e+000	-5.564959e+000	-5.564959e+000	-5.751824e+001	8.449104e+001	-2.755090e+002	-5.641319e+001	-7.916161e+001	-4.391616e+002	-1.730489e+000	-5.336457e+000	-5.336457e+000	
5.720000e-001	-1.766984e+000	-5.574462e+000	-5.574462e+000	-5.541464e+001	7.561140e+001	-2.843886e+002	-5.924655e+001	7.613618e+001	-4.638638e+002	-1.701736e+000	-5.217442e+000	-5.217442e+000	
5.730000e-001	-1.772591e+000	-5.652890e+000	-5.652890e+000	-5.554666e+001	8.518964e+001	-2.748104e+002	-5.468692e+001	7.522123e+001	-4.647788e+002	-1.720767e+000	-5.252441e+000	-5.252441e+000	
5.740000e-001	-1.767444e+000	-5.673157e+000	-5.673157e+000	-5.622790e+001	-7.577849e+001	-2.557785e+002	-5.678631e+001	-5.978014e+001	-5.997801e+002	-1.719328e+000	-5.370720e+000	-5.370720e+000	
5.750000e-001	-1.762582e+000	-5.658444e+000	-5.658444e+000	-5.663503e+001	-6.618594e+001	-2.461859e+002	-5.923003e+001	8.016305e+001	-4.598370e+002	-1.706089e+000	-5.343020e+000	-5.343020e+000	
5.760000e-001	-1.772991e+000	-5.739759e+000	-5.739759e+000	-5.605772e+001	8.021492e+001	-2.797851e+002	-5.332340e+001	5.475784e+001	-4.852422e+002	-1.723810e+000	-5.245291e+000	-5.245291e+000	
5.770000e-001	-1.755388e+000	-5.674282e+000	-5.674282e+000	-6.038098e+001	5.556129e+001	-3.044387e+002	-5.914771e+001	2.698072e+001	-5.130193e+002	-1.718338e+000	-5.305647e+000	-5.305647e+000	
5.780000e-001	-1.766531e+000	-5.751794e+000	-5.751794e+000	-5.731718e+001	7.330147e+001	-2.866985e+002	-5.866105e+001	7.977795e+001	-4.602220e+002	-1.723054e+000	-5.286053e+000	-5.286053e+000	
5.790000e-001	-1.764396e+000	-5.790410e+000	-5.790410e+000	-5.633247e+001	8.085122e+001	-2.791488e+002	-5.724259e+001	5.731904e+001	-4.826810e+002	-1.722486e+000	-5.369140e+000	-5.369140e+000	
5.800000e-001	-1.779435e+000	-5.695568e+000	-5.695568e+000	-5.311671e+001	6.303671e+001	-2.969633e+002	-5.498200e+001	-8.685542e+001	-4.468554e+002	-1.726934e+000	-5.411582e+000	-5.411582e+000	
5.810000e-001	-1.763126e+000	-5.615532e+000	-5.615532e+000	-5.733386e+001	6.388500e+001	-2.961150e+002	-5.215502e+001	8.706533e+001	-4.529347e+002	-1.705383e+000	-5.345331e+000	-5.345331e+000	
5.820000e-001	-1.775933e+000	-5.635247e+000	-5.635247e+000	-6.229679e+001	-8.642129e+001	-2.664213e+002	-5.257186e+001	8.314381e+001	-4.568562e+002	-1.702966e+000	-5.449349e+000	-5.449349e+000	
5.830000e-001	-1.754863e+000	-5.728985e+000	-5.728985e+000	-5.646132e+001	8.963768e+001	-2.703623e+002	-5.356317e+001	5.126918e+001	-4.887308e+002	-1.711294e+000	-5.385696e+000	-5.385696e+000	
5.840000e-001	-1.780032e+000	-5.691479e+000	-5.691479e+000	-5.679359e+001	-6.749354e+001	-2.474935e+002	-5.358945e+001	7.604754e+001	-4.639525e+002	-1.716525e+000	-5.456084e+000	-5.456084e+000	
5.850000e-001	-1.759279e+000	-5.794445e+000	-5.794445e+000	-6.328296e+001	5.377757e+001	-1.262224e+002	-5.400375e+001	-8.354674e+001	-4.435467e+002	-1.727649e+000	-5.361031e+000	-5.361031e+000	
5.860000e-001	-1.756501e+000	-5.767557e+000	-5.767557e+000	-5.428224e+001	7.051626e+001	-1.094837e+002	-5.847389e+001	-8.705395e+001	-4.470539e+002	-1.695356e+000	-5.363735e+000	-5.363735e+000	
5.870000e-001	-1.767513e+000	-5.819726e+000	-5.819726e+000	-6.355880e+001	-6.882762e+001	-2.488276e+002	-5.331391e+001	5.534205e+001	-4.846579e+002	-1.725601e+000	-5.443870e+000	-5.443870e+000	
5.880000e-001	-1.766449e+000	-5.762415e+000	-5.762415e+000	-5.679538e+001	6.744174e+001	-1.125583e+002	-5.515837e+001	7.945655e+001	-4.605435e+002	-1.712259e+000	-5.464529e+000	-5.464529e+000	
5.890000e-001	-1.765186e+000	-5.802997e+000	-5.802997e+000	-5.635984e+001	8.483598e+001	-9.516402e+001	-5.525535e+001	8.457258e+001	-4.554274e+002	-1.709324e+000	-5.467788e+000	-5.467788e+000	
5.900000e-001	-1.793726e+000	-5.870610e+000	-5.870610e+000	-5.148077e+001	8.219624e+001	-9.780376e+001	-6.509258e+001	-8.386017e+001	-4.438602e+002	-1.705983e+000	-5.537979e+000	-5.537979e+000	
5.910000e-001	-1.758524e+000	-5.920424e+000	-5.920424e+000	-5.699093e+001	-8.173877e+001	-8.173877e+001	-5.348205e+001	8.940169e+001	-4.505983e+002	-1.717440e+000	-5.470453e+000	-5.470453e+000	
5.920000e-001	-1.764538e+000	-5.786193e+000	-5.786193e+000	-5.426470e+001	-8.300499e+001	-8.300499e+001	-5.251322e+001	-6.309442e+001	-4.230944e+002	-1.708778e+000	-5.479706e+000	-5.479706e+000	
5.930000e-001	-1.759767e+000	-5.865257e+000	-5.865257e+000	-5.759217e+001	8.391813e+001	-9.608187e+001	-5.301847e+001	-7.753750e+001	-4.375375e+002	-1.713720e+000	-5.595794e+000	-5.595794e+000	
5.940000e-001	-1.760040e+000	-5.860524e+000	-5.860524e+000	-5.495487e+001	3.258657e+001	-1.474134e+002	-5.677843e+001	5.280270e+001	-3.071973e+002	-1.699614e+000	-5.508996e+000	-5.508996e+000	
5.950000e-001	-1.770259e+000	-5.804825e+000	-5.804825e+000	-5.756060e+001	6.137918e+001	-1.186208e+002	-5.457310e+001	8.377522e+001	-2.762248e+002	-1.712475e+000	-5.561824e+000	-5.561824e+000	
5.960000e-001	-1.760814e+000	-5.936298e+000	-5.936298e+000	-6.132489e+001	-7.035366e+001	-2.503537e+002	-5.915014e+001	7.416016e+001	-2.858398e+002	-1.717039e+000	-5.538981e+000	-5.538981e+000	
5.970000e-001	-1.763111e+000	-5.881417e+000	-5.881417e+000	-5.604049e+001	-8.893431e+001	-2.689343e+002	-6.034567e+001	7.751072e+001	-2.824893e+002	-1.706269e+000	-5.534675e+000	-5.534675e+000	
5.980000e-001	-1.765369e+000	-5.962803e+000	-5.962803e+000	-5.447046e+001	8.985352e+001	-2.701465e+002	-5.791509e+001	6.191548e+001	-2.980845e+002	-1.712240e+000	-5.556123e+000	-5.556123e+000	
5.990000e-001	-1.768707e+000	-5.930211e+000	-5.930211e+000	-5.707811e+001	6.420868e+001	-2.957913e+002	-5.823795e+001	-7.122083e+001	-4.312208e+002	-1.706665e+000	-5.548017e+000	-5.548017e+000	
6.000000e-001	-1.754045e+000	-5.826580e+000	-5.826580e+000	-5.343025e+001	5.160107e+001	-3.083989e+002	-5.378718e+001	-8.174681e+001	-4.417468e+002	-1.723118e+000	-5.540063e+000	-5.540063e+000	
6.010000e-001	-1.775811e+000	-6.000535e+000	-6.000535e+000	-5.661113e+001	-7.584117e+001	-4.358412e+002	-5.672289e+001	5.254218e+001	-3.074578e+002	-1.708142e+000	-5.517021e+000	-5.517021e+000	
