Frequency	 |S11|	 Phase(S11)	 ExtPh(S11)	 |S21|	 Phase(S21)	 ExtPh(S21)	 |S12|	 Phase(S12)	 ExtPh(S12)	 |S22|	 Phase(S22)	 ExtPh(S22) 
5.000000e-001	-1.788353e+000	-5.227761e+000	-5.227761e+000	-6.671782e+001	-6.090595e+001	-6.090595e+001	-6.661636e+001	-4.413896e+001	-4.413896e+001	-1.714416e+000	-4.756286e+000	-4.756286e+000	
5.010000e-001	-1.768437e+000	-5.202978e+000	-5.202978e+000	-5.612724e+001	6.657751e+001	6.657751e+001	-6.878110e+001	-5.956022e+001	-5.956022e+001	-1.711937e+000	-4.732643e+000	-4.732643e+000	
5.020000e-001	-1.762936e+000	-5.021419e+000	-5.021419e+000	-5.450265e+001	6.946314e+001	6.946314e+001	-6.006874e+001	-5.729335e+001	-5.729335e+001	-1.711005e+000	-4.851178e+000	-4.851178e+000	
5.030000e-001	-1.777501e+000	-5.084412e+000	-5.084412e+000	-5.652010e+001	-8.405323e+001	9.594677e+001	-5.804156e+001	-7.070550e+001	-7.070550e+001	-1.699190e+000	-4.683201e+000	-4.683201e+000	
5.040000e-001	-1.770025e+000	-5.100354e+000	-5.100354e+000	-5.972292e+001	4.358478e+001	2.235848e+002	-5.359045e+001	8.203626e+001	-9.796374e+001	-1.721361e+000	-4.710978e+000	-4.710978e+000	
5.050000e-001	-1.759465e+000	-5.129527e+000	-5.129527e+000	-6.422434e+001	-1.231041e+001	1.676896e+002	-5.261154e+001	8.841986e+001	-9.158014e+001	-1.713739e+000	-4.714816e+000	-4.714816e+000	
5.060000e-001	-1.754444e+000	-5.180081e+000	-5.180081e+000	-5.459256e+001	6.647475e+001	2.464747e+002	-6.232811e+001	7.043427e+001	-1.095657e+002	-1.698542e+000	-4.877188e+000	-4.877188e+000	
5.070000e-001	-1.758799e+000	-5.257183e+000	-5.257183e+000	-6.289632e+001	7.386911e+001	2.538691e+002	-5.848744e+001	-8.620520e+001	-8.620520e+001	-1.695671e+000	-4.778960e+000	-4.778960e+000	
5.080000e-001	-1.765501e+000	-5.232886e+000	-5.232886e+000	-5.762675e+001	6.185596e+001	2.418560e+002	-5.681108e+001	-8.734337e+001	-8.734337e+001	-1.727709e+000	-4.873196e+000	-4.873196e+000	
5.090000e-001	-1.756834e+000	-5.206110e+000	-5.206110e+000	-5.529092e+001	7.307907e+001	2.530791e+002	-6.020867e+001	7.034154e+001	-1.096585e+002	-1.722450e+000	-4.881982e+000	-4.881982e+000	
5.100000e-001	-1.754165e+000	-5.201708e+000	-5.201708e+000	-6.049201e+001	5.811269e+001	2.381127e+002	-5.392269e+001	7.200980e+001	-1.079902e+002	-1.730015e+000	-4.912618e+000	-4.912618e+000	
5.110000e-001	-1.756099e+000	-5.260845e+000	-5.260845e+000	-5.655981e+001	-8.723014e+001	2.727699e+002	-5.752141e+001	-6.230175e+001	-2.423017e+002	-1.724696e+000	-4.849276e+000	-4.849276e+000	
5.120000e-001	-1.766145e+000	-5.304019e+000	-5.304019e+000	-5.743661e+001	7.816652e+001	2.581665e+002	-5.896782e+001	7.751361e+001	-1.024864e+002	-1.717128e+000	-4.921006e+000	-4.921006e+000	
5.130000e-001	-1.782979e+000	-5.191811e+000	-5.191811e+000	-5.912596e+001	-4.498241e+001	1.350176e+002	-5.358811e+001	6.421809e+001	-1.157819e+002	-1.719645e+000	-4.832739e+000	-4.832739e+000	
5.140000e-001	-1.757838e+000	-5.299173e+000	-5.299173e+000	-5.476680e+001	7.176345e+001	2.517635e+002	-5.841238e+001	-8.276669e+001	-8.276669e+001	-1.729340e+000	-4.899338e+000	-4.899338e+000	
5.150000e-001	-1.755150e+000	-5.373701e+000	-5.373701e+000	-5.442148e+001	2.309765e+001	2.030976e+002	-5.691698e+001	7.343875e+001	-1.065613e+002	-1.730605e+000	-4.929068e+000	-4.929068e+000	
5.160000e-001	-1.770856e+000	-5.368755e+000	-5.368755e+000	-6.077539e+001	-8.856620e+001	9.143380e+001	-5.734911e+001	7.217873e+001	-1.078213e+002	-1.718531e+000	-5.012383e+000	-5.012383e+000	
5.170000e-001	-1.763589e+000	-5.338273e+000	-5.338273e+000	-5.397660e+001	6.731932e+001	6.731932e+001	-5.575675e+001	-7.024006e+001	-7.024006e+001	-1.725921e+000	-5.030703e+000	-5.030703e+000	
5.180000e-001	-1.769480e+000	-5.242906e+000	-5.242906e+000	-5.592483e+001	7.440004e+001	7.440004e+001	-5.502711e+001	-5.383840e+001	-5.383840e+001	-1.724436e+000	-4.975022e+000	-4.975022e+000	
5.190000e-001	-1.772708e+000	-5.456034e+000	-5.456034e+000	-5.723483e+001	5.476185e+001	5.476185e+001	-5.312772e+001	-8.254682e+001	-8.254682e+001	-1.722321e+000	-5.066409e+000	-5.066409e+000	
5.200000e-001	-1.766174e+000	-5.334189e+000	-5.334189e+000	-5.451065e+001	-7.856866e+001	-7.856866e+001	-5.636402e+001	-7.499556e+001	-7.499556e+001	-1.709865e+000	-4.954928e+000	-4.954928e+000	
5.210000e-001	-1.765394e+000	-5.323923e+000	-5.323923e+000	-5.623775e+001	5.464205e+001	5.464205e+001	-8.216747e+001	-1.090934e+001	-1.090934e+001	-1.710252e+000	-5.015882e+000	-5.015882e+000	
5.220000e-001	-1.761142e+000	-5.355464e+000	-5.355464e+000	-5.229750e+001	8.873949e+001	8.873949e+001	-5.904230e+001	7.828278e+001	7.828278e+001	-1.718264e+000	-4.970696e+000	-4.970696e+000	
5.230000e-001	-1.761170e+000	-5.390078e+000	-5.390078e+000	-5.843902e+001	6.541558e+001	6.541558e+001	-6.687651e+001	-3.192112e+001	-3.192112e+001	-1.715063e+000	-4.988479e+000	-4.988479e+000	
5.240000e-001	-1.764701e+000	-5.363090e+000	-5.363090e+000	-5.233192e+001	8.099377e+001	8.099377e+001	-5.734590e+001	3.623669e+001	3.623669e+001	-1.715906e+000	-5.065042e+000	-5.065042e+000	
5.250000e-001	-1.771109e+000	-5.367540e+000	-5.367540e+000	-5.397841e+001	6.466894e+001	6.466894e+001	-5.405463e+001	5.712019e+001	5.712019e+001	-1.721143e+000	-5.068904e+000	-5.068904e+000	
5.260000e-001	-1.768053e+000	-5.459526e+000	-5.459526e+000	-5.556353e+001	-8.592704e+001	9.407296e+001	-5.249521e+001	7.754339e+001	7.754339e+001	-1.710757e+000	-5.021206e+000	-5.021206e+000	
5.270000e-001	-1.763722e+000	-5.408688e+000	-5.408688e+000	-5.806236e+001	-6.753404e+001	1.124660e+002	-5.421294e+001	-8.755897e+001	9.244103e+001	-1.711763e+000	-5.127044e+000	-5.127044e+000	
5.280000e-001	-1.746653e+000	-5.543025e+000	-5.543025e+000	-5.907434e+001	-7.675070e+001	1.032493e+002	-5.019785e+001	6.206627e+001	6.206627e+001	-1.716335e+000	-5.106414e+000	-5.106414e+000	
5.290000e-001	-1.765364e+000	-5.467012e+000	-5.467012e+000	-6.177490e+001	-5.412436e+001	1.258756e+002	-5.311289e+001	8.947578e+001	8.947578e+001	-1.719732e+000	-5.132611e+000	-5.132611e+000	
5.300000e-001	-1.764724e+000	-5.502465e+000	-5.502465e+000	-5.682294e+001	-8.696050e+001	9.303950e+001	-5.372477e+001	-7.077856e+001	1.092214e+002	-1.711639e+000	-5.114212e+000	-5.114212e+000	
5.310000e-001	-1.757867e+000	-5.418638e+000	-5.418638e+000	-5.696659e+001	4.869710e+001	2.286971e+002	-5.867326e+001	8.838940e+001	8.838940e+001	-1.725562e+000	-5.157582e+000	-5.157582e+000	
5.320000e-001	-1.779507e+000	-5.396666e+000	-5.396666e+000	-5.585237e+001	8.903732e+001	2.690373e+002	-5.496396e+001	-7.474766e+001	1.052523e+002	-1.723710e+000	-5.242142e+000	-5.242142e+000	
5.330000e-001	-1.774074e+000	-5.475064e+000	-5.475064e+000	-5.305299e+001	-8.125573e+001	2.787443e+002	-5.289212e+001	-8.737582e+001	9.262418e+001	-1.717120e+000	-5.167960e+000	-5.167960e+000	
5.340000e-001	-1.763408e+000	-5.535623e+000	-5.535623e+000	-5.958523e+001	-5.239065e+001	3.076094e+002	-5.632543e+001	7.025210e+001	7.025210e+001	-1.718080e+000	-5.203856e+000	-5.203856e+000	
5.350000e-001	-1.758761e+000	-5.557875e+000	-5.557875e+000	-5.502692e+001	-7.882524e+001	2.811748e+002	-5.742385e+001	8.557217e+001	8.557217e+001	-1.733081e+000	-5.196730e+000	-5.196730e+000	
5.360000e-001	-1.760620e+000	-5.470945e+000	-5.470945e+000	-6.034348e+001	-8.054514e+001	2.794549e+002	-5.665153e+001	8.119656e+001	8.119656e+001	-1.714567e+000	-5.211905e+000	-5.211905e+000	
5.370000e-001	-1.769756e+000	-5.540175e+000	-5.540175e+000	-6.482879e+001	5.481373e+001	4.148137e+002	-5.620895e+001	6.166752e+001	6.166752e+001	-1.710030e+000	-5.207241e+000	-5.207241e+000	
5.380000e-001	-1.766528e+000	-5.496083e+000	-5.496083e+000	-5.353477e+001	7.581921e+001	4.358192e+002	-5.781422e+001	8.972602e+001	8.972602e+001	-1.714766e+000	-5.207022e+000	-5.207022e+000	
5.390000e-001	-1.752308e+000	-5.529139e+000	-5.529139e+000	-5.314142e+001	-8.734701e+001	4.526530e+002	-5.341046e+001	6.786060e+001	6.786060e+001	-1.715820e+000	-5.204106e+000	-5.204106e+000	
5.400000e-001	-1.774031e+000	-5.531025e+000	-5.531025e+000	-5.382880e+001	8.990783e+001	4.499078e+002	-5.508387e+001	8.696234e+001	8.696234e+001	-1.714963e+000	-5.215733e+000	-5.215733e+000	
5.410000e-001	-1.778520e+000	-5.610177e+000	-5.610177e+000	-5.416253e+001	6.896926e+001	4.289693e+002	-5.694131e+001	8.420689e+001	8.420689e+001	-1.708181e+000	-5.258006e+000	-5.258006e+000	
5.420000e-001	-1.764834e+000	-5.555735e+000	-5.555735e+000	-5.467579e+001	4.996973e+001	4.099697e+002	-5.924673e+001	8.529421e+001	8.529421e+001	-1.715017e+000	-5.182279e+000	-5.182279e+000	
5.430000e-001	-1.771239e+000	-5.561079e+000	-5.561079e+000	-6.201070e+001	-6.821832e+001	2.917817e+002	-5.884333e+001	6.062118e+001	6.062118e+001	-1.694882e+000	-5.311519e+000	-5.311519e+000	
5.440000e-001	-1.770217e+000	-5.568887e+000	-5.568887e+000	-5.752632e+001	5.986147e+001	4.198615e+002	-6.628847e+001	6.194379e+001	6.194379e+001	-1.716588e+000	-5.195530e+000	-5.195530e+000	
5.450000e-001	-1.763354e+000	-5.508266e+000	-5.508266e+000	-6.508658e+001	-5.628628e+001	3.037137e+002	-5.994837e+001	4.214146e+001	4.214146e+001	-1.718192e+000	-5.117706e+000	-5.117706e+000	
5.460000e-001	-1.790113e+000	-5.648961e+000	-5.648961e+000	-5.282610e+001	7.063100e+001	4.306310e+002	-5.294436e+001	5.493928e+001	5.493928e+001	-1.724276e+000	-5.307914e+000	-5.307914e+000	
5.470000e-001	-1.753487e+000	-5.597099e+000	-5.597099e+000	-5.696922e+001	7.457259e+001	4.345726e+002	-6.051462e+001	5.096922e+001	5.096922e+001	-1.696586e+000	-5.293839e+000	-5.293839e+000	
5.480000e-001	-1.761831e+000	-5.642570e+000	-5.642570e+000	-5.470001e+001	7.257642e+001	4.325764e+002	-5.135100e+001	7.334147e+001	7.334147e+001	-1.722603e+000	-5.341828e+000	-5.341828e+000	
5.490000e-001	-1.773367e+000	-5.554330e+000	-5.554330e+000	-5.879453e+001	3.653946e+001	3.965395e+002	-5.719785e+001	-7.033773e+001	1.096623e+002	-1.704553e+000	-5.301444e+000	-5.301444e+000	
5.500000e-001	-1.772931e+000	-5.607983e+000	-5.607983e+000	-5.791229e+001	-8.575051e+001	2.742495e+002	-5.505960e+001	-7.192329e+001	1.080767e+002	-1.711863e+000	-5.304446e+000	-5.304446e+000	
5.510000e-001	-1.776472e+000	-5.607772e+000	-5.607772e+000	-5.732570e+001	7.800925e+001	2.580092e+002	-6.086156e+001	8.852551e+001	8.852551e+001	-1.713507e+000	-5.225935e+000	-5.225935e+000	
5.520000e-001	-1.766928e+000	-5.601059e+000	-5.601059e+000	-5.417502e+001	8.627670e+001	2.662767e+002	-5.335288e+001	-8.378130e+001	9.621870e+001	-1.722715e+000	-5.302723e+000	-5.302723e+000	
5.530000e-001	-1.762900e+000	-5.601346e+000	-5.601346e+000	-5.842825e+001	-7.048376e+001	2.895162e+002	-5.709830e+001	4.952158e+001	2.295216e+002	-1.715647e+000	-5.309775e+000	-5.309775e+000	
5.540000e-001	-1.782315e+000	-5.647322e+000	-5.647322e+000	-5.921971e+001	6.533882e+001	4.253388e+002	-5.263916e+001	8.718889e+001	2.671889e+002	-1.714718e+000	-5.259405e+000	-5.259405e+000	
5.550000e-001	-1.774546e+000	-5.653824e+000	-5.653824e+000	-5.547465e+001	8.116456e+001	4.411646e+002	-5.839214e+001	3.931879e+001	2.193188e+002	-1.718887e+000	-5.272969e+000	-5.272969e+000	
5.560000e-001	-1.754113e+000	-5.645180e+000	-5.645180e+000	-5.987050e+001	8.738474e+001	4.473847e+002	-5.463485e+001	7.776153e+001	2.577615e+002	-1.717532e+000	-5.419419e+000	-5.419419e+000	
5.570000e-001	-1.747720e+000	-5.634857e+000	-5.634857e+000	-5.651462e+001	-7.626089e+001	4.637391e+002	-5.782594e+001	1.434878e+001	1.943488e+002	-1.717444e+000	-5.294997e+000	-5.294997e+000	
5.580000e-001	-1.761254e+000	-5.662161e+000	-5.662161e+000	-5.413606e+001	6.187773e+001	6.018777e+002	-5.349828e+001	6.447539e+001	2.444754e+002	-1.718516e+000	-5.346986e+000	-5.346986e+000	
5.590000e-001	-1.762458e+000	-5.692886e+000	-5.692886e+000	-5.603119e+001	7.036472e+001	6.103647e+002	-5.597765e+001	-6.117676e+001	1.188232e+002	-1.715323e+000	-5.415122e+000	-5.415122e+000	
5.600000e-001	-1.764971e+000	-5.695915e+000	-5.695915e+000	-5.747403e+001	8.525348e+001	6.252535e+002	-5.821153e+001	5.351244e+001	2.335124e+002	-1.717924e+000	-5.349850e+000	-5.349850e+000	
5.610000e-001	-1.750039e+000	-5.720248e+000	-5.720248e+000	-5.493796e+001	8.633295e+001	6.263329e+002	-5.392352e+001	-8.901168e+001	2.709883e+002	-1.728532e+000	-5.286119e+000	-5.286119e+000	
5.620000e-001	-1.771239e+000	-5.707457e+000	-5.707457e+000	-5.733560e+001	8.579383e+001	6.257938e+002	-6.035107e+001	6.045556e+001	2.404556e+002	-1.694297e+000	-5.381204e+000	-5.381204e+000	
5.630000e-001	-1.768347e+000	-5.754990e+000	-5.754990e+000	-6.029300e+001	7.361244e+001	6.136124e+002	-5.853588e+001	8.510213e+001	2.651021e+002	-1.726828e+000	-5.530807e+000	-5.530807e+000	
5.640000e-001	-1.774704e+000	-5.646515e+000	-5.646515e+000	-5.507267e+001	6.835811e+001	6.083581e+002	-5.219461e+001	-8.612485e+001	2.738751e+002	-1.710656e+000	-5.311144e+000	-5.311144e+000	
5.650000e-001	-1.772451e+000	-5.663355e+000	-5.663355e+000	-5.358446e+001	4.889841e+001	5.888984e+002	-5.638560e+001	8.161393e+001	2.616139e+002	-1.712111e+000	-5.373165e+000	-5.373165e+000	
5.660000e-001	-1.767935e+000	-5.658287e+000	-5.658287e+000	-5.343998e+001	-8.515474e+001	4.548453e+002	-5.554183e+001	-7.761279e+001	2.823872e+002	-1.714698e+000	-5.364280e+000	-5.364280e+000	
5.670000e-001	-1.762327e+000	-5.762545e+000	-5.762545e+000	-5.168017e+001	6.633162e+001	4.263316e+002	-5.403245e+001	-6.811744e+001	2.918826e+002	-1.709470e+000	-5.413428e+000	-5.413428e+000	
5.680000e-001	-1.778464e+000	-5.690307e+000	-5.690307e+000	-5.254212e+001	7.876646e+001	4.387665e+002	-5.773517e+001	5.413825e+001	4.141383e+002	-1.711295e+000	-5.371692e+000	-5.371692e+000	
5.690000e-001	-1.760757e+000	-5.738480e+000	-5.738480e+000	-5.503386e+001	-7.622944e+001	4.637706e+002	-5.430338e+001	5.837594e+001	4.183759e+002	-1.715349e+000	-5.315866e+000	-5.315866e+000	
5.700000e-001	-1.762672e+000	-5.766139e+000	-5.766139e+000	-5.510096e+001	-8.807747e+001	4.519225e+002	-5.352488e+001	7.721066e+001	4.372107e+002	-1.715210e+000	-5.443439e+000	-5.443439e+000	
5.710000e-001	-1.766176e+000	-5.721476e+000	-5.721476e+000	-5.775878e+001	7.962217e+001	4.396222e+002	-5.199073e+001	4.036331e+001	4.003633e+002	-1.717165e+000	-5.480232e+000	-5.480232e+000	
5.720000e-001	-1.781487e+000	-5.892881e+000	-5.892881e+000	-5.661450e+001	8.164261e+001	4.416426e+002	-4.961904e+001	8.232489e+001	4.423249e+002	-1.711153e+000	-5.486249e+000	-5.486249e+000	
5.730000e-001	-1.772716e+000	-5.704274e+000	-5.704274e+000	-6.465402e+001	-8.301380e+001	4.569862e+002	-5.041169e+001	8.082239e+001	4.408224e+002	-1.720712e+000	-5.380295e+000	-5.380295e+000	
5.740000e-001	-1.778120e+000	-5.773553e+000	-5.773553e+000	-5.901329e+001	8.318711e+001	4.431871e+002	-5.980660e+001	1.146024e+001	3.714602e+002	-1.699719e+000	-5.526457e+000	-5.526457e+000	
5.750000e-001	-1.772073e+000	-5.728220e+000	-5.728220e+000	-7.442076e+001	-4.374417e+000	3.556256e+002	-5.951388e+001	6.570371e+001	4.257037e+002	-1.710429e+000	-5.529502e+000	-5.529502e+000	
5.760000e-001	-1.781512e+000	-5.749654e+000	-5.749654e+000	-5.414019e+001	8.036386e+001	4.403639e+002	-5.217571e+001	8.753625e+001	4.475362e+002	-1.707226e+000	-5.593252e+000	-5.593252e+000	
5.770000e-001	-1.779269e+000	-5.751354e+000	-5.751354e+000	-6.194207e+001	7.045864e+001	4.304586e+002	-5.469956e+001	7.867836e+001	4.386784e+002	-1.710415e+000	-5.411761e+000	-5.411761e+000	
5.780000e-001	-1.783558e+000	-5.798388e+000	-5.798388e+000	-5.715564e+001	7.256738e+001	4.325674e+002	-5.340682e+001	8.180629e+001	4.418063e+002	-1.720403e+000	-5.385484e+000	-5.385484e+000	
5.790000e-001	-1.777495e+000	-5.915731e+000	-5.915731e+000	-5.681523e+001	5.050960e+001	4.105096e+002	-5.291775e+001	8.048001e+001	4.404800e+002	-1.712160e+000	-5.432495e+000	-5.432495e+000	
5.800000e-001	-1.779108e+000	-5.761899e+000	-5.761899e+000	-5.323416e+001	-8.551176e+001	2.744882e+002	-5.625420e+001	6.224520e+001	4.222452e+002	-1.720535e+000	-5.489153e+000	-5.489153e+000	
5.810000e-001	-1.782321e+000	-5.796187e+000	-5.796187e+000	-4.992579e+001	6.913984e+001	2.491398e+002	-5.744340e+001	7.798082e+001	4.379808e+002	-1.689106e+000	-5.566222e+000	-5.566222e+000	
5.820000e-001	-1.776149e+000	-5.839149e+000	-5.839149e+000	-5.934325e+001	8.880971e+001	2.688097e+002	-6.292277e+001	-7.602193e+001	4.639781e+002	-1.701634e+000	-5.506930e+000	-5.506930e+000	
5.830000e-001	-1.773872e+000	-5.899897e+000	-5.899897e+000	-5.294404e+001	7.006956e+001	2.500696e+002	-5.451171e+001	6.215026e+001	6.021503e+002	-1.703080e+000	-5.470554e+000	-5.470554e+000	
5.840000e-001	-1.781780e+000	-5.821897e+000	-5.821897e+000	-5.579199e+001	4.140732e+001	2.214073e+002	-5.306259e+001	8.169693e+001	6.216969e+002	-1.719713e+000	-5.567299e+000	-5.567299e+000	
5.850000e-001	-1.761933e+000	-5.888745e+000	-5.888745e+000	-5.680870e+001	-6.592798e+001	1.140720e+002	-5.411369e+001	7.950180e+001	6.195018e+002	-1.709854e+000	-5.546340e+000	-5.546340e+000	
5.860000e-001	-1.775929e+000	-5.852153e+000	-5.852153e+000	-5.468355e+001	7.988184e+001	7.988184e+001	-5.067766e+001	7.186567e+001	6.118657e+002	-1.706427e+000	-5.503563e+000	-5.503563e+000	
5.870000e-001	-1.768670e+000	-5.858939e+000	-5.858939e+000	-5.420777e+001	5.458026e+001	5.458026e+001	-5.591541e+001	-7.630268e+001	6.436973e+002	-1.723862e+000	-5.543707e+000	-5.543707e+000	
5.880000e-001	-1.777883e+000	-5.976525e+000	-5.976525e+000	-5.383015e+001	8.364650e+001	8.364650e+001	-5.640905e+001	-7.877075e+001	6.412292e+002	-1.712028e+000	-5.517137e+000	-5.517137e+000	
5.890000e-001	-1.767174e+000	-5.935082e+000	-5.935082e+000	-5.347621e+001	8.079180e+001	8.079180e+001	-5.800051e+001	3.936738e+001	7.593674e+002	-1.715647e+000	-5.594496e+000	-5.594496e+000	
5.900000e-001	-1.766484e+000	-5.923283e+000	-5.923283e+000	-5.577943e+001	-7.246247e+001	1.075375e+002	-5.927046e+001	-8.769610e+001	6.323039e+002	-1.713173e+000	-5.536390e+000	-5.536390e+000	
5.910000e-001	-1.775463e+000	-5.938957e+000	-5.938957e+000	-5.993125e+001	6.932911e+001	6.932911e+001	-5.939407e+001	5.990061e+001	5.999006e+002	-1.713199e+000	-5.587097e+000	-5.587097e+000	
5.920000e-001	-1.767104e+000	-5.765373e+000	-5.765373e+000	-5.785658e+001	7.257123e+001	7.257123e+001	-5.568505e+001	5.070614e+001	5.907061e+002	-1.725730e+000	-5.554522e+000	-5.554522e+000	
5.930000e-001	-1.772482e+000	-5.991553e+000	-5.991553e+000	-5.502419e+001	5.468552e+001	5.468552e+001	-5.254993e+001	6.683536e+001	6.068354e+002	-1.723199e+000	-5.606036e+000	-5.606036e+000	
5.940000e-001	-1.773628e+000	-5.986912e+000	-5.986912e+000	-5.944596e+001	6.807975e+001	6.807975e+001	-6.052101e+001	5.389525e+001	5.938953e+002	-1.694814e+000	-5.616441e+000	-5.616441e+000	
5.950000e-001	-1.772743e+000	-6.020291e+000	-6.020291e+000	-6.033647e+001	4.491675e+001	4.491675e+001	-5.737417e+001	-8.714124e+001	6.328588e+002	-1.729575e+000	-5.603201e+000	-5.603201e+000	
5.960000e-001	-1.747760e+000	-6.071627e+000	-6.071627e+000	-5.266616e+001	7.099686e+001	7.099686e+001	-5.474134e+001	4.839564e+001	7.683956e+002	-1.724870e+000	-5.590911e+000	-5.590911e+000	
5.970000e-001	-1.780200e+000	-5.974850e+000	-5.974850e+000	-6.112931e+001	-5.215694e+001	-5.215694e+001	-5.620139e+001	6.880427e+001	7.888043e+002	-1.715099e+000	-5.595573e+000	-5.595573e+000	
5.980000e-001	-1.790598e+000	-6.059210e+000	-6.059210e+000	-5.348581e+001	-6.978355e+001	-6.978355e+001	-5.624971e+001	-6.502109e+001	6.549789e+002	-1.719674e+000	-5.611935e+000	-5.611935e+000	
5.990000e-001	-1.764093e+000	-6.116506e+000	-6.116506e+000	-5.509339e+001	5.663429e+001	5.663429e+001	-5.288602e+001	4.109545e+001	7.610955e+002	-1.719163e+000	-5.616280e+000	-5.616280e+000	
6.000000e-001	-1.778319e+000	-6.050155e+000	-6.050155e+000	-5.201785e+001	5.477488e+001	5.477488e+001	-6.003603e+001	7.155992e+001	7.915599e+002	-1.723250e+000	-5.724950e+000	-5.724950e+000	
6.010000e-001	-1.774518e+000	-6.122918e+000	-6.122918e+000	-5.445758e+001	6.007648e+001	6.007648e+001	-5.608985e+001	6.249662e+001	7.824966e+002	-1.715520e+000	-5.684099e+000	-5.684099e+000	
6.020000e-001	-1.765578e+000	-6.084338e+000	-6.084338e+000	-5.732081e+001	-8.986895e+001	9.013105e+001	-5.324535e+001	-6.985790e+001	6.501421e+002	-1.720058e+000	-5.715924e+000	-5.715924e+000	
