Frequency	 |S11|	 Phase(S11)	 ExtPh(S11)	 |S21|	 Phase(S21)	 ExtPh(S21)	 |S12|	 Phase(S12)	 ExtPh(S12)	 |S22|	 Phase(S22)	 ExtPh(S22) 
5.000000e-001	-1.767791e+000	-4.861781e+000	-4.861781e+000	-6.341546e+001	6.925176e+001	6.925176e+001	-5.960924e+001	-5.381116e+001	-5.381116e+001	-1.719044e+000	-4.557377e+000	-4.557377e+000	
5.010000e-001	-1.753962e+000	-4.798656e+000	-4.798656e+000	-5.898680e+001	7.836658e+001	7.836658e+001	-5.893394e+001	-5.954569e+001	-5.954569e+001	-1.710161e+000	-4.569822e+000	-4.569822e+000	
5.020000e-001	-1.753683e+000	-4.935261e+000	-4.935261e+000	-5.467200e+001	-8.660812e+001	9.339188e+001	-5.628116e+001	7.764429e+001	7.764429e+001	-1.708079e+000	-4.659671e+000	-4.659671e+000	
5.030000e-001	-1.771685e+000	-4.948667e+000	-4.948667e+000	-5.566612e+001	-6.784825e+001	1.121517e+002	-5.556123e+001	5.975754e+001	5.975754e+001	-1.707476e+000	-4.582743e+000	-4.582743e+000	
5.040000e-001	-1.759980e+000	-5.094687e+000	-5.094687e+000	-6.440343e+001	8.097557e+001	8.097557e+001	-5.634706e+001	8.633125e+001	8.633125e+001	-1.704820e+000	-4.657933e+000	-4.657933e+000	
5.050000e-001	-1.763356e+000	-4.946030e+000	-4.946030e+000	-5.582639e+001	6.540663e+001	6.540663e+001	-6.031363e+001	3.480599e+001	3.480599e+001	-1.726167e+000	-4.624248e+000	-4.624248e+000	
5.060000e-001	-1.745460e+000	-5.017343e+000	-5.017343e+000	-5.533729e+001	8.917299e+001	8.917299e+001	-7.533625e+001	1.842876e+001	1.842876e+001	-1.716453e+000	-4.615127e+000	-4.615127e+000	
5.070000e-001	-1.753539e+000	-4.989992e+000	-4.989992e+000	-6.591524e+001	2.923950e+001	2.923950e+001	-5.630836e+001	6.378723e+001	6.378723e+001	-1.709358e+000	-4.616439e+000	-4.616439e+000	
5.080000e-001	-1.744349e+000	-4.991972e+000	-4.991972e+000	-5.679244e+001	4.401592e+001	4.401592e+001	-5.852356e+001	8.714575e+001	8.714575e+001	-1.708696e+000	-4.640427e+000	-4.640427e+000	
5.090000e-001	-1.754440e+000	-5.076627e+000	-5.076627e+000	-5.483090e+001	4.192910e+001	4.192910e+001	-5.895478e+001	-6.867053e+001	1.113295e+002	-1.712262e+000	-4.715251e+000	-4.715251e+000	
5.100000e-001	-1.749531e+000	-5.116374e+000	-5.116374e+000	-5.891387e+001	-7.704295e+001	-7.704295e+001	-5.771279e+001	7.100371e+001	2.510037e+002	-1.720310e+000	-4.699436e+000	-4.699436e+000	
5.110000e-001	-1.741807e+000	-5.131153e+000	-5.131153e+000	-5.951415e+001	-5.665093e+001	-5.665093e+001	-5.819110e+001	-8.743748e+001	2.725625e+002	-1.720169e+000	-4.766440e+000	-4.766440e+000	
5.120000e-001	-1.753833e+000	-5.110537e+000	-5.110537e+000	-5.824988e+001	5.886982e+001	5.886982e+001	-5.576145e+001	-6.389765e+001	2.961023e+002	-1.714426e+000	-4.805800e+000	-4.805800e+000	
5.130000e-001	-1.752824e+000	-5.110575e+000	-5.110575e+000	-5.518740e+001	6.088105e+001	6.088105e+001	-5.809698e+001	6.435479e+001	4.243548e+002	-1.714345e+000	-4.655482e+000	-4.655482e+000	
5.140000e-001	-1.753933e+000	-5.069987e+000	-5.069987e+000	-5.245858e+001	-7.440853e+001	-7.440853e+001	-5.871418e+001	-5.594675e+001	3.040533e+002	-1.714681e+000	-4.807896e+000	-4.807896e+000	
5.150000e-001	-1.758944e+000	-5.086677e+000	-5.086677e+000	-6.503151e+001	2.065296e+001	2.065296e+001	-5.926486e+001	6.076827e+001	4.207683e+002	-1.732019e+000	-4.724945e+000	-4.724945e+000	
5.160000e-001	-1.756086e+000	-5.128486e+000	-5.128486e+000	-5.626279e+001	6.551321e+001	6.551321e+001	-5.582835e+001	8.492444e+001	4.449244e+002	-1.702152e+000	-4.709252e+000	-4.709252e+000	
5.170000e-001	-1.761892e+000	-5.020910e+000	-5.020910e+000	-6.287232e+001	-8.277289e+001	9.722711e+001	-5.321162e+001	5.201995e+001	4.120200e+002	-1.711860e+000	-4.832543e+000	-4.832543e+000	
5.180000e-001	-1.741533e+000	-5.079736e+000	-5.079736e+000	-5.622668e+001	8.199315e+001	8.199315e+001	-6.336552e+001	-4.800022e+001	3.119998e+002	-1.703951e+000	-4.756138e+000	-4.756138e+000	
5.190000e-001	-1.748473e+000	-5.239178e+000	-5.239178e+000	-5.724364e+001	-8.040064e+001	9.959936e+001	-5.510488e+001	8.583966e+001	4.458397e+002	-1.720384e+000	-4.749728e+000	-4.749728e+000	
5.200000e-001	-1.752323e+000	-5.214220e+000	-5.214220e+000	-5.834506e+001	8.272939e+001	8.272939e+001	-6.027017e+001	8.316623e+001	4.431662e+002	-1.717484e+000	-4.803037e+000	-4.803037e+000	
5.210000e-001	-1.748150e+000	-5.232195e+000	-5.232195e+000	-5.714125e+001	-8.087954e+001	9.912046e+001	-5.778177e+001	-7.589316e+001	4.641068e+002	-1.696397e+000	-4.750448e+000	-4.750448e+000	
5.220000e-001	-1.740756e+000	-5.100191e+000	-5.100191e+000	-5.884296e+001	8.687980e+001	8.687980e+001	-5.949513e+001	6.488397e+001	4.248840e+002	-1.727699e+000	-4.854604e+000	-4.854604e+000	
5.230000e-001	-1.748114e+000	-5.134005e+000	-5.134005e+000	-5.928354e+001	-7.190863e+001	1.080914e+002	-5.230347e+001	6.698183e+001	4.269818e+002	-1.704332e+000	-4.861402e+000	-4.861402e+000	
5.240000e-001	-1.755456e+000	-5.233620e+000	-5.233620e+000	-5.927569e+001	-8.434112e+001	9.565888e+001	-5.453257e+001	7.465123e+001	4.346512e+002	-1.709175e+000	-4.885296e+000	-4.885296e+000	
5.250000e-001	-1.766740e+000	-5.153833e+000	-5.153833e+000	-5.717320e+001	4.566309e+001	2.256631e+002	-5.431030e+001	-7.169335e+001	4.683066e+002	-1.709551e+000	-4.874300e+000	-4.874300e+000	
5.260000e-001	-1.756496e+000	-5.224081e+000	-5.224081e+000	-5.872336e+001	8.611012e+001	2.661101e+002	-5.494661e+001	7.799524e+001	4.379952e+002	-1.703899e+000	-4.875521e+000	-4.875521e+000	
5.270000e-001	-1.748157e+000	-5.186491e+000	-5.186491e+000	-6.686758e+001	4.010719e+001	2.201072e+002	-5.754134e+001	7.910375e+001	4.391038e+002	-1.705184e+000	-4.812363e+000	-4.812363e+000	
5.280000e-001	-1.750089e+000	-5.192420e+000	-5.192420e+000	-7.265478e+001	-5.687907e+001	1.231209e+002	-5.539111e+001	6.417787e+001	4.241779e+002	-1.719093e+000	-4.971350e+000	-4.971350e+000	
5.290000e-001	-1.745856e+000	-5.218517e+000	-5.218517e+000	-5.523188e+001	-5.027562e+001	1.297244e+002	-5.403618e+001	-8.855902e+001	4.514410e+002	-1.732576e+000	-4.771796e+000	-4.771796e+000	
5.300000e-001	-1.752767e+000	-5.320525e+000	-5.320525e+000	-5.386407e+001	-8.814203e+001	9.185797e+001	-5.449233e+001	4.085839e+001	5.808584e+002	-1.692995e+000	-4.964781e+000	-4.964781e+000	
5.310000e-001	-1.761280e+000	-5.143477e+000	-5.143477e+000	-5.686879e+001	-5.911640e+001	1.208836e+002	-5.680722e+001	7.710793e+001	6.171079e+002	-1.726834e+000	-4.851626e+000	-4.851626e+000	
5.320000e-001	-1.751396e+000	-5.331423e+000	-5.331423e+000	-5.246837e+001	5.629445e+001	2.362945e+002	-5.640547e+001	5.689581e+001	5.968958e+002	-1.711507e+000	-4.918874e+000	-4.918874e+000	
5.330000e-001	-1.757885e+000	-5.330488e+000	-5.330488e+000	-5.593440e+001	8.860428e+001	2.686043e+002	-5.782779e+001	5.653966e+001	5.965397e+002	-1.713239e+000	-4.823392e+000	-4.823392e+000	
5.340000e-001	-1.754474e+000	-5.282870e+000	-5.282870e+000	-5.424125e+001	6.485959e+001	2.448596e+002	-6.139396e+001	6.703976e+001	6.070398e+002	-1.722006e+000	-4.974191e+000	-4.974191e+000	
5.350000e-001	-1.748652e+000	-5.325974e+000	-5.325974e+000	-5.673600e+001	5.955756e+001	2.395576e+002	-5.481363e+001	6.794275e+001	6.079427e+002	-1.709713e+000	-5.040923e+000	-5.040923e+000	
5.360000e-001	-1.751817e+000	-5.302116e+000	-5.302116e+000	-5.058895e+001	8.883869e+001	2.688387e+002	-5.613480e+001	7.565376e+001	6.156538e+002	-1.722108e+000	-4.978458e+000	-4.978458e+000	
5.370000e-001	-1.751614e+000	-5.395506e+000	-5.395506e+000	-6.317271e+001	-5.390388e+001	3.060961e+002	-5.841041e+001	-8.319996e+001	6.368000e+002	-1.710530e+000	-4.948649e+000	-4.948649e+000	
5.380000e-001	-1.765879e+000	-5.408540e+000	-5.408540e+000	-5.454078e+001	7.271314e+001	4.327131e+002	-5.746446e+001	8.831457e+001	6.283146e+002	-1.711495e+000	-5.075164e+000	-5.075164e+000	
5.390000e-001	-1.745659e+000	-5.373662e+000	-5.373662e+000	-5.479344e+001	7.413579e+001	4.341358e+002	-5.562768e+001	8.076442e+001	6.207644e+002	-1.714690e+000	-5.031659e+000	-5.031659e+000	
5.400000e-001	-1.760715e+000	-5.322643e+000	-5.322643e+000	-5.441290e+001	7.403072e+001	4.340307e+002	-5.185066e+001	-7.727475e+001	6.427253e+002	-1.719138e+000	-5.046357e+000	-5.046357e+000	
5.410000e-001	-1.759371e+000	-5.322807e+000	-5.322807e+000	-5.767432e+001	7.432655e+001	4.343266e+002	-5.731102e+001	-5.951686e+001	6.604831e+002	-1.715249e+000	-4.983532e+000	-4.983532e+000	
5.420000e-001	-1.756017e+000	-5.340921e+000	-5.340921e+000	-5.844448e+001	7.202937e+001	4.320294e+002	-5.354217e+001	-7.043905e+001	6.495609e+002	-1.713842e+000	-5.055337e+000	-5.055337e+000	
5.430000e-001	-1.745470e+000	-5.349540e+000	-5.349540e+000	-5.454317e+001	-8.075958e+001	4.592404e+002	-5.501527e+001	8.755074e+001	6.275507e+002	-1.722117e+000	-5.060591e+000	-5.060591e+000	
5.440000e-001	-1.758967e+000	-5.514013e+000	-5.514013e+000	-5.532113e+001	7.843907e+001	4.384391e+002	-5.444812e+001	5.248491e+001	5.924849e+002	-1.705213e+000	-5.052183e+000	-5.052183e+000	
5.450000e-001	-1.752499e+000	-5.414551e+000	-5.414551e+000	-5.493682e+001	8.760626e+001	4.476063e+002	-6.584360e+001	2.328669e+001	5.632867e+002	-1.711473e+000	-5.047665e+000	-5.047665e+000	
5.460000e-001	-1.763383e+000	-5.282657e+000	-5.282657e+000	-5.339404e+001	7.603924e+001	4.360392e+002	-6.399301e+001	-3.575740e+001	5.042426e+002	-1.714332e+000	-5.126656e+000	-5.126656e+000	
5.470000e-001	-1.748121e+000	-5.438927e+000	-5.438927e+000	-5.322374e+001	4.959849e+001	4.095985e+002	-6.925666e+001	-7.838164e+001	4.616184e+002	-1.719662e+000	-5.075919e+000	-5.075919e+000	
5.480000e-001	-1.744830e+000	-5.404851e+000	-5.404851e+000	-5.533137e+001	7.092611e+001	4.309261e+002	-5.364958e+001	5.749661e+001	5.974966e+002	-1.711631e+000	-5.176049e+000	-5.176049e+000	
5.490000e-001	-1.749134e+000	-5.449695e+000	-5.449695e+000	-6.284590e+001	-2.179171e+001	3.382083e+002	-5.131431e+001	-8.428888e+001	6.357111e+002	-1.711055e+000	-5.155263e+000	-5.155263e+000	
5.500000e-001	-1.759031e+000	-5.452936e+000	-5.452936e+000	-5.591989e+001	5.387038e+001	4.138704e+002	-5.819191e+001	8.872324e+001	6.287232e+002	-1.717613e+000	-5.169574e+000	-5.169574e+000	
5.510000e-001	-1.752165e+000	-5.420672e+000	-5.420672e+000	-5.632095e+001	7.494484e+001	4.349448e+002	-5.919517e+001	6.490133e+001	6.049013e+002	-1.709146e+000	-5.042769e+000	-5.042769e+000	
5.520000e-001	-1.745889e+000	-5.393051e+000	-5.393051e+000	-5.688624e+001	-7.969083e+001	4.603092e+002	-5.108023e+001	7.208987e+001	6.120899e+002	-1.729604e+000	-5.115488e+000	-5.115488e+000	
5.530000e-001	-1.757851e+000	-5.417215e+000	-5.417215e+000	-5.626714e+001	8.410247e+001	4.441025e+002	-5.857110e+001	-8.497623e+001	6.350238e+002	-1.706222e+000	-5.187555e+000	-5.187555e+000	
5.540000e-001	-1.740777e+000	-5.332771e+000	-5.332771e+000	-5.554059e+001	7.858452e+001	4.385845e+002	-5.892588e+001	-7.290470e+001	6.470953e+002	-1.711037e+000	-5.140505e+000	-5.140505e+000	
5.550000e-001	-1.768192e+000	-5.441251e+000	-5.441251e+000	-5.673908e+001	6.540548e+001	4.254055e+002	-6.019747e+001	-7.368629e+001	6.463137e+002	-1.711240e+000	-5.162428e+000	-5.162428e+000	
5.560000e-001	-1.759073e+000	-5.517294e+000	-5.517294e+000	-5.348686e+001	-7.518440e+001	4.648156e+002	-5.487469e+001	-6.451869e+001	6.554813e+002	-1.710950e+000	-5.121534e+000	-5.121534e+000	
5.570000e-001	-1.737931e+000	-5.574096e+000	-5.574096e+000	-6.038596e+001	-8.751248e+001	4.524875e+002	-6.183678e+001	7.002176e+001	7.900218e+002	-1.721043e+000	-5.138293e+000	-5.138293e+000	
5.580000e-001	-1.757503e+000	-5.466689e+000	-5.466689e+000	-6.233794e+001	7.073905e+001	4.307390e+002	-5.678064e+001	-8.729304e+001	8.127070e+002	-1.713665e+000	-5.181261e+000	-5.181261e+000	
5.590000e-001	-1.742492e+000	-5.431935e+000	-5.431935e+000	-5.474120e+001	8.242924e+001	4.424292e+002	-5.874044e+001	-6.701935e+001	8.329806e+002	-1.709245e+000	-5.150283e+000	-5.150283e+000	
5.600000e-001	-1.760476e+000	-5.538068e+000	-5.538068e+000	-5.273046e+001	7.796541e+001	4.379654e+002	-5.755732e+001	-7.654675e+001	8.234533e+002	-1.728395e+000	-5.137528e+000	-5.137528e+000	
5.610000e-001	-1.748118e+000	-5.475906e+000	-5.475906e+000	-5.912740e+001	8.195561e+001	4.419556e+002	-5.411323e+001	-8.980432e+001	8.101957e+002	-1.724929e+000	-5.133233e+000	-5.133233e+000	
5.620000e-001	-1.764313e+000	-5.614746e+000	-5.614746e+000	-5.376328e+001	7.808235e+001	4.380823e+002	-6.040846e+001	7.065338e+001	7.906534e+002	-1.713731e+000	-5.271060e+000	-5.271060e+000	
5.630000e-001	-1.749116e+000	-5.507030e+000	-5.507030e+000	-5.803477e+001	-8.727040e+001	4.527296e+002	-5.246080e+001	-8.883352e+001	8.111665e+002	-1.715961e+000	-5.223489e+000	-5.223489e+000	
5.640000e-001	-1.759751e+000	-5.525392e+000	-5.525392e+000	-5.479497e+001	7.548237e+001	4.354824e+002	-5.691124e+001	7.593301e+001	7.959330e+002	-1.703203e+000	-5.016213e+000	-5.016213e+000	
5.650000e-001	-1.760169e+000	-5.470250e+000	-5.470250e+000	-5.291556e+001	6.997461e+001	4.299746e+002	-5.860293e+001	8.620687e+001	8.062069e+002	-1.714016e+000	-5.168055e+000	-5.168055e+000	
5.660000e-001	-1.756667e+000	-5.459205e+000	-5.459205e+000	-6.244539e+001	-6.127562e+001	2.987244e+002	-6.007163e+001	6.994217e+001	7.899422e+002	-1.711723e+000	-5.170331e+000	-5.170331e+000	
5.670000e-001	-1.760186e+000	-5.523787e+000	-5.523787e+000	-6.871263e+001	5.437692e+001	4.143769e+002	-5.384777e+001	-7.880864e+001	8.211914e+002	-1.714542e+000	-5.199598e+000	-5.199598e+000	
5.680000e-001	-1.760106e+000	-5.581185e+000	-5.581185e+000	-6.142582e+001	8.269970e+001	4.426997e+002	-5.476845e+001	6.881932e+001	7.888193e+002	-1.705788e+000	-5.205389e+000	-5.205389e+000	
5.690000e-001	-1.761835e+000	-5.644812e+000	-5.644812e+000	-5.738801e+001	-6.266736e+001	4.773326e+002	-5.675207e+001	-8.951421e+001	8.104858e+002	-1.701815e+000	-5.286188e+000	-5.286188e+000	
5.700000e-001	-1.763705e+000	-5.474148e+000	-5.474148e+000	-5.459387e+001	7.372076e+001	6.137208e+002	-5.333703e+001	6.828566e+001	7.882857e+002	-1.721716e+000	-5.281349e+000	-5.281349e+000	
5.710000e-001	-1.751668e+000	-5.614067e+000	-5.614067e+000	-5.425551e+001	-5.157596e+001	4.884240e+002	-5.472970e+001	6.691713e+001	7.869171e+002	-1.695261e+000	-5.319871e+000	-5.319871e+000	
5.720000e-001	-1.754440e+000	-5.537301e+000	-5.537301e+000	-5.189531e+001	8.855511e+001	4.485551e+002	-5.930217e+001	7.892269e+001	7.989227e+002	-1.700731e+000	-5.207161e+000	-5.207161e+000	
5.730000e-001	-1.760610e+000	-5.504841e+000	-5.504841e+000	-5.061047e+001	5.781254e+001	4.178125e+002	-5.518271e+001	6.210333e+001	7.821033e+002	-1.706721e+000	-5.358398e+000	-5.358398e+000	
5.740000e-001	-1.755024e+000	-5.554458e+000	-5.554458e+000	-5.455008e+001	-8.455579e+001	4.554442e+002	-5.599363e+001	8.266256e+001	8.026626e+002	-1.703941e+000	-5.291614e+000	-5.291614e+000	
5.750000e-001	-1.757857e+000	-5.686142e+000	-5.686142e+000	-5.579666e+001	4.839664e+001	5.883966e+002	-5.586107e+001	7.832770e+001	7.983277e+002	-1.711899e+000	-5.256881e+000	-5.256881e+000	
5.760000e-001	-1.757692e+000	-5.454115e+000	-5.454115e+000	-5.377490e+001	6.464550e+001	6.046455e+002	-5.443991e+001	-7.602408e+001	8.239759e+002	-1.736985e+000	-5.288889e+000	-5.288889e+000	
5.770000e-001	-1.761281e+000	-5.564784e+000	-5.564784e+000	-5.922725e+001	-6.113327e+001	4.788667e+002	-6.278963e+001	5.785596e+001	9.578560e+002	-1.716461e+000	-5.286269e+000	-5.286269e+000	
5.780000e-001	-1.751375e+000	-5.512928e+000	-5.512928e+000	-5.442646e+001	-5.520124e+001	4.847988e+002	-5.515376e+001	7.975792e+001	9.797579e+002	-1.708719e+000	-5.317308e+000	-5.317308e+000	
5.790000e-001	-1.760332e+000	-5.650975e+000	-5.650975e+000	-5.501596e+001	-8.428724e+001	4.557128e+002	-5.584185e+001	5.930767e+001	9.593077e+002	-1.712148e+000	-5.319967e+000	-5.319967e+000	
5.800000e-001	-1.778507e+000	-5.642519e+000	-5.642519e+000	-5.509217e+001	8.969542e+001	4.496954e+002	-6.009325e+001	3.425080e+001	9.342508e+002	-1.709710e+000	-5.340653e+000	-5.340653e+000	
5.810000e-001	-1.745468e+000	-5.601400e+000	-5.601400e+000	-5.494742e+001	5.357825e+001	4.135783e+002	-6.136941e+001	6.102700e+001	9.610270e+002	-1.725825e+000	-5.211163e+000	-5.211163e+000	
5.820000e-001	-1.760130e+000	-5.662977e+000	-5.662977e+000	-5.405366e+001	-7.193912e+001	2.880609e+002	-5.656976e+001	5.573638e+001	9.557364e+002	-1.723798e+000	-5.198509e+000	-5.198509e+000	
5.830000e-001	-1.766004e+000	-5.659814e+000	-5.659814e+000	-5.812457e+001	-8.340277e+001	2.765972e+002	-5.814230e+001	-7.283545e+001	8.271646e+002	-1.710053e+000	-5.279520e+000	-5.279520e+000	
5.840000e-001	-1.774267e+000	-5.596085e+000	-5.596085e+000	-7.067782e+001	3.987795e+001	3.998780e+002	-5.743483e+001	6.850403e+001	7.885040e+002	-1.724624e+000	-5.424232e+000	-5.424232e+000	
5.850000e-001	-1.748945e+000	-5.651649e+000	-5.651649e+000	-6.081307e+001	7.482976e+001	4.348298e+002	-5.619991e+001	4.531353e+001	7.653135e+002	-1.712916e+000	-5.450193e+000	-5.450193e+000	
5.860000e-001	-1.766623e+000	-5.629547e+000	-5.629547e+000	-6.080991e+001	3.105950e+001	3.910595e+002	-5.542352e+001	7.506514e+001	7.950651e+002	-1.725116e+000	-5.334334e+000	-5.334334e+000	
5.870000e-001	-1.757903e+000	-5.725410e+000	-5.725410e+000	-5.454902e+001	-8.052137e+001	2.794786e+002	-5.582406e+001	5.566019e+001	7.756602e+002	-1.713504e+000	-5.389212e+000	-5.389212e+000	
5.880000e-001	-1.762220e+000	-5.520488e+000	-5.520488e+000	-6.041841e+001	-4.029363e+001	3.197064e+002	-6.707313e+001	-7.397627e+001	6.460237e+002	-1.691506e+000	-5.316448e+000	-5.316448e+000	
5.890000e-001	-1.769913e+000	-5.624225e+000	-5.624225e+000	-5.603731e+001	6.784875e+001	4.278488e+002	-6.244030e+001	6.044434e+001	7.804443e+002	-1.716871e+000	-5.253447e+000	-5.253447e+000	
5.900000e-001	-1.761096e+000	-5.651964e+000	-5.651964e+000	-5.470362e+001	7.449388e+001	4.344939e+002	-5.219495e+001	-8.703902e+001	8.129610e+002	-1.730566e+000	-5.390374e+000	-5.390374e+000	
5.910000e-001	-1.758877e+000	-5.706789e+000	-5.706789e+000	-5.458121e+001	6.381049e+001	4.238105e+002	-6.069524e+001	8.722958e+001	8.072296e+002	-1.722388e+000	-5.399072e+000	-5.399072e+000	
5.920000e-001	-1.762423e+000	-5.841046e+000	-5.841046e+000	-5.857718e+001	5.258003e+001	4.125800e+002	-5.452685e+001	8.785382e+001	8.078538e+002	-1.720052e+000	-5.371977e+000	-5.371977e+000	
5.930000e-001	-1.760642e+000	-5.790567e+000	-5.790567e+000	-5.819660e+001	4.567226e+001	4.056723e+002	-5.997019e+001	8.598267e+001	8.059827e+002	-1.711055e+000	-5.291943e+000	-5.291943e+000	
5.940000e-001	-1.762604e+000	-5.748491e+000	-5.748491e+000	-6.229672e+001	5.673191e+001	4.167319e+002	-5.109955e+001	8.192902e+001	8.019290e+002	-1.711912e+000	-5.454155e+000	-5.454155e+000	
5.950000e-001	-1.761828e+000	-5.888047e+000	-5.888047e+000	-5.406513e+001	7.456062e+001	4.345606e+002	-6.447162e+001	6.724412e+001	7.872441e+002	-1.718392e+000	-5.444468e+000	-5.444468e+000	
5.960000e-001	-1.759549e+000	-5.760376e+000	-5.760376e+000	-5.873031e+001	-7.010898e+001	4.698910e+002	-5.687863e+001	-8.632372e+001	8.136763e+002	-1.714321e+000	-5.507781e+000	-5.507781e+000	
5.970000e-001	-1.760697e+000	-5.900440e+000	-5.900440e+000	-5.825733e+001	7.807408e+001	4.380741e+002	-6.056126e+001	5.711196e+001	7.771120e+002	-1.718766e+000	-5.473957e+000	-5.473957e+000	
5.980000e-001	-1.754881e+000	-5.870908e+000	-5.870908e+000	-5.358477e+001	6.616066e+001	4.261607e+002	-5.200837e+001	7.036647e+001	7.903665e+002	-1.712990e+000	-5.472269e+000	-5.472269e+000	
5.990000e-001	-1.761291e+000	-5.843125e+000	-5.843125e+000	-5.728266e+001	-8.639774e+001	4.536023e+002	-5.287425e+001	7.766969e+001	7.976697e+002	-1.727481e+000	-5.470531e+000	-5.470531e+000	
6.000000e-001	-1.760691e+000	-5.740901e+000	-5.740901e+000	-5.280941e+001	-7.949873e+001	4.605013e+002	-5.895503e+001	8.148524e+001	8.014852e+002	-1.726775e+000	-5.451017e+000	-5.451017e+000	
6.010000e-001	-1.756655e+000	-5.917104e+000	-5.917104e+000	-5.281320e+001	7.129746e+001	4.312975e+002	-5.465177e+001	3.153638e+001	7.515364e+002	-1.698377e+000	-5.580761e+000	-5.580761e+000	
6.020000e-001	-1.770336e+000	-5.820869e+000	-5.820869e+000	-5.763039e+001	5.785871e+001	4.178587e+002	-6.269371e+001	7.114375e+001	7.911437e+002	-1.715985e+000	-5.459819e+000	-5.459819e+000	
