Frequency	 |S11|	 Phase(S11)	 ExtPh(S11)	 |S21|	 Phase(S21)	 ExtPh(S21)	 |S12|	 Phase(S12)	 ExtPh(S12)	 |S22|	 Phase(S22)	 ExtPh(S22) 
5.000000e-001	-5.148913e-001	-3.093127e+000	-3.093127e+000	-5.129603e+001	8.342919e+001	8.342919e+001	-5.251148e+001	8.964512e+001	8.964512e+001	-5.451499e-001	-2.495755e+000	-2.495755e+000	
5.010000e-001	-5.335851e-001	-3.097741e+000	-3.097741e+000	-5.202733e+001	8.653975e+001	8.653975e+001	-5.450367e+001	-8.715615e+001	9.284385e+001	-5.358907e-001	-2.573363e+000	-2.573363e+000	
5.020000e-001	-5.190417e-001	-3.064279e+000	-3.064279e+000	-5.329154e+001	5.946376e+001	5.946376e+001	-5.351925e+001	-8.563377e+001	9.436623e+001	-5.563436e-001	-2.541706e+000	-2.541706e+000	
5.030000e-001	-5.246767e-001	-3.048296e+000	-3.048296e+000	-5.283258e+001	-8.989969e+001	9.010031e+001	-5.133779e+001	8.198475e+001	8.198475e+001	-5.421981e-001	-2.594120e+000	-2.594120e+000	
5.040000e-001	-5.311898e-001	-3.051392e+000	-3.051392e+000	-5.694880e+001	-5.478922e+001	1.252108e+002	-5.037362e+001	5.884640e+001	5.884640e+001	-5.442335e-001	-2.593293e+000	-2.593293e+000	
5.050000e-001	-5.278087e-001	-3.109643e+000	-3.109643e+000	-5.181140e+001	8.009606e+001	2.600961e+002	-5.199373e+001	8.574575e+001	8.574575e+001	-5.489496e-001	-2.547303e+000	-2.547303e+000	
5.060000e-001	-5.188503e-001	-3.164035e+000	-3.164035e+000	-5.378430e+001	7.510482e+001	2.551048e+002	-5.170890e+001	-8.163926e+001	9.836074e+001	-5.532344e-001	-2.595097e+000	-2.595097e+000	
5.070000e-001	-5.207002e-001	-3.141447e+000	-3.141447e+000	-5.440555e+001	7.383749e+001	2.538375e+002	-5.099729e+001	6.400994e+001	6.400994e+001	-5.533823e-001	-2.620156e+000	-2.620156e+000	
5.080000e-001	-5.066869e-001	-3.051287e+000	-3.051287e+000	-5.598403e+001	8.139404e+001	2.613940e+002	-5.170206e+001	8.085194e+001	8.085194e+001	-5.502062e-001	-2.664686e+000	-2.664686e+000	
5.090000e-001	-5.244568e-001	-3.150037e+000	-3.150037e+000	-5.278013e+001	7.752428e+001	2.575243e+002	-5.102030e+001	8.276445e+001	8.276445e+001	-5.499569e-001	-2.561616e+000	-2.561616e+000	
5.100000e-001	-5.400606e-001	-3.139152e+000	-3.139152e+000	-5.248770e+001	6.827048e+001	2.482705e+002	-5.183608e+001	8.574579e+001	8.574579e+001	-5.620360e-001	-2.712181e+000	-2.712181e+000	
5.110000e-001	-5.185493e-001	-3.121172e+000	-3.121172e+000	-5.265265e+001	6.974393e+001	2.497439e+002	-5.243190e+001	8.408945e+001	8.408945e+001	-5.468825e-001	-2.748816e+000	-2.748816e+000	
5.120000e-001	-5.347712e-001	-3.156181e+000	-3.156181e+000	-5.546427e+001	6.790594e+001	2.479059e+002	-5.369911e+001	7.882085e+001	7.882085e+001	-5.420556e-001	-2.666623e+000	-2.666623e+000	
5.130000e-001	-5.267076e-001	-3.164269e+000	-3.164269e+000	-5.535565e+001	7.576886e+001	2.557689e+002	-5.484481e+001	6.723620e+001	6.723620e+001	-5.442084e-001	-2.524603e+000	-2.524603e+000	
5.140000e-001	-5.215541e-001	-3.225689e+000	-3.225689e+000	-5.340314e+001	-7.077730e+001	2.892227e+002	-5.225820e+001	7.365706e+001	7.365706e+001	-5.431346e-001	-2.633387e+000	-2.633387e+000	
5.150000e-001	-5.349856e-001	-3.141186e+000	-3.141186e+000	-5.035856e+001	-8.629695e+001	2.737030e+002	-4.995080e+001	7.144603e+001	7.144603e+001	-5.442369e-001	-2.703762e+000	-2.703762e+000	
5.160000e-001	-5.305082e-001	-3.230003e+000	-3.230003e+000	-5.477134e+001	7.319316e+001	2.531932e+002	-5.003132e+001	6.937298e+001	6.937298e+001	-5.404745e-001	-2.707594e+000	-2.707594e+000	
5.170000e-001	-5.319469e-001	-3.258037e+000	-3.258037e+000	-5.662676e+001	-8.692353e+001	2.730765e+002	-5.638993e+001	5.918591e+001	5.918591e+001	-5.443822e-001	-2.704339e+000	-2.704339e+000	
5.180000e-001	-5.377875e-001	-3.108172e+000	-3.108172e+000	-5.280417e+001	8.255816e+001	2.625582e+002	-5.011114e+001	8.558312e+001	8.558312e+001	-5.463741e-001	-2.744491e+000	-2.744491e+000	
5.190000e-001	-5.192467e-001	-3.211158e+000	-3.211158e+000	-5.119542e+001	5.874927e+001	2.387493e+002	-5.216704e+001	8.411027e+001	8.411027e+001	-5.437628e-001	-2.821892e+000	-2.821892e+000	
5.200000e-001	-5.218064e-001	-3.186902e+000	-3.186902e+000	-5.042433e+001	-8.759845e+001	2.724015e+002	-5.431400e+001	6.573703e+001	6.573703e+001	-5.631657e-001	-2.809995e+000	-2.809995e+000	
5.210000e-001	-5.072216e-001	-3.301856e+000	-3.301856e+000	-5.602218e+001	8.479571e+001	2.647957e+002	-5.263083e+001	7.958756e+001	7.958756e+001	-5.420445e-001	-2.722706e+000	-2.722706e+000	
5.220000e-001	-5.193671e-001	-3.247095e+000	-3.247095e+000	-5.972536e+001	-5.670438e+001	3.032956e+002	-5.492401e+001	-8.234406e+001	9.765594e+001	-5.481056e-001	-2.806488e+000	-2.806488e+000	
5.230000e-001	-5.244092e-001	-3.315831e+000	-3.315831e+000	-4.971283e+001	7.325550e+001	4.332555e+002	-5.515880e+001	-7.577791e+001	1.042221e+002	-5.543314e-001	-2.743463e+000	-2.743463e+000	
5.240000e-001	-5.196352e-001	-3.137241e+000	-3.137241e+000	-5.255792e+001	7.185439e+001	4.318544e+002	-5.485954e+001	3.727203e+001	2.172720e+002	-5.516363e-001	-2.821423e+000	-2.821423e+000	
5.250000e-001	-5.325536e-001	-3.231911e+000	-3.231911e+000	-5.910574e+001	-8.436203e+001	4.556380e+002	-5.488903e+001	-8.257059e+001	9.742941e+001	-5.520357e-001	-2.757475e+000	-2.757475e+000	
5.260000e-001	-5.294625e-001	-3.300109e+000	-3.300109e+000	-5.211418e+001	6.250137e+001	4.225014e+002	-5.219339e+001	7.709108e+001	7.709108e+001	-5.546922e-001	-2.764888e+000	-2.764888e+000	
5.270000e-001	-5.080566e-001	-3.255342e+000	-3.255342e+000	-5.279593e+001	-8.900642e+001	4.509936e+002	-5.487097e+001	7.776428e+001	7.776428e+001	-5.453389e-001	-2.874085e+000	-2.874085e+000	
5.280000e-001	-5.165966e-001	-3.344268e+000	-3.344268e+000	-5.198804e+001	7.752589e+001	4.375259e+002	-5.692766e+001	8.808295e+001	8.808295e+001	-5.433675e-001	-2.879097e+000	-2.879097e+000	
5.290000e-001	-5.189803e-001	-3.286825e+000	-3.286825e+000	-5.366829e+001	4.151728e+001	4.015173e+002	-5.151893e+001	7.537124e+001	7.537124e+001	-5.555623e-001	-2.765894e+000	-2.765894e+000	
5.300000e-001	-5.302458e-001	-3.324989e+000	-3.324989e+000	-5.463577e+001	8.226473e+001	4.422647e+002	-5.482885e+001	6.890280e+001	6.890280e+001	-5.496355e-001	-2.816308e+000	-2.816308e+000	
5.310000e-001	-5.058325e-001	-3.259335e+000	-3.259335e+000	-4.948215e+001	7.676420e+001	4.367642e+002	-5.219465e+001	7.503430e+001	7.503430e+001	-5.421644e-001	-2.818692e+000	-2.818692e+000	
5.320000e-001	-5.199017e-001	-3.313749e+000	-3.313749e+000	-5.294225e+001	-7.935505e+001	4.606449e+002	-5.337911e+001	-8.540654e+001	9.459346e+001	-5.641442e-001	-2.858110e+000	-2.858110e+000	
5.330000e-001	-5.502606e-001	-3.245423e+000	-3.245423e+000	-5.581133e+001	6.246389e+001	4.224639e+002	-5.559353e+001	7.282248e+001	7.282248e+001	-5.592567e-001	-2.869294e+000	-2.869294e+000	
5.340000e-001	-5.214238e-001	-3.223024e+000	-3.223024e+000	-6.392164e+001	-5.680914e+001	3.031909e+002	-5.202357e+001	-7.689276e+001	1.031072e+002	-5.626173e-001	-2.864360e+000	-2.864360e+000	
5.350000e-001	-5.294833e-001	-3.289466e+000	-3.289466e+000	-5.031976e+001	8.108451e+001	4.410845e+002	-5.266444e+001	6.874828e+001	6.874828e+001	-5.525679e-001	-2.757062e+000	-2.757062e+000	
5.360000e-001	-5.362292e-001	-3.381761e+000	-3.381761e+000	-5.309166e+001	-8.856633e+001	4.514337e+002	-5.120133e+001	8.364300e+001	8.364300e+001	-5.481781e-001	-2.859619e+000	-2.859619e+000	
5.370000e-001	-5.166065e-001	-3.243594e+000	-3.243594e+000	-5.155735e+001	7.163349e+001	4.316335e+002	-5.205039e+001	8.115954e+001	8.115954e+001	-5.480767e-001	-2.788557e+000	-2.788557e+000	
5.380000e-001	-5.392244e-001	-3.285042e+000	-3.285042e+000	-5.632205e+001	-8.536344e+001	4.546366e+002	-5.528543e+001	-8.951778e+001	9.048222e+001	-5.487361e-001	-2.798024e+000	-2.798024e+000	
5.390000e-001	-5.257458e-001	-3.350819e+000	-3.350819e+000	-5.382730e+001	-8.556232e+001	4.544377e+002	-5.335771e+001	8.044346e+001	8.044346e+001	-5.358401e-001	-2.909271e+000	-2.909271e+000	
5.400000e-001	-5.420417e-001	-3.347136e+000	-3.347136e+000	-5.549826e+001	7.971221e+001	4.397122e+002	-5.562359e+001	7.801325e+001	7.801325e+001	-5.518784e-001	-2.844517e+000	-2.844517e+000	
5.410000e-001	-5.269008e-001	-3.357202e+000	-3.357202e+000	-5.772260e+001	7.808432e+001	4.380843e+002	-5.244232e+001	7.488028e+001	7.488028e+001	-5.428674e-001	-2.822759e+000	-2.822759e+000	
5.420000e-001	-5.431832e-001	-3.370550e+000	-3.370550e+000	-5.052275e+001	7.483453e+001	4.348345e+002	-5.153470e+001	-6.861334e+001	1.113867e+002	-5.536295e-001	-2.903607e+000	-2.903607e+000	
5.430000e-001	-5.230024e-001	-3.325788e+000	-3.325788e+000	-5.045003e+001	-8.984572e+001	4.501543e+002	-5.233781e+001	8.085217e+001	8.085217e+001	-5.496281e-001	-2.841620e+000	-2.841620e+000	
5.440000e-001	-5.140472e-001	-3.461333e+000	-3.461333e+000	-5.834486e+001	8.446638e+001	4.444664e+002	-5.422121e+001	-8.984704e+001	9.015296e+001	-5.498827e-001	-2.899525e+000	-2.899525e+000	
5.450000e-001	-5.185834e-001	-3.289423e+000	-3.289423e+000	-5.174567e+001	-8.487700e+001	4.551230e+002	-5.406015e+001	4.409804e+001	2.240980e+002	-5.538021e-001	-2.847358e+000	-2.847358e+000	
5.460000e-001	-5.311433e-001	-3.392953e+000	-3.392953e+000	-5.128986e+001	7.736458e+001	4.373646e+002	-5.141089e+001	8.053014e+001	2.605301e+002	-5.423891e-001	-2.857804e+000	-2.857804e+000	
5.470000e-001	-5.265001e-001	-3.308902e+000	-3.308902e+000	-5.305392e+001	-8.855944e+001	4.514406e+002	-5.578611e+001	8.707982e+001	2.670798e+002	-5.516953e-001	-2.883452e+000	-2.883452e+000	
5.480000e-001	-5.217216e-001	-3.378916e+000	-3.378916e+000	-5.175286e+001	6.408675e+001	4.240867e+002	-5.228116e+001	7.472444e+001	2.547244e+002	-5.553183e-001	-2.949294e+000	-2.949294e+000	
5.490000e-001	-5.419391e-001	-3.388527e+000	-3.388527e+000	-5.397182e+001	7.412857e+001	4.341286e+002	-5.363818e+001	8.879780e+001	2.687978e+002	-5.525809e-001	-2.935628e+000	-2.935628e+000	
5.500000e-001	-5.441208e-001	-3.326895e+000	-3.326895e+000	-5.176151e+001	6.305430e+001	4.230543e+002	-5.276481e+001	-8.771308e+001	2.722869e+002	-5.516740e-001	-2.908776e+000	-2.908776e+000	
5.510000e-001	-5.273665e-001	-3.403480e+000	-3.403480e+000	-5.377663e+001	7.942218e+001	4.394222e+002	-5.401297e+001	8.541682e+001	2.654168e+002	-5.347821e-001	-2.913261e+000	-2.913261e+000	
5.520000e-001	-5.377408e-001	-3.365106e+000	-3.365106e+000	-5.430601e+001	7.570928e+001	4.357093e+002	-5.045653e+001	6.885531e+001	2.488553e+002	-5.558884e-001	-2.854755e+000	-2.854755e+000	
5.530000e-001	-5.309920e-001	-3.428322e+000	-3.428322e+000	-5.622019e+001	7.319112e+001	4.331911e+002	-5.708233e+001	-7.854431e+001	2.814557e+002	-5.458103e-001	-2.799512e+000	-2.799512e+000	
5.540000e-001	-5.361785e-001	-3.400178e+000	-3.400178e+000	-5.202602e+001	7.505186e+001	4.350519e+002	-5.493678e+001	8.614273e+001	2.661427e+002	-5.545273e-001	-2.983313e+000	-2.983313e+000	
5.550000e-001	-5.433555e-001	-3.365335e+000	-3.365335e+000	-5.267050e+001	6.471278e+001	4.247128e+002	-5.344654e+001	8.330597e+001	2.633060e+002	-5.429296e-001	-2.889890e+000	-2.889890e+000	
5.560000e-001	-5.376088e-001	-3.300552e+000	-3.300552e+000	-5.394762e+001	6.709482e+001	4.270948e+002	-5.236204e+001	8.797006e+001	2.679701e+002	-5.395462e-001	-2.995885e+000	-2.995885e+000	
5.570000e-001	-5.211374e-001	-3.351222e+000	-3.351222e+000	-5.259118e+001	6.078709e+001	4.207871e+002	-5.285607e+001	7.637223e+001	2.563722e+002	-5.442105e-001	-2.914664e+000	-2.914664e+000	
5.580000e-001	-5.469463e-001	-3.393612e+000	-3.393612e+000	-5.225817e+001	8.124054e+001	4.412405e+002	-5.410177e+001	8.341879e+001	2.634188e+002	-5.361657e-001	-2.921439e+000	-2.921439e+000	
5.590000e-001	-5.290633e-001	-3.374954e+000	-3.374954e+000	-5.237431e+001	8.068476e+001	4.406848e+002	-5.418146e+001	7.378620e+001	2.537862e+002	-5.430105e-001	-2.901503e+000	-2.901503e+000	
5.600000e-001	-5.478593e-001	-3.398289e+000	-3.398289e+000	-5.643290e+001	-7.976050e+001	4.602395e+002	-5.133125e+001	7.505530e+001	2.550553e+002	-5.533792e-001	-2.927372e+000	-2.927372e+000	
5.610000e-001	-5.267574e-001	-3.441172e+000	-3.441172e+000	-5.027035e+001	7.181223e+001	4.318122e+002	-5.168675e+001	-8.716032e+001	2.728397e+002	-5.487612e-001	-2.911282e+000	-2.911282e+000	
5.620000e-001	-5.394705e-001	-3.434418e+000	-3.434418e+000	-5.082950e+001	-7.948697e+001	4.605130e+002	-5.108529e+001	7.362054e+001	2.536205e+002	-5.665847e-001	-2.965654e+000	-2.965654e+000	
5.630000e-001	-5.219064e-001	-3.439670e+000	-3.439670e+000	-5.645164e+001	-8.076771e+001	4.592323e+002	-5.825827e+001	-8.907659e+001	2.709234e+002	-5.441513e-001	-2.968315e+000	-2.968315e+000	
5.640000e-001	-5.229437e-001	-3.441535e+000	-3.441535e+000	-5.191441e+001	-6.761853e+001	4.723815e+002	-5.824274e+001	7.795175e+001	2.579518e+002	-5.630785e-001	-2.859406e+000	-2.859406e+000	
5.650000e-001	-5.433730e-001	-3.385057e+000	-3.385057e+000	-5.134070e+001	8.391382e+001	4.439138e+002	-5.751215e+001	7.307620e+001	2.530762e+002	-5.571027e-001	-2.955902e+000	-2.955902e+000	
5.660000e-001	-5.309696e-001	-3.374937e+000	-3.374937e+000	-5.509073e+001	-6.215884e+001	4.778412e+002	-5.100558e+001	5.393112e+001	2.339311e+002	-5.614642e-001	-2.916393e+000	-2.916393e+000	
5.670000e-001	-5.199959e-001	-3.426725e+000	-3.426725e+000	-5.471092e+001	7.099624e+001	6.109962e+002	-5.113470e+001	8.430249e+001	2.643025e+002	-5.386443e-001	-2.880477e+000	-2.880477e+000	
5.680000e-001	-5.401597e-001	-3.414792e+000	-3.414792e+000	-5.080584e+001	-8.171670e+001	6.382833e+002	-5.518499e+001	-8.412566e+001	2.758743e+002	-5.590578e-001	-2.928191e+000	-2.928191e+000	
5.690000e-001	-5.246485e-001	-3.353969e+000	-3.353969e+000	-5.016407e+001	6.873129e+001	6.087313e+002	-5.106790e+001	-7.071693e+001	2.892831e+002	-5.426426e-001	-2.876232e+000	-2.876232e+000	
5.700000e-001	-5.269173e-001	-3.393506e+000	-3.393506e+000	-5.453194e+001	7.095605e+001	6.109561e+002	-5.427374e+001	-8.186313e+001	2.781369e+002	-5.491240e-001	-2.870743e+000	-2.870743e+000	
5.710000e-001	-5.437617e-001	-3.342677e+000	-3.342677e+000	-5.390066e+001	6.293660e+001	6.029366e+002	-4.841739e+001	7.070601e+001	2.507060e+002	-5.358117e-001	-2.831096e+000	-2.831096e+000	
5.720000e-001	-5.287582e-001	-3.451553e+000	-3.451553e+000	-5.543368e+001	6.594072e+001	6.059407e+002	-5.269500e+001	7.259261e+001	2.525926e+002	-5.451701e-001	-2.926312e+000	-2.926312e+000	
5.730000e-001	-5.167192e-001	-3.352668e+000	-3.352668e+000	-5.116368e+001	8.667744e+001	6.266774e+002	-5.064469e+001	8.689411e+001	2.668941e+002	-5.464085e-001	-3.018031e+000	-3.018031e+000	
5.740000e-001	-5.486359e-001	-3.445779e+000	-3.445779e+000	-5.560755e+001	7.350730e+001	6.135073e+002	-5.364620e+001	7.455287e+001	2.545529e+002	-5.499515e-001	-2.844065e+000	-2.844065e+000	
5.750000e-001	-5.434825e-001	-3.437397e+000	-3.437397e+000	-4.990653e+001	-8.665497e+001	6.333450e+002	-5.294779e+001	6.412105e+001	2.441210e+002	-5.571699e-001	-3.041894e+000	-3.041894e+000	
5.760000e-001	-5.390587e-001	-3.439338e+000	-3.439338e+000	-5.301161e+001	7.687817e+001	6.168782e+002	-5.168603e+001	8.420495e+001	2.642049e+002	-5.383576e-001	-3.023350e+000	-3.023350e+000	
5.770000e-001	-5.323881e-001	-3.475419e+000	-3.475419e+000	-5.217298e+001	8.310069e+001	6.231007e+002	-5.041181e+001	-8.148901e+001	2.785110e+002	-5.413697e-001	-2.881738e+000	-2.881738e+000	
5.780000e-001	-5.316901e-001	-3.475640e+000	-3.475640e+000	-5.101284e+001	8.344981e+001	6.234498e+002	-5.181970e+001	8.600728e+001	2.660073e+002	-5.494259e-001	-2.919810e+000	-2.919810e+000	
5.790000e-001	-5.230574e-001	-3.462236e+000	-3.462236e+000	-5.296796e+001	8.104933e+001	6.210493e+002	-5.465638e+001	8.306125e+001	2.630612e+002	-5.500193e-001	-2.901650e+000	-2.901650e+000	
5.800000e-001	-5.542751e-001	-3.501894e+000	-3.501894e+000	-5.343673e+001	-7.289074e+001	6.471093e+002	-5.089846e+001	-7.927586e+001	2.807241e+002	-5.579321e-001	-2.940718e+000	-2.940718e+000	
5.810000e-001	-5.295295e-001	-3.361682e+000	-3.361682e+000	-5.258435e+001	6.326139e+001	7.832614e+002	-5.346611e+001	7.170482e+001	2.517048e+002	-5.472972e-001	-2.945906e+000	-2.945906e+000	
5.820000e-001	-5.362623e-001	-3.466127e+000	-3.466127e+000	-5.325926e+001	7.480209e+001	7.948021e+002	-5.587660e+001	5.609666e+001	2.360967e+002	-5.672487e-001	-2.987211e+000	-2.987211e+000	
5.830000e-001	-5.311990e-001	-3.522909e+000	-3.522909e+000	-5.279801e+001	8.788566e+001	8.078857e+002	-5.487392e+001	7.504391e+001	2.550439e+002	-5.475990e-001	-2.913843e+000	-2.913843e+000	
5.840000e-001	-5.525837e-001	-3.457331e+000	-3.457331e+000	-5.162871e+001	7.923526e+001	7.992353e+002	-4.873421e+001	-7.880316e+001	2.811968e+002	-5.389708e-001	-3.047183e+000	-3.047183e+000	
5.850000e-001	-5.231525e-001	-3.498586e+000	-3.498586e+000	-5.153140e+001	8.293595e+001	8.029360e+002	-5.160223e+001	-8.391090e+001	2.760891e+002	-5.430264e-001	-2.989672e+000	-2.989672e+000	
5.860000e-001	-5.324131e-001	-3.536431e+000	-3.536431e+000	-4.944569e+001	7.072660e+001	7.907266e+002	-5.056560e+001	7.894970e+001	2.589497e+002	-5.606491e-001	-3.039312e+000	-3.039312e+000	
5.870000e-001	-5.424162e-001	-3.449646e+000	-3.449646e+000	-5.182406e+001	8.107420e+001	8.010742e+002	-5.148596e+001	7.162533e+001	2.516253e+002	-5.437541e-001	-2.970528e+000	-2.970528e+000	
5.880000e-001	-5.430848e-001	-3.555208e+000	-3.555208e+000	-4.958344e+001	-8.836841e+001	8.116316e+002	-5.004339e+001	8.432384e+001	2.643238e+002	-5.422171e-001	-3.018067e+000	-3.018067e+000	
5.890000e-001	-5.321230e-001	-3.315456e+000	-3.315456e+000	-4.995264e+001	6.204011e+001	7.820401e+002	-5.227175e+001	-8.579066e+001	2.742093e+002	-5.453720e-001	-3.037406e+000	-3.037406e+000	
5.900000e-001	-5.321752e-001	-3.517630e+000	-3.517630e+000	-5.160089e+001	-8.984171e+001	8.101583e+002	-5.187749e+001	8.766809e+001	2.676681e+002	-5.623207e-001	-2.989754e+000	-2.989754e+000	
5.910000e-001	-5.525182e-001	-3.594173e+000	-3.594173e+000	-5.572258e+001	8.041441e+001	8.004144e+002	-4.998389e+001	7.201826e+001	2.520183e+002	-5.553589e-001	-3.088487e+000	-3.088487e+000	
5.920000e-001	-5.396635e-001	-3.395582e+000	-3.395582e+000	-5.177209e+001	8.190022e+001	8.019002e+002	-5.231593e+001	7.485483e+001	2.548548e+002	-5.417873e-001	-3.017310e+000	-3.017310e+000	
5.930000e-001	-5.480492e-001	-3.414288e+000	-3.414288e+000	-5.167438e+001	-8.386611e+001	8.161339e+002	-5.239891e+001	7.690066e+001	2.569007e+002	-5.344737e-001	-3.054714e+000	-3.054714e+000	
5.940000e-001	-5.406385e-001	-3.482430e+000	-3.482430e+000	-5.012029e+001	8.658244e+001	8.065824e+002	-5.017313e+001	-6.912294e+001	2.908771e+002	-5.543840e-001	-3.092746e+000	-3.092746e+000	
5.950000e-001	-5.369740e-001	-3.532080e+000	-3.532080e+000	-5.158452e+001	-8.778173e+001	8.122183e+002	-5.519232e+001	7.424315e+001	2.542432e+002	-5.404315e-001	-3.025527e+000	-3.025527e+000	
5.960000e-001	-5.373161e-001	-3.564252e+000	-3.564252e+000	-4.998840e+001	7.872228e+001	7.987223e+002	-5.273693e+001	7.860883e+001	2.586088e+002	-5.473624e-001	-3.026468e+000	-3.026468e+000	
5.970000e-001	-5.479870e-001	-3.490492e+000	-3.490492e+000	-5.057334e+001	8.182979e+001	8.018298e+002	-5.279485e+001	-8.518612e+001	2.748139e+002	-5.630945e-001	-3.097022e+000	-3.097022e+000	
5.980000e-001	-5.322409e-001	-3.516020e+000	-3.516020e+000	-5.345637e+001	7.862869e+001	7.986287e+002	-5.710476e+001	8.461545e+001	2.646155e+002	-5.503534e-001	-2.920433e+000	-2.920433e+000	
5.990000e-001	-5.418861e-001	-3.605444e+000	-3.605444e+000	-5.228633e+001	6.731169e+001	7.873117e+002	-5.335201e+001	6.614767e+001	2.461477e+002	-5.411224e-001	-3.118891e+000	-3.118891e+000	
6.000000e-001	-5.314386e-001	-3.548721e+000	-3.548721e+000	-5.458640e+001	5.774008e+001	7.777401e+002	-5.198560e+001	8.701963e+001	2.670196e+002	-5.447394e-001	-3.065067e+000	-3.065067e+000	
6.010000e-001	-5.334338e-001	-3.630065e+000	-3.630065e+000	-5.340801e+001	-8.071062e+001	6.392894e+002	-5.025883e+001	-8.960816e+001	2.703918e+002	-5.478054e-001	-3.120354e+000	-3.120354e+000	
6.020000e-001	-5.382491e-001	-3.514602e+000	-3.514602e+000	-5.262701e+001	7.453088e+001	6.145309e+002	-5.415253e+001	8.463361e+001	2.646336e+002	-5.367209e-001	-3.028193e+000	-3.028193e+000	
