Frequency 	 |S21| 	 Phase(S21) 	 ExtPhase(S21) 	 CorPhase(S21)	 ExtCorPhase(S21)	 |S12| 	 Phase(S12)	 ExtPhase(S12) 	 CorPhase(S12)	 ExtCorPhase(S12)
GHz 	 dB 	 deg 	 deg 	 deg	 deg	 dB 	 deg 	 deg 	 deg	 deg
5.00000000e-001	-6.56921304e+001	-6.06874054e+001	-6.06874054e+001	9.77733778e+000	9.77733778e+000	-5.92181185e+001	-1.30837719e+001	-1.30837719e+001	2.45968857e+001	2.45968857e+001
5.01000000e-001	-5.74101869e+001	9.27530434e+000	9.27530434e+000	5.28004116e+001	5.28004116e+001	-7.39550912e+001	-1.87075110e+001	-1.87075110e+001	-1.26055014e+001	-1.26055014e+001
5.02000000e-001	-5.56378885e+001	2.72617317e+001	2.72617317e+001	8.38688068e+000	8.38688068e+000	-5.84545888e+001	1.47939491e+000	1.47939491e+000	5.85807116e+001	5.85807116e+001
5.03000000e-001	-6.78694061e+001	-1.77641214e+001	-1.77641214e+001	2.89862975e+001	2.89862975e+001	-5.80534953e+001	-4.18546909e+001	-4.18546909e+001	-3.79407708e+001	-3.79407708e+001
5.04000000e-001	-5.74152284e+001	7.41194788e+001	7.41194788e+001	-1.11746792e+000	-1.11746792e+000	-5.98415363e+001	3.64043197e+000	3.64043197e+000	3.50701802e+001	3.50701802e+001
5.05000000e-001	-5.81600359e+001	-3.62880686e+001	-3.62880686e+001	-3.55046321e+001	-3.55046321e+001	-5.80789411e+001	-8.16138320e+001	-8.16138320e+001	-1.19806076e+001	-1.19806076e+001
5.06000000e-001	-6.21705389e+001	-4.68178246e+001	-4.68178246e+001	1.22513133e+001	1.22513133e+001	-5.82532984e+001	-7.72877416e+001	-7.72877416e+001	1.79761996e+001	1.79761996e+001
5.07000000e-001	-6.15896141e+001	2.78636705e+001	2.78636705e+001	-1.61260559e+001	-1.61260559e+001	-7.71392292e+001	7.70964702e+001	-1.02903530e+002	5.18413746e-001	5.18413746e-001
5.08000000e-001	-5.84022746e+001	-5.69644573e+001	-5.69644573e+001	-3.07793083e+001	-3.07793083e+001	-5.58269995e+001	-3.52785479e+001	-2.15278548e+002	4.55041236e+001	4.55041236e+001
5.09000000e-001	-6.20851446e+001	-6.27756884e+001	-6.27756884e+001	-1.82647370e+001	-1.82647370e+001	-5.53901025e+001	-2.85009617e+000	-1.82850096e+002	8.27706873e+001	8.27706873e+001
5.10000000e-001	-6.49864418e+001	1.92273489e+001	1.92273489e+001	-2.35011406e+001	-2.35011406e+001	-5.73655522e+001	-5.37904562e+001	-2.33790456e+002	2.77026418e+001	2.77026418e+001
5.11000000e-001	-6.11303482e+001	6.65118535e+001	6.65118535e+001	9.06865547e+000	9.06865547e+000	-5.74750398e+001	4.83728932e+001	-1.31627107e+002	6.34743935e+001	6.34743935e+001
5.12000000e-001	-5.37804927e+001	-7.24151413e+000	-7.24151413e+000	6.74497845e+001	6.74497845e+001	-6.03534929e+001	-3.85743742e+001	-2.18574374e+002	3.14011903e+001	3.14011903e+001
5.13000000e-001	-6.14594129e+001	-4.08883914e+001	-4.08883914e+001	-2.16210916e+001	-2.16210916e+001	-7.33205055e+001	1.67516169e+001	-1.63248383e+002	6.62061979e+000	6.62061979e+000
5.14000000e-001	-5.81444955e+001	7.65534773e+001	7.65534773e+001	-4.97032666e+000	-4.97032666e+000	-5.97150298e+001	-8.35133390e+001	-2.63513339e+002	6.81382427e+000	6.81382427e+000
5.15000000e-001	-5.89243276e+001	-7.85715804e+001	1.01428420e+002	-1.13620956e+001	-1.13620956e+001	-5.75027043e+001	-6.31974375e+000	-1.86319744e+002	4.30020322e+001	4.30020322e+001
5.16000000e-001	-5.68971135e+001	5.74903106e+001	5.74903106e+001	3.10181816e+001	3.10181816e+001	-5.78866456e+001	-1.53172942e+000	-1.81531729e+002	3.89567034e+001	3.89567034e+001
5.17000000e-001	-6.04519629e+001	7.07704513e+001	7.07704513e+001	-3.05641004e+001	-3.05641004e+001	-5.55393717e+001	-8.98601305e+001	-2.69860130e+002	-8.80904906e+000	-8.80904906e+000
5.18000000e-001	-5.60799043e+001	7.46667842e+001	7.46667842e+001	6.40324406e+000	6.40324406e+000	-5.50677580e+001	-7.05386260e+001	-2.50538626e+002	4.91474102e+001	4.91474102e+001
5.19000000e-001	-6.70559208e+001	3.88643776e+001	3.88643776e+001	-1.52817941e+001	-1.52817941e+001	-6.05016487e+001	1.48556302e+001	-1.65144370e+002	-2.92097880e+001	-2.92097880e+001
5.20000000e-001	-6.35973854e+001	5.77321924e+001	5.77321924e+001	1.16149684e+001	1.16149684e+001	-6.53498276e+001	-5.32349854e+001	-2.33234985e+002	-1.28575209e+001	-1.28575209e+001
5.21000000e-001	-6.61206622e+001	-1.49898755e+001	-1.49898755e+001	1.69492114e+001	1.69492114e+001	-6.13575496e+001	-7.35901349e+001	-2.53590135e+002	1.34700205e+001	1.34700205e+001
5.22000000e-001	-6.19381745e+001	-1.73653050e+000	-1.73653050e+000	-2.96849643e+001	-2.96849643e+001	-6.34641215e+001	7.25922523e+001	-2.87407748e+002	2.42389496e+000	2.42389496e+000
5.23000000e-001	-6.18648609e+001	5.42364707e+001	5.42364707e+001	-2.29894471e+001	-2.29894471e+001	-5.85609469e+001	5.92494998e+001	-3.00750500e+002	-3.21804401e+001	-3.21804401e+001
5.24000000e-001	-5.89044335e+001	9.97880017e+000	9.97880017e+000	3.78668881e+001	3.78668881e+001	-6.64107417e+001	7.98724490e+001	-2.80127551e+002	-7.76462940e-002	-7.76462940e-002
5.25000000e-001	-6.13215587e+001	-5.39588170e+001	-5.39588170e+001	4.57898043e+000	4.57898043e+000	-5.65702759e+001	-1.30386256e+001	-3.73038626e+002	-5.51968342e+001	-5.51968342e+001
5.26000000e-001	-5.72080860e+001	-2.82730953e+001	-2.82730953e+001	-3.78292508e+001	-3.78292508e+001	-5.28293208e+001	-8.31604625e+001	-4.43160462e+002	-3.30154447e+001	-3.30154447e+001
5.27000000e-001	-5.98630420e+001	5.10852511e+001	5.10852511e+001	-4.01024968e+000	-4.01024968e+000	-5.28516443e+001	-6.65361462e+001	-4.26536146e+002	-3.35749581e+001	-3.35749581e+001
5.28000000e-001	-6.61347635e+001	5.96465869e+001	5.96465869e+001	2.06191906e+001	2.06191906e+001	-6.26316481e+001	4.66852843e+001	-3.13314716e+002	1.46202891e+001	1.46202891e+001
5.29000000e-001	-6.07809399e+001	5.31857446e+001	5.31857446e+001	8.87700526e+000	8.87700526e+000	-6.50170182e+001	3.74704177e+001	-3.22529582e+002	1.79057897e+001	1.79057897e+001
5.30000000e-001	-5.95211258e+001	6.08480529e+001	6.08480529e+001	-2.37259636e+001	-2.37259636e+001	-5.85734045e+001	4.50886944e+001	-3.14911306e+002	9.02164546e+000	9.02164546e+000
5.31000000e-001	-6.61762305e+001	-6.92967109e+001	1.10703289e+002	1.66738543e+001	1.66738543e+001	-5.99623175e+001	2.39380084e+001	-3.36061992e+002	4.88462431e+001	4.88462431e+001
5.32000000e-001	-6.61774243e+001	8.78179359e+001	8.78179359e+001	1.81931494e+000	1.81931494e+000	-8.41440693e+001	-3.15821977e+001	-3.91582198e+002	2.81595710e+000	2.81595710e+000
5.33000000e-001	-6.87302359e+001	3.82927906e+001	3.82927906e+001	1.00437753e+001	1.00437753e+001	-6.40323746e+001	9.21949145e+000	-3.50780509e+002	-2.54640056e+001	-2.54640056e+001
5.34000000e-001	-6.60733212e+001	-4.51523279e+001	-4.51523279e+001	-6.88493243e+001	-6.88493243e+001	-6.22967185e+001	-2.10368945e+001	-3.81036895e+002	-5.19275032e+001	-5.19275032e+001
5.35000000e-001	-5.89045081e+001	-6.83854785e+001	-6.83854785e+001	-4.05639041e+001	-4.05639041e+001	-6.01423354e+001	-7.21969522e+001	-4.32196952e+002	-3.64844732e+001	-3.64844732e+001
5.36000000e-001	-5.88996866e+001	-6.06365267e+001	-6.06365267e+001	2.74587068e+001	2.74587068e+001	-6.96645315e+001	7.05485670e+001	-4.69451433e+002	2.73991518e+000	2.73991518e+000
5.37000000e-001	-5.86113609e+001	-5.43510666e+001	-5.43510666e+001	-2.21469888e+001	-2.21469888e+001	-5.65934437e+001	7.12910909e+001	-4.68708909e+002	3.07454892e+001	3.07454892e+001
5.38000000e-001	-6.54849796e+001	-5.21075230e+001	-5.21075230e+001	1.31669424e+001	1.31669424e+001	-6.07971125e+001	4.86100596e+001	-4.91389940e+002	-7.51351456e+000	-7.51351456e+000
5.39000000e-001	-6.05102093e+001	-1.58111994e+001	-1.58111994e+001	4.13352405e+001	4.13352405e+001	-5.64186010e+001	-2.46711271e+001	-5.64671127e+002	6.24941085e+001	6.24941085e+001
5.40000000e-001	-6.45492385e+001	1.96182504e+000	1.96182504e+000	-2.22324829e+001	-2.22324829e+001	-6.55970941e+001	-9.37422958e+000	-5.49374230e+002	-1.85544402e+001	-1.85544402e+001
5.41000000e-001	-5.79214620e+001	-3.28253787e+001	-3.28253787e+001	-4.17781210e+001	-4.17781210e+001	-6.47737714e+001	3.45660259e+001	-5.05433974e+002	1.11863951e+001	1.11863951e+001
5.42000000e-001	-5.73325004e+001	8.17904949e+001	8.17904949e+001	-1.37869100e+001	-1.37869100e+001	-6.21242878e+001	1.62855996e+001	-5.23714400e+002	2.08811245e+001	2.08811245e+001
5.43000000e-001	-5.10745960e+001	7.53814181e+000	7.53814181e+000	-5.02284901e+001	-5.02284901e+001	-5.83423439e+001	-5.46926428e+001	-5.94692643e+002	3.57196153e+001	3.57196153e+001
5.44000000e-001	-5.81817105e+001	5.13649088e+001	5.13649088e+001	3.87806942e+001	3.87806942e+001	-5.89262311e+001	8.78912924e+001	-6.32108708e+002	1.26910129e+001	1.26910129e+001
5.45000000e-001	-5.63428243e+001	-4.69070922e+001	-4.69070922e+001	4.24604374e+001	4.24604374e+001	-7.41324436e+001	-3.84171427e+001	-7.58417143e+002	4.82309357e+000	4.82309357e+000
5.46000000e-001	-6.15282418e+001	-8.17817626e+001	-8.17817626e+001	-1.58300293e+001	-1.58300293e+001	-6.56519679e+001	-4.24112751e+001	-7.62411275e+002	-2.36326442e+001	-2.36326442e+001
5.47000000e-001	-6.52791032e+001	-2.35593929e+001	-2.35593929e+001	-1.65469195e+001	-1.65469195e+001	-6.27152478e+001	8.67701946e+001	-6.33229805e+002	-1.25303087e+001	-1.25303087e+001
5.48000000e-001	-6.89890779e+001	3.19003015e+001	3.19003015e+001	-9.72177557e+000	-9.72177557e+000	-5.83964256e+001	-6.02677841e+001	-6.00267784e+002	-2.64758642e+001	-2.64758642e+001
5.49000000e-001	-5.95344870e+001	3.01981736e+000	3.01981736e+000	4.89391605e+001	4.89391605e+001	-5.40457827e+001	-6.28591554e+001	-6.02859155e+002	8.02825157e+001	8.02825157e+001
5.50000000e-001	-6.63550289e+001	-4.49369097e+001	-4.49369097e+001	-1.72975215e+001	-1.72975215e+001	-6.38313329e+001	-5.73965556e+001	-5.97396556e+002	-1.93457588e+001	-1.93457588e+001
5.51000000e-001	-5.62217216e+001	6.85585280e+001	6.85585280e+001	-1.26071137e+001	-1.26071137e+001	-5.92048227e+001	-1.20655023e+001	-5.52065502e+002	3.90379281e+001	3.90379281e+001
5.52000000e-001	-6.29327875e+001	-8.57875903e+001	9.42124097e+001	-1.85385182e+000	-1.85385182e+000	-5.82119149e+001	7.11954863e+001	-4.68804514e+002	-4.63978494e+001	-4.63978494e+001
5.53000000e-001	-5.62776295e+001	-6.95880969e+001	1.10411903e+002	2.19116156e+001	2.19116156e+001	-5.55236919e+001	-5.44017164e+001	-5.94401716e+002	7.77325868e+001	7.77325868e+001
5.54000000e-001	-5.44921910e+001	2.23562261e+000	1.82235623e+002	-5.58293787e+001	-5.58293787e+001	-5.92612280e+001	-7.52595407e+001	-6.15259541e+002	1.49862087e+001	1.49862087e+001
5.55000000e-001	-5.98738155e+001	8.60309891e+001	2.66030989e+002	-1.39152634e+001	-1.39152634e+001	-7.69363022e+001	-5.08508740e+001	-5.90850874e+002	3.19239764e+000	3.19239764e+000
5.56000000e-001	-5.28589880e+001	1.31109366e+001	1.93110937e+002	8.03999598e+001	8.03999598e+001	-6.25958064e+001	6.93065079e+001	-4.70693492e+002	2.47060422e+000	2.47060422e+000
5.57000000e-001	-6.49509259e+001	7.44611524e+001	2.54461152e+002	3.31220801e+000	3.31220801e+000	-6.18024708e+001	9.86991326e+000	-5.30130087e+002	-2.80471557e+001	-2.80471557e+001
5.58000000e-001	-6.28846025e+001	1.74783407e+001	1.97478341e+002	1.12773110e+001	1.12773110e+001	-5.65209837e+001	4.04268870e+001	-4.99573113e+002	6.49655580e+001	6.49655580e+001
5.59000000e-001	-5.58065245e+001	8.56968806e+001	2.65696881e+002	6.58854332e+000	6.58854332e+000	-5.89697766e+001	5.45496637e+000	-5.34545034e+002	-6.12810818e+001	-6.12810818e+001
5.60000000e-001	-6.39827392e+001	-4.94604387e+001	3.10539561e+002	-1.17677594e+001	-1.17677594e+001	-6.89351953e+001	-9.40084198e+000	-5.49400842e+002	1.22712384e+001	1.22712384e+001
5.61000000e-001	-5.87456237e+001	6.76064470e+001	4.27606447e+002	-9.30516135e+000	-9.30516135e+000	-6.43841261e+001	3.31261885e+001	-5.06873811e+002	-1.31533561e+001	-1.31533561e+001
5.62000000e-001	-6.14610577e+001	1.04452356e+001	3.70445236e+002	-2.44505795e+001	-2.44505795e+001	-6.57851875e+001	-6.36900805e+001	-6.03690081e+002	-1.16415953e+001	-1.16415953e+001
5.63000000e-001	-7.57527577e+001	4.48810502e+001	4.04881050e+002	3.34157299e+000	3.34157299e+000	-7.10340902e+001	-8.39929458e+001	-6.23992946e+002	2.44823064e+000	2.44823064e+000
5.64000000e-001	-6.29403715e+001	7.97789534e+001	4.39778953e+002	-2.68942775e+000	-2.68942775e+000	-6.14883059e+001	-2.04432450e+001	-5.60443245e+002	-2.44760404e+001	-2.44760404e+001
5.65000000e-001	-6.89230101e+001	-1.06651574e+001	3.49334843e+002	-1.59600884e+001	-1.59600884e+001	-6.86749994e+001	8.63388688e+001	-4.53661131e+002	4.78949577e-001	4.78949577e-001
5.66000000e-001	-6.22392017e+001	3.41571525e+001	3.94157153e+002	-4.80152707e+001	-4.80152707e+001	-5.90185694e+001	-4.62227451e+001	-4.06222745e+002	2.80429850e+001	2.80429850e+001
5.67000000e-001	-6.31775055e+001	5.32779599e+000	3.65327796e+002	-1.40014926e+001	-1.40014926e+001	-6.80563014e+001	7.54230302e+001	-2.84576970e+002	-2.20743406e+000	-2.20743406e+000
5.68000000e-001	-6.45391489e+001	1.79141570e+001	3.77914157e+002	-2.30145460e+001	-2.30145460e+001	-9.39408143e+001	-1.72979915e+000	-3.61729799e+002	8.76552990e-001	8.76552990e-001
5.69000000e-001	-5.91255009e+001	-7.83733341e+001	2.81626666e+002	-1.74898349e+001	-1.74898349e+001	-6.03343559e+001	-8.08095117e+000	-3.68080951e+002	2.67903620e+001	2.67903620e+001
5.70000000e-001	-5.52694224e+001	8.57783327e+001	2.65778333e+002	6.21347243e+000	6.21347243e+000	-5.79197874e+001	-4.07952396e+000	-3.64079524e+002	-4.85880050e+001	-4.85880050e+001
5.71000000e-001	-6.51432602e+001	8.73349878e+001	2.67334988e+002	5.32488876e+000	5.32488876e+000	-6.09826005e+001	-2.36288890e+001	-3.83628889e+002	2.94065322e+001	2.94065322e+001
5.72000000e-001	-6.14717984e+001	4.02162260e+001	2.20216226e+002	2.48512811e+001	2.48512811e+001	-7.12897163e+001	-3.49069519e+001	-3.94906952e+002	8.09711403e+000	8.09711403e+000
5.73000000e-001	-6.03559701e+001	-6.03960719e+001	1.19603928e+002	-2.79819120e+001	-2.79819120e+001	-5.94224906e+001	-2.91104473e+001	-3.89110447e+002	4.89483825e+001	4.89483825e+001
5.74000000e-001	-5.80917002e+001	3.21813415e+001	2.12181342e+002	3.92512798e+001	3.92512798e+001	-6.82986065e+001	8.45582450e+001	-2.75441755e+002	2.36288751e+000	2.36288751e+000
5.75000000e-001	-5.81958009e+001	-8.39811793e+001	9.60188207e+001	-1.54239606e+001	-1.54239606e+001	-6.04449097e+001	7.91760149e+000	-3.52082399e+002	2.76742122e+001	2.76742122e+001
5.76000000e-001	-5.32527979e+001	3.11869582e+001	2.11186958e+002	-4.03634294e+001	-4.03634294e+001	-6.57935076e+001	7.52072986e+000	-3.52479270e+002	1.52703389e+001	1.52703389e+001
5.77000000e-001	-6.62776176e+001	-4.69541731e+001	1.33045827e+002	-1.01477019e+001	-1.01477019e+001	-6.08556020e+001	-1.44623778e+000	-3.61446238e+002	3.06206339e+001	3.06206339e+001
5.78000000e-001	-7.35471399e+001	-5.21969667e+001	1.27803033e+002	4.98036525e+000	4.98036525e+000	-5.91485896e+001	8.79686424e+001	-2.72031358e+002	1.42899669e+000	1.42899669e+000
5.79000000e-001	-6.17988182e+001	1.24114253e+001	1.92411425e+002	2.52615610e+001	2.52615610e+001	-7.19784341e+001	-7.32635060e+001	-2.53263506e+002	-6.10355879e+000	-6.10355879e+000
5.80000000e-001	-5.96975517e+001	6.08828631e+001	2.40882863e+002	1.39857123e+001	1.39857123e+001	-5.46417554e+001	1.28696400e+001	-1.67130360e+002	5.47028615e+001	5.47028615e+001
5.81000000e-001	-6.10857852e+001	-6.24676788e+001	1.17532321e+002	-1.74985455e+001	-1.74985455e+001	-6.05011413e+001	5.83900358e+001	-1.21609964e+002	-1.30513922e+001	-1.30513922e+001
5.82000000e-001	-5.82140813e+001	4.91990080e+001	2.29199008e+002	-2.24776843e+001	-2.24776843e+001	-6.43509233e+001	-4.43255356e+001	-2.24325536e+002	1.45498162e+001	1.45498162e+001
5.83000000e-001	-5.93305423e+001	7.04795483e+001	2.50479548e+002	-8.56909693e+000	-8.56909693e+000	-5.78788693e+001	-1.85307129e+001	-1.98530713e+002	-4.41616212e+001	-4.41616212e+001
5.84000000e-001	-6.21925627e+001	1.87811165e+001	1.98781116e+002	1.52547067e+001	1.52547067e+001	-6.10800889e+001	8.48819014e+001	-9.51180986e+001	8.68160703e-001	8.68160703e-001
5.85000000e-001	-6.03304017e+001	6.64758885e+001	2.46475888e+002	3.56038396e-001	3.56038396e-001	-6.11937594e+001	6.82877944e+001	-1.11712206e+002	1.14193932e+001	1.14193932e+001
5.86000000e-001	-6.74661609e+001	6.07543181e+001	2.40754318e+002	4.14843331e+000	4.14843331e+000	-6.67689663e+001	3.84172081e+001	-1.41582792e+002	7.24287240e+000	7.24287240e+000
5.87000000e-001	-6.40599254e+001	3.37868236e+001	2.13786824e+002	3.22023253e+001	3.22023253e+001	-6.83567958e+001	-2.98690440e+001	-2.09869044e+002	1.52938604e+001	1.52938604e+001
5.88000000e-001	-5.93151598e+001	-4.15457444e+001	1.38454256e+002	-2.78157551e+001	-2.78157551e+001	-6.06783071e+001	-4.76304914e+001	-2.27630491e+002	1.26394415e+001	1.26394415e+001
5.89000000e-001	-6.65603588e+001	-1.03040605e+001	1.69695939e+002	-1.08247618e+001	-1.08247618e+001	-6.31877511e+001	6.87234695e+001	-1.11276530e+002	1.10619104e+001	1.10619104e+001
5.90000000e-001	-6.05203125e+001	-7.40793980e+001	1.05920602e+002	-1.07206543e+001	-1.07206543e+001	-6.43474798e+001	2.83240970e+001	-1.51675903e+002	1.00519265e+001	1.00519265e+001
5.91000000e-001	-6.41614800e+001	-4.66385465e+001	1.33361453e+002	1.45237423e+001	1.45237423e+001	-6.24467036e+001	5.15378878e+001	-1.28462112e+002	-2.13752299e+001	-2.13752299e+001
5.92000000e-001	-6.84726173e+001	-8.10714617e+001	9.89285383e+001	-8.19626796e-001	-8.19626796e-001	-6.00851819e+001	-1.87609547e+000	-1.81876095e+002	2.91135194e+001	2.91135194e+001
5.93000000e-001	-5.58746620e+001	2.17388673e+001	2.01738867e+002	-3.85912695e+001	-3.85912695e+001	-5.86811013e+001	-7.04367550e+001	-2.50436755e+002	4.76834733e+001	4.76834733e+001
5.94000000e-001	-6.47413757e+001	3.55635025e+001	2.15563503e+002	1.24633026e+001	1.24633026e+001	-6.05018616e+001	-7.39864399e+001	-2.53986440e+002	2.43518037e+001	2.43518037e+001
5.95000000e-001	-7.01686109e+001	-1.86668116e+001	1.61333188e+002	-9.65499013e+000	-9.65499013e+000	-5.91095253e+001	4.36344252e+001	-1.36365575e+002	-3.61742512e+001	-3.61742512e+001
5.96000000e-001	-6.93144080e+001	7.89032735e+001	2.58903274e+002	8.86046414e-001	8.86046414e-001	-6.78097207e+001	-6.31251975e+001	-2.43125197e+002	-1.13099917e+001	-1.13099917e+001
5.97000000e-001	-6.34087084e+001	2.36063015e+001	2.03606302e+002	-2.85885295e+001	-2.85885295e+001	-6.52396411e+001	2.57427775e+001	-1.54257222e+002	1.86377810e+001	1.86377810e+001
5.98000000e-001	-5.50448219e+001	1.51921698e+001	1.95192170e+002	7.22233052e+001	7.22233052e+001	-6.07359649e+001	7.62826688e+001	-1.03717331e+002	-1.72191171e+001	-1.72191171e+001
5.99000000e-001	-6.41165108e+001	5.42646548e+000	1.85426465e+002	3.18916837e+001	3.18916837e+001	-6.14972445e+001	-1.22617654e+001	-1.92261765e+002	2.61987941e+001	2.61987941e+001
6.00000000e-001	-5.87028634e+001	-7.66775911e+000	1.72332241e+002	-3.95605361e+001	-3.95605361e+001	-5.24842692e+001	2.33763301e+001	-1.56623670e+002	7.38167971e+001	7.38167971e+001
6.01000000e-001	-6.04980382e+001	-1.07226645e+001	1.69277336e+002	2.78512192e+001	2.78512192e+001	-6.05133297e+001	-3.47161568e+001	-2.14716157e+002	2.79826028e+001	2.79826028e+001
6.02000000e-001	-6.39432477e+001	7.63173600e+001	2.56317360e+002	3.43884587e-001	3.43884587e-001	-6.05414174e+001	-7.19821770e+001	-2.51982177e+002	9.86783221e+000	9.86783221e+000
6.03000000e-001	-6.19192525e+001	3.07827713e+000	1.83078277e+002	-2.34658179e+001	-2.34658179e+001	-6.19764488e+001	-3.65644589e+000	-1.83656446e+002	2.07225161e+001	2.07225161e+001
6.04000000e-001	-6.63030553e+001	-7.89402867e+001	1.01059713e+002	2.03112359e+000	2.03112359e+000	-5.37831449e+001	2.59708361e+001	-1.54029164e+002	7.31886577e+001	7.31886577e+001
6.05000000e-001	-5.89154282e+001	7.47137402e+001	7.47137402e+001	-5.86100219e+000	-5.86100219e+000	-5.26936794e+001	4.74997866e+001	-1.32500213e+002	-5.51788688e+001	-5.51788688e+001
6.06000000e-001	-5.95279314e+001	4.69307934e+001	4.69307934e+001	3.39191324e+001	3.39191324e+001	-5.95557184e+001	-2.55740551e+001	-2.05574055e+002	-2.87229161e+001	-2.87229161e+001
6.07000000e-001	-5.85022305e+001	-3.57381689e+001	-3.57381689e+001	3.69787773e+001	3.69787773e+001	-6.04846426e+001	-3.94729470e+001	-2.19472947e+002	2.97722432e+001	2.97722432e+001
