Frequency 	 |S21| 	 Phase(S21) 	 ExtPhase(S21) 	 CorPhase(S21)	 ExtCorPhase(S21)	 |S12| 	 Phase(S12)	 ExtPhase(S12) 	 CorPhase(S12)	 ExtCorPhase(S12)
GHz 	 dB 	 deg 	 deg 	 deg	 deg	 dB 	 deg 	 deg 	 deg	 deg
5.00000000e-001	-6.48825719e+001	5.81956694e+001	5.81956694e+001	1.52797445e+001	1.52797445e+001	-6.03248295e+001	-7.54537248e+001	-7.54537248e+001	-1.31070674e+001	-1.31070674e+001
5.01000000e-001	-6.15715456e+001	4.18744381e+001	4.18744381e+001	7.59526518e+000	7.59526518e+000	-6.67450420e+001	-4.43406462e+001	-4.43406462e+001	1.53964532e+001	1.53964532e+001
5.02000000e-001	-5.44177575e+001	-4.99338307e+000	-4.99338307e+000	4.15729172e+001	4.15729172e+001	-5.31701357e+001	-1.45990725e+001	-1.45990725e+001	8.10398218e+001	8.10398218e+001
5.03000000e-001	-6.32333112e+001	2.94982353e+001	2.94982353e+001	-2.14193748e+001	-2.14193748e+001	-7.41349766e+001	-2.62895041e+000	-2.62895041e+000	5.61329869e+000	5.61329869e+000
5.04000000e-001	-5.59653483e+001	5.46827747e+001	5.46827747e+001	2.75358478e+001	2.75358478e+001	-5.70929896e+001	5.34961259e+001	5.34961259e+001	5.45939886e+001	5.45939886e+001
5.05000000e-001	-5.41960347e+001	-5.88922061e+001	-5.88922061e+001	-6.85606693e+001	-6.85606693e+001	-5.61629756e+001	8.35977549e+001	8.35977549e+001	1.35948046e+000	1.35948046e+000
5.06000000e-001	-6.36392224e+001	5.31909547e+001	5.31909547e+001	1.15981169e+001	1.15981169e+001	-6.24895364e+001	-5.68321562e+001	1.23167844e+002	2.30314131e+001	2.30314131e+001
5.07000000e-001	-5.85681014e+001	6.86891901e+001	6.86891901e+001	1.78041736e+001	1.78041736e+001	-6.17081149e+001	3.59019997e+000	1.83590200e+002	3.00065373e+001	3.00065373e+001
5.08000000e-001	-6.69856800e+001	2.09335412e+001	2.09335412e+001	-1.10195972e+001	-1.10195972e+001	-5.81485935e+001	-4.66540898e+001	1.33345910e+002	3.34082692e+001	3.34082692e+001
5.09000000e-001	-6.48096046e+001	5.49786369e+001	5.49786369e+001	-4.76255137e+000	-4.76255137e+000	-5.64978534e+001	-3.30060446e+001	1.46993955e+002	5.66616166e+001	5.66616166e+001
5.10000000e-001	-5.52664837e+001	7.65747268e+001	7.65747268e+001	2.03555978e+000	2.03555978e+000	-6.55512218e+001	4.01062454e+001	2.20106245e+002	1.41227140e+001	1.41227140e+001
5.11000000e-001	-6.29179493e+001	-2.43305139e+001	-2.43305139e+001	4.29468990e+001	4.29468990e+001	-6.29012571e+001	-3.32946510e+001	1.46705349e+002	1.92015217e+001	1.92015217e+001
5.12000000e-001	-6.62728049e+001	-6.45485320e+001	-6.45485320e+001	1.21615206e+001	1.21615206e+001	-5.82742856e+001	2.18071641e+000	1.82180716e+002	5.10073043e+001	5.10073043e+001
5.13000000e-001	-5.60419746e+001	8.48272228e+001	-9.51727772e+001	-5.20580974e-001	-5.20580974e-001	-8.17864343e+001	7.38717854e+001	2.53871785e+002	-6.23138335e-001	-6.23138335e-001
5.14000000e-001	-5.78353713e+001	2.98584262e+001	-1.50141574e+002	3.58128506e+001	3.58128506e+001	-6.27229119e+001	1.01108538e+001	1.90110854e+002	3.85853245e+001	3.85853245e+001
5.15000000e-001	-5.36386528e+001	-3.53354450e+001	-2.15335445e+002	-6.09613516e+001	-6.09613516e+001	-6.06537686e+001	-7.99633621e+001	1.00036638e+002	-2.74343456e+001	-2.74343456e+001
5.16000000e-001	-5.73441028e+001	-8.96272485e+001	-2.69627249e+002	-1.07387844e+001	-1.07387844e+001	-5.38362998e+001	-1.52234335e+001	1.64776566e+002	5.31469521e+001	5.31469521e+001
5.17000000e-001	-5.70750339e+001	3.82868065e+000	-1.76171319e+002	6.35628681e+001	6.35628681e+001	-5.66546681e+001	7.58218956e+001	2.55821896e+002	1.78028228e+001	1.78028228e+001
5.18000000e-001	-5.64058921e+001	5.80941163e+001	-1.21905884e+002	-3.45840831e+000	-3.45840831e+000	-5.38336301e+001	-2.08715425e+001	1.59128457e+002	-8.43961916e+001	-8.43961916e+001
5.19000000e-001	-5.95183614e+001	3.82812699e+001	-1.41718730e+002	-3.19974183e+001	-3.19974183e+001	-6.04466708e+001	1.34328513e+001	1.93432851e+002	3.66295938e+001	3.66295938e+001
5.20000000e-001	-5.89584953e+001	-4.09652223e+001	-2.20965222e+002	2.58200763e+001	2.58200763e+001	-6.79319043e+001	3.28677431e+001	2.12867743e+002	-1.18000219e+001	-1.18000219e+001
5.21000000e-001	-6.46968451e+001	4.77414827e+001	-1.32258517e+002	2.31363621e+001	2.31363621e+001	-5.84793112e+001	6.45813163e+001	2.44581316e+002	-4.39054951e+000	-4.39054951e+000
5.22000000e-001	-6.17237793e+001	-7.23152525e-001	-1.80723153e+002	-2.99298662e+001	-2.99298662e+001	-6.35567206e+001	-2.16001307e+001	1.58399869e+002	1.83713511e+001	1.83713511e+001
5.23000000e-001	-5.57670730e+001	8.33435040e+001	-9.66564960e+001	-1.61343227e+001	-1.61343227e+001	-5.59849595e+001	-7.27790653e+001	1.07220935e+002	3.18972174e-001	3.18972174e-001
5.24000000e-001	-5.86051086e+001	3.79590526e+001	-1.42040947e+002	2.77384166e+001	2.77384166e+001	-6.09648947e+001	6.30607453e+001	6.30607453e+001	2.08276856e+001	2.08276856e+001
5.25000000e-001	-6.54836394e+001	8.26844830e+001	-9.73155170e+001	-8.96858831e+000	-8.96858831e+000	-6.07650038e+001	-5.45478233e+001	-5.45478233e+001	-3.28451644e+001	-3.28451644e+001
5.26000000e-001	-5.40545418e+001	-4.39112328e+001	-2.23911233e+002	-6.47782469e+001	-6.47782469e+001	-5.54818635e+001	8.31151904e+001	-9.68848096e+001	-9.18217324e-001	-9.18217324e-001
5.27000000e-001	-5.99850992e+001	8.94867970e+000	-1.71051320e+002	3.23090936e+001	3.23090936e+001	-5.14231263e+001	-5.98794900e+001	-5.98794900e+001	-6.52830187e+001	-6.52830187e+001
5.28000000e-001	-5.79189850e+001	6.78672134e+001	-1.12132787e+002	-1.04183172e+001	-1.04183172e+001	-7.31511828e+001	-5.09959992e+001	-5.09959992e+001	-5.97842063e+000	-5.97842063e+000
5.29000000e-001	-5.88469234e+001	5.26504882e+001	-1.27349512e+002	1.34856440e+001	1.34856440e+001	-6.82370726e+001	-3.38964069e+001	-3.38964069e+001	1.18357594e+001	1.18357594e+001
5.30000000e-001	-6.84576288e+001	3.52700532e+000	-1.76472995e+002	-1.65160572e+001	-1.65160572e+001	-5.79776798e+001	4.01597657e+001	4.01597657e+001	1.49686059e+001	1.49686059e+001
5.31000000e-001	-5.58982156e+001	-3.93461464e+001	-2.19346146e+002	5.21096031e+001	5.21096031e+001	-5.32617146e+001	-2.73238183e+001	-2.73238183e+001	5.73045220e+001	5.73045220e+001
5.32000000e-001	-5.94689853e+001	-6.32613182e+001	-2.43261318e+002	-1.88157808e+001	-1.88157808e+001	-7.03947790e+001	8.36051668e+001	8.36051668e+001	-1.46587039e+000	-1.46587039e+000
5.33000000e-001	-6.29682083e+001	5.50789734e+001	-1.24921027e+002	1.81626875e+001	1.81626875e+001	-5.99400094e+001	-1.32726311e+001	-1.32726311e+001	-4.47429954e+001	-4.47429954e+001
5.34000000e-001	-5.36341907e+001	-4.99089142e+001	-2.29908914e+002	3.03976308e+001	3.03976308e+001	-5.99815140e+001	-5.16956658e+000	-5.16956658e+000	-6.52849004e+001	-6.52849004e+001
5.35000000e-001	-6.71234403e+001	1.83862410e+001	-1.61613759e+002	1.51462073e+001	1.51462073e+001	-5.72514065e+001	-6.97324321e+001	-6.97324321e+001	1.76232558e+001	1.76232558e+001
5.36000000e-001	-5.90682949e+001	-4.79389334e+001	-2.27938933e+002	3.33227111e+001	3.33227111e+001	-6.24759074e+001	-8.52280742e+001	-8.52280742e+001	-1.21035570e+001	-1.21035570e+001
5.37000000e-001	-5.53890970e+001	-6.05270724e+001	-2.40527072e+002	-3.86170904e+001	-3.86170904e+001	-5.91627469e+001	7.58379831e+001	-1.04162017e+002	7.72199109e+000	7.72199109e+000
5.38000000e-001	-6.25278385e+001	2.16761427e+001	-1.58323857e+002	-1.97449591e+001	-1.97449591e+001	-5.81501782e+001	8.18624206e+001	-9.81375794e+001	5.20669043e+000	5.20669043e+000
5.39000000e-001	-6.51394916e+001	-3.93054901e+001	-2.19305490e+002	2.23053386e+001	2.23053386e+001	-5.77638034e+001	-7.43915703e+001	-7.43915703e+001	3.12227673e+001	3.12227673e+001
5.40000000e-001	-5.93373699e+001	-8.06424197e+001	-2.60642420e+002	2.44371442e+000	2.44371442e+000	-6.17461508e+001	4.96572694e+001	4.96572694e+001	2.83539854e+001	2.83539854e+001
5.41000000e-001	-5.67674300e+001	-3.27607589e+000	-1.83276076e+002	-4.01546446e+001	-4.01546446e+001	-6.04840977e+001	1.10576396e+001	1.10576396e+001	2.40038781e+001	2.40038781e+001
5.42000000e-001	-6.32675226e+001	-3.42050128e+001	-2.14205013e+002	-2.31356024e+001	-2.31356024e+001	-6.74401803e+001	5.99687108e+001	5.99687108e+001	5.79229026e+000	5.79229026e+000
5.43000000e-001	-5.65059364e+001	7.65024322e+000	-1.72349757e+002	7.92678509e+001	7.92678509e+001	-6.52179395e+001	8.79717027e+001	8.79717027e+001	9.99069323e+000	9.99069323e+000
5.44000000e-001	-6.43539587e+001	1.89224278e+001	-1.61077572e+002	1.91442441e+001	1.91442441e+001	-6.83669035e+001	4.17238580e+001	4.17238580e+001	6.24789556e+000	6.24789556e+000
5.45000000e-001	-6.50277369e+001	-8.97499857e+000	-1.88974999e+002	2.74304125e+001	2.74304125e+001	-5.94382284e+001	2.81023487e+001	2.81023487e+001	-3.34494215e+001	-3.34494215e+001
5.46000000e-001	-5.76806457e+001	1.08881078e+001	-1.69111892e+002	3.63085024e+001	3.63085024e+001	-9.00132692e+001	9.04108183e+000	9.04108183e+000	1.63063786e+000	1.63063786e+000
5.47000000e-001	-5.95194828e+001	4.19849266e+001	-1.38015073e+002	3.28008436e+001	3.28008436e+001	-5.73034787e+001	-1.00191988e+001	-1.00191988e+001	4.08451835e+001	4.08451835e+001
5.48000000e-001	-6.83537623e+001	-3.95942139e+001	-2.19594214e+002	1.04289534e+001	1.04289534e+001	-5.79932943e+001	-8.21453372e+001	-8.21453372e+001	1.06007421e+001	1.06007421e+001
5.49000000e-001	-7.74689131e+001	-2.90011742e+001	-2.09001174e+002	5.68346205e+000	5.68346205e+000	-5.67180840e+001	-8.17171930e+001	-8.17171930e+001	5.94731959e+001	5.94731959e+001
5.50000000e-001	-6.47657054e+001	4.83808121e+001	-1.31619188e+002	6.86913213e+000	6.86913213e+000	-5.73349995e+001	4.54448645e+001	4.54448645e+001	4.80644783e+001	4.80644783e+001
5.51000000e-001	-6.75728418e+001	-6.09062887e+001	-2.40906289e+002	1.13176352e+001	1.13176352e+001	-8.05862919e+001	-8.61619908e+001	9.38380092e+001	1.52411366e+000	1.52411366e+000
5.52000000e-001	-5.89851179e+001	-4.28732815e+000	-1.84287328e+002	-3.00743461e+001	-3.00743461e+001	-5.67218138e+001	-1.06972154e+001	1.69302785e+002	5.56888378e+001	5.56888378e+001
5.53000000e-001	-5.47187685e+001	-2.11617076e+001	-2.01161708e+002	-4.63087188e+001	-4.63087188e+001	-5.58817638e+001	-4.89599407e+001	1.31040059e+002	8.09214563e+001	8.09214563e+001
5.54000000e-001	-5.74448546e+001	-4.48813910e+000	-1.84488139e+002	-4.09391018e+001	-4.09391018e+001	-6.81500036e+001	5.68625168e+001	2.36862517e+002	-3.38662849e+000	-3.38662849e+000
5.55000000e-001	-6.54793574e+001	1.49938649e+001	-1.65006135e+002	1.17175665e+001	1.17175665e+001	-5.48678031e+001	7.97796385e+000	1.87977964e+002	-8.04635830e+001	-8.04635830e+001
5.56000000e-001	-5.99920345e+001	2.66184647e+001	-1.53381535e+002	2.13324774e+001	2.13324774e+001	-7.03271997e+001	-8.63401744e+001	9.36598256e+001	-3.62580844e+000	-3.62580844e+000
5.57000000e-001	-6.57132481e+001	5.51545738e+000	-1.74484543e+002	1.51244569e+001	1.51244569e+001	-6.19886151e+001	-6.33978408e+001	1.16602159e+002	-2.01156471e+000	-2.01156471e+000
5.58000000e-001	-5.50956197e+001	2.52674260e+001	-1.54732574e+002	3.71828933e+001	3.71828933e+001	-6.22459421e+001	-8.13360129e+001	9.86639871e+001	-2.44306115e+001	-2.44306115e+001
5.59000000e-001	-6.01869064e+001	-8.15838891e+001	-2.61583889e+002	1.14820486e+001	1.14820486e+001	-5.42299100e+001	5.73439892e+001	5.73439892e+001	-4.05469982e+001	-4.05469982e+001
5.60000000e-001	-6.68244735e+001	-1.70617016e+000	-1.81706170e+002	1.24737033e+001	1.24737033e+001	-7.03028984e+001	-4.33947367e+001	-4.33947367e+001	6.65546256e+000	6.65546256e+000
5.61000000e-001	-6.26703957e+001	-8.47914249e+001	-2.64791425e+002	3.66351249e+000	3.66351249e+000	-5.96701851e+001	4.17370800e+001	4.17370800e+001	-1.71216777e+001	-1.71216777e+001
5.62000000e-001	-6.08439603e+001	-4.03807381e+001	-2.20380738e+002	-2.64384214e+001	-2.64384214e+001	-6.04863767e+001	-4.25412626e+001	-4.25412626e+001	-3.03778539e+001	-3.03778539e+001
5.63000000e-001	-7.30833448e+001	-1.05539691e+001	-1.90553969e+002	7.96192084e+000	7.96192084e+000	-5.94983358e+001	5.22803306e+001	5.22803306e+001	3.52210542e+001	3.52210542e+001
5.64000000e-001	-5.98721377e+001	8.19558914e+001	-9.80441086e+001	-2.41099703e+000	-2.41099703e+000	-6.09427909e+001	-6.63232428e+001	-6.63232428e+001	-8.78003079e+000	-8.78003079e+000
5.65000000e-001	-5.85849592e+001	6.43506736e+001	-1.15649326e+002	-1.28476217e+001	-1.28476217e+001	-5.75675051e+001	3.35978536e+001	3.35978536e+001	-3.35630622e+001	-3.35630622e+001
5.66000000e-001	-5.70039899e+001	-6.38893307e+001	-2.43889331e+002	1.21379222e+000	1.21379222e+000	-7.02652332e+001	3.62276903e+001	3.62276903e+001	7.36352762e+000	7.36352762e+000
5.67000000e-001	-6.58955058e+001	-1.93675187e+001	-1.99367519e+002	-1.24608940e+001	-1.24608940e+001	-5.89783269e+001	2.37808741e+001	2.37808741e+001	-2.49396376e+001	-2.49396376e+001
5.68000000e-001	-6.71013030e+001	8.10882315e+001	-9.89117685e+001	-1.43502240e+000	-1.43502240e+000	-6.03536285e+001	-6.28033398e+001	-6.28033398e+001	2.81465601e+001	2.81465601e+001
5.69000000e-001	-7.11816959e+001	5.79777657e+001	-1.22022234e+002	-3.31764598e+000	-3.31764598e+000	-5.84751966e+001	5.78900780e+000	5.78900780e+000	3.33924201e+001	3.33924201e+001
5.70000000e-001	-5.76273712e+001	8.91453711e+001	-9.08546289e+001	-8.19721831e+001	-8.19721831e+001	-6.83932314e+001	-1.24756163e+001	-1.24756163e+001	-1.53207252e+001	-1.53207252e+001
5.71000000e-001	-6.19824077e+001	-7.82500476e+001	-7.82500476e+001	1.13198138e+001	1.13198138e+001	-6.01375256e+001	-1.37324602e+001	-1.37324602e+001	3.41925698e+001	3.41925698e+001
5.72000000e-001	-6.46739279e+001	-8.65046396e+001	-8.65046396e+001	-7.65347469e+000	-7.65347469e+000	-6.47468784e+001	5.41096162e+001	5.41096162e+001	-1.65934973e-001	-1.65934973e-001
5.73000000e-001	-5.89741580e+001	5.46357653e+000	5.46357653e+000	3.37230089e+001	3.37230089e+001	-5.67949622e+001	8.81263473e+001	8.81263473e+001	1.47000646e+001	1.47000646e+001
5.74000000e-001	-6.35411666e+001	5.34845274e+001	5.34845274e+001	9.00010329e+000	9.00010329e+000	-7.24002930e+001	1.20643871e+001	1.20643871e+001	8.42793263e+000	8.42793263e+000
5.75000000e-001	-6.47095840e+001	5.78244989e+001	5.78244989e+001	-9.68570892e+000	-9.68570892e+000	-7.03715636e+001	-8.90951506e+001	-8.90951506e+001	-2.58761332e+000	-2.58761332e+000
5.76000000e-001	-5.75418513e+001	7.66126554e+001	7.66126554e+001	-6.48038731e+000	-6.48038731e+000	-5.26978995e+001	-8.12733685e+000	-8.12733685e+000	6.58295419e+001	6.58295419e+001
5.77000000e-001	-5.69429392e+001	-5.15583410e+001	-5.15583410e+001	-3.94876616e+001	-3.94876616e+001	-6.00748229e+001	-3.74756813e+001	-3.74756813e+001	2.65229874e+001	2.65229874e+001
5.78000000e-001	-6.61381059e+001	7.04220361e+001	7.04220361e+001	2.15639866e+001	2.15639866e+001	-6.04234642e+001	-1.40326136e+000	-1.40326136e+000	-2.46418276e+001	-2.46418276e+001
5.79000000e-001	-6.36450410e+001	-2.75314327e+001	-2.75314327e+001	1.93011846e+001	1.93011846e+001	-8.30376780e+001	2.43985130e+001	2.43985130e+001	1.37052820e+000	1.37052820e+000
5.80000000e-001	-6.06865351e+001	5.15430756e+001	5.15430756e+001	1.54237456e+001	1.54237456e+001	-6.21497618e+001	-1.40738528e+001	-1.40738528e+001	2.01410848e+001	2.01410848e+001
5.81000000e-001	-6.08311499e+001	-2.14248807e+001	-2.14248807e+001	-2.92964452e+001	-2.92964452e+001	-5.85076384e+001	3.57813645e+001	3.57813645e+001	-2.41588787e+001	-2.41588787e+001
5.82000000e-001	-5.95996532e+001	-7.55971009e+001	-7.55971009e+001	-2.28280171e+000	-2.28280171e+000	-5.67814254e+001	6.21464143e+001	6.21464143e+001	3.28025034e+001	3.28025034e+001
5.83000000e-001	-5.64898730e+001	6.52239721e+001	-1.14776028e+002	-1.30765290e+001	-1.30765290e+001	-6.10659662e+001	-1.84075744e+001	-1.84075744e+001	-2.98810482e+001	-2.98810482e+001
5.84000000e-001	-5.93210145e+001	3.50295094e+001	-1.44970491e+002	1.50363776e+001	1.50363776e+001	-5.84524129e+001	7.25911190e+001	7.25911190e+001	1.90651396e+001	1.90651396e+001
5.85000000e-001	-6.52404031e+001	6.42447030e+001	-1.15755297e+002	1.35172502e+000	1.35172502e+000	-5.54984360e+001	-2.35688735e+001	-2.35688735e+001	-4.44657752e+001	-4.44657752e+001
5.86000000e-001	-7.07717782e+001	-4.63841381e+001	-2.26384138e+002	-1.04645985e+001	-1.04645985e+001	-6.72046309e+001	-6.23731106e+001	-6.23731106e+001	7.74444884e+000	7.74444884e+000
5.87000000e-001	-6.53534539e+001	-5.92534960e+001	-2.39253496e+002	1.14336501e+001	1.14336501e+001	-6.23231665e+001	-8.68589560e+001	-8.68589560e+001	1.01027811e+001	1.01027811e+001
5.88000000e-001	-5.35725243e+001	1.87200776e+001	-1.61279922e+002	-5.50342399e+001	-5.50342399e+001	-5.69453878e+001	4.45122067e+001	-1.35487793e+002	-2.88976469e+001	-2.88976469e+001
5.89000000e-001	-5.86460594e+001	-8.37546154e+001	-2.63754615e+002	-3.27332011e+000	-3.27332011e+000	-6.47587866e+001	4.56139052e+001	-1.34386095e+002	1.41912803e+001	1.41912803e+001
5.90000000e-001	-5.94629763e+001	-7.10634185e+001	-2.51063419e+002	-1.56668159e+001	-1.56668159e+001	-5.97270659e+001	-4.71734886e+001	-2.27173489e+002	2.59623111e+001	2.59623111e+001
5.91000000e-001	-5.91561833e+001	5.15922945e+001	-1.28407706e+002	-1.75746592e+001	-1.75746592e+001	-5.92918079e+001	-2.27822757e+001	-2.02782276e+002	1.98162796e+001	1.98162796e+001
5.92000000e-001	-6.85075374e+001	5.21408527e+000	-1.74785915e+002	-1.01963472e+001	-1.01963472e+001	-6.25130169e+001	3.03418599e+000	-1.76965814e+002	2.00160359e+001	2.00160359e+001
5.93000000e-001	-5.81226029e+001	-8.38070615e+001	-2.63807062e+002	-1.59427705e+000	-1.59427705e+000	-6.45258918e+001	-7.68446971e+001	-2.56844697e+002	2.82965548e+001	2.82965548e+001
5.94000000e-001	-5.95624480e+001	-8.60260724e+001	-2.66026072e+002	-1.32317316e+001	-1.32317316e+001	-1.11172909e+002	-6.41647665e+001	-2.44164766e+002	9.36682246e-002	9.36682246e-002
5.95000000e-001	-5.52078047e+001	2.14420624e+001	-1.58557938e+002	7.04289359e+001	7.04289359e+001	-5.04386361e+001	1.69133807e+001	-1.63086619e+002	-8.07834760e+001	-8.07834760e+001
5.96000000e-001	-5.95223720e+001	-1.14457203e+000	-1.81144572e+002	3.83452008e+001	3.83452008e+001	-6.24827151e+001	7.38002917e+001	-1.06199708e+002	-2.21391357e+000	-2.21391357e+000
5.97000000e-001	-6.77362768e+001	5.91972624e+001	-1.20802738e+002	-1.27826251e+001	-1.27826251e+001	-5.88359885e+001	-1.55076734e+001	-1.95507673e+002	3.11700055e+001	3.11700055e+001
5.98000000e-001	-6.54971725e+001	6.20953473e+001	-1.17904653e+002	-5.84889625e-001	-5.84889625e-001	-5.99986815e+001	6.59317105e+001	-1.14068290e+002	-2.41874649e+001	-2.41874649e+001
5.99000000e-001	-6.41959318e+001	-6.91931489e+001	-6.91931489e+001	1.76096607e+001	1.76096607e+001	-6.22216289e+001	-9.37243022e+000	-1.89372430e+002	-2.88685180e+001	-2.88685180e+001
6.00000000e-001	-5.94090847e+001	6.69763342e+001	-1.13023666e+002	-1.10279109e+001	-1.10279109e+001	-5.08327640e+001	3.26716595e+001	-1.47328341e+002	7.93579974e+001	7.93579974e+001
6.01000000e-001	-5.81223980e+001	1.95027007e+001	-1.60497299e+002	3.55153319e+001	3.55153319e+001	-6.21176867e+001	2.64422532e+001	-1.53557747e+002	2.80396597e+001	2.80396597e+001
6.02000000e-001	-6.17832896e+001	7.53273648e+001	-1.04672635e+002	-3.01747807e-001	-3.01747807e-001	-5.55496289e+001	6.37629805e+001	-1.16237019e+002	-1.85466021e+001	-1.85466021e+001
6.03000000e-001	-7.51474099e+001	7.87212451e+001	-1.01278755e+002	1.24313994e+000	1.24313994e+000	-6.09365552e+001	8.06506289e+001	-9.93493711e+001	-1.79551047e+000	-1.79551047e+000
6.04000000e-001	-5.89523577e+001	5.07480031e+001	-1.29251997e+002	-2.13232291e+001	-2.13232291e+001	-8.31297530e+001	8.45491455e+001	-9.54508545e+001	-5.16106783e-001	-5.16106783e-001
6.05000000e-001	-8.40035872e+001	-2.89350107e+001	-2.08935011e+002	-2.57887334e+000	-2.57887334e+000	-6.31448058e+001	4.25775480e+001	-1.37422452e+002	-3.13324421e+001	-3.13324421e+001
6.06000000e-001	-6.09174210e+001	8.19100663e+001	-9.80899337e+001	4.23508480e+000	4.23508480e+000	-6.29480929e+001	-1.33570037e+001	-1.93357004e+002	1.88103552e+001	1.88103552e+001
6.07000000e-001	-5.48102885e+001	-8.19972938e+001	-8.19972938e+001	1.60614785e+001	1.60614785e+001	-6.54982218e+001	4.26501727e+001	-1.37349827e+002	1.86183864e+001	1.86183864e+001
