Frequency 	 |S21| 	 Phase(S21) 	 ExtPhase(S21) 	 CorPhase(S21)	 ExtCorPhase(S21)	 |S12| 	 Phase(S12)	 ExtPhase(S12) 	 CorPhase(S12)	 ExtCorPhase(S12)
GHz 	 dB 	 deg 	 deg 	 deg	 deg	 dB 	 deg 	 deg 	 deg	 deg
5.00000000e-001	-5.42445913e+001	8.57957434e+001	8.57957434e+001	-4.89828178e+001	-4.89828178e+001	-6.72427618e+001	1.54917200e+001	1.54917200e+001	-1.08204830e+001	-1.08204830e+001
5.01000000e-001	-6.48059680e+001	-1.78760669e+001	-1.78760669e+001	2.25570904e+001	2.25570904e+001	-6.34548520e+001	-5.38536040e+000	-5.38536040e+000	3.01270909e+001	3.01270909e+001
5.02000000e-001	-6.97687398e+001	-8.24794067e+001	-8.24794067e+001	-1.48614347e+000	-1.48614347e+000	-5.82371109e+001	-2.47923439e+001	-2.47923439e+001	-4.50900654e+001	-4.50900654e+001
5.03000000e-001	-5.30023904e+001	6.51077043e+000	6.51077043e+000	-7.62329953e+001	-7.62329953e+001	-7.25360836e+001	7.15090232e+000	7.15090232e+000	-8.17858350e+000	-8.17858350e+000
5.04000000e-001	-7.11944747e+001	3.19718716e+001	3.19718716e+001	-8.60167108e+000	-8.60167108e+000	-6.10131143e+001	6.52393484e+001	6.52393484e+001	1.05971894e+001	1.05971894e+001
5.05000000e-001	-6.75619144e+001	1.14153169e+001	1.14153169e+001	1.13426667e+001	1.13426667e+001	-6.26704165e+001	2.81874039e+001	2.81874039e+001	-2.87766709e+001	-2.87766709e+001
5.06000000e-001	-6.53185905e+001	7.17180626e+001	7.17180626e+001	2.54506219e+001	2.54506219e+001	-8.07505727e+001	-5.87813960e+001	-5.87813960e+001	-2.94191653e+000	-2.94191653e+000
5.07000000e-001	-6.24816528e+001	1.62028739e+001	1.62028739e+001	2.93621256e+001	2.93621256e+001	-5.73319559e+001	2.52989896e+001	2.52989896e+001	-3.72758555e+001	-3.72758555e+001
5.08000000e-001	-6.04081229e+001	2.27029735e+001	2.27029735e+001	2.73460277e+001	2.73460277e+001	-5.53058954e+001	3.13495824e+001	3.13495824e+001	-2.75310541e+001	-2.75310541e+001
5.09000000e-001	-5.78844792e+001	2.85314712e+001	2.85314712e+001	-3.16608212e+001	-3.16608212e+001	-6.27752075e+001	-2.42819215e+001	-2.42819215e+001	-2.55791415e+001	-2.55791415e+001
5.10000000e-001	-6.14807280e+001	5.62590686e+001	5.62590686e+001	-1.66342999e+001	-1.66342999e+001	-6.45675590e+001	-6.82722623e+001	-6.82722623e+001	3.18742002e+000	3.18742002e+000
5.11000000e-001	-6.77905934e+001	-8.82727416e+001	9.17272584e+001	6.09408125e-001	6.09408125e-001	-6.67950731e+001	5.76573047e+001	5.76573047e+001	5.61433655e+000	5.61433655e+000
5.12000000e-001	-5.68645809e+001	2.99597249e+001	2.09959725e+002	4.36455459e+001	4.36455459e+001	-6.45287484e+001	3.30120409e+001	3.30120409e+001	2.23936805e+001	2.23936805e+001
5.13000000e-001	-6.16059631e+001	1.42277347e+001	1.94227735e+002	3.43126444e+001	3.43126444e+001	-5.86451559e+001	-3.45537131e+001	-3.45537131e+001	4.32040099e+001	4.32040099e+001
5.14000000e-001	-7.39233120e+001	8.77706604e+001	2.67770660e+002	2.06268199e+000	2.06268199e+000	-6.71747229e+001	-2.59754480e+001	-2.59754480e+001	1.05767094e+001	1.05767094e+001
5.15000000e-001	-6.31436816e+001	5.36442068e+001	2.33644207e+002	5.38104604e+000	5.38104604e+000	-5.53443968e+001	4.16655321e+000	4.16655321e+000	4.71795736e+001	4.71795736e+001
5.16000000e-001	-7.06178768e+001	1.49214779e-002	1.80014921e+002	-1.37635558e+001	-1.37635558e+001	-5.88502535e+001	-8.22646284e+001	-8.22646284e+001	5.14560586e+000	5.14560586e+000
5.17000000e-001	-6.42571105e+001	-5.92065159e+001	1.20793484e+002	-1.40092488e+001	-1.40092488e+001	-6.54108545e+001	2.61330428e+001	2.61330428e+001	-1.20583092e+001	-1.20583092e+001
5.18000000e-001	-5.67330673e+001	-7.39151167e+001	1.06084883e+002	3.73579274e+001	3.73579274e+001	-5.03627902e+001	2.40722618e+001	2.40722618e+001	8.26623679e+001	8.26623679e+001
5.19000000e-001	-5.76507885e+001	-1.00750776e+001	1.69924922e+002	-4.08665290e+001	-4.08665290e+001	-5.99415838e+001	9.02805991e+000	9.02805991e+000	4.34125498e+001	4.34125498e+001
5.20000000e-001	-6.77784246e+001	3.77463575e+001	2.17746357e+002	-1.12598432e+001	-1.12598432e+001	-5.50163406e+001	6.28335762e+001	6.28335762e+001	1.34787513e+001	1.34787513e+001
5.21000000e-001	-6.18283093e+001	8.57425549e+001	2.65742555e+002	-1.62146395e+001	-1.62146395e+001	-6.41528280e+001	8.62329835e+000	8.62329835e+000	1.16246995e+001	1.16246995e+001
5.22000000e-001	-6.21254481e+001	-8.97475750e+001	2.70252425e+002	-1.77331095e+000	-1.77331095e+000	-7.07584134e+001	2.80557296e+001	2.80557296e+001	4.98882930e+000	4.98882930e+000
5.23000000e-001	-6.75231014e+001	8.07055215e+001	2.60705521e+002	-7.87733844e-001	-7.87733844e-001	-5.96521714e+001	-4.32663999e+001	-4.32663999e+001	4.46524864e+001	4.46524864e+001
5.24000000e-001	-7.26330063e+001	-7.86866922e+001	2.81313308e+002	3.30688412e+000	3.30688412e+000	-5.37199988e+001	-6.51764287e+001	-6.51764287e+001	7.62844257e+001	7.62844257e+001
5.25000000e-001	-6.66524144e+001	-8.14733043e+001	2.78526696e+002	-2.64932695e+000	-2.64932695e+000	-6.04485181e+001	-1.44133319e+001	-1.44133319e+001	-3.88387550e+001	-3.88387550e+001
5.26000000e-001	-7.17926521e+001	7.42767227e+001	2.54276723e+002	-1.28741051e+000	-1.28741051e+000	-6.63469961e+001	3.63797569e+001	3.63797569e+001	-1.38815290e+001	-1.38815290e+001
5.27000000e-001	-5.97518268e+001	-4.12426197e+001	1.38757380e+002	-2.67387044e+001	-2.67387044e+001	-6.11874302e+001	6.19020314e+001	6.19020314e+001	1.40238023e+001	1.40238023e+001
5.28000000e-001	-5.69141196e+001	-8.35151149e+001	9.64848851e+001	2.20917994e+000	2.20917994e+000	-6.93092881e+001	-6.26244540e+001	-6.26244540e+001	4.56555386e+000	4.56555386e+000
5.29000000e-001	-6.08295861e+001	1.51261871e+001	1.95126187e+002	-3.83441723e+001	-3.83441723e+001	-5.41449993e+001	5.39897909e+000	5.39897909e+000	-5.71972157e+001	-5.71972157e+001
5.30000000e-001	-6.06521350e+001	6.44393981e+001	2.44439398e+002	7.58123521e+000	7.58123521e+000	-5.74840492e+001	3.99314354e+001	3.99314354e+001	-3.59854337e+001	-3.59854337e+001
5.31000000e-001	-6.28418836e+001	5.51171985e+001	2.35117198e+002	-7.79656020e+000	-7.79656020e+000	-6.25599113e+001	-7.74812285e+001	-7.74812285e+001	-2.16204981e+001	-2.16204981e+001
5.32000000e-001	-5.84460468e+001	-8.69060032e+001	2.73093997e+002	3.88070405e+000	3.88070405e+000	-7.44903174e+001	3.01820059e+001	3.01820059e+001	6.41401992e+000	6.41401992e+000
5.33000000e-001	-6.15960261e+001	-7.09250113e+000	3.52907499e+002	-2.30604745e+001	-2.30604745e+001	-7.18271888e+001	-5.09899588e+001	-5.09899588e+001	6.89879511e+000	6.89879511e+000
5.34000000e-001	-5.46357977e+001	-2.91157106e+001	3.30884289e+002	-6.07939416e+001	-6.07939416e+001	-6.27733654e+001	-1.41572985e+001	-1.41572985e+001	3.82791330e+001	3.82791330e+001
5.35000000e-001	-6.95131111e+001	8.63964005e+001	4.46396401e+002	-1.10197633e+000	-1.10197633e+000	-7.57264434e+001	-7.71034393e+001	-7.71034393e+001	-3.89816568e+000	-3.89816568e+000
5.36000000e-001	-6.26435146e+001	8.95405977e+001	4.49540598e+002	-2.76114238e+000	-2.76114238e+000	-6.05926226e+001	2.30823551e+001	2.30823551e+001	2.10265133e+001	2.10265133e+001
5.37000000e-001	-7.22588390e+001	-7.18206477e+001	4.68179352e+002	3.13932841e+000	3.13932841e+000	-6.26654274e+001	5.95566403e+001	5.95566403e+001	2.15631805e+000	2.15631805e+000
5.38000000e-001	-6.64301055e+001	-8.61321320e+001	4.53867868e+002	9.94541915e-001	9.94541915e-001	-6.10094255e+001	-7.99487934e+001	1.00051207e+002	-9.42234582e+000	-9.42234582e+000
5.39000000e-001	-6.56748449e+001	-8.02692303e+001	4.59730770e+002	6.79764829e+000	6.79764829e+000	-5.94366769e+001	-4.00675562e+001	1.39932444e+002	8.49135341e+001	8.49135341e+001
5.40000000e-001	-5.46550643e+001	2.42039777e+001	5.64203978e+002	-5.62624310e+001	-5.62624310e+001	-6.40490901e+001	-6.74754272e+001	1.12524573e+002	1.49043655e+001	1.49043655e+001
5.41000000e-001	-7.47494922e+001	-4.89608016e+001	4.91039198e+002	-4.90749062e+000	-4.90749062e+000	-6.17339546e+001	3.02441259e+001	2.10244126e+002	2.18340753e+001	2.18340753e+001
5.42000000e-001	-5.63772209e+001	8.62525620e+001	4.46252562e+002	-2.67943934e+001	-2.67943934e+001	-6.11462132e+001	7.48390778e+001	2.54839078e+002	-8.21457532e+000	-8.21457532e+000
5.43000000e-001	-6.16785944e+001	-3.65841727e+001	3.23415827e+002	5.26605260e+001	5.26605260e+001	-5.91758306e+001	3.40989503e+000	1.83409895e+002	-3.35976847e+001	-3.35976847e+001
5.44000000e-001	-6.61070703e+001	-3.48824903e+001	3.25117510e+002	2.31628530e+001	2.31628530e+001	-5.77462284e+001	-8.61294558e+001	9.38705442e+001	3.51207167e+001	3.51207167e+001
5.45000000e-001	-5.89315655e+001	-2.96135910e+001	3.30386409e+002	-2.87951144e+001	-2.87951144e+001	-6.29584937e+001	-1.32888799e+001	1.66711120e+002	-2.55814731e+001	-2.55814731e+001
5.46000000e-001	-5.92712933e+001	-8.31107092e+001	2.76889291e+002	1.44122046e+001	1.44122046e+001	-5.86994115e+001	1.54922502e+000	1.81549225e+002	3.63684009e+001	3.63684009e+001
5.47000000e-001	-5.83961013e+001	4.32900495e+000	3.64329005e+002	3.33904258e+001	3.33904258e+001	-6.13320544e+001	-6.06359744e+001	1.19364026e+002	1.75224552e+001	1.75224552e+001
5.48000000e-001	-7.26922202e+001	5.04762462e+001	4.10476246e+002	2.69330935e+000	2.69330935e+000	-5.46891214e+001	2.15599228e+001	2.01559923e+002	6.50049258e+001	6.50049258e+001
5.49000000e-001	-5.83479970e+001	-4.71690259e+001	3.12830974e+002	-2.91399852e+001	-2.91399852e+001	-5.91373049e+001	-8.85970863e+001	9.14029137e+001	-1.37057609e+000	-1.37057609e+000
5.50000000e-001	-5.41726429e+001	-7.03155660e+001	2.89684434e+002	5.87539842e+001	5.87539842e+001	-5.58535050e+001	6.43558755e+001	6.43558755e+001	1.54093089e+001	1.54093089e+001
5.51000000e-001	-5.75394027e+001	3.07954650e-002	3.60030795e+002	-4.15198814e+001	-4.15198814e+001	-6.16385114e+001	-1.30876013e+001	-1.30876013e+001	-3.38001365e+001	-3.38001365e+001
5.52000000e-001	-6.49971100e+001	5.41806456e+001	4.14180646e+002	-1.00366639e+001	-1.00366639e+001	-5.93147603e+001	-4.92955713e+001	-4.92955713e+001	2.91991686e+001	2.91991686e+001
5.53000000e-001	-5.99817888e+001	5.98543016e+001	4.19854302e+002	3.11487018e+001	3.11487018e+001	-7.12572267e+001	2.58889477e+001	2.58889477e+001	5.88573612e+000	5.88573612e+000
5.54000000e-001	-5.76820676e+001	1.13667409e+001	3.71366741e+002	-4.56006947e+001	-4.56006947e+001	-5.20368989e+001	2.03376367e+001	2.03376367e+001	5.82663183e+001	5.82663183e+001
5.55000000e-001	-5.71970047e+001	-8.96507889e+001	2.70349211e+002	3.42969838e+001	3.42969838e+001	-5.88377448e+001	8.72510376e+000	8.72510376e+000	4.26359113e+001	4.26359113e+001
5.56000000e-001	-6.08774091e+001	-3.89667878e+001	3.21033212e+002	-1.86691360e+001	-1.86691360e+001	-6.38935726e+001	-6.97118733e+001	-6.97118733e+001	-1.27047268e+001	-1.27047268e+001
5.57000000e-001	-6.96077283e+001	-5.17695790e+001	3.08230421e+002	-9.50836941e+000	-9.50836941e+000	-5.65151033e+001	-8.49129547e+001	-8.49129547e+001	-2.85751990e+001	-2.85751990e+001
5.58000000e-001	-5.30456673e+001	7.24982882e-001	3.60724983e+002	-7.65967641e+001	-7.65967641e+001	-6.37409072e+001	6.14887115e+001	-1.18511289e+002	-1.08495762e+001	-1.08495762e+001
5.59000000e-001	-6.32413337e+001	4.91799540e+001	4.09179954e+002	1.31271500e+001	1.31271500e+001	-6.49972093e+001	-1.12671666e+001	-1.91267167e+002	-1.92236399e+001	-1.92236399e+001
5.60000000e-001	-5.52734395e+001	5.34929345e+001	4.13492934e+002	-1.68165844e+001	-1.68165844e+001	-5.58103624e+001	-8.87151079e+001	-2.68715108e+002	-3.35343878e+000	-3.35343878e+000
5.61000000e-001	-6.23310346e+001	5.28490240e+001	4.12849024e+002	2.05195623e+001	2.05195623e+001	-6.16405279e+001	3.59223027e+001	-1.44077697e+002	-1.93994465e+001	-1.93994465e+001
5.62000000e-001	-7.45419948e+001	-3.71764542e+001	3.22823546e+002	-5.62379162e+000	-5.62379162e+000	-5.67178322e+001	-5.76223015e+001	-2.37622301e+002	2.40215543e+001	2.40215543e+001
5.63000000e-001	-5.31150678e+001	-2.53810601e+001	3.34618940e+002	6.87567922e+001	6.87567922e+001	-5.29083953e+001	-5.91873681e+001	-2.39187368e+002	6.28371970e+001	6.28371970e+001
5.64000000e-001	-6.40669862e+001	-6.81776788e+001	2.91822321e+002	-2.86459700e+000	-2.86459700e+000	-6.47614544e+001	-8.23394214e+001	-2.62339421e+002	-1.24490657e+001	-1.24490657e+001
5.65000000e-001	-6.08729671e+001	5.91360194e+001	4.19136019e+002	1.18225464e+000	1.18225464e+000	-5.61747589e+001	9.59576536e+000	-1.70404235e+002	5.37422606e+001	5.37422606e+001
5.66000000e-001	-5.86001169e+001	8.39489818e+001	4.43948982e+002	9.51206754e+000	9.51206754e+000	-5.80440525e+001	-6.96449768e+001	-2.49644977e+002	5.48985295e+001	5.48985295e+001
5.67000000e-001	-6.05525216e+001	2.17912738e+001	3.81791274e+002	-4.74643225e+001	-4.74643225e+001	-6.29852267e+001	8.44558193e+001	-2.75544181e+002	3.78301781e+000	3.78301781e+000
5.68000000e-001	-5.74891289e+001	8.90876572e+000	3.68908766e+002	-3.39956159e+001	-3.39956159e+001	-5.75043516e+001	2.03988270e+001	-3.39601173e+002	-2.17811806e+001	-2.17811806e+001
5.69000000e-001	-5.64137868e+001	6.92015066e+001	4.29201507e+002	2.56561600e+001	2.56561600e+001	-5.89943381e+001	-7.35445765e+001	-4.33544576e+002	-1.45949342e+001	-1.45949342e+001
5.70000000e-001	-6.09177321e+001	7.78383799e+001	4.37838380e+002	-1.77895179e+001	-1.77895179e+001	-5.87333640e+001	-1.84912027e+001	-3.78491203e+002	-4.43997322e+001	-4.43997322e+001
5.71000000e-001	-7.39224515e+001	-2.68706545e+001	3.33129346e+002	-7.86037757e+000	-7.86037757e+000	-6.94972182e+001	-2.94336932e+001	-3.89433693e+002	-1.01009783e+001	-1.01009783e+001
5.72000000e-001	-6.03758918e+001	-7.17318556e+001	2.88268144e+002	-2.29048805e+001	-2.29048805e+001	-6.34627596e+001	3.41135134e+001	-3.25886487e+002	-9.80323753e+000	-9.80323753e+000
5.73000000e-001	-5.60956427e+001	1.76396350e+000	3.61763963e+002	-6.61501456e+001	-6.61501456e+001	-6.84789955e+001	-8.21774662e+001	-4.42177466e+002	-5.06868844e-001	-5.06868844e-001
5.74000000e-001	-6.84432280e+001	-5.69650541e+001	3.03034946e+002	-3.18517084e+000	-3.18517084e+000	-6.69700398e+001	-4.76940887e+001	-4.07694089e+002	9.72814893e+000	9.72814893e+000
5.75000000e-001	-6.51326439e+001	2.26464743e-002	3.60022646e+002	-1.41046915e+001	-1.41046915e+001	-6.00723417e+001	5.76019275e+001	-3.02398073e+002	-1.95426030e+001	-1.95426030e+001
5.76000000e-001	-6.29420105e+001	-6.27448397e+001	2.97255160e+002	-1.58367613e+001	-1.58367613e+001	-5.84734817e+001	-6.00164864e+001	-4.20016486e+002	2.59717589e+001	2.59717589e+001
5.77000000e-001	-5.44842601e+001	-3.16439047e+001	3.28356095e+002	-4.60077980e+001	-4.60077980e+001	-6.17534581e+001	8.70160594e+001	-4.52983941e+002	-2.70255010e+001	-2.70255010e+001
5.78000000e-001	-5.80222787e+001	8.59821905e+001	4.45982191e+002	5.19291140e+000	5.19291140e+000	-5.77936305e+001	3.35123195e+001	-5.06487680e+002	4.27936642e+001	4.27936642e+001
5.79000000e-001	-5.89850722e+001	8.83950753e+001	4.48395075e+002	1.45684953e+001	1.45684953e+001	-5.48840467e+001	-1.47860347e+001	-5.54786035e+002	-6.73607129e+001	-6.73607129e+001
5.80000000e-001	-5.59455454e+001	7.01507147e+001	4.30150715e+002	1.02405488e+001	1.02405488e+001	-5.97871250e+001	4.74795077e+001	-4.92520492e+002	-1.59909621e+001	-1.59909621e+001
5.81000000e-001	-6.07243598e+001	-8.63498758e+001	4.53650124e+002	4.47613877e+000	4.47613877e+000	-6.55034880e+001	-1.65472838e+000	-5.41654728e+002	1.59632086e+001	1.59632086e+001
5.82000000e-001	-7.03869158e+001	-8.02483720e+001	4.59751628e+002	-3.28407365e+000	-3.28407365e+000	-8.02607456e+001	-8.27443662e+001	-6.22744366e+002	-1.42468039e+000	-1.42468039e+000
5.83000000e-001	-5.34554572e+001	8.22434704e+000	5.48224347e+002	-8.82448076e+001	-8.82448076e+001	-7.63090058e+001	1.41645362e+001	-5.25835464e+002	6.23234783e+000	6.23234783e+000
5.84000000e-001	-5.67828830e+001	7.87750455e+001	6.18775046e+002	6.57180118e+001	-1.14281988e+002	-6.17180621e+001	4.30075104e+001	-4.96992490e+002	1.82613897e+001	1.82613897e+001
5.85000000e-001	-6.05773557e+001	-8.33335550e+001	6.36666445e+002	2.13815577e+000	-1.77861844e+002	-6.10099054e+001	-7.90813149e+001	-6.19081315e+002	-1.70832948e+001	-1.70832948e+001
5.86000000e-001	-6.61460706e+001	-2.16683196e+001	6.98331680e+002	-1.52367485e+001	-1.95236749e+002	-6.14435395e+001	-7.11114102e+001	-6.11111410e+002	-8.50644414e+000	-8.50644414e+000
5.87000000e-001	-5.63945545e+001	-5.38958591e+001	6.66104141e+002	2.77418933e+001	-1.52258107e+002	-6.37494650e+001	6.37920285e+001	-6.56207971e+002	-4.56628350e+000	-4.56628350e+000
5.88000000e-001	-7.12810740e+001	2.07569649e+001	7.40756965e+002	-7.34030234e+000	-1.87340302e+002	-5.80878578e+001	-2.15155415e+001	-7.41515542e+002	-3.14456265e+001	-3.14456265e+001
5.89000000e-001	-6.37543887e+001	4.97472558e+001	7.69747256e+002	1.45960158e+001	-1.65403984e+002	-5.88335233e+001	-2.03735188e+001	-7.40373519e+002	3.43039726e+001	3.43039726e+001
5.90000000e-001	-6.12447780e+001	-3.47087008e+001	6.85291299e+002	1.51256691e+001	-1.64874331e+002	-5.22282715e+001	5.26613468e+001	-6.67338653e+002	-8.88811647e+001	-8.88811647e+001
5.91000000e-001	-5.84682124e+001	8.92505071e+001	8.09250507e+002	4.52527748e+000	-1.75474723e+002	-6.48464931e+001	-3.70783092e+001	-7.57078309e+002	1.76249549e+001	1.76249549e+001
5.92000000e-001	-5.54734583e+001	-4.11456997e+001	8.58854300e+002	-6.11322371e+001	-2.41132237e+002	-6.14063718e+001	-7.42925573e+001	-7.94292557e+002	1.10846257e+001	1.10846257e+001
5.93000000e-001	-6.40635237e+001	7.58122707e+001	9.75812271e+002	3.98276004e+000	-1.76017240e+002	-5.82104619e+001	-2.94441716e+001	-7.49444172e+002	3.35542609e+001	3.35542609e+001
5.94000000e-001	-5.83443526e+001	-3.34140394e+001	8.66585961e+002	-3.75313177e+001	-2.17531318e+002	-5.84997968e+001	-1.92689383e+001	-7.39268938e+002	3.44496503e+001	3.44496503e+001
5.95000000e-001	-5.96626300e+001	-5.11031219e+001	8.48896878e+002	2.42244329e+001	-1.55775567e+002	-6.38641218e+001	-6.60191982e+001	-7.86019198e+002	3.51542914e+000	3.51542914e+000
5.96000000e-001	-6.23278946e+001	8.45688784e+001	8.04568878e+002	3.31317826e+000	-1.76686822e+002	-5.60423043e+001	-1.04609957e+000	-7.21046100e+002	3.59809002e+001	3.59809002e+001
5.97000000e-001	-6.29745437e+001	-7.52694147e+001	8.24730585e+002	-1.10138582e+001	-1.91013858e+002	-5.93529715e+001	-3.48714924e+001	-7.54871492e+002	-2.76702694e+001	-2.76702694e+001
5.98000000e-001	-6.74820689e+001	1.16778861e+001	9.11677886e+002	-1.45621201e+001	-1.94562120e+002	-6.43522137e+001	2.92939404e+001	-6.90706060e+002	1.83195213e+001	1.83195213e+001
5.99000000e-001	-6.64617855e+001	9.86260620e+000	9.09862606e+002	-2.04207771e+001	-2.00420777e+002	-6.47975467e+001	-1.27392441e+001	-7.32739244e+002	-1.88476190e+001	-1.88476190e+001
6.00000000e-001	-7.84267070e+001	-3.68386190e+001	8.63161381e+002	5.78318005e+000	-1.74216820e+002	-6.15038906e+001	-4.87141622e+001	-7.68714162e+002	1.75012489e+001	1.75012489e+001
6.01000000e-001	-5.49216930e+001	8.34715050e+001	9.83471505e+002	1.55341292e+001	-1.64465871e+002	-6.93902025e+001	-7.13773829e+001	-7.91377383e+002	5.20261113e+000	5.20261113e+000
6.02000000e-001	-5.36615558e+001	1.50668561e+001	9.15066856e+002	-5.08938784e+001	-2.30893878e+002	-5.54610289e+001	-4.93675073e+001	-7.69367507e+002	5.21898579e+001	5.21898579e+001
6.03000000e-001	-6.97432047e+001	-3.05907853e+001	8.69409215e+002	1.16524862e+001	-1.68347514e+002	-5.72231856e+001	2.90448072e+001	-6.90955193e+002	-3.82972455e+001	-3.82972455e+001
6.04000000e-001	-5.42145054e+001	4.95243233e+000	9.04952432e+002	5.77645005e+001	-1.22235500e+002	-6.40282430e+001	8.10390198e+001	-6.38960980e+002	7.19221064e+000	7.19221064e+000
6.05000000e-001	-6.48248952e+001	2.50129137e+001	9.25012914e+002	1.11534411e+001	-1.68846559e+002	-6.22424456e+001	-6.91237241e+001	-6.09123724e+002	-1.01427662e+001	-1.01427662e+001
6.06000000e-001	-5.99217992e+001	3.83562905e+001	9.38356290e+002	-1.74974031e+001	-1.97497403e+002	-5.89560795e+001	-2.54826751e+001	-5.65482675e+002	4.03553411e+001	4.03553411e+001
6.07000000e-001	-6.35272359e+001	-5.93792646e+001	8.40620735e+002	-1.80458229e+001	-1.98045823e+002	-6.07512031e+001	-3.73091193e+001	-5.77309119e+002	2.50520421e+001	2.50520421e+001
