!Keysight Technologies,M9374A,MY55442783,A.12.55.05
!Date: Thursday, May 20, 2021 16:30:42
!Correction: S11(Full 2 Port(1,2)) 
!S21(Full 2 Port(1,2)) 
!S12(Full 2 Port(1,2)) 
!S22(Full 2 Port(1,2)) 
!S2P File: Measurements: S11, S21, S12, S22:
# Hz S  RI   R 50
500000000 -0.97987753 0.039415423 -0.00050194765 -0.00037641462 -0.00027172163 0.00012605819 -0.97954178 0.035303723
501000000 -0.97958541 0.039292511 -0.00027627323 0.00071423582 -0.00053127186 -8.351267e-005 -0.97971183 0.037584472
502000000 -0.98064703 0.038467806 -2.6956559e-005 0.00043438876 -0.00056060363 -0.00088317413 -0.97963482 0.036254827
503000000 -0.98045242 0.038326271 0.00023824272 0.00050578779 0.00013318303 6.0074282e-005 -0.97930688 0.034994397
504000000 -0.97973007 0.038069889 -0.00050428964 -0.00053630263 0.00045379953 0.00037129031 -0.97994995 0.036666341
505000000 -0.9800694 0.0403421 -0.00036630174 2.7575607e-005 -0.0002874959 4.4687378e-005 -0.97973663 0.03563619
506000000 -0.97944373 0.039065126 6.111915e-005 2.9294994e-005 -1.3716207e-005 -6.5251639e-005 -0.97926778 0.036738887
507000000 -0.98059744 0.040629987 0.00077453972 1.8369659e-005 0.00074906496 0.00023334229 -0.9793334 0.036963657
508000000 -0.9787482 0.038563732 0.00023383769 -8.5904489e-005 -7.4803288e-006 -0.00053983391 -0.9786033 0.037794188
509000000 -0.97988105 0.039511885 0.00044447553 -0.0002556392 -0.00038130078 2.6872292e-005 -0.9801814 0.036741354
510000000 -0.97951353 0.040919922 0.0011209522 -0.0005212879 -0.00043425156 -0.00035016911 -0.9785558 0.037665337
511000000 -0.97932255 0.03918336 -6.028391e-005 -0.00026485723 0.00018658672 0.00050293677 -0.97944832 0.036289483
512000000 -0.98007482 0.039855175 2.6694333e-006 0.00034293928 0.00024497919 0.00031668882 -0.98031229 0.036665592
513000000 -0.97981852 0.039549667 0.00033344605 -0.00043782507 -0.00037663066 -0.00051372376 -0.97967595 0.037103351
514000000 -0.98006505 0.04055842 0.00037561732 0.00026158433 -0.0005149417 -0.00014448003 -0.9804185 0.037720412
515000000 -0.97999722 0.039245661 0.00090527401 -0.00031446991 4.9206661e-005 0.00021275422 -0.97961771 0.038147349
516000000 -0.97967458 0.039283041 -0.00054313126 0.00033602605 9.0972171e-005 -0.00029736612 -0.97933221 0.036943663
517000000 -0.97877187 0.041064367 0.00029370969 -0.00049463555 0.00019034509 5.9247814e-005 -0.97952282 0.03755299
518000000 -0.97973508 0.041270904 9.4390147e-005 0.00044578488 0.00061205949 6.1514256e-005 -0.98011428 0.038191341
519000000 -0.98012602 0.040356267 0.00064248906 -0.00021762814 4.2122007e-005 0.00021249538 -0.97970229 0.037637103
520000000 -0.97883588 0.039771985 -0.00060027948 -2.9703244e-005 2.225342e-005 -0.00030290298 -0.97888511 0.037782062
521000000 -0.97977579 0.041686885 0.00020716456 2.4018416e-005 9.6997443e-005 -0.00030887121 -0.97955596 0.037113748
522000000 -0.98042101 0.041434515 -0.00013411049 1.8754867e-005 0.00037569986 -0.00028198835 -0.97860628 0.038109511
523000000 -0.9791519 0.039571177 0.00077619089 0.00017157871 -1.8109769e-005 -0.00079089671 -0.97892827 0.038317844
524000000 -0.97946733 0.0408956 -0.00068796385 -0.00019018953 0.00012707605 0.00029618447 -0.9798798 0.037029751
525000000 -0.97892165 0.040351406 -0.00039629865 0.0005254175 -0.0004475654 0.00015209646 -0.98048693 0.037953205
526000000 -0.97985494 0.040804755 -0.0004550805 -0.00022498173 -0.00034882565 -1.3177722e-005 -0.97886574 0.038358487
527000000 -0.97931415 0.041801348 0.000267984 -8.4658583e-005 -0.00022311448 2.3796727e-005 -0.97999299 0.038788512
528000000 -0.97883582 0.041888669 8.0531026e-005 -0.00032896874 -0.00070922496 -0.00042079302 -0.97861618 0.038972698
529000000 -0.9801634 0.041921519 -0.00015520248 8.7578366e-005 -0.00019607713 -0.00021183178 -0.97895765 0.038918883
530000000 -0.98042494 0.042351354 -0.00048320496 0.00027128871 0.0005308009 0.00015617428 -0.97814637 0.038452648
531000000 -0.97920853 0.040501259 -0.00072860304 4.0151917e-006 -0.00053263933 0.00019795052 -0.97870481 0.038936913
532000000 -0.97818035 0.041702271 0.00053196028 7.1666022e-005 0.00038631441 0.00046838692 -0.97995633 0.03854239
533000000 -0.97881901 0.041966077 -0.00035213929 -0.00010198802 -0.00029868848 -0.00024106647 -0.97805864 0.038981132
534000000 -0.9782809 0.040167246 0.00055305858 -0.00063334015 -0.00035226229 -0.00018098591 -0.97884232 0.039307993
535000000 -0.97956073 0.041988663 0.00010878623 3.1189647e-005 -0.00013299714 -0.0006798816 -0.97828513 0.039589286
536000000 -0.9791345 0.041739661 -0.00035670231 -0.00024109369 0.00070066284 -0.00034153729 -0.97841495 0.03914398
537000000 -0.97912794 0.041107718 -0.00055299833 -0.00026875077 -0.00053782988 0.00017912395 -0.97895509 0.039889954
538000000 -0.9795897 0.041655727 -0.00026658626 -0.00029644408 -0.00044345605 -2.0570658e-005 -0.97907186 0.038409103
539000000 -0.97994351 0.043010488 -0.00030940762 -0.00018588317 0.00019674888 0.0001043635 -0.97814512 0.039345931
540000000 -0.9798069 0.042594187 -0.00025475459 0.00057009072 0.00013363174 -0.00050270563 -0.97793853 0.040148482
541000000 -0.97897565 0.042828333 -0.00017740591 -0.00090341974 6.672294e-005 -0.00011928624 -0.97873163 0.039127383
542000000 -0.97843158 0.041965954 1.5641936e-005 -0.00054998737 -0.00012776596 0.0005952426 -0.97909349 0.038999923
543000000 -0.97952175 0.042388707 -0.00048292967 -0.00028387786 -0.00038522299 -0.00048909127 -0.97896034 0.039716966
544000000 -0.97991914 0.044183388 -0.00055169867 9.6067924e-005 -0.00026783952 -0.00055058708 -0.97912294 0.039652646
545000000 -0.97967005 0.043052774 -0.00085265527 -0.00017517484 -0.00067583384 0.00010722286 -0.97858512 0.040364586
546000000 -0.978935 0.042718589 -0.00043450031 0.00021447304 -0.00032028722 -0.00026506715 -0.97899801 0.039667174
547000000 -0.9792347 0.041558918 -0.00035386602 -3.6539779e-005 0.00019986725 -0.0005886986 -0.97987765 0.04040147
548000000 -0.97809309 0.04187255 -0.00035611642 0.00050164491 0.00029971838 6.14241e-005 -0.97849017 0.039419834
549000000 -0.97899479 0.042943131 0.00053826766 -0.00014198264 0.00027818311 4.2770247e-005 -0.97861487 0.040138304
550000000 -0.97907656 0.043078791 -0.0001986773 3.3768996e-005 0.00029052128 -0.00068771065 -0.97936475 0.040828317
551000000 -0.97948486 0.042511996 -0.00031226117 0.00012444239 1.4695804e-005 -6.8259331e-005 -0.97789955 0.040243022
552000000 -0.97952557 0.040863872 -8.3407984e-005 2.8096983e-005 -0.00017818899 -0.00059499964 -0.97797418 0.03915526
553000000 -0.97936088 0.042716473 0.0010638364 -0.00078843639 0.00032204099 0.00019403207 -0.97932613 0.038410351
554000000 -0.97873837 0.04226134 -0.0004292239 -3.0812189e-005 1.0611122e-005 -0.00046904723 -0.97922152 0.039573714
555000000 -0.97848344 0.043311369 -0.00027279105 0.0002591463 -0.00052761449 -0.00024265159 -0.97850078 0.040782832
556000000 -0.97814536 0.041622236 -0.0002791388 0.00041482761 0.00019546589 -2.0932963e-005 -0.9797346 0.039809134
557000000 -0.97869778 0.042065278 -0.00035180672 0.00054335577 -0.00051497115 -0.00032679018 -0.97914964 0.039296631
558000000 -0.97928542 0.042230371 0.00022615597 1.4866643e-005 -0.0002991191 -0.00010830545 -0.97958726 0.04021718
559000000 -0.9802326 0.041496005 -0.000197777 -0.00068595348 0.00018186402 0.00055394758 -0.9790951 0.041166108
560000000 -0.97790724 0.041396745 0.00032690942 0.00029323637 0.00054437213 -0.00062026957 -0.97932333 0.039189115
561000000 -0.97847939 0.04277239 0.00015087497 -0.00011056175 0.00014847999 -0.00031058115 -0.97936428 0.039684042
562000000 -0.97918403 0.04285242 -0.00054883817 0.00018513812 5.4952208e-005 -3.890576e-005 -0.97975653 0.0401593
563000000 -0.97838563 0.042024069 -9.086691e-005 -1.0093597e-005 0.00020098174 0.00049851008 -0.97851777 0.041054938
564000000 -0.97882485 0.04067342 -0.00089475745 0.00046357987 0.00021868771 0.00014981398 -0.97872472 0.03944879
565000000 -0.97892642 0.041864861 -0.00040021716 -0.00049397937 -7.9382546e-005 -9.6477626e-005 -0.97798818 0.039056752
566000000 -0.97794008 0.041805275 0.0001172465 0.00058171753 0.00043558079 9.4706316e-005 -0.97937495 0.038652673
567000000 -0.97829407 0.0434645 0.00010634225 -0.00042935475 0.00037344842 -0.00031409896 -0.97799277 0.040094532
568000000 -0.9784959 0.041838884 0.00023091729 -0.00072602578 -0.00012999853 0.00010741358 -0.97927803 0.039487053
569000000 -0.97974819 0.041928045 -0.0005296602 -0.00048092558 0.00025668833 -0.00020502441 -0.97889471 0.038252134
570000000 -0.97747153 0.042278495 -0.00075883011 -0.00019421428 7.9677375e-005 -0.00057745446 -0.978468 0.040660545
571000000 -0.97822809 0.041540083 -3.1056694e-005 -9.4682662e-005 0.00022599984 -0.00056052621 -0.97815782 0.041103937
572000000 -0.97747934 0.042442277 0.00025946737 -0.00052736397 -0.00015563874 0.00063143007 -0.97799152 0.039574649
573000000 -0.97927541 0.041640006 -0.00023381149 0.00050612818 -0.00028280029 0.00019990015 -0.98010635 0.040313814
574000000 -0.97773391 0.042734411 0.0002645081 -1.7406946e-005 -7.7159675e-005 0.000593053 -0.97949433 0.040888309
575000000 -0.97899795 0.04133597 0.00025959723 -4.3691121e-005 0.00015386997 -9.4447842e-006 -0.97932309 0.039675739
576000000 -0.97919095 0.042489205 0.00021574277 1.9177384e-007 0.00020215899 4.9350936e-005 -0.97889173 0.04072817
577000000 -0.9782536 0.04225792 -0.00080465258 -0.00016724219 0.00014390815 -0.000510204 -0.97927594 0.040110987
578000000 -0.9787969 0.042429287 -0.00014198064 5.1097242e-005 -0.00042270953 0.0008676243 -0.97839689 0.040242158
579000000 -0.97865552 0.043800481 0.00022798966 -0.00010123178 -0.00046516221 0.00024499081 -0.97944421 0.039596502
580000000 -0.97867197 0.041619793 9.8137229e-005 -0.00024003646 0.0004203287 -0.0014596039 -0.97768813 0.040863179
581000000 -0.97799736 0.041696884 -0.00052119815 -0.00040090503 -0.0003065168 0.00032826676 -0.98028171 0.03972736
582000000 -0.97778594 0.042159811 0.00028750073 -0.00042581721 -0.00039232554 -0.00044457306 -0.97881365 0.040796049
583000000 -0.97743046 0.043078333 -0.00085864653 0.00070276432 0.00064907671 -0.00075176731 -0.97863013 0.040053722
584000000 -0.97795689 0.04216326 -1.2233826e-005 0.00013826089 -8.4379179e-005 -0.00021132754 -0.97951788 0.042339887
585000000 -0.97814941 0.042490732 -0.00023131268 -0.00030147814 -0.00050486054 8.1180908e-005 -0.97896338 0.039601851
586000000 -0.97941685 0.042523947 0.00015991541 0.00016435732 0.00092538435 -0.00093235663 -0.97896641 0.040372539
587000000 -0.9774456 0.043000516 -7.2023489e-005 -0.00052062969 -0.00011942729 0.00019727486 -0.97857296 0.041789263
588000000 -0.97753292 0.042421676 -0.00039353635 0.0002904229 0.00039670258 -0.00066284137 -0.9796083 0.041047197
589000000 -0.9786796 0.042185262 -0.00046965116 -0.00024394621 0.00049993122 0.00040054831 -0.97944796 0.041946251
590000000 -0.97745186 0.043399651 9.4734831e-005 0.00021930036 0.00042568872 -0.00099390245 -0.97823519 0.04045061
591000000 -0.97891378 0.043820053 -4.1196694e-005 -0.00017552747 -0.00013949018 -0.00016361701 -0.97968674 0.039887868
592000000 -0.97928166 0.043109659 0.00031617613 -0.00014218112 -0.00022742385 -0.00037729979 -0.97847509 0.042073041
593000000 -0.97875673 0.042677734 -0.00019770238 0.00025841768 0.00034102151 5.8786422e-006 -0.97924018 0.041511189
594000000 -0.97868955 0.043218318 -0.00026288559 -0.0002110316 -7.9212616e-005 0.00015475303 -0.97797835 0.041830342
595000000 -0.97780538 0.043294609 -0.00010417262 0.00075063639 0.00089071138 0.00019927282 -0.97879928 0.041281722
596000000 -0.97807735 0.044038177 -0.0002159461 -0.00040526094 -0.00063045433 0.00034293102 -0.97885501 0.040557779
597000000 -0.97799224 0.043599475 5.7661229e-005 0.00072083995 0.00025770825 2.0601067e-006 -0.97809541 0.041283574
598000000 -0.97884315 0.043194044 -0.00025507159 0.00033921452 -0.00014969584 -0.00096721668 -0.97842157 0.041071538
599000000 -0.978073 0.044103153 -8.4109306e-006 -0.00039555886 7.9351114e-005 0.00014772157 -0.9796406 0.040861383
600000000 -0.97819692 0.044507358 0.00046550774 -0.00032688171 -0.00099810306 0.00016134292 -0.97932404 0.040139504
601000000 -0.97868598 0.044756006 -0.00020849588 -0.00051569211 0.00068876421 0.00045673372 -0.9802621 0.041470472
602000000 -0.97875947 0.044597212 -0.00017202352 -0.00026425585 0.00011210658 -1.0094229e-005 -0.97831941 0.040963788
603000000 -0.97866458 0.044092894 -0.00014596696 0.00038394451 -0.0006281758 -8.9665613e-005 -0.9789691 0.04164033
604000000 -0.97738606 0.045178805 0.00039121567 -0.00076225097 0.00015492503 0.00026897 -0.97848266 0.04207252
605000000 -0.97848409 0.045020126 4.4779385e-006 -0.0004113224 -0.0002552493 -0.00041727899 -0.97804809 0.042100344
606000000 -0.97859412 0.044582304 0.000102136 -0.00023030682 -9.3496456e-005 -0.00044378208 -0.97711712 0.042667322
607000000 -0.9784348 0.044057757 -0.00071162777 -4.6575766e-005 -0.00017003596 -0.00054351281 -0.97811687 0.040843599
608000000 -0.97852361 0.045543697 7.3488263e-005 0.00028453121 0.00055175659 0.00013963025 -0.97829825 0.0416543
609000000 -0.97881663 0.044880096 -0.00040141691 1.4362922e-005 -0.00075141946 -0.00019048259 -0.97835851 0.042352419
610000000 -0.97825497 0.044811089 -8.7305116e-006 -0.00028189443 -0.00035451911 -0.00061794661 -0.97803372 0.042913288
611000000 -0.97734398 0.047046244 0.0002041206 0.00061277574 8.0761405e-005 0.00059366366 -0.97866285 0.042955514
612000000 -0.97773552 0.04534851 -0.0010916753 -0.0004778188 -0.00026553418 -0.00016831959 -0.97841012 0.04149482
613000000 -0.9783693 0.046312883 1.2633253e-006 -9.5579089e-005 -0.00032619559 -0.00026024552 -0.97859007 0.043438882
614000000 -0.97673702 0.045662295 0.00022545605 -0.00015470407 -0.00053595426 -0.00023653933 -0.97807944 0.043677106
615000000 -0.97824234 0.045266412 -6.4097971e-005 7.5402895e-005 0.0004259577 -0.00040485815 -0.97742677 0.04368493
616000000 -0.97898042 0.047201738 -0.00013189125 -5.4997239e-005 -0.00042303294 0.00076928083 -0.97742671 0.043033164
617000000 -0.97759634 0.046121333 -0.00054016965 -0.00021237422 0.00030106204 0.00025454213 -0.97862327 0.043292549
618000000 -0.97749007 0.046205755 -0.00050932384 -0.00012950871 0.00048189305 -0.00054915703 -0.9781515 0.042732768
619000000 -0.9781931 0.047582824 0.00042655197 0.00019296899 -0.00025866879 0.00073062273 -0.97778732 0.043963011
620000000 -0.97808272 0.046872057 -0.00014677993 0.00040295254 -0.00071603473 -0.00022900617 -0.97861141 0.043930579
621000000 -0.97873598 0.047318567 -0.00017893032 -0.00027697685 0.0001485876 0.00021790544 -0.9777171 0.044376295
622000000 -0.97900277 0.047169261 -9.9722936e-005 -0.00024796883 -0.00010669665 0.0002503588 -0.97718412 0.04309313
623000000 -0.97808194 0.046694864 -0.00039947228 -0.00080731907 4.9688799e-005 -0.0006253348 -0.97802383 0.044023179
624000000 -0.97786075 0.047817841 -0.00015463852 -0.00035650781 -0.00035171898 -0.00043452129 -0.97862446 0.043921605
625000000 -0.97670585 0.048990034 -0.00012191452 -0.00041193 0.0002619368 -0.00075218116 -0.977525 0.043483503
626000000 -0.9780491 0.048131868 -0.00092437968 -0.0002573824 9.1155904e-005 -0.00054370187 -0.97906423 0.044008154
627000000 -0.97863066 0.048430514 0.00012953968 -1.4893942e-006 7.9611578e-005 -0.00052032701 -0.97768927 0.043270562
628000000 -0.97814429 0.047962535 -0.00032275487 2.9741326e-005 0.00027635135 0.00092212018 -0.97726172 0.043932892
629000000 -0.97792023 0.04904028 0.00048689271 7.2495903e-005 -0.0005937292 0.00015851435 -0.97753429 0.044775821
630000000 -0.97708505 0.048567485 -1.9374836e-005 -0.00034615421 -0.00039027396 -0.00028604289 -0.97852343 0.045059811
631000000 -0.97825044 0.047659535 0.00094448274 -0.00027305915 0.0002808198 0.00034478767 -0.97760862 0.043257575
632000000 -0.97849715 0.048138797 -0.00033514376 -0.00038819312 -0.00041560543 0.00033775761 -0.97691941 0.043306682
633000000 -0.97760683 0.048988886 0.0007736882 -0.00012668752 1.3327536e-005 0.00033541693 -0.97814399 0.044212762
634000000 -0.97705704 0.050148416 -0.00040037575 -0.0003244796 0.00058748672 0.00014876924 -0.97756809 0.044853013
635000000 -0.97773921 0.049035996 0.00013305337 -0.00098744687 0.00028198425 0.00023709307 -0.97769892 0.044955395
636000000 -0.97675043 0.0486109 -0.00013233513 -0.0004496552 -0.00035581467 0.00059637689 -0.97915089 0.043533415
637000000 -0.97726148 0.05119795 -0.00041984892 3.3149772e-005 9.7339987e-005 0.00030991479 -0.97770393 0.045445364
638000000 -0.97719836 0.049381919 -0.00019004424 0.00060752087 -8.3497631e-005 -0.00058003183 -0.9763149 0.043140378
639000000 -0.97831333 0.049231585 0.00021960038 -0.00059179647 -0.0001655588 -0.0002538159 -0.97794586 0.044499226
640000000 -0.97697723 0.050227441 -1.0192573e-006 -0.00026369921 -0.00078635389 0.00014011744 -0.97748929 0.044712707
641000000 -0.97756606 0.048652843 0.00039142551 -0.00017010592 0.00012627195 0.00022721059 -0.97706503 0.044807695
642000000 -0.97788697 0.050123606 0.0003116279 -0.00063243182 -5.8963142e-006 -0.00082133891 -0.97850621 0.044724498
643000000 -0.9772175 0.049747705 -0.00042092998 0.00068883126 3.0426823e-005 -0.00057368056 -0.97781301 0.045150235
644000000 -0.97799641 0.048968859 1.3016754e-007 -4.2899621e-005 -0.000195806 -0.00056379131 -0.97811234 0.045889072
645000000 -0.97807872 0.050666127 0.00010097435 0.00019912637 0.00016496055 0.00061052211 -0.97777802 0.04476732
646000000 -0.97763157 0.050811742 -0.00024421196 0.00017957433 -0.0001497145 -0.0003122387 -0.97678268 0.044845894
647000000 -0.97769988 0.050348427 -0.00014340706 0.00029255555 -0.00036701252 -0.00023041878 -0.97848952 0.044767734
648000000 -0.97707349 0.050794743 0.00060716079 -0.00012441528 -0.00013998071 0.00035204735 -0.97735083 0.045020778
649000000 -0.97752434 0.050991844 0.0001664501 5.1197982e-005 6.341681e-005 0.00024334293 -0.97709614 0.04588398
650000000 -0.97720778 0.050148267 -0.00047463985 2.6979949e-005 9.8722987e-005 9.5372106e-006 -0.97635418 0.046320289
651000000 -0.97599262 0.051476061 -3.8699658e-005 -0.00049603736 3.7477395e-005 -7.4012685e-005 -0.97664845 0.044687096
652000000 -0.97714221 0.049572162 -0.00021332968 -0.00013179703 -0.00059596426 -0.00042009781 -0.97654355 0.045844126
653000000 -0.97722113 0.049803812 -3.8984152e-005 -0.00046404562 0.00019349059 3.077717e-005 -0.97621453 0.044775479
654000000 -0.9774695 0.051002663 0.00018963219 -0.00018773459 0.00016154397 -8.4554202e-005 -0.97763121 0.045149364
655000000 -0.97807831 0.050782021 -0.0006671719 -0.00047921925 7.5213793e-005 0.00014592585 -0.97785944 0.045476537
656000000 -0.97736567 0.051796153 4.4790915e-005 -0.00056165451 0.00028657319 -0.0003752198 -0.97663784 0.045809798
657000000 -0.97678572 0.050940637 0.00078824023 -0.00072785019 0.00033685146 -0.00061798963 -0.97794431 0.045488462
658000000 -0.97702265 0.050989538 -0.00048347804 -0.00041290789 0.00025908567 -5.6551176e-005 -0.97753298 0.046477664
659000000 -0.9772017 0.049878266 0.00081647048 -0.00021672536 -0.00042815585 -0.00020602171 -0.97811931 0.045240086
660000000 -0.97714549 0.051081583 0.00057962915 -0.00060563348 0.00034879544 -0.00011213087 -0.97706789 0.045798071
661000000 -0.97751856 0.051815219 0.00017865753 -0.00030891181 0.00023263188 0.00028758444 -0.97732973 0.04639056
662000000 -0.97654182 0.051878929 -0.0001944273 7.9131212e-005 -0.0004038194 -0.0015439906 -0.97837132 0.04672068
663000000 -0.97768652 0.050438963 0.00019297327 -4.1191855e-005 0.000861243 -0.00081652036 -0.97743315 0.043799508
664000000 -0.97635055 0.050175626 -0.00066386891 0.00071756169 0.00026568066 -0.00056225871 -0.97847813 0.045399077
665000000 -0.97651488 0.050612316 0.00018551515 -0.0003449714 -0.00017688757 -3.113005e-005 -0.9775492 0.04483569
666000000 -0.97606671 0.05157939 -0.00083531532 8.2405502e-005 -0.00048568001 -3.7335572e-005 -0.97686142 0.04693567
667000000 -0.97677958 0.051117014 -0.00045067628 -0.00027449735 -0.00014942932 -0.00028741913 -0.97752964 0.045459501
668000000 -0.97681707 0.050970487 0.00076565758 -7.168053e-005 0.00022967634 -0.00029056071 -0.9776715 0.046030212
669000000 -0.97676432 0.050301995 0.00017589629 -0.00013667354 0.00043781282 0.00016326715 -0.97677869 0.045285601
