!Keysight Technologies,M9374A,MY55442783,A.12.55.05
!Date: Thursday, May 20, 2021 17:18:45
!Correction: S11(Full 2 Port(1,2)) 
!S21(Full 2 Port(1,2)) 
!S12(Full 2 Port(1,2)) 
!S22(Full 2 Port(1,2)) 
!S2P File: Measurements: S11, S21, S12, S22:
# Hz S  RI   R 50
500000000 -0.97995114 0.038867544 0.00039365559 -1.2190856e-006 -0.00017041208 -4.4602188e-005 -0.97928357 0.033342175
501000000 -0.98005557 0.038465571 0.00022628307 0.00014829781 -6.9263479e-005 0.00010456893 -0.98082781 0.035112821
502000000 -0.98077691 0.037891287 -0.000653803 -0.00034026423 0.00012248979 -0.00010788055 -0.98232168 0.035232689
503000000 -0.9797771 0.037783571 -0.00068829692 -4.8571317e-005 0.00025849423 1.5383073e-005 -0.98044276 0.033974081
504000000 -0.97831082 0.037894011 0.00024728788 -0.00044446465 -0.00013064081 3.2399941e-005 -0.98018271 0.035085034
505000000 -0.97864413 0.038850475 -0.00025711794 -0.00056063733 0.00047129436 -0.00013913224 -0.97982842 0.03498799
506000000 -0.97997069 0.038924642 -0.00027801431 -1.003412e-005 0.001099551 0.00015388052 -0.97999477 0.034491569
507000000 -0.98046649 0.03941061 0.00022193456 -0.00050961832 -0.00055119413 0.00031345003 -0.98026526 0.036758199
508000000 -0.98020792 0.037690412 -0.00040821079 -0.00019441156 -0.00010693035 7.5085263e-005 -0.9803775 0.036179323
509000000 -0.98043871 0.039508019 0.00037867296 -0.00025474574 1.5495702e-005 5.0739298e-005 -0.98108524 0.035447881
510000000 -0.97984737 0.039027378 0.00053888198 -0.00014377001 -0.00071633171 -0.00047275942 -0.97944623 0.037393551
511000000 -0.9794578 0.040033501 -0.00080739451 -0.00032482739 -0.00017973638 -0.00071916525 -0.98026729 0.035298184
512000000 -0.98038346 0.039060548 6.953645e-006 -0.00010704078 0.00036528177 -0.00030082944 -0.98132086 0.03584687
513000000 -0.98110616 0.039660268 0.00065443042 -0.00042545097 0.00015955763 3.6032088e-005 -0.98051733 0.034966599
514000000 -0.97972852 0.03950255 0.00025649948 -0.00043489673 -0.00044610471 -0.00020527787 -0.98112881 0.035350189
515000000 -0.97904849 0.041038271 -0.00014129862 -0.00066778506 -0.00051815074 0.00025569898 -0.97929299 0.036658749
516000000 -0.98023957 0.039236836 -0.00032874002 1.3371058e-006 0.00042731213 -9.1588787e-005 -0.98016512 0.036580153
517000000 -0.98109579 0.040204808 0.00054253516 0.00016778958 -0.00049656309 -0.00058785116 -0.97983223 0.036451921
518000000 -0.97888947 0.039903931 -0.00054533832 -0.00062716717 -0.00017969278 1.9780098e-005 -0.97994912 0.037059244
519000000 -0.97966844 0.040417887 -0.00011575672 0.00024757246 -0.00035514476 -0.00031513022 -0.98068434 0.036804035
520000000 -0.97877991 0.039514098 -0.00030187066 0.00053115771 0.00018641808 -0.00032445192 -0.97902369 0.037772801
521000000 -0.9793427 0.041630235 0.00068692153 -9.6386735e-005 -0.00073508744 0.00025390761 -0.98052388 0.037465267
522000000 -0.98066902 0.039722621 0.00022883022 0.00035313051 0.00043522267 0.00028081107 -0.980654 0.037513532
523000000 -0.97990215 0.039523147 -0.00019204816 -0.00055251498 -0.0004812736 -0.00032914244 -0.9806776 0.036717683
524000000 -0.97918171 0.040702127 9.0830916e-005 -0.00029272839 0.00021558012 0.00032498848 -0.98229873 0.037324853
525000000 -0.97918689 0.041714814 0.00077690755 -0.00073728024 0.00052528683 0.0003618811 -0.9795981 0.037327155
526000000 -0.98090905 0.041214686 -6.8487512e-005 4.8662438e-005 0.00049754232 0.00072867936 -0.98142916 0.037325066
527000000 -0.98028743 0.040447164 0.00013255459 -0.00034515152 -0.00052275736 -0.00012110989 -0.97994816 0.036700483
528000000 -0.98090661 0.042077228 -0.00014816533 -0.0005559256 0.00025013572 0.00083448709 -0.9785611 0.037153568
529000000 -0.97869718 0.039918326 7.7396966e-005 -0.00059590564 -0.00074435276 0.00021808688 -0.97986519 0.039280239
530000000 -0.97956312 0.041565452 0.00028560456 0.00015397064 -0.00014319597 -0.00013172871 -0.98045671 0.03803537
531000000 -0.98042965 0.041625496 -3.6714726e-005 0.00019257842 -0.00033707856 -0.00033732216 -0.97976762 0.037847273
532000000 -0.97925913 0.041851349 -0.00033935052 -0.00025521539 -0.00016195682 0.00025832368 -0.98019475 0.038548969
533000000 -0.9789229 0.041316058 -8.5897082e-005 0.0002891258 0.0003376914 0.00024831353 -0.9794358 0.038655289
534000000 -0.97923613 0.041828208 0.000210617 -0.00012742433 0.00025247168 -8.0406979e-005 -0.97943431 0.037714861
535000000 -0.97960359 0.041560866 -8.1134895e-005 6.4556334e-005 0.00044093651 8.2756043e-005 -0.97950143 0.037751451
536000000 -0.97926784 0.041658752 -0.0005242835 -2.1031352e-005 0.00052697514 0.00014303437 -0.97999108 0.037455495
537000000 -0.97838837 0.040720422 0.00040623287 0.00038176973 -0.0001455739 -0.00028369832 -0.97977555 0.037636824
538000000 -0.97968924 0.042048316 -0.00016237715 0.00031896276 0.0008462097 6.736481e-005 -0.98006701 0.038094465
539000000 -0.9801724 0.040791493 0.00026764951 0.00013468553 -0.00021464736 -0.00063973555 -0.98017108 0.039431848
540000000 -0.98066926 0.042175546 -2.2456672e-005 0.00011256868 0.00010518041 -0.00031015961 -0.97901219 0.037927613
541000000 -0.97856688 0.040916324 -5.7136462e-005 -0.00021754646 -0.00032002581 0.0003954526 -0.97985011 0.038577393
542000000 -0.97905838 0.042081859 0.00026469241 -0.00074041868 0.00039894256 -0.0003332308 -0.97987002 0.038049608
543000000 -0.97981328 0.041788559 9.0260924e-005 0.00026871526 0.00025483582 -0.00048831693 -0.9798435 0.039608136
544000000 -0.9811604 0.04166083 -0.0002079918 -0.00077567494 0.00039739197 -0.00043882805 -0.98087347 0.038521636
545000000 -0.98015922 0.041933436 0.00013817525 -0.00037656701 0.00039493805 5.2010331e-005 -0.9782635 0.037784316
546000000 -0.97975165 0.042330734 -0.00055036525 -0.00046219581 3.5099863e-005 -0.00021243772 -0.97992003 0.03834499
547000000 -0.97889495 0.041254938 0.0003771488 -0.00044987942 0.00018079566 0.00017173651 -0.97921872 0.038184255
548000000 -0.978917 0.041711628 0.00030277763 -0.00095831126 -0.0002828443 -0.0001616402 -0.98012531 0.037375677
549000000 -0.97966892 0.041190885 -0.00048159994 0.00047031604 -0.00064949953 0.00014097065 -0.98006314 0.039694093
550000000 -0.9781338 0.041080378 0.0005572309 -0.0003475846 -0.00062233233 -0.00027783948 -0.98036718 0.038017027
551000000 -0.97973931 0.041310415 -0.00060341071 -0.00012936725 0.0001587282 0.00018937959 -0.97924834 0.038255647
552000000 -0.97946519 0.042186785 -0.00024288772 -0.00044119585 -0.00070718653 1.5389222e-005 -0.97963202 0.040344395
553000000 -0.97910511 0.041196682 -5.3267482e-005 0.00028065618 0.00075611955 0.00012812846 -0.97971076 0.038209554
554000000 -0.97926021 0.040968485 0.00040690677 -0.00066629989 -0.0001166024 0.00011896749 -0.98038769 0.038528755
555000000 -0.97934109 0.040603139 -0.0002919611 0.00020007206 -0.00025309145 0.00034775588 -0.97929412 0.0380629
556000000 -0.9787811 0.041837122 0.00049172423 0.0003878049 -0.00090863334 0.00082305603 -0.97974765 0.038706832
557000000 -0.97901565 0.041150793 -0.0002598986 0.00019236942 0.0003924217 -0.00020276628 -0.98005152 0.03849569
558000000 -0.98011994 0.041597087 0.00015184081 -0.00039982385 -5.8294423e-005 -0.00028802344 -0.97972095 0.039099354
559000000 -0.97880203 0.041692082 3.0029694e-005 0.00028453587 0.00021844853 0.00021153779 -0.98017222 0.040476337
560000000 -0.97937816 0.042041071 -2.843487e-005 1.2718451e-005 -0.00020437279 8.5849715e-006 -0.97935444 0.038891193
561000000 -0.97876191 0.040655199 0.0001931178 0.00029565213 0.00042731003 -0.00014583764 -0.97999626 0.039305408
562000000 -0.97812641 0.043765787 -0.00066877087 5.809787e-005 -0.00016378697 -0.00066425966 -0.98058856 0.039394058
563000000 -0.97931761 0.042406514 -0.00016243779 0.00010583908 0.00044842847 -0.00054388796 -0.97947085 0.038787637
564000000 -0.97923934 0.041692287 2.8423099e-005 0.00013990478 0.00024048923 -0.00071680266 -0.97988778 0.039236221
565000000 -0.97887605 0.040556472 0.00067544816 0.0001633402 0.00027524438 0.00021010547 -0.97901434 0.039426681
566000000 -0.97936422 0.041263379 -0.00043344105 0.00033384774 -0.00060942466 -0.00036860703 -0.9795385 0.038440455
567000000 -0.97883129 0.041359693 -6.611384e-005 -0.00024553578 -0.00031839768 -0.00071701687 -0.97919542 0.037987076
568000000 -0.97794998 0.04221468 -0.00049455627 0.00033566271 -0.00038750755 6.1063249e-005 -0.98080122 0.039147444
569000000 -0.9792152 0.041081369 -0.00046178547 -0.00039722986 6.250685e-005 0.00018900764 -0.98037082 0.038515341
570000000 -0.97744858 0.041348428 -0.0001542797 -0.00045278153 -3.2873431e-005 0.00085154286 -0.97946286 0.038784683
571000000 -0.97929025 0.041941106 -0.00027299603 -0.00017370337 -0.0005539761 -8.5682426e-005 -0.98008049 0.039774977
572000000 -0.9784835 0.041957702 0.00051287015 -9.3328774e-005 -1.4016507e-006 9.7653843e-005 -0.97907597 0.038093224
573000000 -0.97892755 0.040450141 0.00021463231 -6.1739724e-005 -0.00017799958 -0.00064346346 -0.98057044 0.039810475
574000000 -0.97816783 0.041685686 0.00050754787 -0.0010061772 -9.7991047e-005 -0.00042513778 -0.97987336 0.040203001
575000000 -0.97841257 0.041779082 -0.00033085918 -0.00052543473 -0.00068535889 -0.00028762754 -0.98016328 0.039850812
576000000 -0.97779292 0.042178836 -0.00075812393 -0.00095971278 0.00079362938 -0.00079828966 -0.9801358 0.040044364
577000000 -0.97770798 0.041939255 0.00014127656 0.00045233627 -0.001202532 0.00051317754 -0.98024124 0.039206807
578000000 -0.97837359 0.041485041 0.00022016666 -8.7779015e-005 0.00029752648 0.00021503038 -0.97883153 0.037993275
579000000 -0.97785354 0.041875534 9.5145595e-005 -0.00036410178 -0.0001586976 -0.00027886344 -0.98113221 0.037752777
580000000 -0.97846174 0.042235591 0.00047123211 8.1645652e-005 -9.2863876e-005 -0.00035849362 -0.97835511 0.038949035
581000000 -0.97875738 0.041067574 -1.6819768e-005 -0.00016046935 -0.00057784654 -0.00022573239 -0.98099476 0.039885942
582000000 -0.97817135 0.0411238 -0.00059329328 0.0001718261 0.00044741761 -3.1697666e-005 -0.98049664 0.038835619
583000000 -0.97817338 0.04151937 -0.00051478989 -0.00019797975 5.3930398e-005 0.00033015362 -0.98015159 0.038570251
584000000 -0.97870356 0.041251995 -0.00032390188 0.0002217354 0.00025602279 -4.5351408e-005 -0.97943366 0.0404674
585000000 -0.97903979 0.041575424 0.00030025144 0.00022907811 -0.00014502466 0.00059930072 -0.97937799 0.039359286
586000000 -0.97846001 0.043153681 -0.00038599057 -0.00043129476 -3.4804703e-005 0.0002371591 -0.9792341 0.038246877
587000000 -0.97861439 0.042928338 6.8623558e-007 -0.00049517356 -0.00081022718 -0.00076586934 -0.97977179 0.040380735
588000000 -0.97704518 0.042782947 3.1848092e-005 -0.00087935029 -5.419166e-005 -0.00044467361 -0.97962606 0.040351797
589000000 -0.97914398 0.043564256 -0.00032987693 0.0002144695 -0.00032493231 -0.00080076145 -0.98049057 0.040737193
590000000 -0.97965991 0.041326407 -0.00018586447 0.00013965025 6.7879395e-005 0.00025508745 -0.98048478 0.039338402
591000000 -0.97868705 0.043298818 -0.00061747484 7.6688826e-005 8.395614e-005 -0.00015620032 -0.98021275 0.041240729
592000000 -0.97908551 0.042181805 0.00041031872 -6.6419008e-005 0.00023438393 0.00054237811 -0.98010945 0.03927251
593000000 -0.97958547 0.041114084 -0.00068628835 0.00034302261 -0.00048650528 1.1677132e-005 -0.9804076 0.039156344
594000000 -0.97926015 0.042616114 0.00075260305 0.00049905211 0.00023064451 0.0001128205 -0.98092622 0.039893843
595000000 -0.9800939 0.041858722 -0.00025691747 0.00029725951 9.3244591e-005 -0.00014921042 -0.98041654 0.039678834
596000000 -0.97805655 0.041235801 -9.3454713e-005 -8.1795057e-005 5.8907222e-005 0.00024141789 -0.97908098 0.040369574
597000000 -0.97918653 0.042407487 0.00037197623 -0.00060272351 0.00011757913 0.00024159138 -0.97926551 0.040360488
598000000 -0.97823423 0.04340383 0.00013191417 -1.2325181e-005 -0.00021308915 -9.1942566e-005 -0.98019665 0.040484071
599000000 -0.97820169 0.042865992 -6.48602e-005 -8.4254702e-005 0.00010470493 -0.00055639067 -0.98008668 0.040483531
600000000 -0.97946924 0.042779841 0.00075069303 -0.00030132572 -0.00024653587 0.00045567894 -0.97837609 0.040434055
601000000 -0.97815162 0.04335383 -0.0004386309 -0.00015857044 -0.00030497074 0.00045199314 -0.98062915 0.040406231
602000000 -0.97869998 0.044264406 -0.00087642786 0.00023324852 0.00046643283 -0.0003934644 -0.98046178 0.040962186
603000000 -0.97927099 0.044746194 -0.00068823335 0.00014568419 0.00018446008 0.00059251231 -0.9782685 0.040305745
604000000 -0.97801524 0.044830523 -2.1097336e-005 -0.00032982705 -0.00057945237 0.00030511586 -0.98023623 0.040676605
605000000 -0.97815609 0.044230465 -0.00027551784 -0.00021513442 0.00059615739 0.0008269198 -0.98031121 0.040276274
606000000 -0.97940338 0.044686712 -0.00095397461 -0.00025220969 0.00019393842 -0.00036818607 -0.97754443 0.039868198
607000000 -0.97700584 0.043803543 0.00053990976 0.00076447276 -0.00060073577 -0.00014104406 -0.97895473 0.040129859
608000000 -0.97837067 0.044176072 -4.989314e-005 0.00066469982 0.00066458521 -0.00043245268 -0.97888011 0.040906571
609000000 -0.97818416 0.04478078 -0.00080584019 -0.00031736327 -0.00098893186 -0.00037877538 -0.97923207 0.040929232
610000000 -0.977543 0.044342555 -0.000255083 -0.00029094607 -0.00060941436 -0.00010698097 -0.97813475 0.041757829
611000000 -0.97792071 0.044461787 0.00012851869 -0.0007447963 -0.00021408418 0.00024511627 -0.97936004 0.03996218
612000000 -0.97787791 0.046577085 -0.00038894164 1.6856908e-005 -5.5388417e-005 -0.00023494469 -0.9788515 0.041927729
613000000 -0.97927946 0.045859426 -0.0010007751 -0.00021383904 0.00077723776 -0.00022898917 -0.97907978 0.040861409
614000000 -0.97738814 0.045366723 -0.0006977641 0.00010219607 -0.00012823666 0.00055941456 -0.97956389 0.042349365
615000000 -0.97813118 0.044989396 -0.0003594583 7.3732852e-005 -2.8129194e-005 0.00017628561 -0.97934693 0.041341171
616000000 -0.97877115 0.04623929 9.5026757e-005 -0.00025901382 0.00010548229 -0.00032798617 -0.97845215 0.042925976
617000000 -0.97955215 0.045989864 4.7360158e-005 0.00013422772 0.00012766947 2.0090589e-005 -0.97875744 0.041558646
618000000 -0.97812968 0.046665594 0.00026970622 -0.00031847693 0.00019815822 -0.00034268005 -0.97887796 0.04240736
619000000 -0.97798193 0.047074594 -0.00059217867 -7.2514449e-005 -0.00025507939 -0.00024546753 -0.97909319 0.04204908
620000000 -0.97730345 0.047562458 -0.00038274025 0.00024069754 5.026094e-005 0.0006083498 -0.9783926 0.042762946
621000000 -0.97899169 0.047216579 7.5083604e-005 0.00051336922 1.8679271e-005 -0.00081633497 -0.97817564 0.041702524
622000000 -0.97793347 0.046546608 -0.00048030575 0.00023196821 3.0370751e-005 -2.4007795e-005 -0.9792729 0.042493973
623000000 -0.97795635 0.047391079 -0.00027294469 -0.00022625929 0.00022994509 6.9507951e-005 -0.97926182 0.04345509
624000000 -0.97962725 0.046835825 -0.000571788 0.0004419859 9.5424228e-005 -0.00074006268 -0.97888148 0.043606561
625000000 -0.97862589 0.048373349 0.00036637142 -0.00066508417 0.00029884663 0.0002075644 -0.97835159 0.043048516
626000000 -0.97857964 0.047361579 -0.00017818788 -0.00066135311 -7.5668242e-005 -0.00041385257 -0.97881508 0.043233503
627000000 -0.97821093 0.046652898 0.00095393677 -0.00050893956 0.00057061773 0.00018254912 -0.97830278 0.043275863
628000000 -0.97871512 0.047342278 -0.00038026102 0.00015487561 -0.00028427361 -9.298451e-006 -0.97854227 0.043178014
629000000 -0.97816002 0.048026282 -0.00078309409 9.4067604e-005 -0.00012568256 4.1809406e-005 -0.97803575 0.043265212
630000000 -0.97743469 0.048125256 -0.00038256287 0.0004025517 0.00033478436 -0.00033560916 -0.97915334 0.043327704
631000000 -0.97896338 0.0477666 -0.00067632651 0.00039783082 0.00013866556 0.00014076149 -0.97767341 0.043615665
632000000 -0.97837371 0.047839548 -0.00025491585 0.00031213611 -5.1528124e-005 0.00096280623 -0.97868419 0.042650227
633000000 -0.97761208 0.047499962 0.00023196251 0.00044041316 -6.1419028e-005 0.00019368654 -0.97937059 0.042558704
634000000 -0.97861075 0.049033917 -0.00018986048 -4.6090452e-005 -0.0006164615 -0.00027211907 -0.97820187 0.043220628
635000000 -0.9775582 0.04773492 -0.00022219504 0.00071588141 -0.00027919034 -0.00014879748 -0.97870785 0.042815309
636000000 -0.97856987 0.048114993 -7.3919218e-005 0.00022374322 -0.00064725778 -0.00024259544 -0.97959524 0.043032665
637000000 -0.97747707 0.049473856 0.00082411076 0.0011932116 0.00054474483 0.00028583751 -0.97860056 0.042150691
638000000 -0.97852045 0.046913709 -0.00046146786 -7.6182281e-005 0.00045210586 -6.0381717e-005 -0.97866285 0.043032244
639000000 -0.97830671 0.048587259 8.1110611e-006 -0.00047903982 -0.00029866578 0.00065323833 -0.97811383 0.04296878
640000000 -0.97709608 0.050620995 -0.00045417558 -4.5272718e-005 0.00010807531 6.6986882e-005 -0.97736931 0.043223593
641000000 -0.97772455 0.047474831 4.647356e-005 -0.00051925494 -3.583021e-005 0.00016412977 -0.97742558 0.042134177
642000000 -0.97801602 0.049306098 -0.00061969704 2.9857625e-005 5.901845e-005 0.00030897593 -0.97768176 0.04352786
643000000 -0.97708243 0.049601734 0.00018622729 -0.00057411467 -0.00032221884 0.00027843981 -0.97827369 0.044244818
644000000 -0.97801685 0.049208064 0.0006361581 0.00032883196 0.0004160117 -2.5383071e-005 -0.97886711 0.043806318
645000000 -0.97738308 0.050264973 0.00035025546 -3.8513572e-005 -0.00018314076 0.00029587682 -0.97897953 0.043559451
646000000 -0.97793639 0.050314549 -0.00017002606 0.00018573384 -0.00023798524 0.00042038405 -0.97836041 0.043690179
647000000 -0.97647077 0.051261052 9.4465948e-005 -0.00026554763 -0.00036219184 0.00024298957 -0.97841465 0.043524697
648000000 -0.97747296 0.049633741 -0.00096600287 -0.00014060203 0.00021141315 -0.00021874382 -0.97756982 0.044781256
649000000 -0.9780333 0.049889363 -0.00014626102 0.00050955039 5.7300109e-005 0.00011635481 -0.97834259 0.043763597
650000000 -0.97684211 0.049422372 -0.00032424764 -9.0868161e-005 -0.00025012827 0.00024482797 -0.97799528 0.044887714
651000000 -0.97728425 0.050178215 0.00024244837 -0.00025971149 -0.0001516084 -7.5109521e-005 -0.97748196 0.045031764
652000000 -0.97687364 0.050578766 0.00084139197 -0.00020083482 0.00090990023 0.0005560905 -0.97736341 0.043892022
653000000 -0.97740942 0.049179569 -0.00019124545 -0.00093261449 -0.00080272701 -0.00022624807 -0.97731429 0.044033311
654000000 -0.97728801 0.051220208 4.645552e-005 0.00075918675 0.00086964463 -0.00058147393 -0.97944397 0.044571802
655000000 -0.97776634 0.049109757 -0.00061426929 -1.0972279e-005 -6.5492619e-005 -8.5495769e-005 -0.97825027 0.045431413
656000000 -0.97776735 0.050213419 -5.4497912e-005 -2.1640442e-005 0.00050158624 0.00037754863 -0.97908539 0.044743985
657000000 -0.97766703 0.05052584 -0.00023280839 -0.00080814934 0.00017067681 0.00029287211 -0.97867066 0.044117842
658000000 -0.97753805 0.049811054 0.00037827113 0.00024499084 -0.00063816184 0.00020967437 -0.97754937 0.043668445
659000000 -0.9764716 0.050129287 -0.00023987549 8.5254826e-005 -0.00012276565 -0.00033928573 -0.97798944 0.044023938
660000000 -0.97638535 0.050757769 -0.00019716535 -0.00029833836 -0.00023215877 -0.00022962647 -0.97847164 0.04443232
661000000 -0.97791564 0.050978102 -0.00011244878 -0.00053980574 0.00024143486 0.00017232374 -0.9787367 0.044886976
662000000 -0.9776479 0.050558086 0.00031190386 0.00010061995 -0.00071946328 0.00015238747 -0.97922379 0.044946678
663000000 -0.97729588 0.050204262 0.00085494627 -0.00014367455 -2.8286442e-005 -0.00019762358 -0.97707224 0.044340353
664000000 -0.97791988 0.050101332 0.00024272689 0.00012378798 -0.00059708697 -0.00081120658 -0.97826433 0.044605073
665000000 -0.97743553 0.050746221 -0.00071494159 -5.7802808e-005 -0.00072254788 -0.00018425094 -0.97733438 0.044269837
666000000 -0.97633088 0.049998127 -0.00020080908 -0.00020445537 5.9078257e-006 -0.00036889772 -0.97768247 0.044939738
667000000 -0.97629714 0.050045911 4.4285778e-005 0.00068544026 -0.00024843955 -0.00019783729 -0.97918785 0.044142503
668000000 -0.97723651 0.050364263 -0.00017326509 6.9565132e-005 0.00035237896 -0.00032339501 -0.97894418 0.044295348
669000000 -0.97739828 0.050370898 -0.00066351285 -0.0007504191 1.1426836e-005 0.00037633919 -0.97877973 0.044502977
