!Keysight Technologies,M9374A,MY55442783,A.12.55.05
!Date: Thursday, May 20, 2021 16:46:43
!Correction: S11(Full 2 Port(1,2)) 
!S21(Full 2 Port(1,2)) 
!S12(Full 2 Port(1,2)) 
!S22(Full 2 Port(1,2)) 
!S2P File: Measurements: S11, S21, S12, S22:
# Hz S  RI   R 50
500000000 -0.97820252 0.038024083 0.00076717063 6.6119101e-006 -0.00013487028 0.00015232858 -0.98098254 0.034466464
501000000 -0.98059219 0.038568396 0.0002439068 -4.8798443e-006 0.00037806324 -0.0003046983 -0.98042649 0.035046387
502000000 -0.97961533 0.039848648 0.00010949247 0.00023083293 -0.00021800923 -0.00057031185 -0.97980851 0.034828775
503000000 -0.9794898 0.037827533 0.000129336 3.4619279e-005 -0.00066790421 -0.00011223235 -0.98073161 0.03597118
504000000 -0.97959197 0.039755702 -0.00055889838 -0.00042815783 0.00014469126 -0.00019670399 -0.98073274 0.035319321
505000000 -0.97893012 0.038481444 -0.00022059184 -0.00028928657 -6.7142777e-005 -0.00012871415 -0.97935694 0.034926232
506000000 -0.97990888 0.039356824 7.0406793e-005 -0.00024804191 0.00044599734 0.0003323842 -0.98032045 0.035117179
507000000 -0.98002666 0.039434634 0.0010666429 -0.00060225063 0.00031301106 -0.00045159538 -0.97995526 0.036150444
508000000 -0.98004007 0.039863892 0.00055210007 0.00042426935 -0.00012683879 -4.1637519e-005 -0.98090523 0.035566624
509000000 -0.98046154 0.040286336 -0.00010531264 0.00023811001 -0.0007010455 0.00093148608 -0.98008168 0.035917521
510000000 -0.97898573 0.040589094 -0.00039785297 0.00026431846 -0.00018118274 -0.00091809477 -0.9795922 0.037055798
511000000 -0.98013699 0.039365672 -0.00019476337 0.00010153132 -0.00012059982 0.00018418011 -0.98057187 0.036175352
512000000 -0.97975248 0.039693169 -0.0001877093 0.00028269537 -3.8509381e-005 0.00059827493 -0.9798736 0.03580856
513000000 -0.97915119 0.039004013 -4.1718824e-005 -0.00031697523 -0.00012785167 -0.00045628997 -0.98017102 0.036244839
514000000 -0.98110604 0.040773377 -0.00029806438 -0.00028107266 0.00042988796 -0.00082944485 -0.98067886 0.034715783
515000000 -0.97932237 0.040250178 0.0002792326 -0.00033931184 0.00017865455 0.00010001582 -0.98106956 0.037819318
516000000 -0.97994292 0.040954698 0.00025129417 -0.00014038695 -0.00043850439 -0.00072306459 -0.98035836 0.036293983
517000000 -0.97923565 0.040571406 -0.0004423206 0.000437585 -0.00061959849 0.00011139194 -0.98064512 0.036867272
518000000 -0.97905558 0.040541872 -2.6013691e-005 -0.00076977251 0.00018969875 -0.00069138344 -0.97962379 0.035915229
519000000 -0.97877568 0.040771227 0.0003394839 7.4938849e-005 -0.00044693559 0.00026880539 -0.98078787 0.037235107
520000000 -0.97915286 0.040587325 0.00035901676 0.00016273349 0.00033302241 -3.0444979e-005 -0.97944689 0.037484899
521000000 -0.97971469 0.041235641 -0.00044830312 0.00016964799 -0.00031602726 0.0005054542 -0.97954416 0.038160503
522000000 -0.9797188 0.041490957 0.00017806068 -0.00053492328 -0.00019565302 0.00049727148 -0.97839338 0.037318144
523000000 -0.97977579 0.039997216 0.00059763348 0.00023438291 -0.00017919365 -0.00073121238 -0.98029917 0.037573386
524000000 -0.97946131 0.041223247 -0.00035967099 -0.00030697099 -0.00031421619 -0.00036592167 -0.97924852 0.038027979
525000000 -0.98012394 0.041525673 -0.00014189376 -1.4332359e-005 -0.00021125117 -8.0610494e-005 -0.98062074 0.037558254
526000000 -0.97878718 0.04197472 0.00053048134 0.00049657316 -0.00025640431 -0.00024049722 -0.97922248 0.038578015
527000000 -0.98031765 0.042228121 3.1527674e-005 0.0005912949 9.3164104e-005 0.00058634847 -0.97950554 0.038047068
528000000 -0.97936112 0.041826691 0.00021957805 -0.00015141277 -0.00020090172 7.0465547e-005 -0.9792884 0.039049864
529000000 -0.9794389 0.041247852 -0.00024821112 -0.00085730088 0.00011581425 0.0004381942 -0.97909361 0.038445741
530000000 -0.97945476 0.042515803 0.00012230589 -0.00028743141 0.00030425907 -0.0011189493 -0.98034036 0.037385833
531000000 -0.97939682 0.041433092 -0.00024644096 0.00060002704 -7.2551811e-005 -0.00014084068 -0.98070455 0.03810665
532000000 -0.98001087 0.041767128 -0.00029438763 -0.00020496754 -7.440929e-005 -0.00026791048 -0.97971523 0.038303964
533000000 -0.97840178 0.042373478 0.00041615844 -3.6871079e-005 -2.8992827e-005 -1.2811488e-005 -0.97934556 0.039709985
534000000 -0.97989589 0.041175742 -0.00046560145 0.00011112378 0.00036534594 -0.00028504821 -0.98075753 0.038301595
535000000 -0.97966719 0.042040292 -0.00032542736 -1.6794216e-005 -0.0003284908 -0.00072112231 -0.97892714 0.038588889
536000000 -0.97867239 0.042132948 -0.00013260107 4.8541675e-005 -0.00028607171 -0.00022656746 -0.97793514 0.037790198
537000000 -0.97932881 0.042447478 -0.00024598502 -0.00024273267 0.00057813484 7.1876944e-005 -0.97922724 0.038213208
538000000 -0.97920251 0.042561054 -0.00052572199 -0.00019453651 -0.00017826437 -2.7178023e-005 -0.97894949 0.037857231
539000000 -0.97943115 0.041892387 0.00015502573 -0.00048248161 -0.0003831959 0.00026509329 -0.97998631 0.038572937
540000000 -0.97996396 0.041573711 0.00011363985 0.00013243115 0.00017499737 -0.00040514849 -0.97824323 0.038455442
541000000 -0.97824109 0.042180013 -0.00048790788 0.00048803524 -0.0002384004 -0.00029960845 -0.97944725 0.038733404
542000000 -0.97914636 0.041909561 -0.00076207152 -0.00071095087 0.00026657866 -0.00059333688 -0.97884363 0.037763115
543000000 -0.97960013 0.042695165 0.00018788049 -0.00058247038 0.00029712377 -0.00077176228 -0.97990865 0.038967937
544000000 -0.97926223 0.04291261 0.00025516347 -0.00014333308 0.00038635122 0.00041258792 -0.97951216 0.040256869
545000000 -0.97871369 0.041771129 -0.00012187369 -0.00021568847 -9.569306e-005 -0.00027136519 -0.97819197 0.039006911
546000000 -0.97903842 0.04298263 -0.00019030606 -8.1038626e-005 0.00033954342 5.7441714e-005 -0.97934872 0.039213043
547000000 -0.97783035 0.04237989 -0.00052430795 0.00041286551 -7.0590766e-005 0.00058473623 -0.97921282 0.039190065
548000000 -0.97906506 0.041662235 -0.00032383786 7.8864352e-005 0.00017576716 -0.00017268817 -0.97839147 0.03926355
549000000 -0.97862291 0.04199193 0.00063964492 0.00016875526 -0.0001063871 0.00020697531 -0.98023033 0.039341964
550000000 -0.97862858 0.042299151 8.916956e-005 0.00015327586 0.00038201312 -0.00014414241 -0.97969198 0.039480049
551000000 -0.97847503 0.041776896 0.00019301144 -0.00023144064 0.00017394836 0.00032849933 -0.97925073 0.039092176
552000000 -0.97876066 0.041292269 -0.00086918671 -0.0004300017 -0.00083494326 0.00032737938 -0.97927076 0.038933687
553000000 -0.97945476 0.042843953 0.00070655503 -0.0003629399 6.5470012e-005 0.00026797899 -0.97886163 0.03859799
554000000 -0.97990727 0.041745745 -0.00029953173 -0.00067195896 -0.00086689752 0.00025592893 -0.97969031 0.039582126
555000000 -0.97824609 0.042517047 7.978834e-005 0.0003467405 8.6545537e-005 0.00024073996 -0.97964537 0.039227568
556000000 -0.97688818 0.042729195 -0.00061982829 -0.00022993213 0.00039827698 -0.00029168907 -0.98001242 0.039904162
557000000 -0.97866166 0.043143447 -0.00062871928 -0.00011317549 0.00039425836 -0.00059469428 -0.97918892 0.039498504
558000000 -0.97968668 0.042650294 0.00051312434 -0.00034686958 -0.00045892253 0.00048344088 -0.98031586 0.039710671
559000000 -0.97804099 0.041947979 -0.00065270992 0.00026049351 0.00013461348 -0.00050051307 -0.97966218 0.039986849
560000000 -0.9783181 0.042257626 0.00031502533 -0.00026621812 -0.00019176728 -0.0009200343 -0.97871989 0.039672144
561000000 -0.97972536 0.041845512 -0.00020638801 -3.6575595e-005 -0.00015821174 -0.00023623963 -0.97947168 0.038391512
562000000 -0.97769696 0.042099796 -0.00019447625 -0.00021201839 -0.00026739028 8.3194078e-005 -0.9799884 0.040158071
563000000 -0.97829545 0.041678637 -0.00090405747 -0.00016131239 -8.7260749e-005 -0.00033254398 -0.97960192 0.040012371
564000000 -0.97897595 0.042010013 0.00026996629 -0.00025650184 -0.00038421093 0.000331013 -0.97941369 0.039967746
565000000 -0.97848505 0.04277201 -0.00011964433 0.0004053305 0.00017453064 2.7378286e-005 -0.97989225 0.039924018
566000000 -0.97921115 0.041123606 0.00049287005 -0.00047439284 -5.430702e-005 0.00023646514 -0.97987175 0.040879216
567000000 -0.97850955 0.041812073 -7.4041593e-005 -5.5001572e-005 -0.00057980535 0.00016565721 -0.97919202 0.038387384
568000000 -0.97818053 0.042380862 -0.00023264154 -0.00018371524 0.00041934205 -0.00022234199 -0.98007518 0.038830116
569000000 -0.97874039 0.041486993 0.00019536479 -0.00024162412 -0.00050256425 -0.00055113476 -0.97887027 0.038886696
570000000 -0.97747731 0.042180013 -0.00052525796 -0.00050665153 -0.00089827739 -0.00078150391 -0.97962612 0.0386809
571000000 -0.9787333 0.041993883 -2.3504148e-005 -0.00036321805 -5.4811148e-006 -0.00013594879 -0.97984046 0.03983723
572000000 -0.97822982 0.041802023 -0.00070251914 0.0001069436 -7.9340454e-005 0.00018464013 -0.9788295 0.038601138
573000000 -0.97917122 0.041557971 -0.00015113532 -0.0007064963 0.00071794144 0.00041529321 -0.97984135 0.038836561
574000000 -0.97805947 0.04226011 -0.00038356637 -4.5795008e-005 7.4668736e-005 9.4781302e-005 -0.9799844 0.039320871
575000000 -0.97871059 0.041839406 0.00049016881 -0.00033153527 -0.00063731638 -5.2808791e-005 -0.97965497 0.040358163
576000000 -0.97795218 0.042199634 -0.0002434397 0.00030771625 -0.00043217945 -0.00016428976 -0.97791195 0.040213883
577000000 -0.97883475 0.042299651 -0.00018174031 0.00061585149 -0.00012452756 0.00011628876 -0.97949505 0.039459728
578000000 -0.9782033 0.042124156 3.2829939e-005 0.00019925149 -0.00079433108 0.00027072162 -0.98010921 0.039140996
579000000 -0.97801143 0.042355757 0.00070856797 0.00044009637 0.00034908863 0.00033898512 -0.97804481 0.039160222
580000000 -0.97784525 0.042240504 -0.00063506229 -0.00030989037 -5.7594643e-005 -0.00031259833 -0.97770882 0.041405264
581000000 -0.9777143 0.042461544 -0.0002909101 -0.0001736447 0.00039421034 0.00025431291 -0.98006886 0.039494321
582000000 -0.97786856 0.042633872 0.00029295177 0.00010931893 -0.00067965232 -0.00016811476 -0.97903121 0.040212933
583000000 -0.97724283 0.042218093 -0.00036783077 -0.00011449713 -0.00019938723 -0.00024055302 -0.97863698 0.039537419
584000000 -0.97911191 0.041927706 -0.0005205872 0.00014014507 0.00045288334 0.00034232403 -0.97899175 0.041911274
585000000 -0.97843498 0.042014476 -0.0002399631 -0.0003868411 -0.00045160993 -0.00017582208 -0.97959679 0.0402954
586000000 -0.97795027 0.041533943 0.00027895835 -0.00020325383 -5.7496905e-005 -4.7983602e-005 -0.97978008 0.040098492
587000000 -0.97891903 0.043385044 0.00046785324 -1.8955199e-005 -8.7329674e-005 -0.00017294432 -0.97884494 0.040218793
588000000 -0.97864324 0.042488351 6.0028251e-005 -0.0003471745 -0.00014181859 -0.0002171107 -0.98098725 0.041106611
589000000 -0.97880119 0.042728186 -4.8191043e-005 -6.2797208e-006 -0.00070780446 -0.00010577737 -0.98016042 0.040040642
590000000 -0.97825521 0.042610008 0.00029644516 -0.00023696075 -0.00032529901 0.00018497799 -0.97911632 0.041115068
591000000 -0.97813082 0.041124143 0.00045600132 -9.5841948e-005 8.122596e-005 4.2939384e-005 -0.97869378 0.039837554
592000000 -0.97846276 0.042497542 -0.00083592214 0.00020827034 0.00080082926 0.00030270734 -0.97938561 0.040718846
593000000 -0.97760344 0.042622741 0.00034246035 -0.00033234357 -0.00054865034 -0.00051224558 -0.97882652 0.040164612
594000000 -0.97631431 0.043944482 -6.9904461e-005 -0.00013998868 0.00033151521 -8.6683634e-005 -0.97856075 0.040538296
595000000 -0.97926688 0.042713992 6.4590182e-005 -7.0433642e-005 -0.00034609766 0.00064363412 -0.97867793 0.039414153
596000000 -0.97832018 0.042370837 0.00017862617 0.0004235947 0.00022075235 8.0572638e-005 -0.98077494 0.040444884
597000000 -0.97931081 0.043025732 0.0002294399 -4.0758616e-005 0.00048681934 -6.5880558e-005 -0.97906452 0.040538084
598000000 -0.97911578 0.043654948 -0.00020421563 5.2840478e-005 -0.00061192189 -0.00060566113 -0.97963798 0.040184613
599000000 -0.97864574 0.04330691 0.00066722691 -0.00088860147 3.3777727e-005 -0.00027462223 -0.98006994 0.039710831
600000000 -0.97844172 0.044143599 0.00029139325 -0.00042549765 -0.00021019777 3.3016298e-005 -0.97888678 0.04049366
601000000 -0.97866148 0.043232989 -3.4627662e-006 7.6923134e-005 1.2952974e-005 0.00037113149 -0.97912759 0.041391745
602000000 -0.97717959 0.043937653 0.00063999603 0.00025272861 -0.00035151758 -0.00026965101 -0.97889149 0.040507596
603000000 -0.97809333 0.045555264 -0.00019302596 -0.00040882925 -0.00054143905 0.00020033649 -0.97846293 0.040330727
604000000 -0.97850037 0.044246051 -0.00059477356 -0.00013862613 -0.000694027 0.00027482488 -0.97989386 0.041488208
605000000 -0.97803205 0.045071147 -0.00075351447 -0.000320661 0.00032778585 -0.00049289444 -0.97975123 0.041404642
606000000 -0.97771174 0.044840295 0.0004436145 0.00037020119 8.2676306e-005 0.00024485245 -0.9778493 0.041221514
607000000 -0.97859544 0.04522917 -5.4079981e-005 0.00010018839 0.00059622771 1.7154196e-005 -0.97920388 0.041694198
608000000 -0.97809339 0.045952264 -0.00071400654 -0.00014907835 0.00056185073 -0.00078863569 -0.97806281 0.041458566
609000000 -0.97782815 0.043732692 0.00051090831 -0.00017211535 0.0005808624 0.00069049821 -0.97936398 0.042597316
610000000 -0.978652 0.046163388 0.00024755401 0.00055342191 -0.00029081845 -0.00023795413 -0.9778446 0.043300234
611000000 -0.97699046 0.044841431 9.1968555e-005 -3.2922955e-005 -0.00031024287 0.00039269371 -0.97905415 0.040495265
612000000 -0.97713506 0.046749692 -8.4747344e-006 -0.00055373425 0.00078705972 0.00039491494 -0.97905165 0.041995309
613000000 -0.97787505 0.045789894 0.00048283688 -2.6471916e-005 7.4123782e-006 -0.00023373096 -0.97852123 0.041609168
614000000 -0.97743809 0.047196012 0.00040131522 -0.00046539231 -0.00045115215 0.00052559102 -0.97917092 0.04177412
615000000 -0.97727913 0.045868792 -0.00030105654 -0.00078011147 -0.00069739245 -0.00047039246 -0.9787246 0.041662093
616000000 -0.97695512 0.046070494 -0.00083106448 -7.1159833e-005 0.00010448826 -0.00054605067 -0.97853714 0.042198278
617000000 -0.97884941 0.045804568 0.00015254125 0.00045370383 0.0003097897 -0.00027932721 -0.97881198 0.04254419
618000000 -0.97831255 0.047205269 0.00021691319 0.00015930277 -1.8300732e-005 -0.00043395706 -0.97829998 0.04330577
619000000 -0.97755998 0.046174459 -6.0937571e-005 0.00078935764 7.1584815e-005 -0.0004000609 -0.9789502 0.040845338
620000000 -0.97797424 0.047840659 -0.00059549318 3.0817962e-005 -0.00026046223 0.00033571295 -0.9793402 0.04246752
621000000 -0.97831792 0.046145458 -0.00016596729 0.00026539457 -1.1168851e-006 0.00018545211 -0.97865939 0.043191809
622000000 -0.97620559 0.046332113 5.101956e-005 -8.0492529e-005 -5.2432256e-007 0.00022958881 -0.97980821 0.042924214
623000000 -0.97743487 0.045996465 0.00066166674 -0.00046817434 0.00015363893 -0.0002228122 -0.97819787 0.043218821
624000000 -0.97813797 0.047013655 -0.00050496857 0.00023661983 0.00033523588 -0.00053575193 -0.97770864 0.043124121
625000000 -0.9780938 0.049553681 -0.00029687418 -0.00056216895 -0.00019876254 -0.00070467155 -0.9775964 0.042483445
626000000 -0.97823542 0.047068506 0.00033998422 -0.00026478287 -4.114211e-005 -1.1330426e-005 -0.97750401 0.043643799
627000000 -0.97755873 0.047615804 -0.00044420012 -0.00024809843 -0.00047001411 -0.00025995926 -0.97813964 0.043365978
628000000 -0.97694832 0.048265208 -0.00040351725 -0.00043043992 -0.00052512478 -0.00084457971 -0.97818267 0.043559559
629000000 -0.97848636 0.049211107 -0.0003466717 -6.7930589e-005 -0.00016940746 -4.2261716e-005 -0.97789669 0.043774642
630000000 -0.97648811 0.047881316 0.00014367832 -9.5496522e-005 0.00046089449 -0.00026424063 -0.97889322 0.044125602
631000000 -0.97711796 0.048113141 -0.00048969121 0.00028820199 0.00018779041 -0.00026788749 -0.97952962 0.04361615
632000000 -0.97777277 0.047646143 -6.9645444e-005 -0.00058470515 -6.417065e-005 0.00026842888 -0.97723204 0.044251148
633000000 -0.97784019 0.047519729 -0.00077336107 -0.00020475734 0.00022245783 0.00019909986 -0.97851324 0.043628097
634000000 -0.97769177 0.04894495 0.00062777894 -0.00046930229 -0.0001233902 0.00011373068 -0.9785682 0.044934034
635000000 -0.97714889 0.048319735 -0.00069386041 0.00023856139 0.00015437393 0.00045040084 -0.97834229 0.042916089
636000000 -0.97739881 0.04934597 4.4933742e-005 0.00019002875 -0.00050647551 0.00031815609 -0.97918099 0.043747649
637000000 -0.97657919 0.048658788 -0.00020327979 -0.00069470593 -8.8567365e-005 -0.00057507236 -0.97744507 0.043845035
638000000 -0.97704363 0.048661087 2.8015869e-005 -0.0003460758 0.00066279416 -0.00066779688 -0.97875941 0.043730468
639000000 -0.97788697 0.050137673 0.00018063873 0.0005269121 -0.00044931489 -6.1323655e-005 -0.9781642 0.044832315
640000000 -0.97719938 0.049402241 0.00019865351 0.00074424985 -0.00032404828 -0.00030848611 -0.97758532 0.04473288
641000000 -0.97782594 0.049696691 -0.0010794768 -6.6541899e-005 0.00029741545 9.9562334e-005 -0.97731066 0.044526096
642000000 -0.9775421 0.049020085 -7.345117e-005 -2.0129273e-005 -7.9210891e-005 -4.4218585e-005 -0.97793341 0.044863518
643000000 -0.97638309 0.050756704 0.00016464136 -6.3837782e-005 -0.00052036822 -7.3466617e-005 -0.97740114 0.043693606
644000000 -0.97745568 0.049619265 -0.00022938578 -0.00041298254 -4.474802e-005 -0.00061318756 -0.977925 0.044239193
645000000 -0.97616231 0.050057057 2.6537726e-005 -0.00039573424 -0.0001999352 0.00012936996 -0.9794364 0.043975789
646000000 -0.97749853 0.049602855 -6.842013e-005 5.719209e-005 -0.0004919215 -0.00087011093 -0.97794664 0.043993626
647000000 -0.97685307 0.05185264 -6.6752284e-005 1.3308638e-005 4.9996881e-005 0.00030954171 -0.97767383 0.043536294
648000000 -0.97785491 0.050936326 0.00022360546 0.00058141514 0.00030089417 0.00021925535 -0.97875959 0.045114778
649000000 -0.97710872 0.05076462 -0.00026337657 -0.00041298105 0.00018517417 -0.0001417911 -0.97751087 0.04501415
650000000 -0.9771378 0.05050372 -0.00026839488 -0.00074536662 0.00021089008 5.182132e-005 -0.97669411 0.044879645
651000000 -0.97733873 0.050527856 0.0005619718 0.00036651714 0.00032501097 6.4568041e-005 -0.97866493 0.044859122
652000000 -0.97702777 0.050883319 -0.00016241119 0.00030702131 -0.00047931401 4.4358352e-005 -0.97779989 0.044647731
653000000 -0.97748375 0.050403725 9.9904355e-005 -0.00014647572 0.00033570887 -0.00010850144 -0.97851419 0.043963727
654000000 -0.9765268 0.051419973 -0.0008523732 0.00025220981 -0.00014303223 0.00046180357 -0.97797394 0.045270771
655000000 -0.97637624 0.050551716 0.00020581052 -0.00068594335 -9.6512867e-006 0.00014035577 -0.97807109 0.045203499
656000000 -0.97673333 0.050479613 0.0001884822 0.00068286347 -0.00055392692 8.5294205e-006 -0.97770911 0.044071171
657000000 -0.97773689 0.051467631 0.00026429773 1.7518963e-005 0.00011844955 -0.0006567121 -0.97890896 0.045351412
658000000 -0.97740674 0.050416127 -0.00031622354 9.3095277e-006 0.00072581868 -8.2641105e-005 -0.97872955 0.04488622
659000000 -0.97675127 0.050919618 0.00060268654 3.6850404e-005 0.00040097142 -0.00012627148 -0.97780097 0.044736166
660000000 -0.97634947 0.051467858 0.00030747341 -0.00046067659 7.7599725e-005 -0.00038461745 -0.97736198 0.045035124
661000000 -0.97746319 0.052201107 0.00020089603 0.00022390728 -0.00039736344 -8.7683962e-005 -0.97787642 0.044498056
662000000 -0.97762448 0.050387006 -1.021788e-005 -6.8675065e-005 0.00010147995 -9.6826821e-005 -0.97841787 0.046241548
663000000 -0.97758269 0.050179314 -0.00077110098 0.00032456592 0.00032475937 6.3422791e-005 -0.97777241 0.044915054
664000000 -0.97715384 0.05057231 0.00035390884 0.00055096339 -0.00056792703 -0.00034701388 -0.97760075 0.046090372
665000000 -0.97695965 0.050359279 0.00026105772 0.00021074116 9.9963559e-005 0.00013952624 -0.97738385 0.045800153
666000000 -0.97703189 0.051463164 4.7831709e-005 0.00031441828 -7.8925943e-005 0.0001934274 -0.97849333 0.044343114
667000000 -0.97624069 0.051396497 -8.5177526e-005 -9.8796343e-005 6.4737258e-005 -0.00032990289 -0.97810799 0.044944271
668000000 -0.97643584 0.050802551 0.00014823615 0.00026780186 -4.5895835e-005 0.00026473479 -0.97799611 0.044837575
