!Keysight Technologies,M9374A,MY55442783,A.12.55.05
!Date: Thursday, May 20, 2021 17:34:46
!Correction: S11(Full 2 Port(1,2)) 
!S21(Full 2 Port(1,2)) 
!S12(Full 2 Port(1,2)) 
!S22(Full 2 Port(1,2)) 
!S2P File: Measurements: S11, S21, S12, S22:
# Hz S  RI   R 50
500000000 -0.9793368 0.036780264 -0.00016899382 0.00019232079 0.00026417658 -0.00013505878 -0.9803195 0.034049653
501000000 -0.98000187 0.039688852 -1.3031256e-005 0.00023590386 -0.00045644742 -0.00010855134 -0.98024774 0.034693893
502000000 -0.97924733 0.03811058 0.00015224122 -6.8367794e-005 2.792072e-005 -0.0005924576 -0.98180348 0.03451214
503000000 -0.97911412 0.038625848 -0.00011198017 2.5462679e-005 0.00019298702 6.8840513e-005 -0.98146164 0.035006866
504000000 -0.9795441 0.036785439 -0.00020606682 -6.831807e-005 -0.00063355116 -0.00042465853 -0.98104984 0.034026917
505000000 -0.9792558 0.03798946 0.00068849081 1.6593933e-005 -0.00017095626 -0.00042737523 -0.98046327 0.03454705
506000000 -0.97963202 0.038772497 -0.00022459371 0.00011557534 4.4562374e-005 1.7750301e-005 -0.98001349 0.034876976
507000000 -0.97919035 0.039572041 0.0004237789 7.2470088e-005 7.0203547e-005 0.00035547654 -0.98016357 0.035766155
508000000 -0.97807717 0.038993094 -0.00010471151 2.5779329e-005 -0.00019192325 -0.00010654475 -0.98088306 0.035804741
509000000 -0.9795388 0.039249547 3.4896355e-005 -0.00029593424 -0.00075286889 0.0002503008 -0.98049086 0.035467926
510000000 -0.98001426 0.038825281 -7.7933968e-005 -5.4274329e-005 5.8736365e-005 -0.00027561511 -0.98045206 0.035733335
511000000 -0.98029888 0.040238641 -8.6233384e-005 -6.5580112e-005 -0.00030509432 -0.00027230353 -0.98069727 0.036028177
512000000 -0.98009866 0.037895575 0.0002283091 -0.00071025512 0.00015918784 4.0332427e-005 -0.97976255 0.034855567
513000000 -0.97972751 0.039497077 4.937952e-005 0.00042661297 -0.00042621515 -0.00069142436 -0.97990942 0.034047499
514000000 -0.97998339 0.040118653 0.00012799224 -0.00065670145 -0.00069026911 -0.00025607404 -0.98016721 0.03693483
515000000 -0.97992665 0.039123144 0.00050032733 -0.00033024824 -0.00036697276 0.00010359532 -0.98055309 0.035973702
516000000 -0.9793905 0.039619446 -0.00035190478 0.00023848933 -0.00040155157 -5.3694315e-005 -0.98044491 0.03505972
517000000 -0.98000771 0.040025823 0.00025999974 -0.00050312572 -0.00042774808 -0.00018865913 -0.98165566 0.03723241
518000000 -0.97971463 0.040777404 -0.00016813612 0.00023579037 -0.00018022815 0.00023213192 -0.98083675 0.037254516
519000000 -0.97843653 0.04063138 0.00028069233 -0.00078580988 7.2292074e-005 -0.00041451966 -0.9807049 0.036776267
520000000 -0.97837013 0.038904488 0.00056628382 -0.00013870491 -0.00061099499 -0.0001706326 -0.98044884 0.037150297
521000000 -0.97853482 0.040895779 5.8524576e-005 -0.00029726484 4.8220259e-005 -0.00026919597 -0.98013073 0.03762548
522000000 -0.98115343 0.039955176 -0.00061127072 0.0001473319 0.00068460579 -8.0277805e-006 -0.98150855 0.037604649
523000000 -0.97941601 0.039020706 -0.00023655428 0.00066532055 0.00015014003 -3.4922067e-008 -0.98034269 0.036372174
524000000 -0.97834778 0.04035788 -0.00038606607 0.00062878319 -4.2679381e-005 -0.00050803775 -0.98031461 0.036523402
525000000 -0.97875756 0.040665839 -0.0010349974 -0.00067749858 3.9037037e-005 0.00045586773 -0.98010474 0.037815038
526000000 -0.979644 0.041479185 -0.00046818142 0.00011773305 -0.00034673692 8.4529085e-005 -0.9800722 0.037780412
527000000 -0.98044425 0.040469505 -7.335026e-005 -0.00035480005 -2.9953417e-005 0.00018062117 -0.98102099 0.03801458
528000000 -0.97889733 0.041168116 0.00012637697 0.00023868507 3.5933699e-005 -1.9506049e-005 -0.97962058 0.03790896
529000000 -0.97934616 0.041110869 0.00026181931 -0.0003700899 0.00011606599 -0.00055991625 -0.97895467 0.038554791
530000000 -0.98015273 0.040214483 0.00042027992 -0.00089917128 -0.00024089686 -0.00016245668 -0.98086596 0.038642466
531000000 -0.97878224 0.041015327 -0.00043142695 0.00035894429 -0.00036438127 0.00011016507 -0.98199201 0.037966307
532000000 -0.9782294 0.040979311 0.00024984407 -0.00070406846 0.00067445729 0.00044594909 -0.97995132 0.037502766
533000000 -0.97989386 0.040731698 -0.00065562926 -0.00075968105 0.00012039756 0.00013153809 -0.98027104 0.037623733
534000000 -0.97992492 0.041286718 0.00064941036 7.1909104e-005 0.00049488212 -0.00017728085 -0.9800992 0.038166579
535000000 -0.98074108 0.041521467 -8.0806676e-005 3.559568e-005 3.97105e-005 2.3017861e-005 -0.9791531 0.03707527
536000000 -0.97938776 0.040749963 -0.00023489448 -0.00013926103 0.00010304061 -0.0006766005 -0.97961587 0.038023241
537000000 -0.97968787 0.041092835 -0.00029749225 -0.00031635107 -0.0006044656 0.00017501473 -0.97970611 0.039045226
538000000 -0.98018408 0.041918095 -0.00042647892 9.5392337e-005 -0.00022496688 0.00015160324 -0.97904891 0.037941147
539000000 -0.97977674 0.041932143 -0.00028299255 -2.053652e-005 0.00024487311 0.00031206137 -0.9797411 0.038264435
540000000 -0.97979587 0.04202354 -0.0005192784 -0.00038975271 -0.0005571954 3.6543512e-005 -0.98003542 0.038667407
541000000 -0.97793663 0.041583195 -0.00036820665 0.00015259524 0.00012480572 0.00060452067 -0.98013365 0.03870609
542000000 -0.97869807 0.042911515 -0.00050866406 -0.00074340921 -8.1054575e-005 -8.9414163e-005 -0.9790448 0.03838836
543000000 -0.97850454 0.041351106 0.00034375241 -0.00020960996 -0.00029010914 0.00036226449 -0.97953892 0.03964448
544000000 -0.97819275 0.041344043 -0.00068673026 -9.0927235e-005 0.00042071482 -7.2572257e-005 -0.98066807 0.039550599
545000000 -0.97937614 0.040292781 0.00046789742 9.9784687e-005 -0.00021755746 0.000142688 -0.9794212 0.038913302
546000000 -0.97866613 0.041780945 0.0001379926 -0.0002220278 -0.00025445106 -0.00027166476 -0.97948587 0.037837129
547000000 -0.97881395 0.040941559 0.00084737933 2.085212e-005 0.00033866786 -3.4724051e-006 -0.98045129 0.038335253
548000000 -0.97741091 0.041464068 8.9404755e-005 -2.4214951e-005 -0.00025868052 -0.00082388625 -0.97845161 0.038292795
549000000 -0.97930622 0.040772445 0.00021802816 -0.00057788508 -0.00038735592 0.00064792228 -0.98058492 0.039446041
550000000 -0.9781605 0.041776221 -1.39881e-005 -0.00021491031 -0.0010556191 0.00013057576 -0.97979397 0.039950233
551000000 -0.97765881 0.04146421 -2.9962506e-005 3.794389e-005 0.00018532296 -0.00034634402 -0.98101914 0.038153257
552000000 -0.97891629 0.04141777 0.00012553058 0.00047497376 0.00025784643 -0.00068173971 -0.97972983 0.038358331
553000000 -0.97790569 0.041596323 -0.00034972047 -0.00053385802 0.00013615609 0.00059196423 -0.97983921 0.038436607
554000000 -0.97919106 0.04011175 9.8572367e-005 -0.0002036134 -0.00057092955 7.1988048e-005 -0.98110133 0.038388539
555000000 -0.97842115 0.041648313 0.00013082137 -0.00015527809 -0.00026742974 0.00028496902 -0.98047066 0.03861041
556000000 -0.97858036 0.041408375 -0.00023051439 -5.6553257e-005 0.00049938029 0.00028583151 -0.98002416 0.04001873
557000000 -0.97843629 0.041008569 0.00021423952 -1.2165924e-005 0.00020988012 -0.00053821818 -0.98066717 0.039308805
558000000 -0.97886527 0.04159404 7.9355392e-005 0.00016710615 0.00018900659 -3.3141147e-005 -0.98034626 0.039126161
559000000 -0.97852129 0.040860165 0.00035111399 -0.00017264967 -8.4052488e-005 -8.9968253e-006 -0.98002207 0.03989698
560000000 -0.97761667 0.041558001 0.00010607071 -0.00044350975 -0.00043990542 -0.00038002964 -0.97875416 0.039127816
561000000 -0.97863549 0.04154259 0.00087817945 -4.6563433e-005 -0.00039579236 5.356364e-006 -0.98109639 0.037848413
562000000 -0.97855091 0.04228719 -5.5964141e-005 -0.00094806857 -4.1779433e-005 -0.00048102584 -0.9804799 0.039265193
563000000 -0.9779743 0.041189887 -6.2228588e-005 -0.00024680464 0.0001041064 0.00017585119 -0.98007858 0.039274566
564000000 -0.97856951 0.041287985 -0.00017877146 0.00029027456 -0.00021279154 5.5285713e-005 -0.98017484 0.039004669
565000000 -0.97902143 0.041278802 -0.00010384455 6.252033e-006 -0.00067271898 0.00033623003 -0.97893089 0.038518786
566000000 -0.97838175 0.040666025 0.0002094011 0.00019989104 -0.00037641035 -0.00068358006 -0.98049062 0.039362408
567000000 -0.97820812 0.040709741 -0.00047019136 -0.00030098885 -5.9972532e-005 -0.00055480655 -0.98044932 0.038279489
568000000 -0.97959566 0.041392382 -5.0251901e-006 -0.00021402363 0.00033259825 -0.00034670098 -0.98027074 0.038319662
569000000 -0.97714972 0.041644074 0.0003958134 0.00058925478 0.00041583795 0.00011342636 -0.98049051 0.038110651
570000000 -0.97791755 0.042232327 0.00020526029 -0.00043893507 -1.5918058e-005 -0.00035727074 -0.9800508 0.0384259
571000000 -0.97812611 0.040307902 1.31128e-005 -0.00060567475 0.00037116322 0.00059248257 -0.98129338 0.039878123
572000000 -0.97836584 0.041265443 0.00045876898 -0.00019960199 5.7990874e-005 -4.64599e-005 -0.97953939 0.038564656
573000000 -0.97890317 0.040693093 0.00030757976 0.00040257169 7.6744938e-005 -0.00044859725 -0.98097807 0.039195292
574000000 -0.97814357 0.042071834 -0.00030051926 -0.0005017966 -0.00010785852 -0.00036845604 -0.9802525 0.038994353
575000000 -0.97776324 0.04129722 8.6823056e-005 0.00034489328 0.00035646334 -0.00021761627 -0.98042417 0.039398942
576000000 -0.9776839 0.040673301 -0.00021414044 -0.00011487912 -0.0002161373 -0.00013517708 -0.98126197 0.039040755
577000000 -0.97830158 0.041572977 6.5824417e-005 -0.00022842936 0.000153152 -0.00036016735 -0.97963619 0.039035823
578000000 -0.97926754 0.040702719 4.7405406e-006 0.00053044996 -0.00030007394 0.0003617357 -0.97901738 0.038781654
579000000 -0.97764075 0.041833188 0.0012357103 -0.00039829916 0.0009799226 -0.0003352206 -0.98160064 0.038107693
580000000 -0.97821307 0.040359817 -0.00024122585 0.00064733345 -0.00024646593 0.00031083595 -0.98006159 0.040754572
581000000 -0.97744691 0.040815789 -0.00083589624 -5.7582347e-006 -0.00053099677 0.00021330533 -0.98050672 0.038188845
582000000 -0.97896832 0.041561875 0.0004297586 0.00056990574 -0.00036219184 1.1262479e-005 -0.97940028 0.039660107
583000000 -0.97857952 0.040615108 -0.00024032654 -3.7901631e-005 0.00012776078 0.00064769795 -0.97958416 0.039486278
584000000 -0.97715998 0.042570595 0.0001688698 0.00020607762 -0.0005542963 0.0003273609 -0.97974318 0.038792223
585000000 -0.97831708 0.041272845 -0.00020153071 0.0011049064 -0.00056688173 0.00011988715 -0.97977608 0.039167963
586000000 -0.97788554 0.042182937 -0.00018192969 -0.00026614888 -0.00059395743 -0.00057818176 -0.98002779 0.039403964
587000000 -0.97847587 0.042438336 0.00011161202 -0.00051066949 0.00086656073 -0.00035197387 -0.97821617 0.040007841
588000000 -0.97800863 0.042760056 0.00045942553 0.00060962734 -0.00070509117 0.0003398518 -0.98058772 0.039571498
589000000 -0.9780013 0.041867591 -0.00027238749 -0.00037506624 -0.00047292057 5.6908662e-005 -0.9796744 0.039130226
590000000 -0.97851431 0.043384377 0.00043608769 2.6415701e-006 -9.2646871e-005 2.7423135e-005 -0.97936314 0.039342206
591000000 -0.97799188 0.042407755 0.00013791338 -0.00027758567 -0.00040042025 0.00016666096 -0.98038942 0.039866485
592000000 -0.97769487 0.041895062 -2.0928051e-006 0.00046437682 0.00021845475 1.1583776e-006 -0.97991002 0.038469058
593000000 -0.97759509 0.041043546 1.0289301e-005 0.00011806433 -8.973444e-006 -5.1275751e-005 -0.98086512 0.039400481
594000000 -0.97878176 0.042344119 0.00025954517 -0.0003247495 0.0001140709 -1.3764356e-005 -0.97925413 0.040868685
595000000 -0.97813737 0.041990839 0.00093946204 -0.00040962282 -7.1627939e-005 3.9171544e-005 -0.97956824 0.03990452
596000000 -0.97775477 0.043548062 -4.9482729e-005 -0.00018765968 -0.00010306588 0.00044291822 -0.97989017 0.040382825
597000000 -0.97905093 0.041056462 -0.00026261096 -0.00015007229 4.876259e-006 0.00026444549 -0.97980464 0.04010544
598000000 -0.97868824 0.043346435 -0.00060425879 0.00025053925 -0.00025246385 0.00013121405 -0.97953427 0.040343381
599000000 -0.97733974 0.043641977 -0.00032846609 0.00010772401 -0.00079464511 0.00044387521 -0.97897416 0.039792698
600000000 -0.97776395 0.043177933 -0.00062072172 -0.0001004014 -0.00018903015 0.00053240306 -0.97868687 0.040610664
601000000 -0.97785926 0.043400068 -0.00041151687 -0.00027061487 -7.1385359e-005 -0.00020658897 -0.98112154 0.040444978
602000000 -0.97797281 0.042895064 0.00083136122 -0.00022288128 0.00049793889 0.00021905078 -0.97993052 0.039799806
603000000 -0.97894251 0.043244306 0.00015450426 -0.00019534523 0.00033508192 -0.00056309375 -0.97926193 0.0412549
604000000 -0.97797966 0.043106008 -0.00028583594 0.00028677715 0.00037586782 1.1509682e-005 -0.97851002 0.041214731
605000000 -0.9778589 0.043249171 0.00011181009 -0.00030783698 -0.00049768155 0.00019714734 -0.97948229 0.04162446
606000000 -0.97804028 0.04506921 -0.00046936172 0.00044998154 -0.00034984061 -5.2425057e-005 -0.97846454 0.042201534
607000000 -0.97875071 0.043657187 -0.00064269383 -0.00077466387 -7.2314983e-006 -0.00064924988 -0.97999603 0.040070023
608000000 -0.97720629 0.044090647 -0.00042427698 -0.00041397518 -0.00012141633 -0.00025680815 -0.97944742 0.040735766
609000000 -0.97771806 0.044336569 -5.1918138e-005 -0.00060059561 -0.00024834706 8.0788966e-005 -0.97941339 0.041002057
610000000 -0.97806317 0.044973992 -0.00025751221 5.2945081e-005 -0.00066784868 -0.00038465529 -0.97858763 0.041576803
611000000 -0.977561 0.044757973 -0.00015937495 0.00037543222 -0.00034220639 -0.00020839674 -0.97986293 0.041894186
612000000 -0.97783703 0.044912137 -0.0006783217 -0.00068650686 6.5406668e-005 -0.00031633719 -0.98015636 0.041742481
613000000 -0.97773325 0.044730626 -0.00063734862 -0.00067501812 -0.00042075512 0.00047280191 -0.97739756 0.041790329
614000000 -0.97747415 0.045435667 -0.00016204023 -0.00038826786 -0.00027135675 4.1219428e-005 -0.97937238 0.040754408
615000000 -0.97725487 0.044089139 2.9878067e-005 -0.0004039816 -0.00059067301 -0.00015677747 -0.97924733 0.041396599
616000000 -0.97773749 0.04539033 -0.00033591091 0.00030979523 0.00067831221 -0.0005450992 -0.97799546 0.042581201
617000000 -0.97778279 0.045605846 -0.0002548651 0.00026146858 -1.1007059e-005 -1.6010603e-005 -0.98077399 0.04236142
618000000 -0.97911125 0.044600442 -0.00031675154 -0.00098300516 0.0002290292 0.00013483029 -0.9793241 0.042408951
619000000 -0.97657841 0.046333414 -9.8666438e-005 0.0003300411 8.4452578e-005 0.00042174265 -0.97842193 0.042046744
620000000 -0.97775984 0.046852976 -0.00033397696 0.0001160219 -4.0452047e-005 -3.4284989e-005 -0.97913438 0.042167127
621000000 -0.97767866 0.045653883 5.4662664e-006 -0.0011710968 -0.00017563325 0.00012813321 -0.97969717 0.042171896
622000000 -0.97820717 0.046433806 1.8240748e-005 -0.00024102165 0.0002260895 -0.00029177894 -0.97941607 0.043699294
623000000 -0.97770071 0.047477752 7.0014969e-005 -0.00031123441 -0.00066373515 -2.8526441e-005 -0.97842956 0.043377154
624000000 -0.97849023 0.046673283 -5.9789916e-005 0.00035601636 -0.00035750342 0.00013169485 -0.97910005 0.04269205
625000000 -0.97759616 0.048087098 0.00075413642 0.00099867117 -0.00018080871 0.00029269216 -0.97929573 0.042509127
626000000 -0.97804022 0.04734173 0.00031127539 -0.0012597945 0.00010950964 5.5627646e-005 -0.97816706 0.043533266
627000000 -0.97851449 0.047322337 0.00028161603 -0.00037673488 -0.00020245646 -0.00020766204 -0.97845596 0.04279729
628000000 -0.9762283 0.048468407 -0.00040212079 0.00023112824 0.00052470103 -0.00049046334 -0.97979063 0.041925006
629000000 -0.97927028 0.047964655 -0.00043497278 -0.00044323638 -0.0001064789 8.4409301e-005 -0.97784001 0.042938679
630000000 -0.97658867 0.047867902 -0.00037743032 -0.00037639315 0.00033290155 -0.00010593429 -0.97959507 0.04375818
631000000 -0.97861356 0.047367636 0.00012222347 -0.00034673026 -2.7867283e-005 0.00014569088 -0.97945881 0.043577716
632000000 -0.97761893 0.049089555 -0.00017004275 -0.00014922264 -0.00068946631 0.00021353699 -0.97802103 0.042401332
633000000 -0.97693843 0.047712266 0.00069720496 0.00086094462 0.00051862985 -0.00048781527 -0.97864372 0.042350594
634000000 -0.97766191 0.048345085 3.8352257e-005 -0.00054316741 -8.5151536e-005 -0.0006355212 -0.97877592 0.043212306
635000000 -0.97703099 0.047025193 -0.00095301127 0.00020066042 -0.00046764177 0.00021686 -0.97988403 0.042682547
636000000 -0.97642732 0.048050676 6.5312583e-005 0.00012815181 -0.00049052743 -0.00022567374 -0.97917414 0.044296719
637000000 -0.97809595 0.047351882 -0.00029725756 -0.00050690142 0.00018244237 -0.00012085628 -0.97703421 0.043679371
638000000 -0.97720772 0.049212944 -0.00027878891 5.1747054e-005 -5.4360709e-005 0.00046963402 -0.97874612 0.04398454
639000000 -0.97776634 0.047922608 -4.901339e-005 0.00011225866 6.350637e-005 0.000327735 -0.97938669 0.043775085
640000000 -0.97737724 0.049542602 9.4638835e-006 0.0010674234 0.00058008276 -0.00021083595 -0.97813267 0.043044038
641000000 -0.97662926 0.047818054 0.00027898548 0.00053362735 -0.0003323147 -0.0008682718 -0.97679257 0.043727547
642000000 -0.97725946 0.049138203 -3.3225024e-005 0.00015552087 -0.00052848988 -0.00030807307 -0.97881019 0.044477623
643000000 -0.97706062 0.049469464 0.00076961273 0.00018073866 -0.00020282451 -0.00051947311 -0.9784919 0.043993164
644000000 -0.9777177 0.0485727 -0.00025418916 0.00029480376 -0.00010997176 0.00010630823 -0.97907919 0.043649673
645000000 -0.97669601 0.049488414 -0.00078165089 -0.00027759137 -0.00058082462 0.00048227454 -0.97919911 0.043754049
646000000 -0.97727549 0.047762945 0.00010029648 -0.00041682125 0.00037931078 -0.00077575311 -0.97823375 0.044555902
647000000 -0.97784483 0.048592631 6.7934394e-005 -3.7430145e-005 0.00038036314 -0.0001189074 -0.9788397 0.043451272
648000000 -0.97679645 0.048273448 5.7352267e-005 9.0603251e-005 -7.6697754e-005 0.00027475864 -0.97836459 0.044191889
649000000 -0.97844636 0.049024228 0.00014667805 0.00021399412 0.00010989849 -0.00027805881 -0.97955012 0.044296779
650000000 -0.97641504 0.049115237 -0.00032616613 1.2524929e-005 -0.00019996759 0.00069207686 -0.97867596 0.043508317
651000000 -0.97855961 0.04914169 -0.00031894588 -0.00033345685 -0.00068231154 9.5981624e-005 -0.9782362 0.043545656
652000000 -0.97652662 0.048502989 -0.00054567063 0.00013343542 0.00022690269 6.2936502e-005 -0.97783798 0.044057842
653000000 -0.97788405 0.049953561 0.00016670715 -0.0008736559 9.6818054e-005 -0.00054089184 -0.97849208 0.043979965
654000000 -0.97703707 0.049431767 6.3472935e-006 -3.1609623e-005 -0.0002473518 -0.00094212923 -0.97949296 0.043525822
655000000 -0.97634351 0.050118241 -9.3143171e-005 -0.00041025382 -4.739971e-005 -0.00020712668 -0.97711724 0.044696555
656000000 -0.97706187 0.049892735 -0.00060922059 -0.00057575339 -0.001005638 -0.00019737937 -0.97801387 0.044427406
657000000 -0.97688842 0.050661255 -0.00048609849 -0.0001097595 -0.00010170644 0.00033978058 -0.9788655 0.044626165
658000000 -0.97774726 0.048320919 -2.0544812e-006 -0.00025532997 0.00020026886 0.00030935978 -0.97690642 0.043312829
659000000 -0.97710049 0.048794702 -0.00036816913 -0.00041473142 -0.00021330704 0.00024511691 -0.97937727 0.044946816
660000000 -0.9764182 0.050065268 -0.00028539891 3.6654805e-005 -8.6831169e-005 -0.00013593218 -0.9779802 0.043874759
661000000 -0.97693193 0.050456107 0.00064534845 0.00041665198 -0.00053932122 -0.00061424344 -0.97804534 0.044634569
662000000 -0.97570038 0.050418425 -0.00043031649 0.00011053447 -0.00038931312 4.4983815e-005 -0.97990328 0.04374288
663000000 -0.9779166 0.048201211 -2.3687546e-006 -0.00022987665 0.00013404485 0.00035416754 -0.97762531 0.045017302
664000000 -0.97545421 0.048079137 -0.00045135515 0.00028004061 -0.00033276147 0.00010008088 -0.97966468 0.044446636
665000000 -0.97704387 0.05004378 -0.00020909995 0.00032161389 0.00019284525 -0.0005233541 -0.97825176 0.042832751
666000000 -0.97833788 0.049549803 -0.0009515842 -0.00020608962 -8.7868822e-005 0.00011546224 -0.97807103 0.044723839
667000000 -0.97536856 0.050394841 0.00043650297 -0.00040486446 0.00016285302 -0.00015035029 -0.97807759 0.044213664
668000000 -0.97728366 0.05030489 -0.00013299279 -0.00031135045 0.0001004409 -0.00078365137 -0.9780252 0.044880379
669000000 -0.97640234 0.050117612 -0.00010269601 0.00014900712 0.00023202911 0.00015168199 -0.97768086 0.043976251
