!Keysight Technologies,M9374A,MY55442783,A.12.55.05
!Date: Thursday, May 20, 2021 17:13:25
!Correction: S11(Full 2 Port(1,2)) 
!S21(Full 2 Port(1,2)) 
!S12(Full 2 Port(1,2)) 
!S22(Full 2 Port(1,2)) 
!S2P File: Measurements: S11, S21, S12, S22:
# Hz S  RI   R 50
500000000 -0.98077369 0.037732225 -3.297719e-005 3.0783987e-005 -0.00028349768 -0.00070224039 -0.97963279 0.034801707
501000000 -0.98175448 0.037452135 0.00041382859 -0.00012265077 0.00029989425 -0.00036210212 -0.98035473 0.034866922
502000000 -0.97988415 0.037303377 0.00011935253 -0.0010537199 -0.00030018378 -0.00044324136 -0.98028058 0.034892131
503000000 -0.97971725 0.037060414 -0.00024827936 -0.00021911092 -0.00023395954 -0.00069030822 -0.97952175 0.03441311
504000000 -0.98087841 0.038985405 -1.9898725e-005 0.00044271859 -0.00012520136 -0.00032284347 -0.98065281 0.034971073
505000000 -0.97962409 0.038614739 0.00038742652 9.7176104e-005 -0.0004137627 0.00049733976 -0.98048121 0.033788193
506000000 -0.98136252 0.038630813 -0.0010458899 -8.6471104e-005 0.00067207933 0.00048631526 -0.98065954 0.03442733
507000000 -0.97992963 0.040001683 0.00010583518 7.2567833e-005 -0.00060707657 -8.2529288e-005 -0.98044515 0.036242563
508000000 -0.98015976 0.03908043 0.00019368924 0.00018214648 0.00062940875 -0.00015002846 -0.98067611 0.035510421
509000000 -0.9799723 0.039203808 0.00050096551 -0.0004888621 -0.0002886368 -0.00040694472 -0.98003411 0.036147442
510000000 -0.9808197 0.040265456 0.00019170635 9.1074275e-005 -0.00025581219 -7.3274714e-005 -0.98021328 0.03633137
511000000 -0.9793306 0.039833553 -0.00012801283 -0.0006314991 0.00046588838 -0.00020839449 -0.97842139 0.035982884
512000000 -0.9788934 0.038990714 0.00014634896 -0.00034353006 9.7687895e-005 -0.00052026735 -0.98014897 0.036728688
513000000 -0.98036557 0.039689567 0.00030156094 5.7312349e-007 0.00011362902 0.00028586795 -0.98158795 0.035836287
514000000 -0.98017907 0.040014628 0.0001514436 -0.00010423932 0.00052440638 -0.00069622294 -0.97988337 0.035974246
515000000 -0.98132664 0.040255591 -0.00027562364 -0.0011173519 -0.00030662125 0.00013227877 -0.97917086 0.037465882
516000000 -0.97922236 0.039515253 -0.00029419598 0.0002046244 0.00071113708 -0.00045814601 -0.9810797 0.037005056
517000000 -0.97995818 0.040709779 0.00032258889 0.00064187817 0.00036234627 -0.00035280047 -0.97937578 0.035926603
518000000 -0.9802466 0.039352398 0.0006632178 0.00022188883 0.00015089674 -0.00073545199 -0.97966236 0.036179256
519000000 -0.98052645 0.041091807 -0.0001665969 -9.5859927e-005 0.00048524974 -0.00023431463 -0.98074561 0.037391406
520000000 -0.97910339 0.040816281 -0.00016979211 -0.00070302375 5.0227412e-005 0.00052082713 -0.97966588 0.036408801
521000000 -0.98002279 0.041786093 -0.00018226124 0.000396369 3.9971328e-005 0.00025819661 -0.98193884 0.037014104
522000000 -0.98108667 0.039421882 0.0001734221 -0.00077406899 -0.00032777977 -0.00034434788 -0.9805547 0.037631974
523000000 -0.98036426 0.040804304 0.00042726193 0.00077004632 0.00016356551 0.00040461391 -0.97986001 0.038232591
524000000 -0.98016626 0.041478824 -0.00025422077 -0.00024751786 -0.00050051685 -6.9334048e-005 -0.98055428 0.035649888
525000000 -0.97869539 0.042514723 -9.117178e-005 -0.00033218795 0.00027147567 0.00027102078 -0.98007578 0.037255179
526000000 -0.98059726 0.042122416 -0.00033514586 -0.00031998486 0.0010006935 0.00033684351 -0.98015004 0.037262883
527000000 -0.98177826 0.042067181 -0.00087883521 0.00041097516 -0.00025939033 -0.00054753223 -0.98136175 0.036973704
528000000 -0.97939765 0.040894546 0.0001806373 0.00048564182 9.3227227e-006 -0.00037555065 -0.97932327 0.038864058
529000000 -0.98027629 0.041390188 0.00012835336 -0.00036246938 -0.00093553099 0.00022174895 -0.97847492 0.037750177
530000000 -0.98064536 0.04161096 -0.00076476083 -0.00017847442 -0.00058724789 -0.00036187717 -0.97920281 0.037029739
531000000 -0.97942513 0.040260747 -0.0010894305 -0.00022531487 -0.00020811371 0.0005275585 -0.98050606 0.037735783
532000000 -0.97923762 0.041312184 -0.00025187456 -0.00019283388 -0.00054254284 8.2904997e-005 -0.97997177 0.037874464
533000000 -0.98036879 0.040736269 0.00019168065 -0.00051868503 -0.00028877048 0.00025758048 -0.97899055 0.038448822
534000000 -0.98116779 0.042134915 0.00053410314 -0.00013785098 1.3828695e-005 -0.00065702555 -0.98026049 0.038809016
535000000 -0.98074633 0.041608181 0.00086943578 0.00010760518 -0.00056594773 0.00070054416 -0.98020738 0.038312905
536000000 -0.97975808 0.041116036 0.00038521521 0.00029965973 -0.00075659156 0.00011360885 -0.97864074 0.039543364
537000000 -0.97916883 0.04149504 -0.00022418596 0.00012203555 -0.00034226934 0.0001910948 -0.97956795 0.037647188
538000000 -0.98031241 0.042073503 0.00024768888 -0.00020876102 -2.757778e-005 -5.0817594e-006 -0.98002899 0.038299739
539000000 -0.97980779 0.041817307 -9.4425719e-005 0.0003222207 -0.00084376102 -0.00012377568 -0.97923017 0.0386663
540000000 -0.98013347 0.041607928 0.00069477357 -3.7367296e-005 -0.00057609775 0.00010013623 -0.97983277 0.037582304
541000000 -0.97876561 0.042179544 -0.00095065165 -0.00015293411 0.00024313443 0.00018131702 -0.97994345 0.038512167
542000000 -0.97951239 0.042511158 9.3755451e-005 -0.0005552884 -0.00058085157 -0.00030726171 -0.97817367 0.038474027
543000000 -0.97923529 0.041643728 1.4735437e-005 -0.00014574728 0.00038540995 0.00043513946 -0.97920567 0.039171938
544000000 -0.98052734 0.041685145 -0.00037314708 -0.0012657212 -0.00044230165 0.00020934177 -0.9802354 0.037817523
545000000 -0.9796477 0.041752562 3.0148918e-005 0.00040652949 -4.2443848e-005 -0.00034387907 -0.97789484 0.038506247
546000000 -0.98061621 0.041782487 -0.00075238937 0.00035515361 -0.00035717315 0.00036609027 -0.98000836 0.039933451
547000000 -0.9804213 0.041809179 -0.0004595455 -0.00028726817 0.00024080563 0.00045774531 -0.98048693 0.039648827
548000000 -0.97991151 0.042272344 -0.00045626526 0.0001362568 0.0005851477 -6.2558109e-005 -0.97928643 0.038617097
549000000 -0.97992903 0.041484453 0.00033763406 0.00020724404 4.0056875e-005 0.00021410944 -0.97837663 0.039125323
550000000 -0.97887951 0.042357959 -0.00023917454 -0.00013316656 0.00010556416 -5.8456433e-005 -0.97909725 0.040104434
551000000 -0.97903627 0.042104241 -0.0003546552 -0.0012337655 -0.00015702978 0.00036728135 -0.98085958 0.037780225
552000000 -0.9781543 0.041821033 -0.00043794897 -0.00074686477 -6.3331878e-005 -0.00068369956 -0.97931868 0.038873896
553000000 -0.97976255 0.041852854 -0.00023786405 0.0001354329 -0.00072523346 0.00038301109 -0.97946197 0.039315823
554000000 -0.98043025 0.041328955 -0.00049832487 -0.00022621491 -0.00051768264 -0.00061230076 -0.98076421 0.039231353
555000000 -0.97947174 0.041696347 -2.003255e-005 -0.00047888048 0.00063595577 -7.1838383e-007 -0.97924012 0.039039627
556000000 -0.97917569 0.042554852 0.00022684099 -0.00027319568 0.00038534339 -0.00049913605 -0.97979361 0.039376266
557000000 -0.97922796 0.041477904 -6.4134097e-006 -0.00015094597 -7.4907264e-005 -4.4455104e-005 -0.97963792 0.039043602
558000000 -0.97869557 0.041052289 -5.7374426e-005 -4.4277636e-005 -0.0005804234 -0.00021651297 -0.97925115 0.039397564
559000000 -0.97858155 0.041719768 0.00039036665 0.00015374614 0.00022523783 0.00038574651 -0.98032743 0.040324699
560000000 -0.98066896 0.041652352 -3.2156517e-005 0.00042895417 -0.00029340622 0.00023349955 -0.980223 0.039903395
561000000 -0.97939724 0.042232752 0.0003953533 0.00024463795 -0.00044082807 -0.00040882538 -0.98008657 0.038431343
562000000 -0.97831291 0.042313412 0.00037626745 -0.00028258466 -0.00018764391 -0.00022750016 -0.97975403 0.039380729
563000000 -0.97971135 0.04209765 -0.00042508962 -0.00039177403 -7.367933e-005 -9.9945893e-005 -0.97938192 0.039898608
564000000 -0.97940123 0.041775547 -0.00051823037 -0.00032624239 5.6014596e-007 9.0627647e-005 -0.98042268 0.039157383
565000000 -0.98051941 0.041464861 -0.00012432087 -0.00062354456 3.9758266e-005 1.8198312e-005 -0.98006225 0.039442241
566000000 -0.97922385 0.041223962 -0.00018479323 3.4405496e-006 -0.00014094793 -0.00031094693 -0.97969717 0.039067376
567000000 -0.97925365 0.042270672 -0.00068466814 -0.00018350514 -3.7381942e-005 0.00050059252 -0.97871965 0.039081279
568000000 -0.97905308 0.042902306 9.3148905e-005 0.00038188626 3.3620993e-006 -0.00081649382 -0.98034561 0.039025191
569000000 -0.9786706 0.04142601 0.00035695621 -0.00086678489 0.00051217241 -5.0150895e-005 -0.97954834 0.039399527
570000000 -0.97893149 0.041995823 -0.0005478735 0.00023773905 -0.0004409776 0.00013157596 -0.97891235 0.039159529
571000000 -0.97871953 0.040169362 -6.2490544e-005 0.00025660239 5.3440184e-005 0.00018492082 -0.97965229 0.039088979
572000000 -0.97875643 0.042462546 -0.00055018853 0.00034141939 -0.00027967783 0.00083561917 -0.97935832 0.038964752
573000000 -0.97879165 0.040960293 -0.00027627009 -0.00035800657 -8.3511986e-006 -0.00033249368 -0.97948706 0.038898442
574000000 -0.97802353 0.041380942 -7.1957693e-005 -5.445717e-005 -0.00019864646 -0.00021005418 -0.9801231 0.039091725
575000000 -0.9788354 0.042775303 -0.000159647 7.019961e-005 0.00067836337 0.00029739604 -0.97977442 0.040019225
576000000 -0.97913229 0.041476496 0.00070862472 -1.048156e-005 -0.00078440172 -9.5227879e-005 -0.98074013 0.040200945
577000000 -0.97877562 0.042003404 -9.4633921e-005 -0.00060185028 -0.00073594332 0.00015464638 -0.98065734 0.037655085
578000000 -0.97840136 0.041582439 -0.00033346587 0.00047163141 0.00010214616 0.00054240931 -0.98009831 0.039045032
579000000 -0.97942775 0.042630263 -0.00037453137 -0.00044396214 -0.00077085459 -0.00011969797 -0.98039061 0.038671244
580000000 -0.9783476 0.041835643 1.3637509e-005 -0.0003197279 0.00078428729 -0.00014988329 -0.97962928 0.040173415
581000000 -0.97862995 0.040899668 3.671832e-005 0.00013122878 0.00018692853 -0.000281596 -0.98065299 0.039207935
582000000 -0.97913587 0.041116148 -0.00024077311 0.00084914715 0.00011398998 -0.00083774421 -0.98000896 0.038374741
583000000 -0.97740501 0.042331252 -0.00012078772 -0.0010776543 0.00036318207 -0.00031572525 -0.9793756 0.039702341
584000000 -0.97902328 0.041408725 -0.00044142397 -0.00014154516 0.00028102539 -9.1832062e-006 -0.98042214 0.040409345
585000000 -0.97916579 0.042263757 -0.00011061909 -0.00015855068 -0.00033263152 -0.00041941999 -0.9795031 0.039276171
586000000 -0.97888643 0.042362947 -0.00027085308 3.0043614e-006 -0.00015333353 -0.00013187216 -0.98057532 0.039112113
587000000 -0.97895557 0.043548182 -3.7309983e-005 -3.9955423e-005 0.00032184209 -5.1203391e-005 -0.97917604 0.039742026
588000000 -0.97846311 0.041590787 0.00020977971 -0.00030475887 0.00056960032 -0.00050092302 -0.98065633 0.040265806
589000000 -0.9786799 0.04298874 -0.00063647481 -7.4761767e-005 -0.00057268131 0.00032344632 -0.97932613 0.040745135
590000000 -0.97841358 0.042765167 0.00047817326 -0.00037045759 9.3938332e-005 -8.0989063e-005 -0.978329 0.039986551
591000000 -0.97799587 0.042256732 4.1240302e-005 -0.00010305118 -0.00039331688 -0.00012138944 -0.9798764 0.040092722
592000000 -0.98056507 0.042685159 -0.00015209042 -7.9376543e-005 -0.00028071148 5.9597874e-005 -0.97990775 0.040544514
593000000 -0.97806126 0.042589232 -0.00031579839 -0.00022478441 -0.00049695437 3.5842189e-005 -0.97961271 0.039824475
594000000 -0.97760361 0.042878564 -1.5410509e-005 -2.8292001e-005 -0.00041002012 -0.00040065564 -0.97870755 0.040345047
595000000 -0.97930509 0.042538267 -0.000108629 0.00031179044 0.00014533117 -0.00045375904 -0.98105907 0.040060837
596000000 -0.97826463 0.04287789 -0.00019568995 -0.0013298648 -0.00059503125 -0.00017505439 -0.97931206 0.039480239
597000000 -0.97944307 0.043607142 0.00061013497 -0.00090511231 -0.00054874516 -0.0010731436 -0.97974449 0.039904028
598000000 -0.97934037 0.04302647 -0.00080267951 0.00047685017 -2.077456e-005 -0.0010879003 -0.97999507 0.041134439
599000000 -0.97810405 0.044056829 0.00032870221 0.00026478298 -0.00012173394 -0.000701176 -0.97965658 0.041480012
600000000 -0.97849101 0.043464839 0.00041943518 0.00030284678 -0.0004454577 -0.00051419873 -0.97810239 0.040549707
601000000 -0.97954124 0.04380947 8.5476546e-005 -0.00091106573 -7.6312746e-005 -0.00018264676 -0.97842592 0.039863408
602000000 -0.97865003 0.042129274 -0.00018520292 4.4260483e-005 -0.0001379379 3.2490112e-005 -0.97941184 0.040269926
603000000 -0.97984076 0.043920498 0.00020345385 -0.00015197034 -7.9660625e-005 -0.00012943891 -0.97899389 0.040222004
604000000 -0.97742862 0.045151506 0.00027344323 -0.00060156907 0.00015249618 -0.00047921308 -0.97859734 0.041694526
605000000 -0.97933716 0.045732677 -6.9636524e-005 -0.00014774899 -0.00062001252 -0.00062338758 -0.97788984 0.041037276
606000000 -0.97991681 0.044777025 9.7390155e-005 -3.022447e-005 0.00011035227 0.00020496028 -0.97868848 0.041232526
607000000 -0.97815108 0.044213127 0.00030503864 0.00035318694 -0.00041792096 -0.00017229687 -0.97869629 0.040312015
608000000 -0.97867256 0.045279209 -0.00062892213 0.00063175155 -0.0010285542 -0.00046525151 -0.97942191 0.041616511
609000000 -0.97835809 0.044956069 0.00024210788 -0.00015240769 0.00038281694 -5.2716432e-006 -0.97994429 0.042059708
610000000 -0.97848719 0.045258254 0.00013339326 0.00040325211 -0.00019824006 -0.00042189652 -0.97916257 0.041665941
611000000 -0.97873968 0.044806007 -6.1090337e-005 -0.00048556086 -0.00030926859 -0.00084889343 -0.97798264 0.041312974
612000000 -0.97845751 0.046052478 -0.00013644283 0.00032075553 -5.7849644e-005 0.0001888324 -0.97939008 0.042404503
613000000 -0.97901052 0.045143921 -0.0002878152 7.3705305e-005 -0.00057126838 9.3638817e-005 -0.97801608 0.042211674
614000000 -0.97853309 0.045849729 -0.00068699277 -0.00022392177 -0.00042606826 0.00066879013 -0.97947437 0.04188611
615000000 -0.97815394 0.045423146 0.00038163536 0.00018639977 -0.00058866548 -0.000748789 -0.97942793 0.041383062
616000000 -0.97897696 0.046276961 8.8948887e-005 -0.00029264204 0.0008020089 0.00038347472 -0.97891247 0.042018127
617000000 -0.97919935 0.046001162 0.00017715784 -0.0001088608 -0.00073257752 -0.00018834107 -0.97928411 0.043125626
618000000 -0.97819245 0.045694195 -4.4698758e-005 -0.00028103002 0.00025117202 -0.00072722434 -0.97934341 0.042795882
619000000 -0.9782427 0.046897598 -0.00013258612 0.00039334627 8.7052518e-005 0.00072528201 -0.97920936 0.041956145
620000000 -0.97784436 0.04519885 -0.00044495365 -0.00046596045 -0.00023750545 -0.00025943475 -0.97872466 0.042351589
621000000 -0.9792707 0.046469748 0.00045535187 -0.00012461167 0.0011979319 -6.0250724e-005 -0.97894776 0.043376658
622000000 -0.9776637 0.046139173 0.00034312409 0.00077798287 0.00020696821 -0.00050293625 -0.97956365 0.043689538
623000000 -0.9781152 0.048176736 -0.00020571101 -0.00039629769 8.5524414e-005 0.00023509921 -0.97778922 0.043085493
624000000 -0.97798532 0.046837732 0.0003175321 0.00036608597 -0.00055721088 0.00019558491 -0.97978163 0.04263413
625000000 -0.97832578 0.047216792 -0.00018954801 -9.8840583e-006 -8.9186309e-005 0.00038907991 -0.97777683 0.041786637
626000000 -0.9789722 0.047384184 6.8959045e-005 0.00010377762 -0.00022224171 0.00066627638 -0.97897226 0.043189853
627000000 -0.9776116 0.046390411 -0.00050517404 -0.00051642803 1.2879699e-005 -0.00018774263 -0.97882658 0.042419314
628000000 -0.97812271 0.047345698 0.00038131204 -0.00072298344 0.0002037563 -0.00069447164 -0.97832912 0.043063119
629000000 -0.97865784 0.048379999 -3.9922481e-005 0.00065096479 0.00024641 2.751361e-005 -0.97932124 0.043150164
630000000 -0.9781884 0.049288586 6.1985462e-005 -0.00047881075 -0.00026481366 -0.00016661534 -0.97875452 0.04394041
631000000 -0.97751671 0.04755675 -0.0001252701 0.00046072539 2.541679e-005 -0.00054605212 -0.97947937 0.042525291
632000000 -0.97829032 0.048036501 0.00063928094 -0.00054672221 -0.00022038311 0.00031083424 -0.97921956 0.043042965
633000000 -0.97929329 0.049068507 1.2125267e-005 7.0532093e-005 -0.00016101076 -0.00059682847 -0.97843856 0.042147335
634000000 -0.97823489 0.049413051 -0.00026282645 -0.00035083838 -1.7402363e-005 -0.00038152977 -0.97938985 0.04396189
635000000 -0.97893393 0.048499312 2.6805557e-005 2.0296438e-005 -0.00033004209 -0.000726256 -0.97844523 0.043883845
636000000 -0.97721237 0.048364587 -0.00010855985 0.00058760855 -0.00044778982 -9.1673661e-005 -0.97910422 0.043627258
637000000 -0.97728044 0.048579242 8.995214e-005 0.00065601652 -0.00049275463 -0.00014852289 -0.97832745 0.042689186
638000000 -0.97736591 0.048789807 0.0015154877 0.00056154019 -2.9883947e-006 -0.00032362371 -0.98035532 0.042867754
639000000 -0.97910064 0.048855692 -0.00019738964 -0.00065782934 0.00010032522 -2.1840484e-005 -0.97853297 0.044428952
640000000 -0.97691369 0.049407057 -1.0363086e-005 -0.00051563344 -0.00056801212 -5.6382371e-005 -0.97806025 0.043420676
641000000 -0.97920859 0.049217161 -0.00024426554 -0.00033021995 5.1118121e-005 -0.00044652342 -0.97800934 0.04439804
642000000 -0.97820127 0.049313076 0.00059653068 9.3822564e-005 3.6015503e-005 0.00041574551 -0.97812301 0.043883026
643000000 -0.97814143 0.049317684 -0.00055530277 0.00029513772 8.1204358e-005 -1.163493e-005 -0.97958088 0.043848608
644000000 -0.97771662 0.049704295 2.3729423e-005 -0.00098169001 -5.3228352e-005 8.8073639e-006 -0.97727633 0.043860376
645000000 -0.97847015 0.049272135 0.00021345825 0.00073549431 -4.2830456e-005 -0.0001637817 -0.9790439 0.043764625
646000000 -0.97751671 0.05060247 -0.00038178204 0.00018150947 -7.9998172e-005 0.00010144017 -0.97774965 0.044735927
647000000 -0.97823638 0.049761642 2.3860031e-005 -4.9769329e-005 -0.00049825019 -0.00017959074 -0.97902566 0.044397037
648000000 -0.97846681 0.050559606 -0.00020908879 -0.00012335744 -0.00017709281 -0.00040817269 -0.97927719 0.045512315
649000000 -0.97858936 0.049843278 -0.00025443881 -0.00015946903 0.0001968195 -0.00010122547 -0.97897458 0.043900218
650000000 -0.97656584 0.050253451 -1.8036806e-005 5.1827348e-005 -0.00029498833 -0.00014401368 -0.97753096 0.044367816
651000000 -0.97759956 0.048371434 7.6148644e-005 -0.00026368891 0.00023023465 5.7335092e-005 -0.97887796 0.044584781
652000000 -0.97801864 0.051597152 0.00043681799 7.3783776e-005 7.6598917e-005 -7.0901544e-005 -0.97743666 0.042630073
653000000 -0.97770357 0.050405171 -0.00024442637 0.00053799764 0.00038566082 -0.00045211185 -0.97808945 0.043786284
654000000 -0.97796845 0.050757464 9.3697585e-005 0.00019350485 -0.00012278321 0.00017690667 -0.97975594 0.044321157
655000000 -0.97776723 0.050704952 -0.00045959186 0.00029139061 -2.1987873e-006 -0.00015690041 -0.97875291 0.045210868
656000000 -0.97805041 0.051361237 0.0004388667 -0.00040674847 -1.2768318e-005 -0.00019135707 -0.97785103 0.044246446
657000000 -0.97729599 0.050596178 0.00070836151 -0.00022519048 -0.00048640394 -0.00045519802 -0.97899973 0.044961844
658000000 -0.97775716 0.050595757 -4.1831336e-005 -0.00049502926 4.1078958e-005 0.0003387155 -0.97877359 0.043844782
659000000 -0.97716922 0.049904305 -0.00010263808 -7.036022e-005 -0.00036207328 -0.00040396841 -0.97822672 0.044806845
660000000 -0.97760355 0.050525799 -1.1773976e-005 0.00066256453 -0.00050509139 -0.00092772127 -0.97917837 0.044195045
661000000 -0.97885644 0.050695222 -0.00019644978 -0.00042051694 -0.00010751432 -0.00085504405 -0.97944123 0.04536856
662000000 -0.97715539 0.05019762 -0.00069556851 -3.0045796e-005 -7.8143108e-005 -6.7991554e-005 -0.97911388 0.044940274
663000000 -0.97816259 0.050139233 -0.00086300337 0.00066998834 -7.7670447e-005 0.00012963556 -0.97793603 0.044692319
664000000 -0.97751057 0.049620319 -0.00012101433 -0.00051825598 0.00068458891 -0.00043226022 -0.97847885 0.044157136
665000000 -0.97749609 0.05056062 -0.0005604421 -8.4051535e-005 0.00056709966 -0.00021500245 -0.97926354 0.045028325
666000000 -0.97800964 0.050785281 -0.00019396318 0.00033592654 0.00092285243 -0.00076465128 -0.97787708 0.043536626
667000000 -0.97675544 0.050860081 0.00035516761 0.00072775339 2.4084189e-005 -0.00012217161 -0.97747982 0.043107204
668000000 -0.97777438 0.050314609 0.00021049229 0.00017055291 0.0002643191 -0.00023419077 -0.97837067 0.044674721
