!Keysight Technologies,M9374A,MY55442783,A.12.55.05
!Date: Thursday, May 20, 2021 17:24:05
!Correction: S11(Full 2 Port(1,2)) 
!S21(Full 2 Port(1,2)) 
!S12(Full 2 Port(1,2)) 
!S22(Full 2 Port(1,2)) 
!S2P File: Measurements: S11, S21, S12, S22:
# Hz S  RI   R 50
500000000 -0.98034692 0.037810806 0.00030764652 -0.00067307916 0.00028003057 -0.0002633321 -0.98052245 0.034862004
501000000 -0.98036849 0.037702993 -0.00021590314 -0.00050709542 0.00011536996 -0.00028896838 -0.9811973 0.03508275
502000000 -0.98056251 0.0376109 3.5850396e-006 0.00011225333 -2.53648e-005 -6.9159585e-005 -0.9806987 0.033755001
503000000 -0.98025781 0.03713489 -0.0010251534 -0.00028541189 -0.00043528175 -0.00037551456 -0.97983974 0.036249485
504000000 -0.97997165 0.03719683 0.00027772304 1.1659972e-005 0.00093022437 -7.9886595e-005 -0.98159349 0.034986496
505000000 -0.97997832 0.038429018 -0.00056568085 6.928829e-005 0.0005387555 -0.00039842766 -0.98051959 0.034770921
506000000 -0.9798556 0.037708398 0.00011252355 -0.00026218084 0.00080586434 -0.0006803649 -0.9802466 0.036129363
507000000 -0.98036325 0.038370796 -0.00047061447 -0.00034708646 -0.00015331493 -0.00067786436 -0.98086995 0.035582937
508000000 -0.98020595 0.039231036 0.00068969047 -0.00015037565 -0.00034296562 -0.00091518165 -0.980115 0.036955539
509000000 -0.98029679 0.039636157 -0.00064716104 -0.00017406343 0.00032340555 -0.00039202045 -0.98041254 0.035913866
510000000 -0.97890401 0.037784729 -2.6256195e-005 -0.00032908501 -0.0012769861 -3.709697e-006 -0.97892565 0.035877142
511000000 -0.97882164 0.039316911 0.00022750976 0.00035663327 -0.00060651492 0.00041034483 -0.97996414 0.03511925
512000000 -0.97976923 0.039281286 0.00011451921 -0.00028607261 -0.00091097452 -0.00014170715 -0.97981876 0.036136832
513000000 -0.98068863 0.039361853 0.00049608399 -5.8876492e-005 8.6984081e-005 8.1199796e-005 -0.98069608 0.035309441
514000000 -0.98003995 0.03913245 -7.1587398e-005 0.000249317 -7.8115445e-005 0.00050707237 -0.98068696 0.036437307
515000000 -0.9808144 0.039940465 0.00036829492 -0.00074528594 -0.00034086316 0.00018238254 -0.97940004 0.037378445
516000000 -0.97908396 0.039619688 -0.00017696488 0.0003407326 -0.00044432757 -0.00012701255 -0.98048353 0.036165308
517000000 -0.97971195 0.040745419 -0.00024963409 0.00041748019 -6.4875181e-005 0.00027960082 -0.9783507 0.036001254
518000000 -0.97910136 0.039178371 -0.0006347429 -0.00079662655 0.00025753351 -0.00024125213 -0.98146862 0.03679755
519000000 -0.97961712 0.040637352 -0.00056977477 -0.00026916288 -0.00012173125 0.00053823716 -0.97946054 0.037208121
520000000 -0.97944736 0.039914392 -5.9367358e-005 -0.00027580332 -0.00023913618 4.8867969e-005 -0.97927022 0.037300911
521000000 -0.97898412 0.040531062 -0.00017821995 -1.5253536e-005 3.4795561e-005 0.00036272063 -0.98079383 0.03762221
522000000 -0.97982228 0.040599789 0.00080466788 -0.00016439128 4.7653612e-005 -0.0010710167 -0.97874492 0.038162608
523000000 -0.97928095 0.039853811 0.00042740497 -0.00031531148 0.00070691889 0.00011666602 -0.98120373 0.036072779
524000000 -0.97951007 0.041437183 0.00041239109 -3.0265937e-005 -5.844672e-005 -0.00012714685 -0.98138088 0.03673324
525000000 -0.97881436 0.040608969 8.9730922e-005 8.0415499e-005 2.0114314e-005 -0.00072929339 -0.98034579 0.037494458
526000000 -0.97963673 0.040943041 0.00026805556 0.00050762051 1.3990672e-005 -0.00026710116 -0.98048496 0.03802624
527000000 -0.98046124 0.041193087 0.00054451037 0.00032154619 -6.5608067e-005 0.00027490477 -0.97992224 0.038604505
528000000 -0.97865808 0.041024394 0.00035542322 -0.00046060621 0.00022978199 -0.00033066227 -0.97874355 0.039357178
529000000 -0.97962564 0.042156354 0.00031815036 6.4254382e-005 0.00042427512 2.0157437e-005 -0.97963619 0.038034849
530000000 -0.97947961 0.04071632 8.0439704e-006 -0.0004120981 -0.00018583119 -0.00011497496 -0.98147875 0.037624385
531000000 -0.98029864 0.041036095 0.00075201056 -0.00028298426 0.00043038154 0.00013441953 -0.98063922 0.038402721
532000000 -0.97815138 0.040566396 6.1954561e-005 -4.1650612e-005 4.5251167e-005 -0.00045415532 -0.9790743 0.039206248
533000000 -0.97984785 0.040653892 -2.1856686e-005 -0.0004020097 -0.0005145584 0.00019106279 -0.97893506 0.038273022
534000000 -0.97938448 0.040434718 0.0002264278 -0.00056425674 0.00034175144 -0.00036012635 -0.98096287 0.038409043
535000000 -0.98004943 0.041061435 -0.00066123897 0.00022044762 0.00060004368 0.00012316821 -0.97902769 0.037705656
536000000 -0.97908795 0.040206198 -0.0001280274 7.9707042e-006 0.00023405944 6.9718306e-005 -0.97931331 0.037596095
537000000 -0.980102 0.041833501 0.00060049718 0.00029036391 0.00031199108 0.00045238351 -0.97942185 0.03836187
538000000 -0.97918695 0.041989274 -0.0003263003 0.00013783535 0.00041686869 -0.00016581245 -0.9791593 0.037379988
539000000 -0.9796207 0.042051952 -0.00047257778 -0.00066038669 -0.00067619351 -0.00013937474 -0.97989988 0.03900009
540000000 -0.97916198 0.041896574 -0.00034810285 -0.0001508041 8.7959152e-006 0.00081354746 -0.98016697 0.039075773
541000000 -0.97947955 0.044097528 0.00031586169 0.00018190872 0.00053986133 6.4299697e-005 -0.98034805 0.038108956
542000000 -0.98023528 0.041654844 0.00011804907 0.00047005687 -0.00042094593 -0.00013918955 -0.97978598 0.039300684
543000000 -0.9786467 0.041639782 0.00047947242 -0.00018688098 -2.3961487e-005 -0.00022903216 -0.98051703 0.038880173
544000000 -0.97900528 0.042553857 0.00021341066 -0.00030156103 -3.2006996e-005 2.5079873e-005 -0.98045993 0.038087476
545000000 -0.9799704 0.042602558 -5.265182e-005 -9.9243924e-005 -0.00072135078 0.00038839053 -0.979276 0.038787179
546000000 -0.97945291 0.041608457 0.00018117126 0.00037795032 -0.00017030808 -8.4494686e-006 -0.98014396 0.038904216
547000000 -0.97931904 0.042211037 -0.00038842912 -0.00085157307 0.00033611717 -0.0010136218 -0.97853142 0.038138222
548000000 -0.97822344 0.042153351 -0.00024097673 0.00019712353 0.00039092009 -0.00057981908 -0.98034805 0.038623124
549000000 -0.97850144 0.041982543 -0.0010723013 0.00043875206 -0.00058883074 -0.00023361483 -0.98039114 0.039570205
550000000 -0.97748613 0.042086516 -0.00039272284 0.00026378097 -4.2945481e-005 0.00017558326 -0.97951788 0.039420433
551000000 -0.97857457 0.042063177 -0.00015875207 -0.00070590927 -0.00070206856 0.00014359778 -0.97918516 0.038783699
552000000 -0.97997063 0.040192183 0.00019468695 -0.00016984086 0.00068105292 0.00040752743 -0.98081952 0.038911097
553000000 -0.97873801 0.041641042 -0.00018001854 -0.00022875247 -2.0840667e-005 -6.1472987e-005 -0.97958732 0.037843417
554000000 -0.97992152 0.040331874 6.9843853e-005 7.1312657e-005 -0.00037288829 -0.00016663785 -0.97873491 0.038545717
555000000 -0.97863019 0.041638035 0.00021223868 -0.00014087274 4.5027966e-005 0.00026725058 -0.97939992 0.039301302
556000000 -0.97875315 0.04200213 -0.00027250618 -0.00040337964 -0.00016820188 0.00022269762 -0.98026192 0.039636303
557000000 -0.97952789 0.043104008 0.00050060364 -3.5592173e-005 0.00025754 -4.0569463e-005 -0.98041975 0.038829725
558000000 -0.98016274 0.041746486 0.0003795542 -0.00067503972 0.00039980267 -0.00031026977 -0.98008364 0.038549952
559000000 -0.97910923 0.040397033 -4.9766877e-006 -0.0004789957 -0.00066471833 0.00035067226 -0.97974908 0.039234944
560000000 -0.97894794 0.043229725 -0.00025538262 -0.00049413089 0.00081527384 1.4075395e-005 -0.98072726 0.039224714
561000000 -0.97868955 0.041067157 1.8906203e-005 0.0001842362 0.00025352629 2.2840948e-006 -0.97890443 0.038719971
562000000 -0.97819668 0.041481003 0.00050129619 0.00047155636 -0.00085427449 0.00017511618 -0.97971016 0.038879901
563000000 -0.98023868 0.04231526 -0.00045588374 0.000479779 9.9004399e-005 -0.00019937013 -0.97987324 0.039320905
564000000 -0.9790982 0.041429672 -0.00032516994 -0.00036313385 0.00054994412 4.9589835e-005 -0.97924703 0.038942393
565000000 -0.97880888 0.039985534 0.0002210752 0.00087759603 0.00031803528 -0.00030054094 -0.98076028 0.039221052
566000000 -0.97905713 0.040114883 0.00022212963 -0.00056691421 -0.00019847446 0.00086136896 -0.97960359 0.038853005
567000000 -0.97900325 0.042257696 0.00085792999 -0.00029712784 -0.00014843752 0.00044488322 -0.97948736 0.038645826
568000000 -0.97864395 0.041394271 -0.00025975518 -0.00051368237 -0.00035913044 -0.00013549098 -0.98021847 0.038934704
569000000 -0.97923571 0.041153215 0.00021983938 0.00039102219 -0.00035522401 6.0782386e-005 -0.97966135 0.038430404
570000000 -0.97876918 0.042377092 0.00019119179 -0.00092346285 -0.00080952462 -0.00013606084 -0.97927058 0.039424874
571000000 -0.97916853 0.041553117 -0.00031094791 -0.00019625842 -0.00012671853 0.00018867016 -0.98002797 0.038749486
572000000 -0.97716188 0.041069012 -0.0007392735 -9.6351701e-005 5.67645e-005 -0.00057778257 -0.97915655 0.039688412
573000000 -0.97910905 0.040999144 0.00077547343 0.00022387526 -0.0003071898 -0.00043177631 -0.98033655 0.039569322
574000000 -0.97773027 0.04051026 6.9005218e-005 -0.00015486521 3.2845357e-005 -7.958628e-006 -0.98027295 0.038746905
575000000 -0.97775632 0.042049646 -0.0001400183 -0.00013562563 -3.876261e-005 -0.00068128848 -0.98078984 0.039586816
576000000 -0.97899097 0.041356102 0.00040569706 -0.00015290105 -0.0003005882 -0.00060043059 -0.98055696 0.039963741
577000000 -0.97872615 0.042491049 -0.00022788624 0.0002358015 -0.00013692887 0.00010831091 -0.98012239 0.039675951
578000000 -0.97878468 0.041540287 -0.00051467045 0.00021806189 -4.066218e-005 -0.00010830333 -0.98033923 0.03861884
579000000 -0.97780555 0.041548248 0.00022248013 -0.00051459135 -0.00013573399 0.0002737508 -0.98040169 0.040027007
580000000 -0.97863382 0.041305706 -2.0653663e-006 -0.00064883486 0.0012371588 6.6631032e-006 -0.97935796 0.039811112
581000000 -0.97808099 0.041918587 -9.3063165e-005 0.00013094359 -0.0002283529 -0.00032162192 -0.98088753 0.038982
582000000 -0.97846174 0.042554297 -0.00074809161 0.00077088532 -0.00016584374 8.4329913e-005 -0.97990602 0.038499884
583000000 -0.97884709 0.043058258 -0.00019937885 -0.00058337871 0.00040822764 -0.00046452013 -0.97957081 0.040020566
584000000 -0.97750771 0.041574419 -0.00093678455 0.00033593908 3.8115399e-005 0.00025795525 -0.98119086 0.040485673
585000000 -0.97938812 0.041718092 0.00026947356 -0.00015391437 -0.00035961953 0.00019994845 -0.97981155 0.039338693
586000000 -0.97937667 0.042191889 0.00028615794 -0.00071846094 -0.00014355776 -0.00020136137 -0.97945648 0.039148796
587000000 -0.97990394 0.043015253 -5.484328e-005 -0.00018879111 0.0001461902 -0.00075839891 -0.97983634 0.039653514
588000000 -0.97798944 0.042142581 0.00024764359 -0.00057166931 -0.00079453789 0.00028090095 -0.97944713 0.040751968
589000000 -0.97913665 0.041336078 0.00094408944 -0.00022929879 -5.5731682e-005 -0.00020708509 -0.97932667 0.040571287
590000000 -0.97836703 0.041835949 0.0002772962 -8.4633706e-005 -0.0005857636 -6.2914419e-006 -0.97924882 0.039451551
591000000 -0.97736841 0.041666798 -0.00055869459 -0.00029878941 -0.00014013339 -0.00040497383 -0.97913527 0.040066361
592000000 -0.97907156 0.041647345 -0.00018934833 -0.00012220851 6.1109975e-005 -0.00027368465 -0.98006171 0.039735738
593000000 -0.97872138 0.043167911 -0.00015465231 -4.2198866e-005 -0.00040276023 -0.00027401591 -0.98151153 0.039727498
594000000 -0.97720021 0.042857654 -9.6989272e-005 -0.00043211301 -0.0010346326 -0.000119387 -0.98021662 0.040113498
595000000 -0.97932422 0.041479833 0.00045176866 -5.4124772e-005 -0.00058488897 -0.00030793218 -0.97958219 0.039877739
596000000 -0.97876126 0.042731747 -0.00025960166 0.0001079725 -0.00075502135 -0.0007661024 -0.97933966 0.040121712
597000000 -0.97825187 0.041969877 -0.00064322469 0.00030963944 1.7468532e-005 -0.00032098274 -0.97966754 0.040633041
598000000 -0.97835928 0.042829666 -0.00074890075 -0.00077329413 -0.00013756739 7.759712e-005 -0.9796443 0.041299772
599000000 -0.97840106 0.043244433 0.00030148608 0.00015608755 -0.00044896154 0.00018700016 -0.98020089 0.040828068
600000000 -0.97833306 0.04350742 -0.00032601855 0.00025588623 -0.00089606742 -0.00059202418 -0.97864825 0.041391265
601000000 -0.97861356 0.044409037 0.00017096606 -0.00044235284 -0.00037391242 0.00045392491 -0.97917432 0.039664745
602000000 -0.97878295 0.043132961 0.00070001895 0.00072917406 -0.00016368783 0.00014669295 -0.98055071 0.040796459
603000000 -0.97918707 0.044205643 -0.00051387667 -2.3397022e-005 0.00015208725 4.2230557e-005 -0.97855103 0.040914375
604000000 -0.97762012 0.044234272 -0.00098921626 -0.00022499677 -0.0006848966 0.00022707587 -0.97886586 0.040176444
605000000 -0.97867787 0.045062233 -0.00075120485 -0.00043066841 -0.00052794575 -0.00050179724 -0.97882146 0.041186117
606000000 -0.97753519 0.045471087 -0.00032992224 -0.00083954196 -0.0010865276 -0.00024377058 -0.97797632 0.040925812
607000000 -0.97824275 0.044291034 -0.00070409779 -9.0950176e-005 0.00030077371 -0.00043354952 -0.97855234 0.040498968
608000000 -0.97734827 0.044179276 0.00011558519 -0.00030183524 -0.00018977885 1.0737629e-005 -0.98036355 0.040753309
609000000 -0.97810268 0.044556003 0.0005996878 0.00050652248 -0.00046299162 2.0274041e-005 -0.97798699 0.041716006
610000000 -0.97823197 0.046001766 5.8322781e-005 3.5116314e-005 -0.00077963795 -0.0003179601 -0.9787848 0.040350031
611000000 -0.97875589 0.044986177 4.5388683e-006 -3.3714703e-005 -9.190054e-005 5.7736852e-005 -0.9786942 0.040932961
612000000 -0.97732633 0.046038069 0.00037888679 6.0874321e-005 0.00010670086 -7.8398829e-005 -0.97949654 0.041271269
613000000 -0.97849202 0.044838138 -0.00018069107 0.00011892182 -0.00085306342 0.00016663475 -0.98041028 0.041372705
614000000 -0.97849667 0.04498557 -0.00026856267 1.9962197e-006 -7.6803781e-006 -0.00036772934 -0.97923136 0.041474015
615000000 -0.97756362 0.045742355 0.00039014549 -0.00053351728 -0.00038758622 7.5747914e-005 -0.97873533 0.041709159
616000000 -0.97719049 0.046531942 -0.00073810376 0.00025860898 0.00054555008 0.00028530508 -0.97859788 0.042188384
617000000 -0.97842395 0.046502672 6.4152184e-005 -0.00024986351 -0.00034418661 -0.00033830089 -0.9792186 0.042423289
618000000 -0.97808319 0.045564614 0.00046373552 6.2051004e-005 0.00018489847 -0.00073526555 -0.97849107 0.042440962
619000000 -0.97678769 0.046884976 -9.8592545e-006 8.5838983e-005 0.0001814804 0.00018221558 -0.97872436 0.041649446
620000000 -0.97587961 0.046383854 -0.00031403126 4.687153e-005 3.4347288e-006 3.6458081e-005 -0.97833765 0.042014163
621000000 -0.97796178 0.045611672 -5.5316003e-005 -0.00020192667 0.00046619881 -0.00050663232 -0.97888434 0.042389948
622000000 -0.97777742 0.046303794 0.00061385822 -0.00020489072 -0.00075907324 0.00015913241 -0.98043895 0.042802759
623000000 -0.97665101 0.046393316 -0.00015805263 0.00031894568 0.00076383958 9.6622985e-005 -0.97845161 0.042966839
624000000 -0.97732407 0.04618996 -0.0004971957 -0.00029120225 -5.8252284e-005 0.00014210532 -0.97955179 0.042220533
625000000 -0.97826761 0.047859877 -0.00030028008 -0.0012569164 0.00018351238 -0.00024887992 -0.97844261 0.041900795
626000000 -0.97950834 0.047467433 -0.00037947422 0.00025871163 0.00049405784 -0.00080465898 -0.97779214 0.042972557
627000000 -0.97845674 0.047306146 0.00072494475 0.00021857193 0.0010076397 -0.00014770481 -0.97835189 0.042747825
628000000 -0.97767061 0.047643635 -0.00063759612 0.00029746225 -0.00019324585 0.00017150745 -0.97898322 0.042738043
629000000 -0.97845185 0.048700083 -0.0001602064 -0.00048368395 -0.00051038491 0.00013162394 -0.97879988 0.043685045
630000000 -0.97769773 0.048393358 -0.00041729849 -0.00097089133 -0.00027532471 -0.00076104846 -0.97895366 0.044028714
631000000 -0.97859281 0.046800669 -6.7690899e-006 -9.2721912e-006 -0.00021152795 0.00028627043 -0.97890323 0.043483116
632000000 -0.97793019 0.048495077 1.3156528e-005 0.00010676106 0.00018094636 0.00038949194 -0.97837245 0.043120436
633000000 -0.97726649 0.048197858 -0.00022981425 -0.00059608597 -0.0001841846 -0.00031319386 -0.97823304 0.043759599
634000000 -0.97860444 0.049538102 0.00029647333 -0.00024276593 0.00033244683 -2.5007214e-008 -0.98009408 0.042932834
635000000 -0.97777134 0.048790328 0.00019609522 0.00033617183 0.0003347556 -0.000331897 -0.97914588 0.043337472
636000000 -0.97762334 0.047405086 -0.00023198764 -0.00072599173 -4.7490626e-005 -0.00040778134 -0.97920334 0.043234039
637000000 -0.97715682 0.049178563 -6.6132947e-005 0.00022644078 -5.9600283e-005 -0.00027120288 -0.97819942 0.043045577
638000000 -0.97694695 0.049032118 0.00031328094 -0.00040820619 0.00027241991 -0.00027122142 -0.97853756 0.04323969
639000000 -0.97844255 0.048208132 -0.00030591266 0.00055998639 2.4431425e-005 -0.00026478188 -0.97843319 0.044823278
640000000 -0.9769026 0.04870889 -0.0001737804 -0.00014300342 0.00013897488 0.00012916556 -0.97863895 0.043972641
641000000 -0.97801942 0.048351813 0.00030407886 0.00010239208 0.000159305 0.0003144301 -0.97841948 0.044082068
642000000 -0.97744274 0.048987042 3.9928022e-005 -0.00027994931 0.00025931484 0.00079061557 -0.97953737 0.044135626
643000000 -0.97638702 0.04983601 0.00049229397 -0.00033429335 0.00039613535 0.00023169392 -0.97785157 0.044051256
644000000 -0.97710168 0.048268888 -0.00095819432 -0.00024606951 -0.00032865762 0.00021121719 -0.98006403 0.044298507
645000000 -0.97738373 0.049612291 0.00067567185 6.4621054e-005 -0.00046612107 -0.00051406812 -0.97914827 0.044653066
646000000 -0.97623074 0.0483541 3.8538604e-007 0.00019301436 -0.00017328454 0.00022682241 -0.97895098 0.044232223
647000000 -0.97802031 0.049888793 0.00013522753 -0.00029211323 -3.1807635e-005 0.00039760198 -0.97803968 0.043956406
648000000 -0.97673118 0.050507002 -0.00053241407 -0.000365452 -0.00017437148 2.0996802e-005 -0.97866744 0.044712331
649000000 -0.97758979 0.050172195 -0.00067968201 -0.00024868248 0.00038971758 -0.00013792314 -0.97664392 0.043979716
650000000 -0.97735506 0.049243402 -0.00055525417 0.0002997538 0.00015409173 0.00028887042 -0.97773761 0.0440358
651000000 -0.97694933 0.048698004 -8.5776119e-005 -7.5495002e-005 -2.5131572e-005 -0.00014163794 -0.97850215 0.043965355
652000000 -0.97762293 0.049546238 1.8712095e-005 0.00037698582 -0.0005122376 -0.00032585338 -0.97684008 0.044322621
653000000 -0.97689974 0.051304821 -0.00082247664 -0.00059320172 3.0155605e-005 -0.00029869188 -0.97894168 0.042885728
654000000 -0.97710365 0.049970314 -0.00026611044 0.000591302 0.00031770405 -7.3385461e-005 -0.97904545 0.044106409
655000000 -0.97737241 0.049925271 0.00012375295 2.4078132e-005 -0.00020885066 -0.00042156229 -0.97849673 0.044667415
656000000 -0.97721994 0.051266439 -0.00072495284 0.00017168169 0.00036360344 -0.00019192309 -0.97935754 0.044949882
657000000 -0.97844183 0.049859237 0.00042197859 -0.0003063374 -0.00023944383 -0.00030949473 -0.97909242 0.044878911
658000000 -0.97866303 0.050172716 -0.00016309574 0.0002299646 -0.00024433722 0.00030501711 -0.9784115 0.044953354
659000000 -0.97732902 0.049329907 0.00055152614 0.00022275583 0.00016175531 0.00012038865 -0.97839397 0.044433851
660000000 -0.97733802 0.052248303 0.0011432286 1.583308e-005 0.0001962909 -0.00032287664 -0.9778952 0.04445326
661000000 -0.97788775 0.049616043 -1.2301684e-005 -0.00015916076 -0.00032557521 -0.00085259712 -0.97740424 0.045297731
662000000 -0.97779441 0.050557878 -0.00035746538 -0.00099434156 -0.0005091583 -0.0008250731 -0.98009288 0.045698836
663000000 -0.97795814 0.050712995 -0.00026510484 -0.00013315729 0.00022617455 -1.7793378e-005 -0.97732449 0.044234812
664000000 -0.97661167 0.0498356 -0.0001384207 -0.00056557817 -0.00029965033 -0.00016045988 -0.97927481 0.043554652
665000000 -0.9772445 0.050034218 0.00030765551 -0.00052864273 0.00047881497 -0.00030164703 -0.97900146 0.04474628
666000000 -0.97857362 0.050021254 -8.2794955e-005 -0.00020146341 0.0005057212 -0.00049592444 -0.97860879 0.044186458
667000000 -0.97756112 0.050906859 -0.0010727025 -0.00048964459 -0.00025934714 0.00018045792 -0.9786917 0.044647511
668000000 -0.97722024 0.05064141 -0.00040458079 -0.00063697639 0.0002594793 -0.00021173882 -0.97823322 0.044122431
