!Keysight Technologies,M9374A,MY55442783,A.12.55.05
!Date: Thursday, May 20, 2021 16:36:03
!Correction: S11(Full 2 Port(1,2)) 
!S21(Full 2 Port(1,2)) 
!S12(Full 2 Port(1,2)) 
!S22(Full 2 Port(1,2)) 
!S2P File: Measurements: S11, S21, S12, S22:
# Hz S  RI   R 50
500000000 -0.97946572 0.039070096 0.00014299458 -0.00025437129 -0.00019471845 -0.00049228646 -0.97989136 0.035288066
501000000 -0.97958964 0.039411373 -0.0001826735 0.00012658215 -0.00050250191 0.00037329289 -0.98023611 0.035306327
502000000 -0.9798677 0.038544782 -1.9935235e-006 1.6616235e-005 -0.0003366523 8.7212989e-005 -0.98057944 0.035480253
503000000 -0.97962612 0.039155953 -0.00025229363 0.00020341079 -0.0010591808 0.00079407549 -0.97946382 0.03599279
504000000 -0.97815305 0.039770439 -0.00060352957 -0.00030323339 0.00040819362 -0.00041877988 -0.98037189 0.034584768
505000000 -0.97818416 0.039095838 -0.00066022569 -0.00020783092 -0.00015346639 -0.00057329342 -0.98070782 0.034892648
506000000 -0.98042846 0.039060175 -0.00062044634 0.00015197456 0.00024297548 -0.00053801958 -0.97803104 0.03560726
507000000 -0.98007053 0.039280053 0.00059622864 -0.00083692709 0.00029153065 0.00082935486 -0.9807567 0.036817454
508000000 -0.98007518 0.039766505 -0.00065262034 -0.00028503724 -0.0003851025 -0.00035078742 -0.9805451 0.037102994
509000000 -0.98093337 0.041071292 0.00057334709 0.00014638642 -0.00024593843 1.0334537e-005 -0.98019379 0.037148133
510000000 -0.97919327 0.040412974 0.00024167438 -0.00022693964 -0.00055387145 -0.00054277567 -0.97985739 0.03768447
511000000 -0.97912401 0.04110403 0.00043828052 -0.0004431651 9.1248199e-005 -0.00017980256 -0.97929269 0.036603123
512000000 -0.98011637 0.040150303 -4.9490423e-005 -0.00072048395 -0.00017548619 -9.4278061e-005 -0.97996676 0.037490085
513000000 -0.98093152 0.038668241 0.00010898842 0.00021485986 -7.7879573e-005 0.00053451199 -0.97899979 0.035817333
514000000 -0.98075181 0.03955349 0.00012922371 -7.2598632e-005 0.00029246142 0.00066752138 -0.97901386 0.035787132
515000000 -0.97948658 0.040296163 0.00019141604 -0.00050045981 -0.00024266605 -0.00021545382 -0.97965723 0.036896557
516000000 -0.97877389 0.04127254 0.00020176437 -0.00036900648 -0.00057665486 -0.00011540289 -0.98048854 0.037290286
517000000 -0.97944409 0.04127118 -0.00036067358 0.00043298074 0.00010713273 -8.6109125e-005 -0.97867954 0.037072908
518000000 -0.97974235 0.040953033 -0.00014957777 0.00013743252 0.00031214015 -0.00013263834 -0.97926927 0.036392178
519000000 -0.97894466 0.040510923 0.00022315758 -6.9253008e-005 0.0003742332 -4.9502611e-005 -0.97892517 0.039082054
520000000 -0.98000759 0.040529866 0.00041588096 0.00031487204 -0.00082406338 0.00064853491 -0.97791904 0.03772416
521000000 -0.98017001 0.041888285 -0.00024518688 -4.4072251e-005 0.00010464175 0.0009024429 -0.97855002 0.038590629
522000000 -0.98059344 0.040446352 -0.00043161187 0.00093100459 -0.00036673128 -0.00012239524 -0.97930902 0.037928443
523000000 -0.97956419 0.040053848 0.000136342 0.00017110353 -0.00038414446 0.00052566675 -0.97965628 0.037620932
524000000 -0.9794082 0.041034643 0.00013833844 0.00055959518 -8.9063949e-005 -1.1219403e-005 -0.97917438 0.037538096
525000000 -0.97962415 0.042105965 -0.00091461517 -0.00038027391 0.00067383895 -9.2647715e-005 -0.98037219 0.038239326
526000000 -0.97861075 0.040893517 -0.00024982443 0.00019965136 -0.00048455031 0.00015088417 -0.97800469 0.037123531
527000000 -0.97960413 0.04167024 -0.00063818181 -0.00022549271 -0.00036396994 -0.00036498264 -0.97964162 0.037757434
528000000 -0.97890174 0.041672915 0.00033812842 0.00059913617 -0.00013442292 0.0007284524 -0.97816354 0.03844839
529000000 -0.97843713 0.041919794 -0.00058679312 -0.00019906362 0.00036652479 -0.0002513018 -0.97826111 0.038962971
530000000 -0.9795534 0.042061042 -0.00044502522 -0.00029569192 0.00013926583 0.00083018217 -0.97830051 0.038144086
531000000 -0.97912323 0.041722596 -0.00033389498 -0.00032232443 -0.00048217061 -8.6596301e-005 -0.97831392 0.038934197
532000000 -0.97920227 0.041363802 0.00081858342 -0.00011259791 -0.00016558527 1.632999e-005 -0.97933888 0.039939012
533000000 -0.97978401 0.041371185 -0.00063143508 -1.9465991e-005 -0.00046109926 -0.00022776825 -0.97901523 0.038733732
534000000 -0.97889942 0.040469795 -0.0003300641 0.00037627525 -0.00061672763 4.2184252e-005 -0.97909051 0.039251305
535000000 -0.97937626 0.042027678 -0.00049861299 0.00049897213 -0.00011344581 0.00081192295 -0.97750765 0.037820701
536000000 -0.97918755 0.041500203 -0.00083826075 -0.00069952384 0.00014268025 -0.00010684349 -0.97913057 0.038592439
537000000 -0.97900814 0.041439481 5.2440195e-005 5.5985856e-005 0.00016235352 6.4549367e-006 -0.9791739 0.03937738
538000000 -0.97928524 0.042291392 -0.0003476436 0.00018121235 -0.0010651349 -0.00042834927 -0.97818249 0.038392581
539000000 -0.97929257 0.042411402 2.1061756e-005 -0.00027301695 -0.00026870079 0.00053706474 -0.97892797 0.038853142
540000000 -0.97896689 0.04265213 -0.00072582695 -0.00045037639 0.00038307256 -0.00040514724 -0.97929192 0.038339488
541000000 -0.97923702 0.042574182 -9.6633361e-005 -0.0002721216 -8.3709114e-005 -0.00030289916 -0.9788813 0.0391041
542000000 -0.97911322 0.043582022 0.00050518895 -0.00067521178 -0.0007700547 -0.00034152277 -0.97860146 0.039727073
543000000 -0.97900617 0.041941859 -0.00064793508 0.00030520861 -0.00034068344 -0.00059529603 -0.98024154 0.03921371
544000000 -0.9786911 0.041716978 0.00020222132 0.00063808472 -5.7350338e-005 -0.00033047388 -0.98045748 0.040066432
545000000 -0.97849512 0.041242726 -0.00023352276 0.00074899069 0.00037199556 -0.00012322527 -0.97901171 0.039061837
546000000 -0.97900331 0.041742552 6.9316782e-005 -0.0003117022 3.1606509e-005 -0.00050103397 -0.97883493 0.039016623
547000000 -0.97875142 0.043551005 -0.00050414802 -0.00039761711 -0.00072781899 9.5678181e-005 -0.98016417 0.039237604
548000000 -0.9780544 0.041743048 -0.00055428356 -0.00018009444 -0.00039960822 0.00085803191 -0.97951585 0.039509576
549000000 -0.97771531 0.042380616 0.00010280396 0.0010386989 0.00013928248 -0.0003845437 -0.97838908 0.039820213
550000000 -0.97861576 0.042038895 2.623129e-005 0.0009683214 -6.6063258e-005 0.00012321862 -0.97944409 0.038642194
551000000 -0.97973865 0.042136285 -0.00029593435 -6.1086525e-005 -0.00053039053 -0.00050880015 -0.97959256 0.039184544
552000000 -0.97810566 0.041826323 0.00017748089 0.00013109483 -0.00038497784 -0.00013313122 -0.97924387 0.040215567
553000000 -0.97891939 0.042832155 1.1287012e-005 -0.00066643459 -0.00045596928 -8.0262671e-006 -0.97905409 0.039103974
554000000 -0.97887766 0.042570733 4.1266787e-005 -0.0003127653 -3.0694708e-005 -0.00017013341 -0.97926933 0.04023429
555000000 -0.97793549 0.042082787 1.0619299e-005 -0.00022429253 -0.0005528098 -0.00048515611 -0.97821265 0.03852313
556000000 -0.9782263 0.042617802 -0.00029569375 0.00047652543 0.00020496527 -0.00077453029 -0.97940248 0.039789565
557000000 -0.9786098 0.043279689 5.7915313e-005 -0.00033939476 -0.00052335928 0.00060762349 -0.98003137 0.039937355
558000000 -0.97820836 0.041800376 -0.00015683267 0.00072276453 -8.9606081e-005 6.3880165e-005 -0.97917753 0.040065855
559000000 -0.97901785 0.042392969 8.980892e-005 0.00017060927 0.00021558846 0.00068550487 -0.97946119 0.040569637
560000000 -0.97802091 0.04263464 0.00025319521 0.00014358795 -0.0003828489 -0.00040519339 -0.97898495 0.039511845
561000000 -0.97979558 0.042704567 -0.00076459098 0.00027791268 -3.9538736e-005 -0.00017971989 -0.97882599 0.039152633
562000000 -0.97833353 0.043211337 0.0002369554 -2.0705918e-005 0.00041886972 -1.4476297e-005 -0.97903705 0.039442714
563000000 -0.9793216 0.041948415 0.00021157425 -0.00042590513 0.00013006586 -9.4285017e-005 -0.97984028 0.04077442
564000000 -0.97803348 0.040291578 0.00015779311 -0.00060083938 -5.4748391e-005 -0.00072620698 -0.97959626 0.038553756
565000000 -0.97889888 0.041322961 2.6560767e-005 0.00017190591 -5.1588645e-006 0.0002565014 -0.98009491 0.040794216
566000000 -0.97774953 0.042943429 -0.00064888317 -0.00028425909 0.00012131766 -0.00018048838 -0.97878444 0.039561685
567000000 -0.98012275 0.042591125 0.00075723167 -0.00087804528 -2.0408908e-005 -0.00025293845 -0.97944999 0.040508315
568000000 -0.97826713 0.042508561 -0.0011417789 0.0001099295 0.00014585318 -0.00018491277 -0.97821498 0.039783027
569000000 -0.97902066 0.042387158 0.00024687059 0.00012749829 -0.00016847295 0.00053286331 -0.97977692 0.0391091
570000000 -0.97805446 0.04270095 -0.00014577004 -0.00045747927 8.0558413e-005 0.00012066847 -0.9785555 0.039150678
571000000 -0.97994137 0.042282291 -0.00051545305 -0.00036626169 0.00010418675 0.00017212229 -0.97883582 0.040529791
572000000 -0.97785294 0.041075107 -2.1497917e-005 -7.5454329e-005 0.00012085534 0.00032916706 -0.97858858 0.039483681
573000000 -0.97846711 0.042296167 0.00040337598 0.00045414871 -0.00067474029 -0.00028612275 -0.97952712 0.040497351
574000000 -0.9776454 0.042643655 -0.00040858079 -0.00027729821 -0.00044019124 -0.00027141348 -0.97900623 0.039644647
575000000 -0.97820818 0.041974619 -4.0578292e-005 -2.7357535e-005 0.00013601445 -0.00038199895 -0.97999388 0.040210459
576000000 -0.9775902 0.04299463 -7.1815935e-005 -0.00011287305 -0.00077973091 0.00021989604 -0.97863138 0.0402846
577000000 -0.97837287 0.042132121 -0.00025977823 0.00015611391 -0.00068162632 0.00083853264 -0.97880185 0.040147733
578000000 -0.97845656 0.042132825 0.00018430471 -0.00024073999 -0.00022859703 -0.00024597475 -0.97938949 0.038991518
579000000 -0.97894806 0.042733859 -0.00017144851 -0.00012150791 -0.0001779421 0.00035360703 -0.98013675 0.039865028
580000000 -0.97703272 0.042231824 -0.0002525633 -8.2206971e-005 -0.00046109615 0.00031286152 -0.97874683 0.039881799
581000000 -0.97864926 0.042163979 0.00028054518 -0.00077861705 0.00048089988 0.00010687817 -0.97868216 0.039202418
582000000 -0.97712165 0.042444769 -0.00032600667 0.00074843422 -0.00041563882 -0.00075054512 -0.97878867 0.039351523
583000000 -0.9781478 0.042023104 0.00020004826 0.00070306897 -0.00050195743 0.00020257273 -0.97991419 0.039838098
584000000 -0.97851467 0.041324768 -0.0001278382 0.0003793012 -0.00060796138 0.00012200214 -0.97966158 0.039514102
585000000 -0.97870153 0.042125732 -0.00037966139 -0.00016383277 0.00038976487 0.00022090682 -0.97914422 0.040743392
586000000 -0.97855747 0.042464018 0.00025383363 -0.00047405146 0.00053756475 -0.00021108163 -0.97938514 0.039803326
587000000 -0.97824258 0.043356661 -7.4400545e-005 1.654763e-005 -0.00064293278 -0.00035561534 -0.97868234 0.041742612
588000000 -0.97827554 0.043061692 -0.00046995259 0.00057858991 -8.4510604e-005 -0.0001899238 -0.97940761 0.040323555
589000000 -0.97772902 0.042495906 -0.0010415033 -1.4109643e-005 0.00031286693 -0.00023713478 -0.97870016 0.040442985
590000000 -0.97798258 0.042615902 -0.00066416868 -1.672028e-005 -0.00047890493 -0.00022332686 -0.97883755 0.039769154
591000000 -0.97784269 0.042753525 0.00033780426 -0.00060033932 -0.00014164977 4.3864169e-005 -0.97835743 0.040490899
592000000 -0.9772563 0.042165175 0.00011131349 0.00010578512 1.3363915e-006 0.00039701129 -0.97914761 0.039421525
593000000 -0.97697371 0.043602347 -3.8253878e-005 -0.00061795785 -0.00018606021 0.00043362734 -0.97846353 0.040287901
594000000 -0.97839153 0.043778624 0.00016619987 -0.00014780942 -0.00012582411 0.00060808065 -0.97896755 0.041356891
595000000 -0.97774982 0.04296102 -8.1558574e-005 0.00027026419 -0.00013330021 -0.00033401663 -0.97887206 0.039782304
596000000 -0.97723889 0.043861546 -0.00021813333 -0.00090686994 0.00011652512 -0.0010476842 -0.97820514 0.041332435
597000000 -0.97795272 0.043193594 -0.00026637391 -0.00031573782 -0.00057013793 -0.00062390609 -0.97860402 0.040929444
598000000 -0.97831959 0.043935139 0.00041198143 7.1350121e-005 0.00036352332 -0.00047583136 -0.97928387 0.040772766
599000000 -0.97777182 0.044413686 0.00033304188 0.00012407366 0.00013489219 0.00068756408 -0.97930527 0.040729426
600000000 -0.97751129 0.043437678 0.00023998857 0.00012824174 -0.00051899953 -5.7932066e-005 -0.97895533 0.040671963
601000000 -0.9779644 0.044719722 -0.00024498184 -4.3538919e-005 -0.00090572983 0.00022099151 -0.97852957 0.042699784
602000000 -0.97826928 0.044895429 0.0003275841 -0.00017650356 -5.4902546e-005 0.00058244693 -0.97930634 0.041350536
603000000 -0.97767764 0.043967012 -9.7858428e-005 0.00022910352 -0.00083758967 -0.00097919069 -0.9802354 0.040588852
604000000 -0.97759211 0.045893151 8.1296137e-005 -0.00058443681 -0.0001621869 -0.00017582071 -0.97794217 0.042192187
605000000 -0.97772443 0.044335727 0.00019293332 -0.0011536595 -0.00023501534 0.00033529336 -0.97860807 0.041544549
606000000 -0.9768452 0.043943297 0.00016408264 0.00031504044 -0.0010393141 -0.00071216654 -0.97819364 0.041842919
607000000 -0.97885466 0.044507284 -0.00069033809 8.4807478e-005 -0.00025664811 -0.0002044162 -0.97830695 0.041135151
608000000 -0.97774088 0.044397134 1.6106216e-005 6.3848507e-005 -0.00060517655 -0.00028151649 -0.97874486 0.042123668
609000000 -0.97733283 0.045403969 -0.00037462136 0.00026460094 0.00044278789 -0.00050401001 -0.9790892 0.042226776
610000000 -0.97771221 0.045984577 -0.00026096296 -0.00024428873 -0.00033859705 0.00071304507 -0.9783988 0.042430412
611000000 -0.97771668 0.045480285 0.00054423558 8.3475343e-006 0.00036958547 -0.00058440439 -0.97754633 0.041778035
612000000 -0.9769246 0.045162428 4.7049922e-005 -6.5553708e-005 -0.00050312123 -0.00015197523 -0.97809792 0.042107075
613000000 -0.97835827 0.046128456 -0.00043694541 -0.00049073738 6.39715e-005 9.2866656e-005 -0.97796297 0.042516168
614000000 -0.97813958 0.047072101 0.00051601516 -0.00070093205 0.0001468565 -0.00020883996 -0.9793461 0.042638224
615000000 -0.97719783 0.046253983 -0.0004673464 0.00054841291 0.00017377532 -0.00033267311 -0.97743344 0.041833658
616000000 -0.97714144 0.046389077 -0.00030430043 -0.00060645153 0.00040094528 -0.00010739408 -0.97781396 0.04264202
617000000 -0.9778372 0.047687463 0.00011074195 -0.00015086876 0.00027964296 -0.00090876664 -0.97844899 0.043374185
618000000 -0.97794223 0.046680462 0.0007453342 -0.00053867925 -0.0008729379 0.0001738499 -0.977844 0.043210644
619000000 -0.97708035 0.045881633 0.0006368513 3.0216452e-005 -9.8702636e-005 -0.0002734946 -0.9779048 0.042459711
620000000 -0.97808796 0.048075028 0.00053943682 0.00034911127 -0.00013856323 -0.00035316381 -0.97716588 0.044274025
621000000 -0.9794609 0.047484137 -7.6997821e-005 -0.00040431137 -0.0008895197 0.00014182509 -0.97848475 0.043821979
622000000 -0.97714382 0.046431094 0.0002978839 -0.00030562392 0.00033643685 -6.6819892e-005 -0.97852623 0.043934274
623000000 -0.97587621 0.046316318 -0.00027698404 2.7712933e-005 -0.00035059665 -0.00011667658 -0.97789651 0.042322278
624000000 -0.97744435 0.047137216 0.00083026069 0.00035467453 0.00026103039 0.00023599184 -0.9781428 0.043240979
625000000 -0.97592801 0.048917979 9.4787974e-005 -0.00047658311 -0.0001676955 -0.00060367066 -0.97819448 0.042995766
626000000 -0.97829461 0.048957139 0.00042241419 -0.00058076781 -0.00022299831 0.00011624379 -0.97682637 0.044667356
627000000 -0.97727972 0.047065191 -9.7425262e-005 -8.671853e-005 -0.00037722752 5.3571137e-005 -0.97820884 0.043275539
628000000 -0.9770115 0.049117859 1.135938e-005 -0.00039574006 0.00013366794 -0.00022819059 -0.97761428 0.045012221
629000000 -0.97819757 0.048864659 -0.00079327647 0.00010110326 0.00044344884 -0.00043248825 -0.9774974 0.044729084
630000000 -0.97591102 0.048116717 0.00086093257 -0.00089421071 -0.00033463357 -0.00031876951 -0.97882807 0.045283306
631000000 -0.97841305 0.048820641 -0.00059860077 -0.00014292898 0.00019776358 4.306325e-005 -0.97786391 0.044273458
632000000 -0.97848892 0.048494097 -0.00048119895 0.00018304908 -0.0002996712 0.00017587046 -0.97862697 0.043528907
633000000 -0.97734737 0.048277624 -0.00026492251 0.00019326573 0.00028945686 0.00017313895 -0.97837186 0.04449062
634000000 -0.97752792 0.049488634 1.4289208e-005 -0.00017378709 -4.7259411e-005 0.00098820345 -0.97798049 0.044078112
635000000 -0.97689116 0.047651384 0.00048844208 -5.1848998e-005 1.7360486e-005 0.00036900715 -0.97695899 0.044056043
636000000 -0.97723049 0.048627734 9.8369492e-005 -0.00055840635 0.00022857402 -0.00071128877 -0.97818178 0.044133916
637000000 -0.97619909 0.04853848 -0.00047819052 -0.00064415083 -2.4806117e-005 0.00018049724 -0.97699082 0.044241972
638000000 -0.97705275 0.049127441 0.00027345953 -0.00099644426 0.00030188629 -0.00013330138 -0.97867364 0.044928871
639000000 -0.97867757 0.049288325 0.00022520566 -2.6598716e-006 -0.00020305131 9.9438776e-006 -0.9783805 0.043739084
640000000 -0.9773553 0.049532197 6.6209788e-005 -0.00021956461 2.5176381e-005 -0.00070146861 -0.97684079 0.043626752
641000000 -0.97717619 0.048516709 6.916948e-005 -5.1649477e-005 -0.0007984222 8.9091969e-005 -0.97684288 0.043952856
642000000 -0.97653472 0.049848557 1.9230278e-005 -0.00012834414 -7.1079718e-005 0.00034324918 -0.97778964 0.04381749
643000000 -0.97782224 0.050118573 -0.00030197162 -0.00032301759 -0.00040791629 -0.00035879802 -0.97815186 0.044169296
644000000 -0.97750652 0.049995009 0.00063240191 -0.00043147401 -0.00011283095 -0.00028412728 -0.9778741 0.044232167
645000000 -0.97705334 0.049560841 -0.00013618323 -0.0003626793 8.9817004e-005 -0.00033421058 -0.97761637 0.045440443
646000000 -0.97664475 0.05043713 2.5781936e-005 0.00017763968 -0.0003431683 0.00037378742 -0.97826779 0.045628365
647000000 -0.97862124 0.049783248 4.5222736e-005 -0.00037115376 -0.00065095996 0.00036187505 -0.97743529 0.044198312
648000000 -0.97800952 0.050188251 7.3538431e-005 -4.1353e-005 -0.00081163755 0.0002824273 -0.97680515 0.045018114
649000000 -0.97806388 0.050269354 -0.00034948598 -7.4248193e-005 -0.00034846316 -0.0010747561 -0.97850597 0.045851517
650000000 -0.97679865 0.050270949 -2.3187133e-005 3.4711611e-005 0.00042213855 -0.00047717339 -0.9778105 0.045508008
651000000 -0.9778024 0.051358849 0.00034754511 8.0710372e-005 -0.00014592614 -2.0088935e-005 -0.97789705 0.044691145
652000000 -0.97716582 0.05114235 -0.00061296945 0.00033440624 -0.0004796992 0.00012394325 -0.97743613 0.045522768
653000000 -0.97697508 0.049959604 9.9331419e-006 -0.00048181042 0.00026436578 -0.0006294669 -0.97720516 0.044335444
654000000 -0.97767121 0.051703773 0.00096096011 0.00033068084 -0.00033762856 -4.3850425e-005 -0.97817796 0.045804929
655000000 -0.97628933 0.050559137 -0.00046043814 0.00024194414 -5.6599973e-005 0.0005069747 -0.97733581 0.045207657
656000000 -0.97642326 0.052256413 -0.00014510538 0.00048553653 -0.00041391785 0.00014407266 -0.9777053 0.046106037
657000000 -0.9786002 0.051617667 0.0001110616 -0.00037087241 -0.00017635636 1.5974312e-006 -0.97828639 0.044582274
658000000 -0.97733736 0.050689213 -0.00027889502 -7.8079909e-005 0.00016655348 -0.00022982327 -0.97843289 0.044243123
659000000 -0.97709197 0.05028189 0.00010563526 5.3541324e-005 0.00028385702 -0.00034543109 -0.97802186 0.045537882
660000000 -0.97765887 0.0519059 -0.00042364551 0.00047141439 -0.00027045989 0.00061342813 -0.97704226 0.043899916
661000000 -0.97659832 0.050598573 -0.00062140205 -0.00010429309 -0.00010275898 0.00015144206 -0.978423 0.045322705
662000000 -0.97752231 0.051293626 -0.00020693216 -0.00012101891 3.9561077e-005 7.2275485e-005 -0.97781652 0.045297157
663000000 -0.97789949 0.051649883 3.6117086e-005 0.00032397103 0.00012876098 0.00011375904 -0.97766107 0.045445379
664000000 -0.97556722 0.050178666 0.00028025373 -5.8638205e-005 -0.00056609098 -0.00048133385 -0.97855604 0.044940725
665000000 -0.97622865 0.050176036 0.00023005216 -0.00024174358 -0.00069830957 -0.00027426833 -0.97770357 0.044821739
666000000 -0.97691661 0.050674323 -0.00011036649 -0.00073251588 -0.0010248133 -0.00018369473 -0.97758812 0.044346496
667000000 -0.9770177 0.051545434 -0.00062604866 4.4361892e-005 -0.00012866285 0.00031710442 -0.97862279 0.045767192
668000000 -0.9770937 0.051434115 -0.00011383431 -0.00038499571 -0.0004027097 -0.00017456786 -0.97827446 0.046169471
