!Keysight Technologies,M9374A,MY55442783,A.12.55.05
!Date: Thursday, May 20, 2021 17:08:04
!Correction: S11(Full 2 Port(1,2)) 
!S21(Full 2 Port(1,2)) 
!S12(Full 2 Port(1,2)) 
!S22(Full 2 Port(1,2)) 
!S2P File: Measurements: S11, S21, S12, S22:
# Hz S  RI   R 50
500000000 -0.97995424 0.037780348 -2.9335846e-005 -0.00045309545 0.00021999179 -0.00052407407 -0.98030198 0.033267155
501000000 -0.98044413 0.037412655 0.00038117907 0.00081401446 -0.00040224654 -0.00026930316 -0.9799099 0.034682821
502000000 -0.98013431 0.038892817 2.7059899e-005 -0.00048367577 -0.00025170302 0.0010276779 -0.98104298 0.034937747
503000000 -0.97956473 0.038579952 0.00026463441 0.00018119518 0.00012028431 -0.00018407196 -0.98089439 0.034914773
504000000 -0.9802717 0.039266609 -0.00037148356 -0.00023536147 -0.00074642466 -0.0004653451 -0.98085976 0.034807898
505000000 -0.98045546 0.039030615 0.00049532845 0.00039711798 -0.00017140497 0.00012133781 -0.97997189 0.034852941
506000000 -0.98024547 0.038548149 0.00012666119 -0.00051609258 -0.00032624931 -2.3084416e-005 -0.97971588 0.035129968
507000000 -0.98049921 0.038933616 0.00070122571 -0.00044970147 -0.00033390525 -0.0003571182 -0.98087341 0.035521787
508000000 -0.97997397 0.038878091 -0.00022754364 -7.7332108e-005 0.00027128274 -6.8848836e-005 -0.980331 0.036524329
509000000 -0.9794926 0.040258691 9.135541e-005 0.00050124497 -3.7254806e-005 0.00014769506 -0.97968495 0.035487454
510000000 -0.97985101 0.03981775 -0.00038858564 0.00037032654 5.9475173e-005 3.7734913e-005 -0.97917509 0.035705302
511000000 -0.97913659 0.039494004 0.00034330311 0.00014993142 0.00026472122 0.00086545717 -0.97979379 0.036249958
512000000 -0.97961408 0.03904701 0.00012882212 0.00088890427 0.00041716243 0.00022881152 -0.98030633 0.036604822
513000000 -0.98089868 0.039768871 7.216791e-005 -8.848447e-005 0.00061281171 0.00031046604 -0.97997123 0.035525911
514000000 -0.98014414 0.038458228 -0.00014887098 -0.00028844475 0.00033991784 0.00037154334 -0.98106617 0.033800747
515000000 -0.97897154 0.039914306 0.00080495403 0.00030643551 0.00056363724 -0.00039439576 -0.98005545 0.035969481
516000000 -0.9801234 0.041268367 -0.00029200094 0.00048087569 -0.00057708065 -0.00044627558 -0.98047799 0.037017215
517000000 -0.97996515 0.040105321 0.00069014431 -9.8616052e-005 -0.0003220971 -0.00029424639 -0.98067147 0.036788471
518000000 -0.9786467 0.040198177 -0.00038563245 0.00078857387 8.7014341e-005 2.5849917e-005 -0.97926265 0.036776867
519000000 -0.98048687 0.04014058 -0.0001735163 0.00012491268 -0.0002080441 -7.4695767e-005 -0.98091185 0.0361384
520000000 -0.97872108 0.040274646 -0.00038192712 0.0002899121 0.00026966119 3.8932649e-005 -0.97803468 0.036679529
521000000 -0.98001903 0.041002214 0.00019234285 0.00059055514 -8.684073e-005 0.0006425624 -0.98026872 0.036859412
522000000 -0.98030895 0.040612552 8.6306958e-005 -0.00040391594 -0.00012465473 8.6002598e-005 -0.98021799 0.038537562
523000000 -0.97982299 0.040024109 5.4126685e-005 0.00015621692 -4.2900232e-005 -0.00049982191 -0.97938102 0.037136208
524000000 -0.97872829 0.042358153 -0.00029761909 -0.00021918044 -2.2822014e-005 -0.00034792986 -0.98010141 0.037692338
525000000 -0.9776085 0.040686455 -0.00013702389 0.0001647074 0.0005245044 -0.00033229403 -0.97981799 0.037756409
526000000 -0.98032081 0.04216025 0.00012155261 8.8868386e-005 0.00024716239 0.00013910775 -0.98049581 0.037317455
527000000 -0.98031372 0.040729634 5.5947057e-006 -0.00074695534 0.00012790144 0.00010445635 -0.98046535 0.037699491
528000000 -0.97918212 0.041935209 -0.00014351397 -2.2259851e-006 0.00026252909 -0.00049775548 -0.97997427 0.03780701
529000000 -0.98000479 0.041430045 -0.00026153849 0.00044645884 7.0968272e-005 -0.00054935709 -0.9796738 0.038873032
530000000 -0.97922969 0.041236859 0.00076670514 -0.00015740062 -0.00013068356 1.1991379e-005 -0.98113561 0.038391054
531000000 -0.97953153 0.041378256 -0.00084363896 6.0940911e-005 0.00021897731 -0.00034499631 -0.97985137 0.038263977
532000000 -0.97949463 0.042724475 -0.00024508897 -0.00057499291 0.00074330048 -0.00085625076 -0.97927088 0.038834468
533000000 -0.97967273 0.040520694 0.00035846594 -0.00069709861 0.00052719715 -0.00017953228 -0.97890145 0.038585782
534000000 -0.97871715 0.042289302 -2.1299782e-005 -0.0001834377 2.5699826e-005 6.5689887e-006 -0.9809857 0.037928272
535000000 -0.97919506 0.042483054 -0.0001004644 -0.00016550987 -0.00032713299 -0.00034330069 -0.97912556 0.03847
536000000 -0.97949624 0.041361615 -0.00021963856 -0.00033461375 7.5046177e-005 0.00083112047 -0.97946972 0.038751252
537000000 -0.98060638 0.042071842 0.0002891754 0.00060383131 0.00014528194 -0.00011545513 -0.97969669 0.038485523
538000000 -0.97880089 0.041420996 0.00047135921 3.5696678e-005 0.0002632461 -0.00019321869 -0.9800874 0.037244573
539000000 -0.97978544 0.042020217 -0.00087316841 -0.00040550783 -0.00042374592 8.1021411e-005 -0.98015743 0.038541961
540000000 -0.97896308 0.04164955 0.00042280953 -0.00028888937 -0.00037885527 -0.00022833882 -0.97991621 0.038684037
541000000 -0.98062712 0.041843574 0.00037624111 8.8938788e-005 0.00061309664 -0.00056984875 -0.98012871 0.038319141
542000000 -0.97950095 0.042609304 -0.00044910709 -0.00012115661 -0.00056911149 0.00011845732 -0.97957814 0.038606372
543000000 -0.97823149 0.040717255 -0.00012662333 -0.00037346993 0.00018028732 0.00072236353 -0.97927022 0.03997476
544000000 -0.97818422 0.042483956 -0.00041593533 0.00056187488 -0.00010943639 -0.00039438211 -0.97927284 0.040395729
545000000 -0.97890168 0.042481806 -0.00027890582 0.00012879488 -0.00079062162 0.00027686122 -0.97904181 0.038429052
546000000 -0.97932756 0.042645849 -9.7141237e-005 0.00021290111 -0.00047480426 -0.00066999404 -0.97998351 0.037945751
547000000 -0.98091936 0.042535711 -0.00077374931 0.00013943667 0.00012934268 -0.00077029417 -0.97933292 0.039137404
548000000 -0.97860461 0.042873256 -0.00031980593 3.7446101e-005 -8.1057602e-005 8.0797045e-006 -0.97878963 0.039130758
549000000 -0.97910726 0.041457627 -0.0002162107 0.00082866201 -0.00021982074 2.265512e-005 -0.97994494 0.039271325
550000000 -0.97966301 0.041766688 1.8352081e-005 -6.235436e-005 1.9402578e-005 -0.00043469816 -0.98005724 0.039830495
551000000 -0.97883773 0.041129038 0.00029989888 -0.00027560748 -0.00021935817 0.00018034299 -0.9790433 0.039139997
552000000 -0.97965348 0.040860105 0.00034998509 -0.00019423796 7.5594449e-005 -0.00026052463 -0.9805057 0.039376132
553000000 -0.9794476 0.041974328 0.0001300694 -0.00036108651 -0.00042505551 -5.0499704e-005 -0.98019737 0.038720515
554000000 -0.97809571 0.040661458 1.2520723e-005 4.6882073e-005 0.00028503526 0.00022458026 -0.97972631 0.038691804
555000000 -0.97865826 0.041075766 0.00010600997 -0.0010660624 -0.00023837791 -0.00075388775 -0.98039693 0.038633037
556000000 -0.97804451 0.040500663 0.00052391249 -0.00012207696 0.00057349046 -8.1364822e-005 -0.98026615 0.038777936
557000000 -0.97927725 0.041557133 0.00013199088 -0.00021184237 0.00029920129 0.00021022133 -0.97931749 0.038730189
558000000 -0.97940427 0.04145183 0.0002899314 -0.00031144626 -0.00029001737 0.00027694821 -0.98001146 0.038868189
559000000 -0.97886348 0.040623277 -0.00023247658 -0.00028955011 5.6214561e-005 -0.00016264629 -0.97990477 0.039389737
560000000 -0.97952056 0.042655118 -0.00068443513 -0.00013296376 0.00015954781 0.00020301898 -0.97942436 0.040728025
561000000 -0.97872984 0.042745166 -0.00036648894 -0.00057109579 -0.00034736525 -0.00013723674 -0.9798525 0.040041003
562000000 -0.97941065 0.043457199 0.00026674161 0.00026612845 -8.2923521e-005 -0.00050615566 -0.97975343 0.039656479
563000000 -0.97937143 0.041431729 -0.00028154123 0.00014878134 -0.00018641174 0.00027935713 -0.97978777 0.040827177
564000000 -0.97936964 0.041368049 -0.00037421848 -0.00046812859 -0.00031760882 2.6632328e-005 -0.97960639 0.03777951
565000000 -0.97797722 0.041175984 -1.1888754e-005 -0.00044172545 -0.000599903 0.00012787805 -0.97947991 0.039626122
566000000 -0.97792798 0.04143085 -0.00015212536 -0.00072713027 -0.00058507943 -0.00076569978 -0.98046535 0.039666027
567000000 -0.97924817 0.042603739 -0.00018307046 0.00045860221 -0.00014167653 0.00016160303 -0.98080289 0.038877957
568000000 -0.97832417 0.041799627 0.00030861641 -0.0005995523 0.001043241 -0.0003323709 -0.97947156 0.038642619
569000000 -0.97930491 0.042277757 -0.00024656847 -0.0004438906 -0.00019694222 -0.00019523222 -0.979895 0.039166324
570000000 -0.97793067 0.042498492 -0.0005270266 -0.00051917817 0.00056822278 -0.00023300451 -0.98002547 0.039427068
571000000 -0.98002768 0.042795785 0.00022073675 0.00037280947 -0.00022335425 0.0002782708 -0.97969502 0.03961575
572000000 -0.97975075 0.04157725 7.5005655e-006 -0.00026111538 -5.7573139e-005 -0.00036096666 -0.97907019 0.039498426
573000000 -0.97866887 0.04148414 0.00059108465 -0.00024779732 0.00021653855 -0.00108627 -0.97966325 0.039101209
574000000 -0.9791373 0.041275304 -0.00031392727 -0.00081551296 -0.00021597449 5.2518211e-005 -0.98200899 0.0393961
575000000 -0.97797179 0.042947836 0.00031731086 0.00031539713 -0.00040252102 -1.8321412e-005 -0.98126161 0.039281573
576000000 -0.9785403 0.041590352 0.00010628401 -0.00014055599 4.0206254e-005 -0.00043167322 -0.97988409 0.040658232
577000000 -0.97864503 0.041844442 0.00027337015 0.0004323395 -9.1884285e-005 3.2786797e-005 -0.97983539 0.038940668
578000000 -0.97773808 0.04229584 0.00057531625 -0.00069566449 0.00042185088 0.00026688178 -0.97909802 0.038943086
579000000 -0.97819024 0.041463867 -0.00011007546 -0.00064911658 -0.00026993695 -0.00012691671 -0.98031837 0.039730366
580000000 -0.97976315 0.04164793 0.00019273831 0.00012394531 -6.826927e-005 -0.00074024312 -0.97898901 0.040535349
581000000 -0.97759843 0.042255189 -0.00055022904 -0.00085018453 -0.00037337566 -0.0004974028 -0.98061973 0.038675524
582000000 -0.97885919 0.042130046 0.00071932079 0.00010767916 -0.00069243897 -0.00014891861 -0.9795664 0.041039325
583000000 -0.97793555 0.041829601 -0.00041709287 -0.00032333584 -0.00030420601 -0.0005108114 -0.97967333 0.040051561
584000000 -0.97976917 0.041328587 -0.0010040293 0.00053537509 -0.00052215421 -0.00086140074 -0.97992212 0.039335016
585000000 -0.979038 0.041208692 0.0003038008 -0.00043051533 -0.00010902547 6.6268949e-005 -0.98050231 0.040103041
586000000 -0.97865325 0.042123705 0.000458636 0.0010294451 -0.00028746622 0.00024573563 -0.97990286 0.039114375
587000000 -0.978899 0.044033702 -0.00013790456 -0.0004075992 0.00027679509 0.00049382233 -0.97862887 0.039486993
588000000 -0.97739667 0.04159632 -0.00046716337 0.00030399463 0.00057127059 -0.00020367686 -0.98138607 0.039806016
589000000 -0.97936898 0.042273026 -0.00010847502 0.00012749118 -0.00034520647 0.00025016439 -0.97930855 0.039794579
590000000 -0.97680074 0.042844787 -0.00027771154 -1.5161045e-005 -0.00014030332 -0.0001668741 -0.9784286 0.040846892
591000000 -0.97784859 0.042532954 0.00039603835 0.00050133903 -6.9757967e-005 -0.00094177586 -0.97964013 0.040017735
592000000 -0.97933495 0.041764937 -0.00067899976 -0.00025684736 -2.1019234e-005 -2.3389834e-005 -0.97963017 0.039401382
593000000 -0.97780466 0.042346571 -0.000366452 0.00025827019 -0.00056422659 -0.00045172713 -0.97889501 0.03847884
594000000 -0.97786653 0.042566657 -0.00037132239 0.00013202208 -0.00053085975 4.8219248e-005 -0.97947359 0.040454309
595000000 -0.97796017 0.042639654 -0.00023581741 -0.00033014343 -6.8129564e-005 0.00030146082 -0.98029947 0.040303569
596000000 -0.97841257 0.04194371 -0.00034149384 -0.00043638231 0.0004839871 -0.00038819 -0.97998136 0.040196169
597000000 -0.97854567 0.043253325 -0.00017984501 7.7467026e-005 0.00055085163 0.00014164585 -0.97952509 0.042199913
598000000 -0.97812772 0.043632619 0.00052644964 0.00042149334 -0.00017880916 0.00028343275 -0.98046696 0.040627196
599000000 -0.97872096 0.042921636 -0.00012929768 0.00073911191 -3.6008383e-005 -6.2624902e-005 -0.97982395 0.039862569
600000000 -0.97826409 0.044241488 -0.0004456763 -0.00016236908 -0.00024712578 -0.00018230687 -0.97974277 0.040901951
601000000 -0.97783685 0.045274641 -0.00059540983 -7.7578021e-005 0.00055077625 0.00013101858 -0.97933155 0.040543437
602000000 -0.97775888 0.042484805 -0.0004493226 -0.00012532162 -6.3258994e-005 -0.00018837331 -0.97954381 0.04091591
603000000 -0.97932243 0.044388514 0.00026420449 -0.00022624808 -0.00027144668 -0.0001647981 -0.9798919 0.041054573
604000000 -0.9791525 0.045000914 -9.1867281e-005 -1.1680031e-005 4.0664003e-005 0.00030929269 -0.97911721 0.041936137
605000000 -0.97820669 0.044525187 0.00011447378 -0.00014086376 0.00011008421 -0.0012509675 -0.97772002 0.041628432
606000000 -0.97766203 0.044251565 0.00061491062 0.00015722921 3.070267e-006 0.00054842519 -0.9786247 0.040910717
607000000 -0.97856945 0.045146897 0.00048535207 -0.00043744731 0.00025759535 -0.0007938057 -0.97941136 0.040969852
608000000 -0.97926199 0.045265272 -0.0004678065 -0.00010716065 0.00029342368 -0.00092036842 -0.97938538 0.041500323
609000000 -0.97735262 0.04586789 8.7693174e-005 0.00035714312 0.00058850978 0.00046498922 -0.97933173 0.040322516
610000000 -0.97750717 0.044617992 7.4091899e-005 -0.00083557348 -0.00074809312 0.00024514896 -0.97849756 0.041746512
611000000 -0.97822356 0.045340426 5.8208512e-005 0.00070880825 0.00034282648 2.7244318e-005 -0.9791041 0.040271647
612000000 -0.97766399 0.046086267 0.0011480175 -0.00072129816 -0.00011019994 5.8343816e-005 -0.9800235 0.041526571
613000000 -0.97981364 0.044329457 -0.0001948211 0.00060070667 -0.00011147231 -6.9709888e-005 -0.97963274 0.041007705
614000000 -0.97747052 0.044941902 -0.00025555407 -0.00016754525 -0.0001780061 -0.00048480358 -0.97955841 0.041460916
615000000 -0.97830033 0.04477223 0.00025546196 -0.0001765395 -0.00060436764 8.5257074e-005 -0.97880369 0.042555794
616000000 -0.97877932 0.046149194 -9.4527168e-005 -0.00064792443 0.00043356084 -0.00015555178 -0.97831386 0.042704049
617000000 -0.9785347 0.046325147 -0.00020935187 -0.00052736688 0.00076991407 -0.00041943582 -0.97790986 0.042192001
618000000 -0.97933203 0.046732858 0.00057976705 -4.4137516e-005 0.00027402819 0.00075393618 -0.9783898 0.041780397
619000000 -0.97711366 0.046559811 9.8086683e-005 -0.00023389362 8.7260756e-005 -0.00016877131 -0.97884792 0.04261668
620000000 -0.97795701 0.046029259 0.00090592552 3.7213526e-005 0.00014184452 0.00015488516 -0.97933066 0.043037899
621000000 -0.97881061 0.04726398 -0.00088002684 0.00010521784 0.00039669054 -0.00013307914 -0.9786576 0.042939153
622000000 -0.97856754 0.046506289 -0.00092911778 0.00054752408 0.00014446439 0.00075166975 -0.97830999 0.044436045
623000000 -0.97726369 0.046893373 6.1404302e-005 -0.00049834466 -0.00036881413 -6.5026645e-005 -0.97867781 0.043670245
624000000 -0.978688 0.046663363 0.00029475105 -0.0002631619 0.00020105521 -5.3133128e-005 -0.97813833 0.043445852
625000000 -0.97729802 0.048386913 0.00028835025 -0.00056198012 0.00022237439 -0.0005515095 -0.97754228 0.041346356
626000000 -0.97768736 0.047981281 -0.00017560551 -0.00045212673 0.00033436588 -0.00057577173 -0.97908378 0.04426818
627000000 -0.97780317 0.04690263 -0.00075524376 -1.6322763e-006 -0.00030218236 -0.00010631698 -0.97816139 0.042622972
628000000 -0.97722191 0.04793299 -0.00019080342 6.3352469e-005 0.0002435426 -0.00046806203 -0.97920352 0.043915287
629000000 -0.97820342 0.047826439 -0.00037088126 -0.00043960763 -0.00035654681 -0.00032946386 -0.97922355 0.043396913
630000000 -0.97644299 0.04742635 -0.00027111924 -0.0004745778 -0.00012902511 -0.00030204517 -0.9787842 0.04412007
631000000 -0.97791255 0.048214734 0.00039628727 -0.00031755268 0.00042662746 -0.00038728787 -0.97852284 0.04350346
632000000 -0.97797412 0.04850588 -0.00040525751 0.00015452485 -0.00049517152 -0.00031729598 -0.97839957 0.044399384
633000000 -0.97872424 0.047883637 7.8591504e-005 -0.00023540451 0.00061295478 -0.00022472165 -0.97851139 0.043849833
634000000 -0.97729325 0.049297363 4.73318e-005 -0.00020532304 -0.00077939086 0.00016746108 -0.97867751 0.044283427
635000000 -0.97684753 0.049286101 -0.00031363577 -0.00034626105 0.00011675666 -0.00054787332 -0.97829992 0.044608366
636000000 -0.97762918 0.049261954 -0.00076965039 -0.00035798224 -0.00031718935 -0.00070890336 -0.97932756 0.043726537
637000000 -0.97665364 0.048121061 -0.00018268696 0.0001852485 -6.7550594e-005 -0.00031470903 -0.97802645 0.04463239
638000000 -0.97699928 0.048353285 0.00017613772 -0.00026713894 -0.00043206027 0.00054754067 -0.97802168 0.043835271
639000000 -0.97901416 0.049621832 0.00029425748 -0.000246804 0.00025331741 -0.00058069726 -0.9772293 0.044066571
640000000 -0.97699922 0.049812827 -0.00016115846 -0.00027449362 -0.00024436085 7.5317235e-005 -0.97755617 0.044728056
641000000 -0.97818875 0.049368266 0.00027795733 0.00027908053 3.1080166e-005 -0.00027094153 -0.97810978 0.043506764
642000000 -0.97704762 0.049959674 -0.00023949044 -0.00042334755 0.00041034262 7.8047942e-006 -0.97862011 0.044161431
643000000 -0.97735745 0.050750058 -0.0002866826 0.00036767588 0.00074944022 0.00040804854 -0.97817695 0.043759909
644000000 -0.97770411 0.050134454 0.00012926523 -0.0004325351 0.00021765844 0.00018637562 -0.97833192 0.044480093
645000000 -0.97819841 0.049986217 -0.00011792815 -0.00016373706 0.00019073908 -0.00019353704 -0.97869998 0.043525018
646000000 -0.97780454 0.049956452 0.00051205221 -9.5973031e-005 -0.0004017535 0.0002642076 -0.97742945 0.04506167
647000000 -0.97801638 0.050159607 -0.00038437895 -0.00099204318 -0.00055302033 0.00044407681 -0.97878003 0.043903969
648000000 -0.97723359 0.050593369 -0.0004995733 -0.00039062952 -0.00077355269 -7.4424082e-005 -0.97730863 0.044480316
649000000 -0.97714567 0.050250288 -0.00041691045 -0.00029615583 0.00078859675 0.00063724827 -0.97853804 0.043714393
650000000 -0.97741163 0.051035471 0.00052715902 -8.1102944e-006 -0.0006665088 -0.00036695477 -0.97806257 0.043930467
651000000 -0.97719312 0.050535552 2.1307213e-005 7.4810472e-005 0.00024788064 0.00024851726 -0.97738791 0.043775279
652000000 -0.9778012 0.050578512 0.00030392982 0.0005500259 -0.00036084116 -0.00050225103 -0.97701859 0.04413205
653000000 -0.97704375 0.05026659 0.00021672004 7.3493335e-005 -0.00026849823 -0.00033567072 -0.97791028 0.044508502
654000000 -0.97682601 0.049643029 -0.00036691563 -0.00036296897 -0.00037450393 3.4141882e-005 -0.97971946 0.043526083
655000000 -0.97633553 0.050583612 0.00024780241 -0.00037451429 2.3700599e-005 0.00024050788 -0.97748548 0.045376003
656000000 -0.97710735 0.049419072 -0.00026656047 0.00018934828 0.000567485 -0.00014075349 -0.97904301 0.045032404
657000000 -0.97786218 0.050088864 -5.2797923e-006 0.00010750124 0.00039196969 -5.5749977e-005 -0.97923011 0.044950236
658000000 -0.97748673 0.050235737 -0.00026054773 9.7975404e-005 -0.00032804508 -0.00034135822 -0.97864634 0.044432193
659000000 -0.9770214 0.050552633 0.00014233314 0.00014389733 0.00039067448 -0.0005272695 -0.97824311 0.044525459
660000000 -0.97711134 0.050629612 -0.00065559702 0.00066093629 0.00016990684 -0.00061467226 -0.97639197 0.044762328
661000000 -0.9775489 0.051278561 -0.00024976995 1.7606917e-006 0.00047220624 -0.00027638878 -0.97910464 0.045850001
662000000 -0.97735381 0.050422151 -0.00032791865 0.00048375223 6.370827e-005 -0.00023854148 -0.97917318 0.045519654
663000000 -0.9775309 0.050589561 0.00017613049 -0.00038465593 0.0007432744 -0.0013823396 -0.97792196 0.043965004
664000000 -0.97645473 0.049902849 1.8590947e-005 -0.00028246813 -0.00033504976 -0.00039007649 -0.97948229 0.045165285
665000000 -0.9764303 0.050093334 -0.00025752926 -0.00020635697 0.00033611117 0.00039828772 -0.97824436 0.043864876
666000000 -0.97622174 0.051861469 -0.00063732284 -0.00046072016 -0.00019158077 -2.6760281e-005 -0.97820431 0.04362319
667000000 -0.97668678 0.05135116 0.00023750015 0.00025987846 -0.00019340089 -0.0002413831 -0.97904837 0.044462036
668000000 -0.97760051 0.050421402 -0.00028533142 -0.00015201463 -5.7430858e-005 -2.5747586e-005 -0.97837281 0.044538122
669000000 -0.9767226 0.050072018 0.00011442207 7.507125e-005 0.00017790654 -0.00030897299 -0.97851044 0.044603631
