!Keysight Technologies,M9374A,MY55442783,A.12.55.05
!Date: Thursday, May 20, 2021 16:41:23
!Correction: S11(Full 2 Port(1,2)) 
!S21(Full 2 Port(1,2)) 
!S12(Full 2 Port(1,2)) 
!S22(Full 2 Port(1,2)) 
!S2P File: Measurements: S11, S21, S12, S22:
# Hz S  RI   R 50
500000000 -0.97996306 0.039094064 0.0005832889 5.2110339e-005 0.00044154542 0.00047505897 -0.98153549 0.034869026
501000000 -0.97962242 0.038873464 0.00054255029 -0.00014170031 -0.00031319127 -2.8435117e-005 -0.98064846 0.035045434
502000000 -0.97942054 0.038596213 0.00021331657 -0.00056220969 0.0001219745 2.0278765e-006 -0.98040557 0.034376103
503000000 -0.97953874 0.03854131 0.00017230408 -0.00062320894 -0.00054678152 -0.00067318149 -0.97889757 0.03551295
504000000 -0.98048556 0.038273618 7.747965e-005 0.00055664533 -0.00020724203 -0.00010943893 -0.97957361 0.035979398
505000000 -0.97965604 0.039589129 -0.00067391619 9.0035886e-005 0.00018914195 0.00048444149 -0.98007697 0.034564257
506000000 -0.97994214 0.038899682 0.00059084874 -0.00046943652 -7.7375225e-005 0.00019745596 -0.97903627 0.035365984
507000000 -0.97959608 0.039807171 -0.00021572363 0.00035097598 2.03326e-005 2.5225017e-005 -0.98059613 0.036985014
508000000 -0.97977853 0.039067868 0.00025166513 -0.0011873081 0.0001178911 -0.00024392011 -0.98028225 0.036176492
509000000 -0.97985482 0.04077249 0.0003921414 -1.7822162e-005 -0.00076131721 -2.9726811e-005 -0.98029989 0.036474735
510000000 -0.97982061 0.040455226 0.00023477392 -0.00044302235 -0.00070161436 0.00026997706 -0.97909683 0.036399741
511000000 -0.97956359 0.041255143 0.00072813383 -0.00022292815 6.8761328e-006 -0.00038709273 -0.97931623 0.03663674
512000000 -0.97873765 0.038612556 -8.4961073e-005 -0.00044584647 -0.00084027211 3.1072665e-005 -0.98065674 0.035520796
513000000 -0.97929591 0.039771602 -0.00084184995 -0.00029523033 -6.2557236e-005 -0.00023271788 -0.97963172 0.037392035
514000000 -0.97743607 0.03952121 0.00026874203 0.00034851147 0.00014449224 -0.0002316543 -0.98025125 0.036605746
515000000 -0.97975385 0.039781902 -0.00010312817 -0.00053963397 -0.00047125845 -0.00037957914 -0.98028451 0.037016347
516000000 -0.97898388 0.040553983 -0.00047670014 0.00052339985 -5.7900881e-005 -1.4678662e-005 -0.97957796 0.03721359
517000000 -0.97931951 0.040875927 0.00057885092 -0.000219297 -3.3379125e-005 0.00014904173 -0.97980994 0.035636056
518000000 -0.97860146 0.039886899 -0.0001835404 -0.00056541228 -0.00060211623 -0.00067538803 -0.9787001 0.037601259
519000000 -0.97821182 0.039432157 -0.00048130369 -1.0819463e-005 4.7669102e-005 -0.00020959435 -0.97847027 0.037443139
520000000 -0.97966456 0.04081079 -9.0951165e-005 -0.00059202575 -0.0003781073 6.3267951e-005 -0.98080671 0.037422922
521000000 -0.97802955 0.042704638 9.8447446e-005 0.0001007808 0.00048541199 0.0001133714 -0.97957557 0.037935331
522000000 -0.98137802 0.041958794 0.00029509419 -0.00067099696 -0.00035450936 -0.00033404754 -0.98036891 0.037069384
523000000 -0.97993743 0.040374026 -0.00071682082 -0.00010261328 2.8484821e-005 -0.00035242026 -0.97937852 0.037785746
524000000 -0.97956103 0.040709175 0.00010626231 0.00011072322 -0.00014682676 0.00065734261 -0.97900182 0.038029447
525000000 -0.97863913 0.041312538 -0.00071242754 -4.8990478e-005 0.00014599295 -0.00053457462 -0.97986698 0.03778604
526000000 -0.97889018 0.041196462 9.6427917e-005 -0.00016529666 0.0005773665 0.00032552209 -0.97862625 0.038929988
527000000 -0.97862637 0.041372526 -0.00020321918 -0.00044823464 0.00037444351 -4.4680084e-005 -0.98006558 0.039017234
528000000 -0.97904015 0.042465277 0.00034640881 9.6588847e-005 0.00021791924 -0.00027846001 -0.97814649 0.037310895
529000000 -0.9786213 0.042538781 -0.00057949329 0.00049808255 -0.00044143302 -0.00052492594 -0.97842628 0.03873894
530000000 -0.9791854 0.04224778 -0.00020032814 -0.00030781364 0.00026319179 -0.00048709725 -0.9791829 0.038622405
531000000 -0.97840482 0.042023119 0.00032902384 -0.00036622758 0.0002512073 -0.00048993138 -0.97922492 0.039049845
532000000 -0.97956586 0.041858587 0.00035568571 -0.00033341156 -2.5781321e-005 -0.00050328934 -0.9785614 0.038382716
533000000 -0.97896916 0.041753195 0.0002625729 0.00036131614 7.3167474e-005 0.00092598767 -0.97886169 0.038516447
534000000 -0.97820872 0.040698625 -0.0002134427 -2.2277745e-005 -0.00031226387 -0.00047398097 -0.97988355 0.037312511
535000000 -0.97973603 0.041987825 0.00032168764 4.1799132e-005 0.00047734738 -0.00037921077 -0.97900999 0.038891401
536000000 -0.97876513 0.042335261 9.7159755e-005 -9.4042261e-005 -0.00040673144 -0.00031599254 -0.97889572 0.038304295
537000000 -0.97963244 0.042274345 -0.00017018712 -0.00010982822 9.1871938e-005 -0.00022723051 -0.97907358 0.038987271
538000000 -0.97963673 0.041392826 -0.00056385621 -0.00011893094 -0.00011510755 -0.00055457233 -0.9787792 0.039292067
539000000 -0.9794752 0.042192522 0.00017338932 -0.0003236687 -0.00015352506 0.00029104174 -0.97954267 0.039801098
540000000 -0.97945154 0.041570202 -8.0597441e-005 -0.00046971309 0.00043388034 -5.3029606e-005 -0.97902584 0.039833352
541000000 -0.97941667 0.042495005 -0.00090437324 -0.00083622953 -0.0002927864 1.9101999e-005 -0.97923648 0.040093604
542000000 -0.97965026 0.042923968 0.00045992117 -0.00040907454 -0.00053960655 -6.7910376e-005 -0.97987199 0.037995677
543000000 -0.97870159 0.04209229 -0.0003596195 -0.00027513134 4.0562252e-005 -0.0008177947 -0.97935772 0.039760854
544000000 -0.97952396 0.042598616 -0.00016306117 -0.00061588665 0.00041025452 0.00030165486 -0.97951376 0.039402924
545000000 -0.98010033 0.042397849 -3.9038012e-005 -0.00035898082 -0.00052890618 7.9528741e-005 -0.97807968 0.039086048
546000000 -0.97817594 0.042459209 -0.00017384045 0.00035857636 -0.00035362429 7.6795113e-005 -0.97927248 0.039272111
547000000 -0.97871172 0.043031268 2.3489751e-005 0.00043908623 0.00017360793 0.00041618507 -0.97970504 0.039462514
548000000 -0.97697026 0.042733438 0.00014204613 -0.00037574759 0.00011186994 0.00049286388 -0.9785651 0.039914396
549000000 -0.97831976 0.042125747 0.00020244138 0.00014236287 -0.00040703738 -0.00086771476 -0.97868603 0.040108249
550000000 -0.97790122 0.042787898 0.00077773293 -0.00066397118 -0.0002979686 -0.00047568552 -0.9788084 0.039339103
551000000 -0.97814512 0.042351767 -3.6347887e-005 0.0011833913 4.7588739e-005 -0.00021796188 -0.97899425 0.039797191
552000000 -0.98049659 0.042733859 0.00045953225 0.00068388652 -0.0011438258 0.00058598566 -0.97867161 0.040157065
553000000 -0.97894084 0.042972431 -0.00012501239 9.0590947e-005 -0.00019520629 -0.00059404998 -0.97891241 0.039210413
554000000 -0.97890615 0.041352339 -9.3970935e-005 0.00069932471 0.00027520565 8.0542322e-006 -0.97842407 0.038757131
555000000 -0.9778406 0.041639421 -0.0004495859 -0.00082155433 0.00028456465 0.00038352064 -0.97876233 0.039449375
556000000 -0.97856289 0.04217203 -0.00047039019 -0.00013306102 0.00026773629 0.00053325068 -0.98040718 0.039845888
557000000 -0.97815245 0.042639583 -8.4718944e-005 -0.00058556476 -0.00075545645 -1.3036812e-005 -0.97939563 0.040132817
558000000 -0.97869378 0.04233462 5.9722472e-005 -0.00017922081 0.00060158467 -1.152094e-005 -0.97929394 0.038644679
559000000 -0.97809744 0.040999554 0.00049530703 -0.00060887914 0.00034840702 -0.00044566285 -0.97912031 0.041046206
560000000 -0.97784686 0.041882277 -0.00035757935 0.00010124109 0.00047143118 0.00026500347 -0.97933084 0.039667498
561000000 -0.9784413 0.041474327 -6.7107244e-006 0.0001844065 -0.00025350979 -1.3411177e-005 -0.97918677 0.038752712
562000000 -0.9779585 0.043080296 8.7555047e-005 -0.00076333265 0.00040494467 -8.822678e-006 -0.97908098 0.039940055
563000000 -0.97912699 0.042272143 -0.00056682143 -7.2788712e-006 0.00033649435 -3.8231559e-005 -0.97903454 0.039525546
564000000 -0.97906941 0.042122338 0.00017083054 -0.00078150135 0.00025307306 -2.6090453e-005 -0.98022038 0.039369062
565000000 -0.97922558 0.041891098 -0.00010581128 0.00033168108 0.0004164711 9.5275434e-005 -0.9790495 0.03854597
566000000 -0.97917902 0.041142061 -0.00014915627 -0.00079132948 0.00042931526 0.00010734477 -0.97986031 0.039513703
567000000 -0.97872204 0.041629128 -0.00016870062 -0.00047948034 -0.00012660873 0.00029160344 -0.97986901 0.038615808
568000000 -0.97680277 0.04039133 -0.00032233677 -0.000540615 0.00050590839 -0.00036213934 -0.97881985 0.039562225
569000000 -0.97856063 0.04141755 -0.00060661766 8.7200635e-005 0.00023177601 0.00018192938 -0.97850269 0.039259471
570000000 -0.9787094 0.041933049 2.168028e-005 0.00026665622 5.5573571e-005 -0.00013300256 -0.97809803 0.039760061
571000000 -0.97868776 0.042439338 0.00034623273 0.00054315361 0.00029568849 0.00044010745 -0.97925657 0.040180262
572000000 -0.97624242 0.04301228 -0.00020719608 0.00025576216 -0.00020688942 -0.00072413753 -0.97942984 0.039808337
573000000 -0.9789418 0.041964613 -0.00014378957 -0.00014455803 -0.00041802964 -0.00034414799 -0.97985446 0.040723406
574000000 -0.97797692 0.041883789 -0.00016822481 -0.0004218182 2.9548972e-005 -0.00035756369 -0.97952461 0.03935587
575000000 -0.97760195 0.042360347 0.00025293618 -0.00079008238 -0.00031567088 0.00011095199 -0.97992849 0.039273847
576000000 -0.97762871 0.041470844 -4.4456745e-005 0.00025527034 0.00057203678 -0.0010902608 -0.97871989 0.039561946
577000000 -0.97878301 0.041716222 -0.00043530081 -0.00019129654 -0.00010321938 0.00020382865 -0.97971445 0.039959088
578000000 -0.97861332 0.043833684 -0.00019594652 0.00036820379 -0.00034601649 -0.00021856028 -0.97953677 0.039039236
579000000 -0.97825086 0.041908644 0.00041110226 3.5080293e-006 -8.2409078e-006 -0.0004176092 -0.97934777 0.038311336
580000000 -0.97787422 0.042371672 -0.0007354868 -9.687573e-005 0.00049527461 0.00025447778 -0.97960037 0.040553764
581000000 -0.97811085 0.041331686 0.00042962126 0.00085899647 -0.00025786861 -0.00014952545 -0.97949511 0.040575087
582000000 -0.97812378 0.041204166 -0.00024071783 0.00058945501 -1.4121016e-005 -0.00067220395 -0.98066157 0.03952533
583000000 -0.97852552 0.043374512 0.00048060861 -0.001052584 6.8863774e-005 -0.00076658517 -0.97908491 0.039296761
584000000 -0.97747785 0.041842863 -0.00034648474 -9.2399081e-005 0.00012493774 0.00012241241 -0.97888207 0.040697433
585000000 -0.97828811 0.04099384 -0.00055524788 -0.0004744711 -0.00011409391 -0.00056348805 -0.97883135 0.039009038
586000000 -0.97770745 0.042507093 -0.0003143888 -0.00063923921 0.00076057285 -6.2575287e-005 -0.97822112 0.040185973
587000000 -0.97846967 0.041644532 -0.00042030882 7.0283709e-006 -0.00030122884 5.2952979e-005 -0.97995651 0.040285509
588000000 -0.97826546 0.042741135 -0.00018258706 -0.00079840992 0.00051061035 0.00065464003 -0.97937244 0.039224725
589000000 -0.97906816 0.043320723 -0.00035205891 -4.6284997e-005 -0.00065948692 -0.00013323702 -0.98054278 0.040066097
590000000 -0.97820544 0.04264595 -0.0003277018 4.1126048e-005 -0.00024935772 0.00011244773 -0.97855759 0.042570993
591000000 -0.97854668 0.04256044 -0.00044236798 -2.8262586e-005 -0.0001023044 6.8061505e-005 -0.97954911 0.040854547
592000000 -0.97758079 0.041661672 0.00033040033 -0.00054400129 8.5696869e-005 0.0001174864 -0.97867322 0.039127525
593000000 -0.97676998 0.042767871 0.00043280248 7.5757351e-005 -0.0005842555 -4.2254145e-005 -0.97881484 0.040612604
594000000 -0.97775567 0.041812729 0.00010749388 -0.00039721243 0.00049875292 -0.00015358794 -0.97908032 0.041377913
595000000 -0.9776141 0.043156445 3.7666116e-005 0.00041428456 -0.00046647608 8.2201354e-005 -0.97941869 0.039125007
596000000 -0.9780302 0.042706121 -0.00023093853 0.00045491275 0.00022696558 0.00044657668 -0.97995138 0.041083723
597000000 -0.97794503 0.043776702 -0.00072012132 -0.0007706827 -0.00011673842 -0.00022743833 -0.97773772 0.041680906
598000000 -0.97800583 0.043425497 -3.1175743e-005 -0.00040385738 -0.00041349564 -0.00078456529 -0.97955662 0.041005839
599000000 -0.9782021 0.042926222 -0.00068626343 -3.6337849e-005 0.00024791469 -0.00011015216 -0.97965384 0.039856058
600000000 -0.97815955 0.044282846 -0.00030377088 0.00010130612 4.0866267e-005 -7.8527308e-005 -0.9786579 0.042445954
601000000 -0.97743994 0.043806337 0.00025618775 -0.00050564815 -0.00040846888 -0.00057841657 -0.97938657 0.041639827
602000000 -0.97728699 0.043586388 -0.00074914598 -0.00098274555 8.3479745e-006 -3.4896584e-005 -0.97839367 0.041300494
603000000 -0.97737789 0.044076752 -0.00024398258 0.00011837628 -0.00051508175 -0.00011595617 -0.97975266 0.04048682
604000000 -0.97741926 0.045222651 -0.00037913828 -0.0002146976 0.00010754503 -0.00015512352 -0.97938943 0.041658908
605000000 -0.97735989 0.045272887 8.5575914e-005 -0.0010938685 -0.00010602672 0.00017154899 -0.9782536 0.04210107
606000000 -0.97817975 0.045065716 0.00032249338 0.00056512834 -0.0006008019 -4.7339767e-005 -0.97860759 0.04174114
607000000 -0.97800589 0.044975758 -0.00031067952 0.00032218304 0.001127198 0.00023049934 -0.98007256 0.042319067
608000000 -0.9788546 0.04374579 -0.00061224902 -0.00010461511 -0.0002658283 -0.00088091806 -0.97877485 0.041131325
609000000 -0.97759467 0.044080097 -0.00077432994 7.3679083e-005 -0.00061188103 -0.00051888771 -0.97879565 0.041521609
610000000 -0.97825247 0.044045668 -0.00053472089 0.00046953358 -9.2765498e-005 0.00018785606 -0.97844779 0.042528432
611000000 -0.97716808 0.045497183 -7.136973e-005 9.3899391e-005 0.00016603492 0.00022968336 -0.97814125 0.041245777
612000000 -0.97835988 0.044807948 -0.00043126417 7.5216936e-005 0.00033609386 0.00018755837 -0.97814983 0.042038407
613000000 -0.97862846 0.045327291 9.6383832e-005 0.0002216453 0.00063189142 2.7455912e-005 -0.9791401 0.042633951
614000000 -0.9775241 0.046671249 0.00039147411 0.00016008789 0.0002264072 -6.9682055e-006 -0.97943425 0.042630266
615000000 -0.97800195 0.046108343 0.00015463089 6.657526e-005 0.00015514054 0.00045856094 -0.97793335 0.042284641
616000000 -0.97784311 0.045991465 -0.00060403568 -0.0005092604 -0.0002778355 -6.7108755e-005 -0.97773004 0.041695241
617000000 -0.97905487 0.047599196 -0.00013550775 -0.00056583551 -0.00015676879 -0.00015662293 -0.9795785 0.043242667
618000000 -0.97781938 0.046508871 0.00022903852 -0.0006770133 5.5267443e-005 -0.00048795532 -0.97902393 0.04314686
619000000 -0.97870618 0.047332052 -6.8251204e-005 0.00029575062 -0.00025903503 -0.00051365449 -0.97857803 0.043101497
620000000 -0.97688246 0.047065578 -0.00030979884 -4.8319362e-005 -0.00043847298 -0.00037784223 -0.97881711 0.044738494
621000000 -0.97841632 0.046970278 0.00096649968 -0.00038694285 -9.0428919e-005 0.00041751878 -0.97797477 0.044040315
622000000 -0.97773552 0.046169877 1.6748164e-006 0.00016591103 0.00010700835 -0.00040733497 -0.97882169 0.043436959
623000000 -0.97587067 0.046067342 -0.00022929152 0.00081212103 0.0010778182 -0.00013815815 -0.97771955 0.042306963
624000000 -0.97740418 0.047311589 -0.00036976754 -0.00066737912 7.0761438e-005 0.00031586856 -0.97868747 0.042678278
625000000 -0.97796541 0.049667817 2.7490243e-005 1.282374e-005 -0.00088556018 -0.00035484135 -0.97855389 0.043316912
626000000 -0.97798002 0.046885286 -0.00071872445 -0.00019434953 0.00013507884 0.00019951878 -0.9773922 0.044180181
627000000 -0.97699696 0.047473304 0.00014738494 0.00062674063 0.00047596911 -2.0311081e-005 -0.97837937 0.043117385
628000000 -0.97809911 0.049209822 -0.00053657859 5.2806059e-005 0.00042598112 -0.00010420848 -0.97784531 0.043686692
629000000 -0.97831559 0.047845602 0.00024605345 0.00044028749 -0.00064380758 -0.0001846565 -0.97918886 0.04402056
630000000 -0.97705746 0.047187459 -0.00021750659 0.00048600778 -0.0003104877 -8.0687598e-005 -0.97869617 0.04480207
631000000 -0.97742391 0.048781991 0.00036766179 -2.0917563e-005 -0.001098424 -9.9002908e-005 -0.97850925 0.043367453
632000000 -0.97749931 0.048485264 -0.00064450334 -0.000114644 -0.00015580373 0.00025823154 -0.97792149 0.044661708
633000000 -0.97643864 0.048180573 -0.00018539843 -0.00036896297 0.0002600126 -0.00039235869 -0.97839797 0.043881815
634000000 -0.97859669 0.050290879 0.00030665644 -4.3357063e-006 -0.00055389979 -0.00016360405 -0.97842747 0.043290872
635000000 -0.97634351 0.048531413 0.00034356321 -0.00054905226 0.00058935053 -0.00069359742 -0.97900856 0.043046363
636000000 -0.97595888 0.047916677 0.00033446585 -0.00011458519 0.00030314032 0.00024648645 -0.97998661 0.044494778
637000000 -0.97650224 0.048999906 0.00031592775 -0.00065563293 0.00024575155 -0.00035327667 -0.97907031 0.044232663
638000000 -0.97667384 0.049489416 -0.00026495787 -0.00055886462 -0.00065767101 -9.5907548e-005 -0.97820336 0.043879606
639000000 -0.97760838 0.049591117 0.00013223103 -9.6263211e-006 4.7093959e-006 -0.00024988857 -0.97820175 0.044557393
640000000 -0.97676349 0.050242409 0.00040340715 -0.00055254722 2.9090104e-005 -7.1017894e-005 -0.97808921 0.04446331
641000000 -0.97804445 0.049686551 0.00011086842 0.0002784133 5.3173178e-005 5.1594903e-005 -0.97782159 0.043166973
642000000 -0.9763307 0.049492873 -0.00013522203 -0.00091280119 -0.0003261008 -2.6194217e-005 -0.97873503 0.04501424
643000000 -0.97659713 0.049792774 -0.00023549561 -1.7210481e-006 -0.00021503684 -0.00030246665 -0.97916776 0.044394486
644000000 -0.97711968 0.048527557 -0.00013191738 -2.8590472e-005 -0.00015162451 0.0001941964 -0.97806513 0.043989226
645000000 -0.97750914 0.050292205 -0.00058178202 -0.00046777993 -0.0010186631 -1.9358915e-005 -0.97827637 0.044134147
646000000 -0.9778344 0.050925955 -0.00027543891 0.00039690069 -0.00013966073 -0.00017493393 -0.97714883 0.044692967
647000000 -0.97685891 0.049482699 -0.0010374616 -0.00028086512 -0.0002557562 -0.0010879706 -0.9792518 0.044623416
648000000 -0.97742671 0.04941462 -0.0007282194 0.00017588155 -0.00011492225 -0.00013179818 -0.9778567 0.045007057
649000000 -0.97760063 0.05002591 0.00088851963 0.00015800081 -4.0492603e-005 6.0292772e-005 -0.97803307 0.045454022
650000000 -0.97591513 0.050303373 0.00083819107 8.1407226e-005 -0.00025687314 0.00035080581 -0.97857445 0.045369945
651000000 -0.97699702 0.04906024 -0.00015744456 0.00032302673 -5.4256467e-005 0.00014928578 -0.97707701 0.04393898
652000000 -0.97708952 0.050611954 0.00021448676 -0.00022211236 -0.00036570101 0.00013323064 -0.97662193 0.045445371
653000000 -0.97707331 0.050816894 0.00011549743 0.00027522398 9.6735559e-005 -5.1996867e-005 -0.9777112 0.044461109
654000000 -0.97612911 0.050683469 -0.0003245713 6.1861312e-005 -1.349265e-005 0.00023742221 -0.97896028 0.045032904
655000000 -0.9764545 0.050426487 0.00031209883 0.00046399477 0.00060757378 -0.00013935083 -0.97749174 0.04456158
656000000 -0.97626352 0.051196959 0.00039527152 -0.00017943454 -0.0001690685 -0.00028732937 -0.97797769 0.046415661
657000000 -0.97674024 0.051067892 -0.00026520519 0.00056995114 -4.7649111e-005 -0.00060815294 -0.97876561 0.04435927
658000000 -0.97785598 0.050332554 0.00031465426 -9.2952403e-005 -0.00060200266 -0.00035747301 -0.97776526 0.044679038
659000000 -0.97668332 0.04968325 -4.2494677e-005 -0.00012544701 -0.00021213322 -0.00013429172 -0.97690916 0.045209911
660000000 -0.97681606 0.049679685 -0.00027768995 0.0001661414 -0.00059207727 0.00037626692 -0.97634578 0.045670986
661000000 -0.97612768 0.050911713 0.00012973856 0.0001057519 0.00011498665 -0.00012936804 -0.97604918 0.04567511
662000000 -0.97735155 0.051076882 0.00041589112 -0.00058761623 0.00046835013 -0.0003999054 -0.97896725 0.045706201
663000000 -0.97723716 0.050476313 0.00052355288 9.0734851e-005 -7.1151626e-005 -0.0004895656 -0.97795939 0.045026783
664000000 -0.97797126 0.050290879 -8.3959829e-005 0.00021562181 0.00014024084 0.0001214868 -0.97877473 0.045348953
665000000 -0.97591615 0.051224981 8.0652993e-005 0.00014777778 0.00015959394 -6.7460445e-005 -0.97668087 0.045912907
666000000 -0.9774161 0.051368628 8.7576052e-005 2.4204772e-005 -0.00071721221 -0.00053553248 -0.97880936 0.045523163
667000000 -0.97665083 0.051559132 -0.0011220855 0.00022979773 -0.00060348772 -0.00020478939 -0.97815192 0.044421814
668000000 -0.97699451 0.05062015 -0.00015639924 -0.00017593283 -0.00016870553 -0.00051311177 -0.97889036 0.044604857
