!Keysight Technologies,M9374A,MY55442783,A.12.55.05
!Date: Thursday, May 20, 2021 16:52:03
!Correction: S11(Full 2 Port(1,2)) 
!S21(Full 2 Port(1,2)) 
!S12(Full 2 Port(1,2)) 
!S22(Full 2 Port(1,2)) 
!S2P File: Measurements: S11, S21, S12, S22:
# Hz S  RI   R 50
500000000 -0.98047358 0.038436849 -0.00040538801 0.00029596666 -0.00033711782 6.5168002e-005 -0.97904354 0.033695258
501000000 -0.98066121 0.037377026 0.00023420724 -0.00063882302 -0.00018683283 3.9835402e-005 -0.9792546 0.036211979
502000000 -0.97931463 0.038456984 0.00058253983 4.0984924e-006 -0.00012417465 0.00026257033 -0.9811604 0.035420179
503000000 -0.97824275 0.038580034 2.5552459e-005 -0.00038991714 0.00038062711 0.00054090185 -0.98181319 0.034936067
504000000 -0.9796865 0.037930515 -0.00027982378 -0.00038479143 -0.00076980609 -0.00024190951 -0.9806034 0.034162458
505000000 -0.98100471 0.038603298 0.00037027436 8.5044689e-005 -7.5622185e-005 -0.00011577008 -0.98022151 0.035648715
506000000 -0.9794082 0.038950451 -0.00038568585 0.0003765242 0.00067419891 -8.6807675e-005 -0.9803887 0.035270184
507000000 -0.97931999 0.039110664 0.00063581025 2.0370097e-005 -0.00065288629 0.00018037156 -0.98015314 0.036181569
508000000 -0.97996706 0.039915036 -7.8433404e-005 0.00024619271 -0.00030931039 -7.4743868e-005 -0.97967166 0.035221886
509000000 -0.98004186 0.039591059 0.00055088621 -0.00054413307 0.00031053327 -0.0007815304 -0.97928011 0.036635239
510000000 -0.97920954 0.040012151 0.00013701594 -0.00045358026 4.9011705e-005 -0.00038500343 -0.9802444 0.037167978
511000000 -0.97803277 0.040160205 -0.00022926476 -0.00017077704 -0.00070221105 -0.00027504904 -0.97910589 0.036036097
512000000 -0.97919518 0.039154314 -2.3718982e-005 -0.00060249295 0.0001613003 0.00033680585 -0.98018235 0.035119843
513000000 -0.97898757 0.039459296 -0.00092363858 0.00041546687 -7.6807723e-005 -4.2245007e-005 -0.98099118 0.035788119
514000000 -0.97956556 0.039910451 0.00037187152 -9.2062197e-005 -0.00019885742 -5.3785038e-006 -0.97971314 0.036046624
515000000 -0.98018861 0.039471816 -7.4875083e-005 0.00041327946 -0.00025383302 -0.00034340218 -0.98073989 0.036534801
516000000 -0.97837824 0.040551491 0.00030624226 0.00014940974 -0.00029677109 -0.00045169762 -0.97972125 0.037219532
517000000 -0.98066479 0.039784238 -0.00048928114 -0.00047650491 -6.9534681e-006 -2.2310918e-005 -0.98006803 0.036991991
518000000 -0.97965485 0.039966837 0.00048522605 0.00022165349 0.0001498635 0.00051189662 -0.97932965 0.036309455
519000000 -0.97973281 0.039757334 -0.00033182235 5.8932437e-005 0.00031996041 0.00038745496 -0.97949773 0.037559155
520000000 -0.97860205 0.040537715 -0.0003438502 -0.00050087681 9.5537878e-005 -0.00045478466 -0.9799363 0.036422338
521000000 -0.9799155 0.040767167 -0.00087109336 -0.00018714719 -0.0003031918 -0.00015607117 -0.98023152 0.037878145
522000000 -0.98010451 0.041135967 -0.00026300419 -5.456568e-005 0.00031962772 -0.000617243 -0.98013985 0.038635101
523000000 -0.9804613 0.041347329 -0.00067277031 0.00013050214 -5.719746e-005 0.00014662684 -0.97847033 0.038109399
524000000 -0.97901064 0.040621314 -0.00030046646 0.00035238356 -0.00030178332 -0.00017189357 -0.97934455 0.037754331
525000000 -0.97896576 0.041564185 0.00086057355 0.00015720646 -0.00057368889 0.00058794231 -0.97952747 0.037051976
526000000 -0.98035049 0.041580983 -0.00031990698 -0.00050899788 -0.00013120564 -0.00031010996 -0.97941595 0.037304211
527000000 -0.97933656 0.041479904 -0.00042522364 -0.00020051721 3.253156e-005 -0.00052913162 -0.98022115 0.037737709
528000000 -0.9785831 0.042603508 7.1304559e-005 -0.00054299529 -0.00070251629 0.00033696092 -0.97885996 0.040671799
529000000 -0.97886062 0.041202493 -0.00022489684 -0.00047578709 -0.00038032176 -0.00066747714 -0.97925997 0.038083442
530000000 -0.9796375 0.0413712 -0.00017417238 0.00050342851 -8.3380466e-005 -4.0464358e-005 -0.9802376 0.038581043
531000000 -0.97923654 0.041424662 -0.00027591735 0.00055699848 -0.00026468872 -0.00021355659 -0.97988492 0.037503779
532000000 -0.98022431 0.041180063 0.00063283538 -0.00035352685 -0.00033690949 0.00018659454 -0.97987044 0.038662653
533000000 -0.97916776 0.042446207 3.9416354e-005 -0.00062255684 -0.00010161964 -0.00023948144 -0.98105997 0.038375508
534000000 -0.97961551 0.040842351 0.00011942089 -0.00030660478 -3.0320543e-005 -0.00031747136 -0.98007792 0.037342586
535000000 -0.97927123 0.042036023 0.00013154585 -0.00026143389 3.9698789e-005 -2.99207e-005 -0.97852099 0.038543027
536000000 -0.97944158 0.04186134 0.00043055511 -0.00064403244 -0.00021754761 1.6274484e-005 -0.9779309 0.03858098
537000000 -0.97829741 0.041717425 3.0219586e-005 9.9035693e-005 0.00016189099 0.00027209002 -0.97971636 0.038305163
538000000 -0.97830915 0.04210192 -0.00029719711 -0.00024600868 -2.3859593e-005 0.00023248803 -0.97929621 0.038743805
539000000 -0.97945756 0.042567696 0.00026400114 0.00022814378 8.4721818e-005 0.00037783757 -0.97989875 0.03853358
540000000 -0.97986293 0.042410746 -0.0006602644 0.00075339421 -0.00038009966 -0.00035547515 -0.98045772 0.038105935
541000000 -0.97802973 0.042533621 -0.00022841376 1.394647e-006 0.00043164511 -6.2539599e-005 -0.97968918 0.038668841
542000000 -0.97874677 0.042900003 0.00035102031 -0.00024757642 -0.00019770363 0.00031231571 -0.97898662 0.037648004
543000000 -0.97995859 0.042853028 -0.00037520422 -0.00039357552 -0.00045540367 -0.00011996083 -0.98035502 0.039681211
544000000 -0.97855747 0.042821813 -8.543842e-005 0.0005563568 0.00018791233 0.0004495336 -0.97985005 0.038883399
545000000 -0.97936553 0.042352084 -5.5997436e-005 -0.0014356672 -0.00023546898 -2.7482885e-005 -0.97905844 0.038715597
546000000 -0.97940189 0.042558651 -0.00074178114 -0.00038158731 4.0068855e-005 -0.00046320193 -0.97900355 0.039090298
547000000 -0.97925442 0.042585563 -0.00049843936 0.00040215571 0.0008928664 -0.00048008244 -0.97914129 0.039477322
548000000 -0.97845274 0.042395882 0.00017537651 -0.00056145695 0.00050119142 -0.00017075098 -0.9789294 0.03941584
549000000 -0.97851139 0.041957684 -0.00020909066 -0.00025833567 -0.00070893753 -3.8110244e-005 -0.97906148 0.040479079
550000000 -0.97781533 0.042553302 -0.0006349266 -0.00044273993 0.00052565557 0.00056860811 -0.97918463 0.040574882
551000000 -0.97815931 0.041945495 -3.8534495e-006 -0.00017968971 -0.00036601551 -0.00075221143 -0.97947574 0.038790118
552000000 -0.97970891 0.041199066 -7.4828829e-005 0.00055507774 0.0002224309 -0.00019887942 -0.98005742 0.039704464
553000000 -0.97953737 0.041767966 -0.00014667607 0.00030041003 0.00017973219 5.0756844e-005 -0.97980177 0.038078357
554000000 -0.97775364 0.041999906 -0.00018445702 0.000424289 3.8999689e-005 -0.00014499956 -0.97917801 0.03756037
555000000 -0.97892427 0.042198658 3.4450461e-006 -0.00040228569 0.00046530511 0.000102357 -0.97932726 0.038945109
556000000 -0.97831875 0.041782971 -0.00026576073 -0.00022616374 0.0001400334 -0.00037407529 -0.97996062 0.039163642
557000000 -0.97909945 0.042357665 -0.00051407708 -0.00064603443 -0.00022595999 -0.00013537437 -0.98097938 0.038947284
558000000 -0.9788624 0.042035941 -0.0002559057 0.00014650388 -0.00029565458 0.00026571314 -0.98043257 0.038274284
559000000 -0.97878063 0.041750111 -0.00062083913 2.685075e-005 0.00020385307 -0.00048387944 -0.97951585 0.039135247
560000000 -0.9784838 0.04270009 -0.00024585155 0.00036839119 -0.00034639004 -0.0004478858 -0.97891617 0.03927087
561000000 -0.97912955 0.042015035 0.00050278119 -0.00013292689 0.00038102226 0.00048234413 -0.9797827 0.039286822
562000000 -0.9778775 0.041911148 -0.00012950828 -0.00027283386 -0.00016696162 -0.0003628777 -0.98098075 0.038755599
563000000 -0.97812021 0.042805169 -0.00040587047 0.00070730032 6.946447e-005 0.00048789394 -0.97911048 0.039280474
564000000 -0.98009151 0.041443378 -7.5897675e-005 -0.00014671842 -0.00064835144 -0.00037402415 -0.98024678 0.038739923
565000000 -0.97820544 0.041503355 -0.0001295821 -0.00022847149 -0.0001771895 0.00014113994 -0.97862256 0.039571289
566000000 -0.97865486 0.042059124 -0.0001622886 -0.00055264868 -0.00073940458 -0.00022057303 -0.9791165 0.039074969
567000000 -0.97965026 0.04157399 -0.00029036833 -0.00012250718 0.00017112837 -1.8589315e-005 -0.97938257 0.039416261
568000000 -0.97834402 0.041722197 0.00057230092 -0.0013428723 -8.6635067e-005 -0.00030982943 -0.98001397 0.039634105
569000000 -0.97814876 0.041417517 -0.00010376124 0.00026860859 6.260173e-006 0.00026919448 -0.97918785 0.038405526
570000000 -0.9772678 0.042454228 0.00050117547 -0.00012125018 0.0004216065 -3.7932899e-005 -0.97808468 0.039751027
571000000 -0.97869933 0.04226242 3.9430106e-005 0.00025209555 -6.5388427e-005 -0.00048290542 -0.981067 0.038854931
572000000 -0.97792608 0.042347003 0.00027475806 -0.00034888994 0.00038692015 -0.00019263217 -0.97880894 0.038962092
573000000 -0.97860086 0.042442966 0.00036252177 -0.00024359042 -0.00015450793 0.00021859678 -0.98025209 0.039497077
574000000 -0.97679353 0.041935369 -0.00012946264 0.00030922249 -0.00018434894 0.00032698788 -0.97918642 0.039276291
575000000 -0.9788093 0.0426316 6.7598783e-005 -0.00017324316 -0.00094353885 -9.2671929e-005 -0.97872579 0.039301176
576000000 -0.97762239 0.041303769 -0.00028316973 -9.6864191e-005 -0.000650551 0.00072688202 -0.9785282 0.039813738
577000000 -0.978167 0.04122648 7.935676e-006 0.00020856858 0.00085116178 -0.00031548546 -0.97953707 0.040080998
578000000 -0.97886771 0.041449115 -0.00058951712 0.00035446495 -0.0003044417 0.00046198431 -0.98096246 0.038000751
579000000 -0.9783904 0.043152358 -0.00058050454 9.2275281e-005 0.00037444622 -0.00012652116 -0.97992867 0.038911648
580000000 -0.9788242 0.041142993 5.9293641e-005 -0.0004927406 6.2116094e-005 -0.00012957005 -0.9795866 0.040426143
581000000 -0.97714782 0.042442419 -0.00042545667 8.8298963e-005 0.00027638051 0.00031450682 -0.98106307 0.038722046
582000000 -0.97708869 0.041545235 -4.357519e-005 -0.00056315353 -0.00019030875 0.00060513848 -0.98052293 0.040036339
583000000 -0.97795564 0.043200262 0.00033416715 7.0971102e-005 -0.00045543927 0.00046339768 -0.98109108 0.038204897
584000000 -0.97842163 0.042669076 -0.00011572294 2.2545169e-005 0.00035641351 -0.00089622551 -0.97970259 0.040579546
585000000 -0.97854596 0.04199414 9.3478215e-005 -0.00013776081 -0.00012636709 -0.00020904109 -0.97944194 0.040781725
586000000 -0.97751725 0.043234248 -0.0002294994 -0.00030140503 0.00026607423 0.00037010325 -0.9788776 0.039081782
587000000 -0.97742212 0.04261199 -0.00050716405 0.00082801242 -0.00035218106 0.00010741406 -0.97947043 0.041111141
588000000 -0.97847188 0.041448291 -0.0003183299 0.00045409406 -6.3202002e-005 -9.719927e-005 -0.97944075 0.040176388
589000000 -0.97790289 0.041939341 -5.5759003e-005 -0.00088062463 3.4981524e-005 -0.00059177307 -0.97962391 0.041166879
590000000 -0.97733617 0.041915946 0.00049247668 0.00022014008 -5.778499e-005 0.00054044416 -0.97788066 0.040632434
591000000 -0.97728175 0.044062331 0.00019676315 0.00029200953 -0.00062367233 -0.0014168903 -0.97934026 0.040327497
592000000 -0.97874027 0.042441439 -0.00039027722 -0.00034373844 0.00040575137 0.00029862346 -0.98048753 0.039338507
593000000 -0.97745734 0.042585887 -8.6229244e-005 8.1343023e-005 -9.635376e-005 -0.00025090788 -0.97998607 0.040386889
594000000 -0.97842151 0.043803781 0.00040644218 0.00074219826 0.00030931871 0.00074977172 -0.97915816 0.041409142
595000000 -0.97757912 0.042791858 -0.00038076885 -0.00026223552 7.2675284e-005 -0.00020313977 -0.97982186 0.041344862
596000000 -0.97750282 0.043514933 0.00043212963 8.9650894e-005 -0.00088229612 -0.00030387251 -0.98043919 0.039785158
597000000 -0.97819465 0.04261243 -3.040414e-005 -0.00058823003 -7.9610618e-005 -0.00059817923 -0.97891194 0.040095899
598000000 -0.97940564 0.043928534 0.00037287959 -0.00015560297 0.00025235783 1.4765347e-005 -0.9798007 0.041137561
599000000 -0.9793539 0.044035062 -0.00080088025 -0.00063925871 5.9517577e-005 0.00037242597 -0.98014033 0.041561339
600000000 -0.97785962 0.042831264 -0.00013868554 -6.2259774e-006 0.00023395888 -0.00012292212 -0.9791193 0.041720435
601000000 -0.97812653 0.043694224 -3.6934362e-005 -0.00051042967 0.00049183948 -0.00036289493 -0.98015696 0.041147362
602000000 -0.97822541 0.043794189 -0.00032623461 0.00026817483 -0.00057952467 2.5046385e-005 -0.97922754 0.042368896
603000000 -0.97912407 0.044890072 -0.0003929646 0.0001235807 0.00010318573 -0.00064223458 -0.9783681 0.040966898
604000000 -0.97733194 0.044853147 -0.0010258668 -0.00023809544 -7.9711128e-005 -0.00025567273 -0.97915173 0.040862184
605000000 -0.97768128 0.044482294 0.00033175742 0.00018218008 -0.00088905875 0.00027858047 -0.97986007 0.040665623
606000000 -0.97774339 0.043602597 0.00067185931 -0.00077233062 0.00031186498 -0.00038001794 -0.97931802 0.040785696
607000000 -0.97754669 0.044929981 0.00030927252 -0.00028479809 0.00035863297 -0.00083288219 -0.97847337 0.040845595
608000000 -0.9783228 0.044686589 -1.0194091e-005 3.5489447e-005 -5.8925954e-005 0.00024043837 -0.97940701 0.040907487
609000000 -0.97771013 0.043619663 -0.00037699475 -0.00016638161 -0.00054876198 0.00020410586 -0.97883296 0.041495956
610000000 -0.97821361 0.045901161 -4.7321657e-005 -5.833925e-005 0.00010235581 0.00011715811 -0.97898185 0.042095233
611000000 -0.97723156 0.045298301 -0.00054516492 0.00024834162 0.00014024301 2.3124012e-005 -0.97967881 0.041286852
612000000 -0.97764337 0.045075443 -5.7631776e-005 1.9800902e-005 -0.00053543813 -0.00071637169 -0.97891355 0.041663978
613000000 -0.97879994 0.046004493 0.00064105797 -0.00025420848 7.3642033e-005 0.00021912152 -0.97826916 0.042071201
614000000 -0.97718936 0.045490425 0.00080332538 0.0001592597 -0.00030371829 0.00017549309 -0.97954935 0.042313758
615000000 -0.97713584 0.046323281 4.7200203e-005 0.00023186079 -0.00013290033 0.00017852096 -0.97926867 0.041621745
616000000 -0.97903371 0.046518791 -5.430977e-005 -0.00077262335 3.7856018e-005 0.0004359289 -0.97985744 0.042376947
617000000 -0.97798425 0.047534358 -0.0013315704 -0.00056374597 -0.00037991165 2.0271047e-005 -0.97984618 0.042937089
618000000 -0.97706985 0.046508912 -0.00022944139 -9.3379378e-005 -0.00034091892 0.00066056941 -0.97879529 0.042745195
619000000 -0.97745436 0.046996593 0.00033997316 0.00022883403 0.00031664356 6.8080961e-005 -0.97771811 0.043602355
620000000 -0.97796518 0.046762228 -0.00042849508 2.1459709e-005 0.00028383144 0.0002707197 -0.97902608 0.04241845
621000000 -0.97806126 0.045983758 4.4987224e-005 -0.00022254317 -0.00021633854 -0.00019402894 -0.97759533 0.042187549
622000000 -0.97836876 0.047427267 0.00017396155 0.00038086114 -0.00036690905 0.00099820539 -0.97886246 0.043409668
623000000 -0.97811198 0.047397695 0.00012022148 -0.00033999552 -0.00049667916 -9.2174923e-005 -0.97862095 0.042534459
624000000 -0.97729248 0.045989737 -0.00041417111 -0.00030176961 -0.00024060524 -4.5360255e-005 -0.97848743 0.041764036
625000000 -0.97775197 0.049264383 4.2093317e-005 9.7616321e-005 -2.2129991e-005 -0.00096509326 -0.97765386 0.042634655
626000000 -0.97978234 0.048384115 -0.0001683556 0.00026581783 0.00021647042 0.00033894106 -0.97805458 0.043958273
627000000 -0.97744739 0.04821077 -0.00025432545 -0.00056392088 0.00036913509 0.00020245118 -0.97817755 0.043262191
628000000 -0.97686231 0.048101973 -0.00030112083 -0.00034086395 -0.00023384424 0.00022516779 -0.97787231 0.043843083
629000000 -0.97786343 0.047885377 -0.00031596448 -0.00050822552 0.00028670265 -0.00011163561 -0.9799735 0.043594208
630000000 -0.97715002 0.050089005 0.00059582596 0.00017811131 -0.00093647977 -0.00017966433 -0.98022974 0.043610543
631000000 -0.97877383 0.048394352 -0.00037304321 0.00031573774 -0.00013799354 0.00013851395 -0.97905183 0.043563146
632000000 -0.97721165 0.04917489 0.0009547107 -0.0006784313 0.00072129315 0.00019169723 -0.97786778 0.042578567
633000000 -0.9773857 0.048437934 0.00017846777 -0.00020815679 -0.00058294839 0.00047211445 -0.97946084 0.043690816
634000000 -0.97909224 0.049700208 -6.6350134e-005 -0.00096035458 -0.0003230196 -0.00081045221 -0.97904009 0.043923248
635000000 -0.97847939 0.047451705 0.00031605663 0.00056079356 -6.3883359e-005 -0.00028880415 -0.97681123 0.044184722
636000000 -0.97623569 0.048948772 -0.00021245738 -6.4444219e-005 -1.7843433e-005 0.00034200796 -0.97811627 0.044214368
637000000 -0.97637582 0.048528697 0.00055419188 -0.00016020452 -0.00053578953 -0.00015782344 -0.9784984 0.044034477
638000000 -0.97703791 0.049224179 0.00013694614 0.0006626923 -0.0005668411 0.00020390477 -0.97982258 0.043445691
639000000 -0.97931129 0.049406078 0.00040018582 0.00051129644 -0.00030344221 0.00019694466 -0.97727531 0.043584753
640000000 -0.97777772 0.049672835 -8.8057037e-005 -0.00082732009 -0.00061852584 0.00040770136 -0.97709221 0.044906627
641000000 -0.97759777 0.049960777 -5.2306168e-005 0.00023340549 0.00033666537 0.00034052599 -0.97876877 0.043808509
642000000 -0.97689366 0.049091812 -0.00041539653 -0.00039577659 2.7888604e-005 -0.00025043311 -0.97866613 0.044532862
643000000 -0.97784001 0.049941316 -9.3825089e-005 -0.00082902989 0.00031093747 -0.00020457653 -0.97727352 0.043513481
644000000 -0.97727853 0.049750429 0.00059114629 0.00022935861 -0.00035014792 -0.00010010723 -0.97799402 0.044608779
645000000 -0.97737247 0.049502052 -0.00048984616 -0.00017594171 -0.00060264423 -0.00030917791 -0.97824299 0.043022495
646000000 -0.97711039 0.051108703 0.0011298214 -0.00037909721 0.00013634004 -9.8720768e-005 -0.977139 0.043815404
647000000 -0.97837234 0.051014308 -0.00066909794 -0.0010252843 -2.0070443e-005 0.00036960933 -0.97950429 0.04351021
648000000 -0.9775238 0.050399695 0.00032507163 -0.00036954193 -0.00010823066 -2.5961241e-005 -0.97894937 0.044940285
649000000 -0.9777261 0.050108954 0.00017517843 -0.00015500271 0.00041955587 -0.00026592863 -0.97772956 0.045174468
650000000 -0.97696579 0.049143001 0.001152819 -0.00038294902 0.00040842535 -0.00025019282 -0.97785872 0.044861317
651000000 -0.97684258 0.048789047 0.00013197573 1.1141433e-005 -0.00017104491 -1.0948526e-006 -0.97791964 0.044143658
652000000 -0.97821927 0.049907088 -2.5870093e-005 0.00015030937 -0.00033467327 2.7925937e-005 -0.97719145 0.044468224
653000000 -0.97657859 0.049958751 -0.00085731223 -0.00046383764 -0.0002064007 -0.00017923641 -0.97789574 0.044678036
654000000 -0.97664249 0.051620226 -0.00015894894 0.00039253198 -5.3520136e-005 -0.00083560962 -0.97957915 0.044026233
655000000 -0.9770366 0.050296482 0.00023057045 0.00035944808 4.0408017e-005 0.00051975087 -0.97785693 0.045142166
656000000 -0.97740597 0.050623674 -0.00039305561 0.0002063163 0.00062180427 3.089611e-005 -0.97879004 0.044995323
657000000 -0.97606641 0.051037557 -5.0321742e-005 -0.00088732713 -8.3022067e-005 0.0001563737 -0.97912008 0.044885173
658000000 -0.9777655 0.051038504 -0.00019120377 0.0002038168 -0.00019760734 -3.8824517e-005 -0.97757465 0.045123585
659000000 -0.97609103 0.050749842 -0.00024518566 -0.00030208411 1.64823e-005 0.00010628805 -0.97822022 0.045001954
660000000 -0.9766314 0.052470211 -0.00083964318 0.0005251838 0.00022920215 0.00020122799 -0.97829676 0.044138119
661000000 -0.97751778 0.050807949 -0.00084181648 -0.00071736972 0.00026377503 -0.00081500242 -0.97821248 0.044973046
662000000 -0.97682154 0.051497653 -0.00041180119 0.00023095461 -0.00026927513 -0.00046161262 -0.97934598 0.044401087
663000000 -0.97685826 0.05131682 -0.00019138248 -0.00010188898 0.0006487107 -0.00074146839 -0.97776186 0.044606723
664000000 -0.97620547 0.050111182 0.00033085566 -0.00072161603 0.00023062462 -3.216639e-005 -0.97798556 0.045422401
665000000 -0.97685158 0.051077265 0.00035062715 -0.00024975574 -0.00035806181 -0.00026624752 -0.97750813 0.044424664
666000000 -0.97765338 0.04987184 6.5149645e-005 0.00014153114 -0.0010472044 -8.0990569e-005 -0.97867638 0.043833993
667000000 -0.97648168 0.052426551 -0.00034119716 -0.00030592585 0.00020782949 0.00025083034 -0.97784144 0.045240518
668000000 -0.97639823 0.05049897 -0.00022713396 0.00030264532 -0.00032894962 -0.00051388453 -0.97845334 0.044316586
