!Keysight Technologies,M9374A,MY55442783,A.12.55.05
!Date: Thursday, May 20, 2021 17:29:26
!Correction: S11(Full 2 Port(1,2)) 
!S21(Full 2 Port(1,2)) 
!S12(Full 2 Port(1,2)) 
!S22(Full 2 Port(1,2)) 
!S2P File: Measurements: S11, S21, S12, S22:
# Hz S  RI   R 50
500000000 -0.97937542 0.037749413 -0.00064500805 0.00066000648 -0.00045777918 -0.00020766215 -0.98067403 0.033951588
501000000 -0.97992784 0.039260216 -0.00034454642 0.00079422921 -3.2075832e-007 0.00019727665 -0.97982621 0.034610964
502000000 -0.97934234 0.038531035 3.6605277e-005 -0.0010486142 0.0005576791 -6.7742236e-005 -0.98133963 0.035329353
503000000 -0.97923136 0.038235661 -0.00029844543 5.048568e-005 0.00022166631 0.00056486041 -0.98060715 0.034452233
504000000 -0.97991216 0.038379725 -2.4215957e-005 -0.00018857178 0.00057685806 -0.00046362184 -0.98036867 0.035527993
505000000 -0.98055762 0.037253171 -0.00029371845 1.5837068e-006 0.00015669115 0.00024847902 -0.97925121 0.033805192
506000000 -0.97891074 0.037610389 -0.00026056694 -0.00032260086 -0.00082257594 0.00038331651 -0.98042178 0.034499664
507000000 -0.97898304 0.038135678 -0.00023219771 9.8275605e-006 0.00028693414 -6.4446278e-005 -0.98131412 0.035791893
508000000 -0.97881877 0.038588736 0.00094102562 4.0151353e-005 -0.00051155011 -0.00023686852 -0.98125154 0.035490457
509000000 -0.97853541 0.040355418 0.00068944821 0.00013200803 -0.00045770494 0.00072805467 -0.98023903 0.035432748
510000000 -0.97871083 0.039194386 0.00039056176 -0.0007939479 0.00041507793 -0.00032821044 -0.98142487 0.036104824
511000000 -0.9802255 0.040115826 0.00013860498 -1.4007769e-005 0.00024211957 1.8246632e-005 -0.98001152 0.035307836
512000000 -0.97945416 0.038673811 -0.00052704196 0.00033621409 -0.00045262638 0.0002775118 -0.98080283 0.035332732
513000000 -0.97876436 0.039064594 0.00013255808 -0.00013562042 0.00045564238 -6.445717e-005 -0.98055875 0.035749283
514000000 -0.97860277 0.039327037 0.00024314392 -0.00021244763 -0.00045022677 1.5642037e-005 -0.97971988 0.035353675
515000000 -0.98038995 0.039753668 -0.00024660971 2.9112394e-005 0.00014680703 -0.00051867543 -0.98131752 0.036767405
516000000 -0.9815172 0.040123362 3.0708222e-007 -0.00020301243 -0.00052257295 -0.00053003203 -0.98093975 0.036242489
517000000 -0.9783619 0.039897073 0.00016869121 0.00023824918 0.00078073831 0.00017258612 -0.97991121 0.036709405
518000000 -0.9788993 0.039522521 -0.00043807991 -0.00023392553 -0.00019800197 0.0004375205 -0.98051935 0.03597603
519000000 -0.97991306 0.040442485 0.00074016117 0.00057352788 0.00030754512 -0.00010380735 -0.98027706 0.036475614
520000000 -0.97950721 0.039577529 -0.00025330845 -0.00034597478 0.00021195698 -0.000235613 -0.97930706 0.037339959
521000000 -0.98050517 0.041008711 -0.0010060348 -0.00052476104 0.00024678794 -0.00058307097 -0.98056525 0.038114786
522000000 -0.97968948 0.039490055 -0.00014861593 0.00040437889 0.00029586896 -0.00013097066 -0.98089391 0.038175471
523000000 -0.97892523 0.039404895 -0.00011522204 -6.4804641e-005 0.00038514641 0.00041959051 -0.98055881 0.036435619
524000000 -0.97921693 0.040923066 -5.5643886e-005 0.00053656538 -0.00032285604 -0.00026333076 -0.98043185 0.036914892
525000000 -0.97887754 0.041927919 -8.8071174e-005 0.00041143698 -0.00027551636 -0.00016725935 -0.97973067 0.038818981
526000000 -0.97948676 0.042263616 0.00017807749 0.00046215707 -0.00045147058 0.00061656977 -0.98097098 0.038356226
527000000 -0.97881669 0.040001251 -0.00026485481 -0.00016240616 -7.8100333e-005 -0.00043925238 -0.97980058 0.037281834
528000000 -0.9793402 0.040637013 -0.00050540175 0.00035786524 -0.00025602808 -4.8003578e-005 -0.97853982 0.0369418
529000000 -0.97816265 0.040902562 -0.0003094229 -0.00047730931 -0.00010684106 -3.2326672e-005 -0.9787991 0.038140435
530000000 -0.98035967 0.04102179 0.00016307922 -0.00033457155 -0.0007264447 -0.00026986812 -0.98041642 0.038260061
531000000 -0.97828746 0.040399849 -0.0011830725 -7.7406643e-005 0.00060457905 -0.00045038585 -0.98046863 0.037088957
532000000 -0.97839844 0.039419148 0.00030284573 -0.0003506841 -2.2493357e-005 0.00022393141 -0.97976696 0.038353432
533000000 -0.9780789 0.04142781 0.00032193377 0.00044286298 -4.5682224e-005 -0.00018064606 -0.97875082 0.038567398
534000000 -0.97848809 0.040519755 0.00060533697 0.00014742371 -0.00037314216 -0.000226535 -0.98061305 0.03706073
535000000 -0.97917008 0.040947337 0.00012120124 8.6980945e-005 0.00011858887 -0.00038065977 -0.97968382 0.038250517
536000000 -0.9793002 0.041669205 0.00040577332 0.00026622563 -6.5936722e-005 3.62938e-006 -0.97986478 0.037534863
537000000 -0.97922063 0.041293681 0.00040847214 -0.00063617894 -0.00028936978 -2.5597939e-005 -0.97970098 0.038516048
538000000 -0.97893029 0.041882854 0.00061905815 0.00021695833 -0.00021958156 -0.0002882127 -0.98105186 0.039132286
539000000 -0.9788897 0.040552918 3.0114341e-005 -0.0005191284 -0.00045683383 -0.00010380461 -0.97990888 0.038218014
540000000 -0.97910833 0.040533748 5.5957818e-005 -0.0006103359 -0.00052535685 3.4178433e-005 -0.98063189 0.039113909
541000000 -0.97889888 0.041140374 0.00010567509 -0.00019594759 -0.00012926637 0.00049188762 -0.9808526 0.038454276
542000000 -0.9804545 0.04217143 -0.000229971 0.00014317558 0.00034744944 -0.00041927071 -0.97903353 0.038417041
543000000 -0.97917968 0.040837668 3.4383156e-005 -0.00045248796 0.00015286039 -0.00014311243 -0.9801079 0.038563527
544000000 -0.97964948 0.041666351 0.00069954019 -0.0004218691 -2.1547381e-005 9.3360926e-005 -0.98071569 0.039518986
545000000 -0.97900796 0.0409748 2.4834828e-005 -0.00014143843 -0.00043934811 -0.00032907358 -0.98164845 0.038821537
546000000 -0.97868389 0.041793421 -0.00039336321 -0.00040740179 -0.00060026825 0.00051798957 -0.9795056 0.039030042
547000000 -0.97920591 0.042410493 0.00047792925 -3.4483091e-005 0.00062114105 -0.00019699911 -0.98014301 0.038109444
548000000 -0.97808719 0.042492807 -0.00019112912 -1.4536012e-005 0.00051159784 5.3485364e-005 -0.97943711 0.039075669
549000000 -0.9784025 0.041340552 0.00047185953 -3.5761834e-005 -0.00033247436 0.00012771536 -0.97934794 0.039871041
550000000 -0.97834986 0.04210918 0.00039137481 -0.0015245263 -0.00099202397 -0.00017924332 -0.9789989 0.040476769
551000000 -0.9772625 0.041236162 0.0002466499 -0.00041729151 -0.0003798187 0.00019591277 -0.97982389 0.039588545
552000000 -0.97849476 0.042107992 0.00027903766 -0.00057400099 5.3795425e-006 0.00032609049 -0.98015958 0.038713586
553000000 -0.97846204 0.042186145 0.00047398731 5.6444766e-005 0.00013898061 0.00081147056 -0.97970003 0.03794501
554000000 -0.97824371 0.041261509 -0.00022878851 -5.9447226e-005 0.00015484347 0.00026194932 -0.97961378 0.037939969
555000000 -0.97850972 0.041407913 6.4563174e-005 7.8354118e-005 -0.00012754943 -5.0623094e-005 -0.98004001 0.039205287
556000000 -0.97699142 0.040692106 -0.00036446707 0.00014624419 -6.9621121e-005 3.265409e-005 -0.9808405 0.039170895
557000000 -0.97951156 0.041454751 0.00061054691 0.000165777 -0.00041212933 -3.9903254e-005 -0.98037648 0.038860563
558000000 -0.97835422 0.04187201 0.00043232509 -0.0002945305 -0.00023464901 -4.9526203e-005 -0.97985059 0.038991127
559000000 -0.97795814 0.041403115 -0.00058392383 0.00049547921 -0.000360192 -0.00042443172 -0.9782635 0.038746003
560000000 -0.97925615 0.042304117 0.00049966812 -0.00023582054 -0.00054956821 0.00026753743 -0.98067701 0.039510939
561000000 -0.97871494 0.041919064 0.0003912714 -0.00038720176 -0.00037739187 -0.00033005248 -0.98075145 0.038724378
562000000 -0.97816521 0.041716438 2.6135705e-005 0.00068579643 -0.00017428277 -0.00078669674 -0.9802689 0.039664395
563000000 -0.97803444 0.041307535 0.00081734429 1.0410141e-005 -0.00020230889 -0.00019225391 -0.97982281 0.039263774
564000000 -0.97858363 0.03976585 -1.0022488e-005 0.00081014569 8.0334721e-006 -0.00032338995 -0.98060012 0.039092842
565000000 -0.97810411 0.041526053 8.1808175e-005 -0.00051535846 -0.00051883672 -0.00022194171 -0.9799096 0.039278232
566000000 -0.97772372 0.040733412 0.00014836599 8.8019056e-005 0.00014119026 0.00013632771 -0.98065966 0.039736941
567000000 -0.97804242 0.041417781 0.00079654518 -0.00030072941 -0.00040606156 0.00017567145 -0.97909409 0.037272796
568000000 -0.97734511 0.04164974 3.9585084e-005 -0.00048412199 -8.1949474e-005 1.9701414e-005 -0.97943729 0.037080023
569000000 -0.97903448 0.040930863 -0.00019996522 0.0003809598 -4.5050765e-005 -0.00028597019 -0.97943181 0.037872449
570000000 -0.9782694 0.041832272 -0.00047485839 -0.0002937566 -0.00037505958 -0.00042355462 -0.97948635 0.039376352
571000000 -0.97716767 0.041570555 -0.00020668816 -0.00017932442 -0.0005142304 -0.00033431326 -0.98192686 0.03893194
572000000 -0.97753447 0.04072126 0.0004951494 0.00026880586 0.00046303356 -6.6833272e-005 -0.98006308 0.038318556
573000000 -0.9780584 0.040956855 0.00039793007 0.00016924436 -0.00036977959 0.00046668079 -0.98027432 0.039675433
574000000 -0.97719109 0.041679021 -0.00017122916 8.8262204e-006 0.00016934652 -0.00041358313 -0.98032498 0.039141588
575000000 -0.97773957 0.041510954 -0.0006060974 -3.9096681e-006 -0.00013909732 -0.00033940925 -0.98047888 0.039651591
576000000 -0.97834903 0.041346744 0.00051118841 0.00038374384 0.00035446792 9.9505683e-005 -0.98032612 0.039194483
577000000 -0.97872406 0.039991863 0.00011016095 -0.00026790364 1.272893e-005 6.4103166e-005 -0.9806748 0.038498931
578000000 -0.97866297 0.04150632 -0.00040072904 -0.00022086425 0.0010829858 -0.00066413323 -0.97987765 0.038453806
579000000 -0.97708261 0.042402335 -0.00019763953 -0.00041475278 -0.00022396134 -0.00074735895 -0.98022199 0.039664939
580000000 -0.97719544 0.040457863 0.00072462216 0.00035406512 -1.1673133e-005 4.7579641e-005 -0.98018843 0.03946333
581000000 -0.9793905 0.041213997 -0.00024668977 -0.00012885875 -0.00036881558 -0.00025697748 -0.98103821 0.038289111
582000000 -0.97894847 0.041665561 0.00023121215 0.0002297499 0.00014220602 0.00026060274 -0.98090482 0.040082119
583000000 -0.9765197 0.043129094 0.00037363369 0.00045794528 -0.00013709845 -4.9748629e-005 -0.98019814 0.03958546
584000000 -0.97846711 0.042034727 0.0001405996 -1.9513811e-005 -0.0001658237 -0.00012671982 -0.97961062 0.040477701
585000000 -0.97785062 0.041168243 -0.00050795864 8.5073152e-005 0.00036870828 -0.00023709444 -0.980106 0.038993515
586000000 -0.97911543 0.042205237 0.00021871495 -0.00060517224 -7.2726267e-005 -0.00045066254 -0.98017019 0.039620258
587000000 -0.9782089 0.042527441 -0.00031741447 -0.00023460171 -0.00033922025 -0.00055781158 -0.97905725 0.040264275
588000000 -0.97862858 0.041698903 -4.1066927e-005 -0.00042007992 0.00032279195 0.0006654574 -0.98043394 0.039578345
589000000 -0.9776805 0.04239855 -0.00023441286 -0.00036512149 -0.00015282213 -0.00062110677 -0.98034155 0.03997406
590000000 -0.97833771 0.042508211 0.00011977119 0.00032522267 0.00046968166 -0.00015992284 -0.98021412 0.03998968
591000000 -0.97682798 0.042198878 0.0011750151 -0.0008239366 -5.9800223e-006 -0.00043595195 -0.97961092 0.040320307
592000000 -0.97900152 0.041277252 0.00031059826 0.00021723739 -0.00036812387 6.9126349e-005 -0.97972625 0.040183008
593000000 -0.97725123 0.041850805 0.0004051046 0.00071216427 0.00049875164 -6.8405687e-005 -0.98016649 0.040126644
594000000 -0.97780257 0.042419616 0.00044563712 -0.0005151651 -0.00055547204 -0.00017927084 -0.97885734 0.039915554
595000000 -0.97996026 0.041251924 0.00024378003 2.8939352e-005 -0.0009835487 0.00012407104 -0.98043031 0.040110312
596000000 -0.97761637 0.044097513 -0.00043138891 0.00034740521 0.00029625901 -2.7286473e-005 -0.97971863 0.040609308
597000000 -0.97766799 0.042501193 0.00011940532 -0.00015030219 0.00041879091 -2.0167407e-005 -0.9800213 0.039745003
598000000 -0.97921687 0.042553574 1.3637267e-005 -0.00040403352 3.5324418e-005 -0.00036200945 -0.97988671 0.038788043
599000000 -0.97931248 0.042817861 1.3493252e-005 0.00051938638 -3.114932e-005 9.2791037e-005 -0.97921491 0.040803593
600000000 -0.97925824 0.042332232 0.00039528363 0.00013460965 0.000446035 -0.00040347828 -0.97943056 0.039966155
601000000 -0.97751802 0.044036269 0.00050662988 -0.00034513697 -5.140933e-005 0.00055937987 -0.97992218 0.041444082
602000000 -0.97777718 0.043661296 -0.00067858479 0.00058703957 -0.0003884015 -0.00034612726 -0.97964883 0.04075807
603000000 -0.97858399 0.043491777 0.00011023415 -0.00054015155 4.4803357e-005 0.00024871662 -0.97938311 0.041171186
604000000 -0.97704852 0.04488346 -4.1233736e-005 -0.00074165 -2.7502449e-005 0.00087348063 -0.97874302 0.041223172
605000000 -0.97706217 0.043998618 -0.00034729578 -0.00048058262 -0.00035002278 -0.00050993392 -0.9788841 0.042745158
606000000 -0.97832155 0.044458512 0.00027228121 -0.00032191142 -0.00061402906 0.000492541 -0.97943598 0.041696377
607000000 -0.97837949 0.04466011 -0.00042917585 0.00028174758 0.00029245263 -0.00012712542 -0.97806042 0.040206879
608000000 -0.97965395 0.045004226 -0.00028879286 -0.00074074807 0.0007019933 0.00011227495 -0.98009968 0.040980123
609000000 -0.97716069 0.043157466 -0.00096859178 6.7786154e-005 0.00012940404 0.0004374244 -0.97822869 0.041831426
610000000 -0.97824538 0.0443662 -0.00032599873 0.0001814509 -9.083507e-005 -0.00048132549 -0.97886491 0.040697746
611000000 -0.9773038 0.044936121 0.00032104613 -0.00011570684 -0.00071357941 -0.00094801624 -0.97891688 0.041003406
612000000 -0.97705168 0.046142548 -0.00045199163 -0.00023228553 -0.00086332735 0.0001088344 -0.97840971 0.041271634
613000000 -0.97714847 0.045455568 -0.0001318024 0.00037498213 0.00096314837 -8.9511268e-005 -0.97941321 0.040649999
614000000 -0.97841835 0.045969233 -0.00013231029 -0.00024499616 6.9888665e-005 -0.00058560452 -0.97939378 0.041552812
615000000 -0.97762495 0.046149429 -0.00010581713 0.00033239287 0.00017636891 -0.00039594813 -0.97951978 0.042183328
616000000 -0.97839648 0.045340963 -7.3158866e-005 5.4870357e-005 0.00047675153 0.00033610439 -0.97918683 0.042263273
617000000 -0.97628695 0.045712151 -0.00026197857 0.00032971855 0.00013875197 0.00042021385 -0.97952253 0.042664573
618000000 -0.9776293 0.046186741 0.00071938557 -3.8351223e-005 -0.00021840844 0.0010720004 -0.9794721 0.04185636
619000000 -0.97714269 0.046548277 0.00011219574 -0.00022077897 -0.00045316323 0.00011942295 -0.9794113 0.041713398
620000000 -0.97832823 0.045685373 -0.00017082837 -0.00018613246 0.00022930546 -5.365212e-006 -0.97946519 0.042897057
621000000 -0.97759402 0.045178492 8.0595557e-005 0.00056218734 -0.00070398569 0.00019430685 -0.97896379 0.043606788
622000000 -0.97776967 0.045550745 0.00077918515 -0.0002717941 -0.00015112376 -0.00012167972 -0.97837782 0.043475233
623000000 -0.97733104 0.046152513 -0.00022970508 -0.00027157285 0.00013209011 4.039851e-005 -0.97908854 0.042751271
624000000 -0.97724146 0.04659307 -0.00026340957 -0.00035450439 0.00047875225 0.0004947132 -0.97900498 0.04283775
625000000 -0.97669351 0.048243798 0.0002890224 -0.00054135057 -0.00024054061 1.5568488e-005 -0.97810757 0.041586548
626000000 -0.97787207 0.047499169 -0.00017948756 -0.00014749869 -0.00028854024 -0.00023922113 -0.97923791 0.042451192
627000000 -0.97913414 0.047275934 1.5521449e-005 -0.00022808839 -0.00034362191 -0.00036017544 -0.97887588 0.043343157
628000000 -0.97820038 0.047649022 0.00014375594 -0.00074529462 0.00037334007 -3.0639676e-005 -0.97838843 0.043336127
629000000 -0.97818393 0.04857542 -0.00022148926 0.00037340191 0.00020311399 -8.7471642e-005 -0.97911298 0.042922426
630000000 -0.977386 0.048851084 -0.00084820861 0.00093192933 0.00055268599 7.6990327e-005 -0.97873753 0.044371393
631000000 -0.97796077 0.048165359 -0.0011806734 -5.3452444e-005 -0.00016960142 -0.00043624968 -0.97849363 0.04348173
632000000 -0.97772735 0.047235079 -0.00010929263 -7.1512353e-005 -8.5117545e-006 -0.00037110539 -0.9782359 0.042477258
633000000 -0.97771025 0.04810039 4.1429386e-005 -0.00085441303 -0.0002363792 -0.00030524499 -0.9784438 0.042424612
634000000 -0.97781646 0.048642304 -0.00045065547 -7.3386043e-005 0.00040444473 0.00010458142 -0.97975057 0.042783841
635000000 -0.97740448 0.046572398 -0.00037220947 0.00015805836 0.00071803911 -9.6474425e-005 -0.97855473 0.042748719
636000000 -0.97692859 0.049077682 -0.00063334219 -7.923982e-005 0.00027735965 6.3154657e-005 -0.97892094 0.042939097
637000000 -0.97808617 0.049214564 -0.00075200072 -0.00024834636 -0.00036113159 -0.00057936233 -0.97845387 0.04350017
638000000 -0.97668767 0.049382456 0.00023193152 -0.0003330457 0.00030098358 -0.00080626563 -0.97958511 0.043657366
639000000 -0.97797066 0.048264466 0.00017251799 -0.00014807882 0.00025554662 -0.00067914161 -0.97829109 0.04381704
640000000 -0.97622943 0.048541617 0.00024877087 0.00039677983 0.00051266508 9.8266326e-005 -0.97899497 0.044740364
641000000 -0.97678685 0.047592405 5.3278247e-005 0.00013885929 7.6935954e-005 0.00029454369 -0.97863811 0.044615496
642000000 -0.97668642 0.049442634 -0.00053841714 0.00027734318 0.00099682307 -5.1006293e-005 -0.97844374 0.044570014
643000000 -0.97807759 0.048730791 -0.0001828021 0.00012572583 0.00045242396 -0.00015890757 -0.97851133 0.043332361
644000000 -0.97752988 0.049359385 -0.00047820597 0.00038142453 8.5505889e-007 0.00027813565 -0.97841007 0.044604622
645000000 -0.97800559 0.048937257 0.00049670867 0.00013626568 -8.3563944e-005 0.00034053836 -0.97974771 0.042741988
646000000 -0.97815955 0.048868746 0.00012446384 -0.00060988899 0.00015538647 -0.00025756683 -0.97786766 0.044019338
647000000 -0.97734541 0.050766196 -7.9905412e-006 0.00028047181 -0.00079480518 0.00029929075 -0.97907376 0.04350144
648000000 -0.97554129 0.049216442 -0.00031532292 0.00022705576 -0.0001947985 -0.00024942035 -0.97884685 0.044613179
649000000 -0.97777861 0.049671263 5.377585e-005 -0.00023743663 -0.00037132137 -0.00034752267 -0.97902161 0.044819325
650000000 -0.97670156 0.048395317 0.00013139201 -0.00067672558 0.00037180536 0.00027017048 -0.97893345 0.044227026
651000000 -0.97791398 0.050424781 -0.00083121809 0.00019507101 -0.00078419433 -0.00014786028 -0.97847778 0.04454251
652000000 -0.97633255 0.049225528 -0.00054897484 -0.00036225325 -0.00084320887 -0.00033620972 -0.97787952 0.04397903
653000000 -0.9767465 0.050251286 -0.00024531264 -0.00074104202 0.00017189654 -0.0001972599 -0.97723347 0.04469071
654000000 -0.97722536 0.05091178 0.00019635209 0.00020338967 -0.00027841056 -0.00018752109 -0.97975296 0.044233434
655000000 -0.97562301 0.050325017 -0.00061937259 -0.00077257224 0.00020884174 -0.0003856617 -0.9781065 0.044251438
656000000 -0.97600353 0.050393458 -0.00041438238 -0.00028264098 -0.00020369158 0.00061273534 -0.97828376 0.044527676
657000000 -0.97599137 0.050736751 -0.00029508516 -0.00025634145 -0.00041837292 0.00015065286 -0.97815865 0.04430313
658000000 -0.97851866 0.049601343 0.00010643947 0.0001215158 -8.8061948e-005 -0.00035702207 -0.97787184 0.044747327
659000000 -0.97685969 0.049263358 0.00013334908 0.0003548798 -0.0003075164 -0.00033356523 -0.97751856 0.04522071
660000000 -0.97751331 0.050845258 0.00032469686 -0.00040150931 2.0433872e-006 -0.00023386521 -0.97900575 0.044643246
661000000 -0.97653466 0.050476566 -0.0006040032 -0.00063650415 -0.00023572831 -0.00049898651 -0.9786821 0.044224404
662000000 -0.97731405 0.0500708 0.00038496035 0.00033934051 -1.8961808e-005 -0.00065987144 -0.9794237 0.045488238
663000000 -0.97659588 0.050773092 -0.00032760578 -0.00055372459 0.0002267152 0.00012255747 -0.97902316 0.044109743
664000000 -0.97679484 0.048517842 -0.00020399543 -1.0993052e-005 0.00035585451 4.2876625e-005 -0.97912073 0.043559507
665000000 -0.97702253 0.050615679 -0.00021972484 -0.00057766022 -0.00064105936 9.9338344e-005 -0.97888124 0.04469863
666000000 -0.97708845 0.050139338 -0.00035272335 -0.00037107596 0.00010985784 -0.00029375564 -0.97934192 0.043271206
667000000 -0.97650349 0.050295308 4.9402282e-005 0.00014610778 -1.6854519e-005 -9.3727707e-005 -0.97844434 0.044434339
668000000 -0.97724587 0.050590824 -0.00035106915 -0.00057300279 0.00018739379 0.00010419641 -0.97911298 0.043288268
669000000 -0.97628486 0.05037912 -0.00032981441 -0.00070230319 -0.000183057 0.0002463175 -0.97761345 0.043588802
