!Keysight Technologies,M9374A,MY55442783,A.12.55.05
!Date: Thursday, May 20, 2021 17:02:43
!Correction: S11(Full 2 Port(1,2)) 
!S21(Full 2 Port(1,2)) 
!S12(Full 2 Port(1,2)) 
!S22(Full 2 Port(1,2)) 
!S2P File: Measurements: S11, S21, S12, S22:
# Hz S  RI   R 50
500000000 -0.98064035 0.03795759 -0.00047941916 -0.00017688189 0.00020896005 -1.5351281e-005 -0.98090976 0.033984073
501000000 -0.98210979 0.038500633 -0.00029867733 0.00020491549 0.00050704897 0.00017158965 -0.98034137 0.035730287
502000000 -0.98119462 0.037976094 4.0833795e-005 -0.00042973665 -0.00090653414 0.00026566742 -0.98082632 0.034891225
503000000 -0.97826433 0.039237849 -0.00050160917 -0.0002640927 -0.00047115225 -0.00044517877 -0.97987652 0.034907438
504000000 -0.98045605 0.038653325 0.00014444831 -0.0013858051 0.00072983152 -0.0001853268 -0.97999257 0.034049742
505000000 -0.97972798 0.03912697 -0.00020168576 -0.00014098456 -0.00058329641 -0.00075863663 -0.97989994 0.034742061
506000000 -0.98032022 0.039213337 -8.0679478e-005 -0.00036107987 5.0392497e-005 -0.00057985575 -0.98005074 0.035423439
507000000 -0.97917998 0.039786518 0.00026944475 -0.00015932971 0.00013415614 0.00031608762 -0.97929978 0.035069298
508000000 -0.97962642 0.040203098 6.5874279e-005 -0.0011628115 -0.00033926277 0.0010578885 -0.97992432 0.036503002
509000000 -0.98035854 0.039639171 -6.9965143e-005 -0.00037009508 -0.00013130152 0.00051943591 -0.97988188 0.036083095
510000000 -0.97962815 0.040412657 -0.00010802519 -0.0002665956 -7.8602039e-005 -1.344178e-006 -0.97935891 0.036573388
511000000 -0.97894889 0.039578538 -3.1543033e-005 -0.00014925223 -0.0003938055 -0.00029321329 -0.98062962 0.037119202
512000000 -0.97920066 0.039704315 -0.0003550509 -4.599294e-005 0.00036255029 -0.00015311938 -0.9800697 0.035019148
513000000 -0.97961766 0.038432144 -0.00036037742 -0.00054188288 0.00045456129 0.00027033445 -0.98037124 0.035876215
514000000 -0.98063672 0.040870644 -0.00034249524 -0.0006025614 0.00016307438 0.00035144697 -0.97988802 0.036903534
515000000 -0.98010379 0.041287523 -0.00020283321 0.00029149977 -7.3677365e-005 -0.00033254185 -0.98034263 0.038026173
516000000 -0.98014623 0.038972951 0.00044334627 0.00034989943 -0.00035133903 -0.00044460056 -0.98016262 0.03669152
517000000 -0.98045427 0.039960764 0.00016780496 0.00010828274 0.00043621915 0.00036586085 -0.9796257 0.036764495
518000000 -0.97972506 0.040311385 0.00017281649 0.00012054119 0.00048704635 -0.00013794481 -0.98060203 0.037841614
519000000 -0.9791187 0.039766487 0.0004700954 -0.00033326098 0.00012907917 -0.00010084433 -0.98020053 0.037069228
520000000 -0.98017019 0.040110767 -0.0001402358 0.00060819235 0.00029914558 -0.0001222015 -0.97929001 0.036980804
521000000 -0.98105752 0.041013267 -0.00045193496 0.00015965711 -0.00021016387 0.00030954179 -0.98099518 0.036817811
522000000 -0.98089433 0.039961338 -4.379946e-005 0.00029976893 -0.00039440879 0.000134136 -0.97940248 0.037565503
523000000 -0.97921604 0.039649036 -0.00048306916 -0.00080172555 -0.00033369884 -1.009712e-005 -0.98030019 0.037933573
524000000 -0.97896475 0.040227443 -0.00058179506 0.00024065581 -0.00030942363 3.5958281e-005 -0.9805541 0.037809681
525000000 -0.97899932 0.041590612 -6.6390865e-005 -0.00043746227 -3.1498428e-005 0.00027025602 -0.98048711 0.038540959
526000000 -0.97923118 0.040256239 -0.00059606141 9.6427932e-005 -0.00056200015 -0.00037715604 -0.97962844 0.036069538
527000000 -0.98068714 0.041669387 -0.00021879442 -0.00014082143 -8.8879387e-006 8.7358603e-006 -0.97965717 0.037985176
528000000 -0.97963786 0.042500358 0.00043294727 0.00011134034 0.0001075995 1.5755177e-005 -0.9786672 0.038852878
529000000 -0.98080093 0.041584827 0.00051002216 -0.0001425634 -0.00019957001 -0.0006456204 -0.97922534 0.036993355
530000000 -0.9796356 0.041149743 0.00038088358 8.201765e-005 0.0010392081 -0.00013647656 -0.98015714 0.037914723
531000000 -0.98000699 0.041906256 -0.00059695344 0.00018849781 1.320074e-005 -0.00074578717 -0.98123622 0.038746081
532000000 -0.9790957 0.040668327 -1.2654443e-005 0.00025631065 -0.00051620963 0.00030252468 -0.97929913 0.036864027
533000000 -0.97892427 0.041382704 -6.5435364e-005 0.0003822062 -0.00054851803 -0.00021118419 -0.97954738 0.037263919
534000000 -0.97934651 0.040317897 -5.8352387e-005 9.8666445e-005 -0.00025287858 5.4893619e-005 -0.97878593 0.038017459
535000000 -0.97960365 0.04220758 0.00046822793 -0.0002759326 -0.00022227681 -0.00026203715 -0.97925538 0.038053453
536000000 -0.97881496 0.041558612 0.00028692401 -0.00025356209 -7.363961e-005 -0.00073340448 -0.9803158 0.038295582
537000000 -0.97858346 0.042029113 -0.00015071203 -0.00039692034 0.00011303958 -0.00017205901 -0.97914141 0.038332399
538000000 -0.97875386 0.042743698 0.00054985803 4.8137717e-005 6.5814173e-005 -0.00058182649 -0.97876287 0.037648499
539000000 -0.97944117 0.042264987 -9.9042401e-005 0.00030113984 0.00065218832 0.0001476076 -0.97995734 0.039757345
540000000 -0.97917074 0.042485625 0.0005466516 -0.00014575569 -0.00041325254 0.00019668843 -0.98034757 0.039012421
541000000 -0.9795031 0.041640606 0.00030809938 -0.00020934298 -0.00029158869 8.2026796e-005 -0.97842729 0.038355604
542000000 -0.97933108 0.042065617 5.0099468e-005 0.00082136731 -2.1256152e-005 -0.0006579301 -0.98013031 0.039201029
543000000 -0.97971511 0.041736286 -0.0003055624 -0.00037020424 -0.00010138838 -4.285125e-005 -0.97932619 0.038393468
544000000 -0.97905982 0.042976927 -0.00014420776 -0.00049088453 -0.0002642438 -0.00093520276 -0.97916597 0.037777565
545000000 -0.98120451 0.042038601 -0.00015251462 -0.00040192367 0.0002701077 -0.00034786065 -0.97775227 0.038227066
546000000 -0.97950161 0.042310551 -0.00055306166 2.7958302e-005 -0.00019708528 -0.00012393565 -0.97951716 0.039529629
547000000 -0.97897875 0.042221967 4.6455541e-005 0.0001622492 0.00040610431 0.00037485411 -0.97988635 0.039335597
548000000 -0.97980189 0.041373864 0.00014799477 -0.00090729521 -0.00013771087 -0.00044938835 -0.97877938 0.040018797
549000000 -0.97796202 0.042066142 -3.8356517e-005 -5.7716155e-005 8.2469305e-006 0.00058373384 -0.97991824 0.039809246
550000000 -0.97808981 0.042479407 -0.00093957008 0.00014918018 -0.00010107129 -0.00046229348 -0.9795568 0.039104272
551000000 -0.97861481 0.042447727 -0.00056013901 -4.9467777e-005 -0.00023209646 -0.00035417746 -0.97971612 0.037925959
552000000 -0.97965771 0.040735871 0.00024166812 -0.00043169604 0.00019701196 0.00016958144 -0.97933632 0.038493857
553000000 -0.97940856 0.042457245 -0.00041701214 0.00013104465 -0.0001292478 0.00028665509 -0.97932249 0.038277041
554000000 -0.97872174 0.04100237 -0.000772345 -0.0007723383 0.00011744716 0.0001060671 -0.98088151 0.038567051
555000000 -0.97940737 0.041617054 -0.00013115357 0.00016307207 0.0002226193 -0.00022405374 -0.97876263 0.039739154
556000000 -0.9784838 0.042141158 0.00026267068 -0.00010627249 -9.3868708e-005 0.00035508405 -0.97893536 0.039617907
557000000 -0.97833222 0.042285696 -0.00012486074 0.00010257777 0.00052991841 -0.0007505992 -0.97885615 0.038935635
558000000 -0.97897112 0.041420296 -0.00012499833 -4.1791984e-005 -0.00029570301 -0.00016216596 -0.97954255 0.039071664
559000000 -0.97874856 0.042128425 -9.5121351e-005 -2.940048e-005 0.00026799718 7.9674035e-005 -0.97833985 0.039384063
560000000 -0.9777689 0.042379264 0.00032316271 0.00020562096 -7.2965791e-005 0.00010367827 -0.97889727 0.039421041
561000000 -0.97940654 0.041212648 0.00013626611 -0.00054963527 -0.00071052386 -0.00030012999 -0.9783178 0.038557753
562000000 -0.9801116 0.042603966 -0.0004813358 -0.00061855715 0.00020439185 -0.00034190028 -0.98038131 0.039092228
563000000 -0.98004735 0.041186072 -0.00028114897 0.00018693964 -9.8243618e-005 -0.00046463561 -0.98038369 0.039786961
564000000 -0.97923857 0.041343704 -3.6601945e-005 -0.00038104388 -0.00055853266 0.00027519441 -0.97981685 0.038177047
565000000 -0.97903693 0.041785941 -0.00038271977 -0.00010118775 -0.00013411471 -0.00021015054 -0.98015231 0.039297059
566000000 -0.97864395 0.04054068 -0.00021602267 -0.0010808617 8.7321241e-005 -0.00043136344 -0.97868901 0.039122023
567000000 -0.97895789 0.042299461 -0.00068660377 0.0005131932 -0.00049186085 0.00042712488 -0.97898495 0.039305259
568000000 -0.97891665 0.042001128 0.00020864091 -0.00043968399 0.00054861954 -5.7629619e-005 -0.97853559 0.038502187
569000000 -0.97839391 0.041308116 -0.00045899756 7.6355856e-005 -0.00037451426 -0.00053620484 -0.97887129 0.037949588
570000000 -0.97868717 0.042056244 -0.00068646093 -0.00058091374 -0.00074009545 -0.00024762171 -0.97838116 0.03914303
571000000 -0.97834468 0.040642977 0.00034841304 1.6677757e-005 -0.00021556842 2.4393263e-005 -0.97985923 0.040376503
572000000 -0.97743392 0.040727872 0.00021783663 0.00029675828 -0.00036524699 0.00038089155 -0.97925591 0.039138399
573000000 -0.97980797 0.041548319 0.00044638297 -0.00010453208 0.00018662543 1.9142981e-005 -0.98102736 0.039862335
574000000 -0.97842932 0.042424813 0.00015365434 0.00049286382 -0.00037321335 -0.00078417646 -0.98071426 0.039702803
575000000 -0.97881538 0.041575406 0.00064974354 0.00033098142 0.00014042259 -0.00014302605 -0.97968173 0.038350277
576000000 -0.97794396 0.042189017 -0.00051996927 0.00055883802 -0.00030916728 5.7365116e-005 -0.97937143 0.039857782
577000000 -0.97670633 0.041804101 0.00012205663 -0.00012771106 0.00015882286 1.7541413e-005 -0.97880125 0.038792152
578000000 -0.97791493 0.042327438 0.00027798358 -0.0001318447 -0.00052545691 -9.4006202e-005 -0.97933334 0.03809163
579000000 -0.97869903 0.042353403 0.00019638499 -0.00027765267 0.00010656752 -0.00068622199 -0.98004538 0.039671537
580000000 -0.97884881 0.042345293 -0.00016473557 1.1516246e-005 2.3260282e-005 -0.00020572796 -0.97843903 0.040609416
581000000 -0.97974634 0.042026769 2.0754806e-005 -0.00045681215 0.00031675195 -0.00086704362 -0.9803102 0.039474223
582000000 -0.97713417 0.042825352 8.9103996e-005 -7.6998884e-005 -0.0006291453 -0.00027416841 -0.98007804 0.040121503
583000000 -0.97794902 0.042232737 -0.00012318816 -0.00019425886 -0.00066271017 -0.00018117146 -0.97877163 0.039816294
584000000 -0.97900832 0.042086847 -0.00031992313 -0.00099904928 -5.1242867e-005 0.00036494384 -0.9798674 0.040189631
585000000 -0.97793871 0.041905075 0.00011552925 -0.00040806495 -1.3589327e-005 -4.0009013e-006 -0.97836262 0.040291332
586000000 -0.97842145 0.040950134 0.00011752507 -0.00051500596 -0.00043923056 0.0002220194 -0.97910255 0.039045464
587000000 -0.97968417 0.041969616 0.00049802253 0.00029757645 -0.00021960441 7.3334588e-005 -0.9782359 0.039754614
588000000 -0.97846228 0.041767515 0.00066523167 6.3693675e-005 0.00016482532 0.00016534845 -0.97969604 0.041140806
589000000 -0.97846252 0.042298645 -0.00028367218 -1.3284072e-005 0.00040430969 -0.00026341114 -0.98010641 0.040372901
590000000 -0.97873747 0.042918373 -0.00026864538 -0.00019660703 0.00012199355 -0.00066201016 -0.97828716 0.040318552
591000000 -0.97831792 0.042469222 -0.00037759074 -0.00029963852 0.00042554695 0.00043550966 -0.97975737 0.040672451
592000000 -0.97910988 0.040563483 -0.00026135537 4.177534e-005 -2.1525837e-005 1.6669817e-005 -0.97912985 0.039383605
593000000 -0.97738123 0.042751081 -0.00012888739 0.00018797567 0.00017776086 -0.00024574806 -0.97897661 0.040443156
594000000 -0.97861886 0.043874506 0.00019987502 -0.00024517116 -0.00053564698 -0.00062689884 -0.97881621 0.041126046
595000000 -0.97827208 0.042094391 -0.0007968811 -0.00028009017 0.00060330029 0.0003856901 -0.97990811 0.04131835
596000000 -0.97823578 0.04336172 0.00026253093 5.3028354e-005 -0.00032769173 -0.00065810164 -0.9788689 0.040769886
597000000 -0.97869778 0.042486917 -2.2412256e-005 -4.854102e-005 -3.9732007e-005 0.00095682393 -0.97904861 0.039273065
598000000 -0.97834915 0.044258792 0.00023729161 -4.8621867e-005 0.00034462078 0.00013069678 -0.97924346 0.041639242
599000000 -0.97897625 0.043420974 2.971478e-005 -0.00042076502 -0.00056124444 -9.5277765e-006 -0.97982669 0.040271498
600000000 -0.97901821 0.044379741 -0.00019055647 0.00015884558 -0.00035827546 -0.00038077901 -0.9785462 0.039733078
601000000 -0.976789 0.044911824 0.00014758945 -0.00032169948 0.00024174673 -0.00071259961 -0.9790343 0.041738272
602000000 -0.97845918 0.044929452 0.00023322567 -0.0001778124 7.6917793e-005 0.00014760758 -0.97893298 0.041280691
603000000 -0.97782719 0.044076201 0.00036740929 0.00054874265 -3.5166191e-005 0.0001733213 -0.98057401 0.041243825
604000000 -0.97748429 0.044522677 0.00022702513 -0.00030266686 -2.2081198e-005 0.00016030678 -0.97996205 0.0421822
605000000 -0.97732329 0.044161584 -0.00032462008 -0.00061143789 0.00037270642 0.0011219822 -0.97870737 0.041455932
606000000 -0.97944754 0.04488394 -0.00047394843 -0.00073909882 -0.00037358457 0.00021491072 -0.98023301 0.040484138
607000000 -0.97862005 0.043521587 -0.00034421665 0.00023432806 -0.00021128531 0.00039166649 -0.9781056 0.042066954
608000000 -0.97760588 0.04462523 -0.00097541348 -0.00019962249 0.00058054627 -0.00026953936 -0.97886544 0.040424187
609000000 -0.97862661 0.044998799 -0.00024473391 -2.4322055e-005 0.0002698926 -0.00086930272 -0.98063236 0.041271504
610000000 -0.97690219 0.046119638 -0.0006079108 -0.00012289296 0.00015768237 2.508091e-005 -0.97728145 0.042089015
611000000 -0.97713155 0.045670137 -0.00021366385 0.00033572855 -0.00026757288 0.00028736124 -0.97901011 0.040301226
612000000 -0.97791332 0.04517426 2.4558508e-006 0.00029441001 0.00039760335 -0.00043946167 -0.97862619 0.041312218
613000000 -0.97772938 0.04538041 -0.00015085208 0.0004549408 -0.00043738796 -9.3019138e-005 -0.97834057 0.044144571
614000000 -0.97703731 0.04550124 -0.00049784064 -0.00070596836 -3.3998958e-006 -0.00038960023 -0.97818714 0.042686772
615000000 -0.97791576 0.045978736 -0.00025809638 0.00021061464 0.00018484182 -0.00023123142 -0.97878581 0.041484505
616000000 -0.97795707 0.047066886 3.6061469e-005 4.9376937e-005 -0.00042237231 -4.3615932e-005 -0.97794682 0.041805282
617000000 -0.97741473 0.047039974 0.00014938042 0.00013628394 0.00022046412 0.00074156869 -0.97881466 0.041561034
618000000 -0.97780073 0.046484459 -0.00024875806 0.00018141017 0.00041024521 -0.00012060123 -0.97873086 0.042049929
619000000 -0.97788763 0.046361908 5.2831532e-005 0.00026390725 0.00030035462 -0.0012606194 -0.97937638 0.043079454
620000000 -0.97971684 0.046861574 0.0004582151 0.00058682094 -6.4059212e-005 -0.00043682911 -0.98030573 0.043603871
621000000 -0.97799796 0.046654958 0.00033506926 -0.00028896885 -0.00010364575 -0.00010962452 -0.97770429 0.042871159
622000000 -0.97798061 0.047246281 0.00048581569 0.00010667846 0.0004568173 4.5171462e-005 -0.97858077 0.043408982
623000000 -0.97687918 0.046987079 -0.00020577868 -0.00029463402 -0.00016906223 8.0791782e-005 -0.97766864 0.042454034
624000000 -0.9767701 0.048195943 0.00029530961 -0.00059824123 0.00027181386 -0.00011450752 -0.97786641 0.042758297
625000000 -0.97750783 0.047458265 6.2344843e-005 0.00030978228 -8.3828527e-005 5.8071986e-005 -0.97832394 0.043154966
626000000 -0.97864467 0.047587667 -0.00030388156 0.00065296912 -0.00012532515 0.00014169041 -0.97857177 0.044199318
627000000 -0.97821176 0.046585377 -3.9568142e-005 0.00014912254 -9.2537848e-005 7.3192998e-005 -0.97791964 0.042969767
628000000 -0.97844112 0.047169849 -0.00089247921 -0.00014835401 -0.00034369004 -0.00011031772 -0.97770327 0.043126926
629000000 -0.97739303 0.048883054 0.00064545422 0.00085970876 -0.00083020428 0.00013743559 -0.97864527 0.043679412
630000000 -0.97746593 0.048194174 -0.00031221236 8.2758037e-005 -0.00016852464 -2.6211344e-006 -0.97882885 0.044231713
631000000 -0.97825313 0.048546422 -0.00029783009 -1.8859491e-006 -0.00030403951 0.00068811228 -0.97919726 0.043667533
632000000 -0.97870517 0.047942482 -0.00014640174 6.2903055e-005 -0.00044685762 5.5782319e-005 -0.97777414 0.042913061
633000000 -0.97692847 0.046887796 0.00027534476 0.00050606002 -0.00081819494 -0.0002986351 -0.97870648 0.043880247
634000000 -0.97851497 0.048911937 -0.00015124497 -0.00085823762 0.00016137346 0.00064344209 -0.97934598 0.043589015
635000000 -0.97721261 0.047020264 0.00045712796 -0.00039374863 0.00026914672 1.658956e-005 -0.97909957 0.044961803
636000000 -0.9775824 0.049955253 0.00028819742 -0.00034226142 -0.00031749179 0.00012112016 -0.97885275 0.042856839
637000000 -0.97742724 0.047657594 0.00059736933 -0.00083452236 3.3008306e-005 -4.5755423e-005 -0.97738105 0.044276174
638000000 -0.97590029 0.049081929 0.00046238385 0.00036769756 0.0007076824 -0.00026994848 -0.97909796 0.043942817
639000000 -0.97704875 0.050316125 -6.8182198e-005 0.00042839034 0.00045907195 -0.00011644061 -0.97764093 0.045355722
640000000 -0.97734171 0.049005032 2.0479047e-005 0.00044096477 0.00027621808 6.7166635e-005 -0.97861004 0.04386045
641000000 -0.97679019 0.049840655 0.00039780195 -0.00025868777 -2.3277991e-005 1.5453861e-005 -0.97766048 0.044348631
642000000 -0.97770792 0.048824616 -0.00013507383 8.2625527e-005 -0.00055898615 -0.00070456369 -0.97908098 0.044037003
643000000 -0.97709095 0.050179143 0.00043186187 -0.00031278664 3.0976335e-006 0.00011101564 -0.97713113 0.043999217
644000000 -0.97716379 0.049465835 0.00050731335 -0.0001725989 0.00038526417 -4.9261544e-005 -0.97907376 0.044516273
645000000 -0.976695 0.04973783 -0.00065785664 -0.00030286759 0.00029803978 -9.2013885e-005 -0.9789781 0.04382249
646000000 -0.97812206 0.050415318 -0.0003358098 0.00024389583 -0.0004279995 5.7379046e-005 -0.9788152 0.044180378
647000000 -0.97849387 0.049904563 -0.00017102349 -0.00028062673 0.00029618377 -0.00012085825 -0.97899479 0.04365604
648000000 -0.97728151 0.050099857 -0.0006496837 0.00038237352 5.0090104e-005 0.00064290437 -0.97845119 0.044901129
649000000 -0.97664446 0.050371688 -1.1231513e-005 -0.00017759365 -0.00019779141 -0.00056803878 -0.97770876 0.04422956
650000000 -0.97736073 0.04913038 -0.00022440069 0.00024011517 6.7140711e-005 0.0001089885 -0.97813916 0.044884421
651000000 -0.97781545 0.049797039 -3.1543121e-005 0.00019291545 0.00030199188 -0.00047241265 -0.9779557 0.045773692
652000000 -0.97787631 0.049615514 -0.00015424174 0.00025369681 -0.00072316913 0.00019872122 -0.97762865 0.045002665
653000000 -0.97829407 0.050057709 -0.00079666928 -0.00037905763 -0.00078918383 -0.00020814961 -0.97856665 0.044132438
654000000 -0.97744375 0.051500902 0.00029668317 0.00038905902 -0.00049398444 -0.00056680548 -0.97746766 0.044666342
655000000 -0.97815949 0.050098266 -0.00018731042 -0.00014639726 8.8814864e-005 0.00080287666 -0.97783005 0.044572607
656000000 -0.97687048 0.050996516 -0.00031243346 0.00012537565 0.00027446009 9.3249828e-006 -0.97903818 0.044543322
657000000 -0.97723854 0.050642557 -0.00040393791 -7.1992574e-005 -9.7207892e-005 0.0006614406 -0.97763109 0.046421226
658000000 -0.97688496 0.050306976 -0.00016821267 -9.4001043e-005 -0.00056253787 -0.00038799027 -0.97649366 0.044635266
659000000 -0.97575259 0.049725976 -0.00029382724 -0.00041294727 -0.00039501532 0.00029987504 -0.97763091 0.044876374
660000000 -0.9771769 0.050218113 -0.00033763854 -0.00074181322 -0.00053952349 -0.00035920995 -0.9771859 0.04467418
661000000 -0.97713834 0.05060488 0.00054418494 -0.0002825917 -0.00063308462 -0.00014076028 -0.977934 0.044925831
662000000 -0.97619748 0.051425762 -0.00010714168 0.00029309039 -0.00026533898 -2.498142e-005 -0.97993791 0.04490843
663000000 -0.97759414 0.050577078 1.2711774e-005 -6.3936081e-006 5.9916379e-006 -0.00012538543 -0.97861481 0.04454213
664000000 -0.97562575 0.050049335 0.00018210088 0.00035095995 -0.00077449385 -8.9269706e-005 -0.97779691 0.044184498
665000000 -0.97648251 0.050894931 0.00043886667 -0.00013285897 -0.00041781447 -0.00038861056 -0.97888678 0.045989443
666000000 -0.97610343 0.049548209 0.00062851713 0.00018973117 0.00091172406 0.00034296187 -0.97773314 0.045140136
667000000 -0.97635221 0.05088437 -0.00029063778 -0.0007686601 -0.00090583926 -0.00016897124 -0.97734129 0.044353519
668000000 -0.97745889 0.05017814 1.0872684e-005 -0.00065361208 -1.4709912e-005 0.00027684338 -0.97811627 0.044051975
