!Keysight Technologies,M9374A,MY55442783,A.12.55.05
!Date: Thursday, May 20, 2021 16:57:23
!Correction: S11(Full 2 Port(1,2)) 
!S21(Full 2 Port(1,2)) 
!S12(Full 2 Port(1,2)) 
!S22(Full 2 Port(1,2)) 
!S2P File: Measurements: S11, S21, S12, S22:
# Hz S  RI   R 50
500000000 -0.98117155 0.038306769 -0.00057447009 -0.00078497472 0.0011082073 0.00036583695 -0.97979724 0.033973277
501000000 -0.98027396 0.037944019 -0.00025486748 -0.00017473933 8.2029495e-005 0.0001673424 -0.98010242 0.0352479
502000000 -0.98095661 0.038903404 -0.00023110022 0.00046995824 -0.00023630957 -9.3125149e-005 -0.97998333 0.034843676
503000000 -0.97982723 0.038517412 -0.00096899737 -0.0001939178 0.00022595463 0.0003494508 -0.98018545 0.036046986
504000000 -0.97831613 0.039299577 -0.00047227609 0.00015666682 -0.00064987352 -9.1850641e-005 -0.98001575 0.034033898
505000000 -0.97882855 0.039270118 -0.00051917305 0.00023390124 -0.00012964534 -0.00056012708 -0.97930217 0.034906633
506000000 -0.97975719 0.03940089 0.00034454121 -0.00085184496 -0.00048996118 0.00017061921 -0.97951812 0.034415212
507000000 -0.98009551 0.038532589 0.00052715675 -0.00087459577 0.00039661297 -0.00024098704 -0.98071384 0.036393348
508000000 -0.97904795 0.039053462 -0.00028786121 0.0005430358 0.00015290314 8.2356273e-005 -0.979895 0.036380373
509000000 -0.98071915 0.040168371 1.6953585e-005 -0.00050445076 0.00018033935 -0.00026206981 -0.97919536 0.035499215
510000000 -0.98083097 0.039931674 -0.00075060379 4.7885493e-005 4.0887476e-006 7.9829879e-005 -0.97947961 0.036062393
511000000 -0.97903961 0.040542517 0.00019010052 0.00030080474 0.00016999803 3.6446174e-005 -0.97923928 0.036320839
512000000 -0.98030436 0.04072684 -0.00057354366 -0.00033057077 0.00017749504 -0.00018030536 -0.97939152 0.035633799
513000000 -0.98102635 0.039802514 -0.0002783949 0.0002356311 -0.00029836112 0.00040796614 -0.97953874 0.035588473
514000000 -0.98006636 0.039502647 -0.00050322962 -0.00085108337 -0.00030587649 -0.00091776956 -0.97925669 0.036224209
515000000 -0.98021817 0.039846875 -0.00046126396 -0.00025724305 0.00055576809 -0.00016807904 -0.9800787 0.036604341
516000000 -0.98002642 0.040777706 0.00050631625 0.00082966744 0.00048965582 -0.00030716773 -0.97964126 0.035602797
517000000 -0.98056161 0.03988944 -8.5617081e-005 6.6273598e-005 0.00041291027 0.00030064074 -0.97950214 0.036864638
518000000 -0.97909856 0.040566009 1.2280994e-005 -9.5335068e-005 0.00058890093 1.0133164e-006 -0.97982341 0.037116509
519000000 -0.9810757 0.040881742 -0.00089030317 0.0002689317 -6.143302e-005 -0.0010549662 -0.98052925 0.036214661
520000000 -0.97868615 0.040286053 8.1283921e-005 -0.00096917729 -0.00037452119 -0.00024946776 -0.97902685 0.036925655
521000000 -0.97950286 0.041424148 -0.00018862034 -0.00053459266 0.00017201893 -0.00012133993 -0.97974324 0.037760179
522000000 -0.97928214 0.041928787 0.00022875094 0.00014392896 -0.0004702507 -4.2914613e-005 -0.98011482 0.038552634
523000000 -0.97893572 0.041258249 -0.00036040891 0.00025515305 -0.00026149501 -0.00026301682 -0.97956127 0.037813667
524000000 -0.97952771 0.041364651 0.00041717789 3.6957797e-005 -0.0002266097 -7.3674491e-005 -0.97958243 0.037546813
525000000 -0.97998434 0.041487012 -5.5728939e-005 -0.00028941614 -0.00048597678 -0.00036992165 -0.98059297 0.037385661
526000000 -0.97865468 0.040483806 -0.00020872991 -0.0010299617 -0.000326382 -0.00034675689 -0.97952008 0.038036909
527000000 -0.98049337 0.041306898 -0.00036618649 0.00014270461 3.3138876e-005 -0.00075322762 -0.98022783 0.038413063
528000000 -0.97907954 0.041215513 -0.00011927351 -4.5203033e-005 -0.00053246884 -7.3498239e-005 -0.97966886 0.038971353
529000000 -0.97984105 0.041449822 0.00010705102 -0.0005646167 -0.00030749367 -0.00031629388 -0.97912627 0.037625745
530000000 -0.98002243 0.04202472 0.00060019706 0.00030329052 -0.00054800959 -0.0005708352 -0.98003501 0.038689557
531000000 -0.97864258 0.041423038 4.2661741e-006 -0.0002144476 0.00053370086 -0.00031729275 -0.98012209 0.038085986
532000000 -0.97978675 0.042192377 -0.00033300609 -0.0003585587 -0.0001656867 -0.0005563806 -0.97982359 0.03828926
533000000 -0.97827601 0.042278443 0.00053597253 -0.00064115605 -0.00030965151 0.00018588245 -0.9803493 0.038052529
534000000 -0.97972095 0.041098267 0.00048386704 0.00024944669 0.00043201059 -0.00066878629 -0.98026246 0.037237909
535000000 -0.97955167 0.041366562 7.0254951e-005 -0.00010616887 3.8951959e-005 -0.00015567261 -0.97921818 0.038837858
536000000 -0.97887492 0.042806596 -0.00044916975 -0.00025120174 0.00015230202 0.00018788736 -0.97927511 0.037775207
537000000 -0.98088384 0.041181486 0.0001275784 0.00050493988 4.3929745e-006 0.00019624134 -0.97932076 0.039739732
538000000 -0.97850347 0.042368878 -0.00028108354 -8.8959525e-005 5.5610606e-005 9.7495264e-005 -0.98014396 0.038665958
539000000 -0.9790979 0.042441007 -0.00018013657 0.00030315013 0.00068320561 -0.00028911509 -0.97940052 0.038719397
540000000 -0.97978997 0.042455431 0.00031826386 0.00044533235 -0.00042662403 -0.0001475021 -0.98053598 0.038994338
541000000 -0.97820508 0.04225903 0.00011807855 -0.00044945063 -0.00020232495 -0.0011811809 -0.97951686 0.039532546
542000000 -0.97822189 0.041820861 -0.00037641282 -0.00022668271 -0.00015074224 -8.6545675e-005 -0.97917199 0.039609458
543000000 -0.9783709 0.042341042 -8.8384513e-005 -0.00053013593 -0.00065983488 0.00010634313 -0.97903413 0.039841928
544000000 -0.97929686 0.042866096 0.00014090967 -0.00012922569 0.00015009698 0.00039817617 -0.98066127 0.038420614
545000000 -0.97912252 0.041425731 0.00055297953 0.00027905745 4.3302491e-005 0.00020584151 -0.98044133 0.038691491
546000000 -0.97889417 0.042223036 0.00024983502 0.00021105989 -0.00090286706 -0.00027302789 -0.97954506 0.038458433
547000000 -0.9789387 0.042823426 1.4745548e-005 -7.7495213e-005 0.00032541301 -0.00047845629 -0.98013377 0.039579879
548000000 -0.97809571 0.042916298 -6.7746936e-005 0.00034792599 -0.00042629102 -0.00057650992 -0.97946692 0.040015791
549000000 -0.97833312 0.041927885 0.0001982025 -0.00036203675 -1.7272525e-005 -0.00028449189 -0.97978359 0.039155386
550000000 -0.97777045 0.043031871 -5.3735468e-005 -8.8425506e-005 0.00020247152 0.00081326382 -0.97934771 0.039364781
551000000 -0.97852379 0.042472862 0.00011644515 -0.00026496645 -8.0583966e-005 0.00024270668 -0.97878259 0.040086959
552000000 -0.97972554 0.042100772 -0.00043551836 -0.00050057645 -0.0011216647 0.00076099834 -0.97849119 0.038608301
553000000 -0.97836137 0.042179618 -0.00067111338 -0.00061853626 -9.95667e-005 0.0002246831 -0.9791584 0.03797549
554000000 -0.97874129 0.042392436 -9.7015341e-005 -0.00027365898 0.00021623647 0.00038878253 -0.97964108 0.038410868
555000000 -0.97847748 0.042028647 -8.0171114e-005 -0.00073532824 -0.00040266922 -0.00069203245 -0.97941691 0.038789667
556000000 -0.97916555 0.041709341 0.00029079942 -0.00037591229 -5.2142201e-005 -0.00033401645 -0.97993386 0.040256809
557000000 -0.9789027 0.041232157 -0.00061672594 0.00022045986 -9.2321017e-005 -0.00015178171 -0.98027265 0.039356854
558000000 -0.9786759 0.041751277 -0.00033158963 -0.00015141391 -9.1980168e-005 0.00038200768 -0.97955549 0.040408902
559000000 -0.9794088 0.042754542 -0.00037622245 -0.00032121327 0.00018260903 0.000173341 -0.97985029 0.040006831
560000000 -0.97888851 0.042860176 0.00032883586 -4.1687636e-006 -0.00024285671 -0.00073755125 -0.97879612 0.03842565
561000000 -0.97915697 0.041788585 0.00040255149 0.0011923304 0.00062173151 -0.00026980473 -0.97942424 0.037447549
562000000 -0.9791925 0.042334031 0.00011938687 -0.00020090026 0.00044260817 -0.00018862393 -0.9800595 0.040078234
563000000 -0.97916281 0.042575415 -2.7361391e-005 3.8679467e-005 -4.4022763e-005 -0.00020098964 -0.97940046 0.039514787
564000000 -0.97913951 0.041593939 3.7246959e-005 0.00050534785 0.00022024936 -0.00024979 -0.9799583 0.038503796
565000000 -0.97905803 0.041221969 -0.00071762403 -0.00032449912 -0.00060332654 -6.076568e-005 -0.98014981 0.038850259
566000000 -0.97768438 0.041052479 0.00036959842 -0.00010689527 0.00030851556 0.00010408898 -0.9793644 0.03916752
567000000 -0.97858804 0.041950043 0.00045481342 -1.3340557e-005 -3.7876751e-005 6.6904962e-005 -0.98005956 0.038816165
568000000 -0.97814745 0.042215317 3.1281401e-005 -0.00025834073 -0.00019729548 -0.00011945332 -0.98064023 0.039695546
569000000 -0.97990531 0.041629389 0.00011545148 -0.00040543108 -4.568333e-005 0.0001990286 -0.97915119 0.039576892
570000000 -0.9778024 0.042466026 -0.00069170404 -2.0257723e-005 -8.8204572e-005 0.00047808141 -0.97883201 0.040865328
571000000 -0.97885245 0.041914128 0.00012109755 -0.00020071465 -0.0001742834 -0.00080997794 -0.97967714 0.039552543
572000000 -0.97751147 0.042172268 -5.9907401e-005 -2.5192476e-005 0.00016758451 7.3044757e-005 -0.97997791 0.039412227
573000000 -0.97846907 0.040911574 -4.1098985e-005 -0.00048198793 0.00012351928 2.5476022e-005 -0.97880393 0.039141838
574000000 -0.97754753 0.041276574 0.00035407013 0.00031092981 -0.00058453117 -0.00096655032 -0.97956896 0.039255694
575000000 -0.97806448 0.042337544 0.00046604659 3.2975891e-005 -0.0002205394 0.00011687323 -0.97998768 0.039501686
576000000 -0.97737151 0.042062342 -0.00033609851 -0.00067549688 -4.6267865e-005 0.00020098808 -0.97912431 0.040575814
577000000 -0.97888166 0.041564107 -0.00072082592 -7.3748684e-005 -0.00024058828 0.00034522245 -0.97980958 0.038798571
578000000 -0.97881216 0.042575169 0.00043501513 0.00045140414 -8.732658e-006 6.0255144e-005 -0.97903341 0.039981585
579000000 -0.9779973 0.042048641 -1.5738442e-005 0.00029143717 -0.00068059022 3.4694189e-005 -0.97834891 0.039461806
580000000 -0.97896022 0.042626955 -0.00051229709 -8.0029429e-005 0.00017757004 0.00017033471 -0.97896028 0.040091012
581000000 -0.97889555 0.04248292 8.8508623e-006 -8.6960841e-005 -0.00020484616 -0.00027118344 -0.98034668 0.039611652
582000000 -0.97809225 0.042682163 0.00054894254 5.2546224e-005 -0.0006364843 8.9651221e-006 -0.97836626 0.039408173
583000000 -0.97965533 0.043348055 -0.00056224788 -0.00039158817 0.00018788464 6.7148409e-007 -0.98004043 0.039396092
584000000 -0.97817391 0.041798569 0.00036416852 -0.00034352954 -0.00014540755 -0.00024765881 -0.97902656 0.040395781
585000000 -0.97973281 0.0427601 -0.0001603151 0.00013861348 0.00036440464 8.7732391e-005 -0.97974777 0.040750299
586000000 -0.9786005 0.044541534 0.00077467697 -0.00054092222 -9.3202871e-005 8.1800899e-005 -0.9797827 0.039272554
587000000 -0.97885311 0.043522857 3.5224639e-005 0.00021622721 -0.00037378131 -0.0006097788 -0.9800216 0.040112212
588000000 -0.97689563 0.042970967 0.00046529018 -0.00011874525 0.00042396574 0.00022219554 -0.97991467 0.040559344
589000000 -0.97921723 0.042098731 0.00015024244 -3.4044704e-005 0.00036688792 -0.0002641324 -0.98036039 0.040770672
590000000 -0.97751337 0.042912863 0.00038105666 -6.1718551e-005 -0.00059935474 0.00022389322 -0.97873998 0.039697856
591000000 -0.97955614 0.043614138 -0.00090982992 -0.00028361042 0.00065362424 -0.0004187515 -0.97894317 0.040263288
592000000 -0.97816044 0.041775346 -0.00018462991 -0.00017348901 -5.4198212e-005 0.00027769862 -0.97949225 0.039716471
593000000 -0.9778499 0.044476073 0.00047926913 -0.00014882123 -0.00032129078 0.00047086435 -0.97998023 0.039807249
594000000 -0.97696608 0.04318675 4.3521912e-005 0.00064566353 -0.00016317182 3.548395e-005 -0.9796136 0.039947819
595000000 -0.97786093 0.04252708 -0.00013404684 -3.0189047e-005 1.8123692e-005 -6.2684347e-005 -0.97946137 0.040691715
596000000 -0.97872227 0.042843971 -0.00014988045 -0.00051135785 2.0201072e-005 -0.00016574985 -0.97859198 0.040491596
597000000 -0.9793036 0.043662351 0.00048940809 -0.00016819156 0.00034217685 -0.00025328706 -0.97895133 0.040413156
598000000 -0.9776662 0.041682243 -4.1795443e-005 -0.00027696541 -4.6509242e-005 0.0004340962 -0.97916794 0.041369595
599000000 -0.97785372 0.042454451 0.00040428329 -0.00089852099 -0.00026768364 -5.7294452e-005 -0.97940224 0.040830169
600000000 -0.97957343 0.04508967 -0.00067071425 -0.00045006172 0.00027638214 -0.00072454225 -0.97806191 0.041128714
601000000 -0.97909796 0.043639109 -0.00049376709 0.00014754648 0.00031162216 -0.00025054876 -0.98003054 0.040756911
602000000 -0.97784317 0.044534255 0.00026561812 -1.559673e-005 -0.00074269221 4.6369034e-005 -0.97897679 0.041369334
603000000 -0.97871214 0.045368046 -0.00038485797 -0.00041142252 0.0007050705 -0.00023305262 -0.97914428 0.041291408
604000000 -0.9788149 0.044739928 -0.00029739059 0.00043558094 0.00011428212 0.00018350242 -0.98027784 0.040539585
605000000 -0.97726202 0.044784393 0.0002644886 -7.4518481e-005 -0.00038483061 -0.00063628511 -0.97952741 0.041537881
606000000 -0.97890037 0.044952419 -0.00026782841 0.00035401175 -0.00010500276 -0.00054726575 -0.97789973 0.04167036
607000000 -0.9787178 0.045490772 -0.00020078383 -0.0005634597 -0.00024213147 -0.00049256982 -0.97855413 0.040428448
608000000 -0.97845781 0.045849599 0.00077495992 -9.2118942e-005 -3.6473637e-005 -0.00079112279 -0.97890788 0.042089742
609000000 -0.97865558 0.045467451 -0.00052070216 2.7335589e-005 0.00033587479 0.00058888615 -0.97905207 0.04196015
610000000 -0.97748065 0.046620652 -0.00017819562 -8.9351139e-005 0.00016434098 0.00089970231 -0.97808129 0.042803846
611000000 -0.97698557 0.045778498 -0.00058734906 -0.00074667862 0.00017040543 0.00062424771 -0.9784959 0.041330688
612000000 -0.97881639 0.045567349 -6.7577959e-005 0.00016100041 0.0013517415 -0.00015451015 -0.97908455 0.041674871
613000000 -0.97724271 0.045026179 6.7082103e-005 0.00029688349 -0.00039214001 -0.00029201142 -0.97882867 0.041092567
614000000 -0.97719753 0.044842679 0.00049054006 0.00038162319 -0.00016166433 0.00051753386 -0.97821307 0.04178578
615000000 -0.97841752 0.046380628 2.8131584e-005 0.00015754494 0.00072404271 -0.00013168482 -0.97817647 0.042986844
616000000 -0.97798568 0.04616265 0.0005621342 -0.0003888293 -0.00013409837 -6.8507012e-005 -0.97989541 0.042771835
617000000 -0.97805393 0.047477972 2.2939301e-005 -0.00021879878 0.00051850936 -4.5323624e-005 -0.97800279 0.042970292
618000000 -0.97738093 0.046433795 -0.00054409745 -0.00052442588 -0.00031989539 0.00037630132 -0.97929978 0.042519808
619000000 -0.97733194 0.04635239 0.00019233867 -0.00039713105 -0.00031116625 -0.00026920231 -0.979734 0.043045312
620000000 -0.97765172 0.046460304 -0.00070612883 0.00061274896 -0.00014795002 3.863675e-005 -0.97874862 0.042833786
621000000 -0.9779579 0.046877258 -0.00032256404 -0.00030926004 -1.9882149e-005 -1.8126791e-005 -0.97828972 0.042445209
622000000 -0.97773314 0.046588715 0.00015672298 3.0106648e-006 0.00050295418 0.00056373066 -0.97894913 0.042390373
623000000 -0.97726852 0.048432481 0.00025089868 -0.0004759868 0.0011998774 -0.00015014388 -0.97839147 0.043041244
624000000 -0.97880518 0.04656104 -0.00051265879 -0.00024154976 0.00028852918 -0.00016605893 -0.97887582 0.043078933
625000000 -0.97763467 0.04868418 -0.00086151867 0.00024718535 -0.00029808102 -0.00049106596 -0.97753423 0.043086264
626000000 -0.97876656 0.0474617 -0.00038033904 0.00028563614 -0.00034431712 6.5541099e-005 -0.97724575 0.043284994
627000000 -0.97805935 0.046940211 -9.4062219e-005 0.00015629189 -0.00011388895 -3.5424557e-005 -0.97785038 0.044131968
628000000 -0.97685051 0.047739875 0.00043518742 -0.00072371738 -0.00081601128 -4.2883923e-005 -0.97974426 0.044106219
629000000 -0.97754562 0.047333084 0.00054389628 2.0038315e-005 -0.00058326503 -0.00014894908 -0.97984207 0.044706911
630000000 -0.97722358 0.04828503 0.00072197331 0.00027997218 -0.0004286613 -2.1684729e-005 -0.97871608 0.04344593
631000000 -0.97901148 0.048753038 0.00059856055 -0.0005698225 -3.8911774e-005 4.5578213e-006 -0.97996581 0.043547656
632000000 -0.97726631 0.048496116 0.00064046757 0.00030254587 -2.2901131e-005 -0.00057116797 -0.9770537 0.043907672
633000000 -0.97814798 0.047260892 -0.00072742027 -0.0006253121 -0.00074073486 -8.8451947e-005 -0.97907865 0.043530755
634000000 -0.97740245 0.048393093 0.00060105073 0.00019760428 0.00048387432 0.00018716787 -0.97882909 0.043400947
635000000 -0.97897887 0.04870756 -0.00038374879 -0.0004975776 -0.00015183155 -0.00016772946 -0.97826034 0.043034691
636000000 -0.97724503 0.04807375 -0.00011753957 -0.00052437728 -0.00043641764 0.00026968302 -0.97944421 0.043275144
637000000 -0.97802478 0.048642188 0.00029336452 0.0002146543 -0.00037140856 -0.00016658055 -0.97919965 0.044073328
638000000 -0.97696459 0.048940703 -0.00015976168 -0.00064551935 0.00061306736 0.00037439994 -0.9778353 0.043239195
639000000 -0.97816163 0.049281236 -2.8732247e-005 -0.00069656293 -0.00049276184 -1.5902653e-005 -0.97989285 0.044290878
640000000 -0.97633016 0.049813777 -0.0003348586 3.6136786e-005 0.00055094104 -0.00085190503 -0.97795773 0.043150079
641000000 -0.97787231 0.047863118 -3.6251029e-005 0.00020594225 5.6033787e-005 -0.0001465853 -0.97562426 0.044596057
642000000 -0.97653377 0.049526107 -0.00071903231 -8.8568588e-005 0.00021488234 0.0005373591 -0.97878838 0.04345325
643000000 -0.97723049 0.049298394 -0.000857034 -6.6158398e-005 -0.0001581004 0.00018623004 -0.97836155 0.044298913
644000000 -0.97640878 0.049581498 -0.00065013743 -0.00058993057 -0.00022565234 -0.00045982571 -0.97862494 0.044296864
645000000 -0.97772658 0.050848085 -0.0011938302 -0.00016493224 0.0001359451 -0.00016885363 -0.97830749 0.04405668
646000000 -0.97792101 0.049905669 0.00046847042 0.00049777667 -0.00013104956 0.00014223382 -0.97781205 0.04454064
647000000 -0.97691423 0.049561117 -0.00028579653 -0.0010671492 -0.00052847591 -0.00028101046 -0.97820044 0.04472724
648000000 -0.97665453 0.050589748 0.00031291321 -0.00034676847 0.00013654929 0.00033805679 -0.97873145 0.04419842
649000000 -0.97784352 0.049800489 -0.00052266353 -0.0010383993 -0.00017175131 -0.00040747927 -0.97772563 0.04537395
650000000 -0.9763239 0.050842047 -0.00014613563 -0.00067120057 2.0410385e-005 3.6783622e-005 -0.97697806 0.045475967
651000000 -0.97708178 0.049129229 -0.00041694849 1.2849718e-005 0.00010060935 -3.9663988e-005 -0.97783768 0.044159085
652000000 -0.97733533 0.050483208 7.6207332e-005 0.00063299289 -0.000470247 0.00044858808 -0.97778201 0.044165179
653000000 -0.97715372 0.048862923 0.0006087895 -0.0004197727 0.00086999149 -0.00042166928 -0.97779381 0.044095531
654000000 -0.97648382 0.051737107 -0.00033521251 -0.0003934179 0.00038082417 0.00022342264 -0.97882015 0.044454962
655000000 -0.97769099 0.050229739 -0.0001896286 0.00081173837 0.00020621985 -7.3566962e-006 -0.97792399 0.044880018
656000000 -0.97635907 0.050295684 0.00049726077 0.00048903062 0.00034600662 -0.00021681651 -0.97781885 0.044271715
657000000 -0.97728723 0.050631553 -0.00023310957 -4.1980806e-005 -0.0003203261 0.0002608858 -0.97844738 0.045179442
658000000 -0.97747231 0.051061362 1.03455e-005 -0.00016378383 0.00032542317 -0.00028884545 -0.97811627 0.045055486
659000000 -0.97610343 0.050434832 -0.00045468059 0.00056200119 3.1394116e-005 -0.00042925152 -0.98034674 0.044149652
660000000 -0.97676319 0.051054142 -0.00074584014 -0.00046907648 9.884085e-005 -0.0009935773 -0.97725159 0.044715125
661000000 -0.97696555 0.051085711 -0.00030900826 -0.00035476353 -0.00028613675 -0.00030976185 -0.97857773 0.045863811
662000000 -0.97715014 0.050952815 -0.00047092899 0.00019988048 0.00015157243 -0.00030386829 -0.97905314 0.044993151
663000000 -0.97666872 0.051841479 -8.8288252e-005 0.00038717856 -0.00045173735 -0.00076583447 -0.97756904 0.045086231
664000000 -0.97751617 0.05047546 -0.0001873547 -0.00060189317 0.0010716669 -0.00071695109 -0.97886652 0.044093229
665000000 -0.97702068 0.05093769 -0.00062960992 -0.00053312117 -0.00022984201 -0.00021589961 -0.97815925 0.045833413
666000000 -0.97625816 0.050551474 -0.00019328506 0.0001754009 0.00016918956 0.00020733898 -0.97842711 0.044998381
667000000 -0.97740972 0.051923908 -1.1592617e-005 -0.00022664767 -0.0001235231 -0.00035869156 -0.97861868 0.045497306
668000000 -0.97629488 0.050428674 0.00046030572 -0.00010579487 -0.00060495728 2.6358302e-005 -0.97803932 0.044118021
