!Keysight Technologies,M9374A,MY55442783,A.12.55.05
!Date: Friday, May 21, 2021 10:35:05
!Correction: S11(Full 2 Port(1,2)) 
!S21(Full 2 Port(1,2)) 
!S12(Full 2 Port(1,2)) 
!S22(Full 2 Port(1,2)) 
!S2P File: Measurements: S11, S21, S12, S22:
# Hz S  RI   R 50
500000000 -0.93727565 0.052234262 0.00032390328 -0.0020710547 -0.00027027895 -0.0024339093 -0.93772161 0.044244938
501000000 -0.93879342 0.051615667 -0.00043590585 -0.0019616629 -0.00089624524 -0.0016022688 -0.9377715 0.046166033
502000000 -0.93830192 0.053049151 -0.00036500534 -0.0024906462 -0.00011462767 -0.0009911193 -0.93668187 0.043953888
503000000 -0.93777788 0.053043127 -0.00099451479 -0.002555273 -3.6283265e-005 -0.001434497 -0.93512577 0.044136945
504000000 -0.93771845 0.053348683 -0.00082464359 -0.00089033239 -0.00060975546 -0.0008344106 -0.93763751 0.044828106
505000000 -0.93902522 0.053690616 -0.0001320658 -0.0019971179 0.00043554665 -0.0015769044 -0.93672538 0.045305956
506000000 -0.93747014 0.05174882 -0.00015499265 -0.0021820993 0.00023682865 -0.0012972819 -0.93593585 0.043899413
507000000 -0.93959641 0.054718025 -0.00026189251 -0.0026295888 -6.7163266e-005 -0.0033634619 -0.93637627 0.046146035
508000000 -0.93873221 0.054670468 -0.00097267039 -0.0021730962 -0.00050908484 -0.0020330995 -0.93652266 0.045366559
509000000 -0.93786955 0.053605691 0.0010582404 -0.0023873423 -0.00036848537 -0.0012307209 -0.93779474 0.043703184
510000000 -0.93785423 0.055499036 -0.0012717459 -0.0019027011 -0.00052567577 -0.0025487486 -0.93602651 0.046062917
511000000 -0.93786901 0.053057212 -0.00022462837 -0.0022164944 0.00043916289 -0.0019335282 -0.93663841 0.046422083
512000000 -0.93881679 0.054695103 -0.00035035191 -0.0016073708 0.0009864996 -0.0017831593 -0.93647492 0.045027263
513000000 -0.9394955 0.053815879 -0.00050700596 -0.0030634038 -0.00029766865 -0.001553923 -0.93771678 0.045927644
514000000 -0.93828446 0.054141566 0.000343183 -0.001391119 2.3815825e-005 -0.0016252066 -0.93725431 0.046455409
515000000 -0.93848437 0.05463741 0.00018709023 -0.0014172365 0.00011706118 -0.0027052681 -0.93659019 0.048091769
516000000 -0.93694639 0.055173103 -0.0001611928 -0.0017057864 -0.00096177001 -0.002714128 -0.93716788 0.044995569
517000000 -0.93830776 0.055101916 -0.00040682658 -0.0018397541 -0.0013500253 -0.0017607926 -0.93603987 0.045907233
518000000 -0.93703812 0.055960603 1.0885304e-005 -0.0018710017 -0.00045095372 -0.0023952678 -0.93848771 0.045796905
519000000 -0.93804061 0.055666976 0.00048944115 -0.0019716928 -0.00097376859 -0.0021454308 -0.93692291 0.046948355
520000000 -0.93702918 0.055471644 2.541789e-005 -0.0023483399 2.9343591e-005 -0.0007516311 -0.93589711 0.047410484
521000000 -0.93897343 0.056103077 0.00052998256 -0.0017925535 -0.0011153733 -0.0025613962 -0.93588185 0.047841374
522000000 -0.93741381 0.054930534 -0.0016910312 -0.0033397772 0.00053233153 -0.0032042575 -0.93589193 0.046624783
523000000 -0.93871218 0.055098049 -0.00067043991 -0.0019747762 -0.00023332873 -0.0018498752 -0.93549907 0.047904525
524000000 -0.93783194 0.054760125 -0.00056261243 -0.0013605853 0.00022726887 -0.002484645 -0.93524015 0.047962412
525000000 -0.93695229 0.057299074 -0.00035002394 -0.0015559157 -0.00075014867 -0.0029296344 -0.93664372 0.045716126
526000000 -0.93682551 0.057699367 0.00015068162 -0.0030021309 -0.00033946589 -0.0019656431 -0.93662882 0.047599081
527000000 -0.93813694 0.053463172 -0.00055670179 -0.0026724082 -7.6857941e-006 -0.0019554798 -0.93683815 0.04940797
528000000 -0.93702185 0.055980328 0.00049856293 -0.0017198845 -7.9978026e-006 -0.0016497155 -0.93639386 0.047589328
529000000 -0.9385854 0.055885181 -0.00052566268 -0.0012902822 0.00016593501 -0.001219196 -0.93624014 0.048454784
530000000 -0.93804425 0.057575233 -2.5290667e-005 -0.0030894636 -0.00010017931 -0.0028493793 -0.93766308 0.049317405
531000000 -0.93803835 0.057469506 -0.00046510951 -0.0019315103 -0.00027532948 -0.00097802107 -0.93732584 0.049122706
532000000 -0.93719959 0.057770528 -0.00042258686 -0.0022395889 -0.00084231008 -0.0022445363 -0.93567216 0.049479064
533000000 -0.93924648 0.056351494 0.00038220995 -0.0005935948 -0.00013098279 -0.0018183258 -0.93603325 0.049433779
534000000 -0.93689144 0.056841187 0.00053311494 -0.0020534266 0.00062558026 -0.0023438302 -0.93540436 0.046658605
535000000 -0.93719828 0.057139043 -0.0004534882 -0.0020495094 -0.00091703929 -0.0025648081 -0.93772209 0.047943547
536000000 -0.93655026 0.057505202 0.0002347837 -0.00088881527 0.0003155045 -0.0024505376 -0.93784785 0.048963621
537000000 -0.93783617 0.057560313 -0.00049095985 -0.0020886979 0.00034100789 -0.0023280955 -0.93484253 0.048893161
538000000 -0.93582672 0.057058316 -0.00025713406 -0.0017563213 -0.00062444148 -0.0023210063 -0.93612736 0.048420951
539000000 -0.93852109 0.05676784 -0.00059558533 -0.0030182425 -0.00049168593 -0.0019299889 -0.93533653 0.049194694
540000000 -0.93930191 0.058644895 -0.00043683997 -0.001435713 -7.7778692e-005 -0.0024144319 -0.93721247 0.047946032
541000000 -0.93708932 0.057071853 -0.00046341956 -0.0011275542 0.00016780301 -0.0021562979 -0.93620861 0.048328262
542000000 -0.93629295 0.057133265 -0.0005217719 -0.0017982901 -0.00039240165 -0.0024961836 -0.93462741 0.048771124
543000000 -0.938721 0.057795621 -0.0016159584 -0.0031920944 -0.00021725522 -0.00097999908 -0.93577927 0.049802195
544000000 -0.9370243 0.056964636 -0.00020724926 -0.0015517737 -9.9558274e-005 -0.0025174581 -0.93574476 0.049552526
545000000 -0.93855441 0.057808712 -0.00012119683 -0.0018371168 -7.6003278e-005 -0.0022969302 -0.9368571 0.050037235
546000000 -0.93732357 0.057396818 -0.00020313122 -0.002483496 -0.0004399803 -0.0017247397 -0.93588161 0.049726944
547000000 -0.93831664 0.058159892 0.00047317389 -0.001468843 -0.00075293059 -0.0015335354 -0.93640339 0.047570694
548000000 -0.93664026 0.057708535 -0.00089093513 -0.0024372013 0.00059670868 -0.0026680748 -0.9367581 0.048784442
549000000 -0.9362449 0.056614861 -0.00027042086 -0.0016203447 -0.00094477128 -0.0023174351 -0.93664116 0.0520197
550000000 -0.93741709 0.056837782 -0.00061549962 -0.0033090222 -0.00030614389 -0.0037239427 -0.93697345 0.04990026
551000000 -0.93736285 0.056411956 -0.0011162963 -0.0025915117 0.00020859762 -0.0015353637 -0.93721431 0.051655084
552000000 -0.93690419 0.057797179 -0.0005221524 -0.0016264973 -0.00042023938 -0.0018591945 -0.93442553 0.050962798
553000000 -0.93902767 0.058469169 0.00032014211 -0.0019532715 5.1598836e-005 -0.002056977 -0.93672234 0.049090434
554000000 -0.93696314 0.058095854 0.00022433998 -0.002149021 0.00024777258 -0.0018754703 -0.93622202 0.049568951
555000000 -0.93755949 0.057456437 -0.00036450356 -0.0030829469 -0.00038066032 -0.0020422328 -0.93630266 0.050115928
556000000 -0.93778455 0.058455579 -0.0004920233 -0.0013367066 -0.0013416121 -0.0026244214 -0.93621194 0.049103592
557000000 -0.93760973 0.059002504 1.0077948e-005 -0.0020751127 0.00068214675 -0.0016274588 -0.93744785 0.050055068
558000000 -0.93690866 0.059431795 -0.00076583395 -0.0032455879 5.753609e-005 -0.0024500778 -0.93748659 0.048482813
559000000 -0.93751228 0.057293963 -0.0010958499 -0.0023738905 -0.00039176305 -0.001963943 -0.93752778 0.048584677
560000000 -0.93769324 0.058068469 0.0001702127 -0.002282941 -0.00060826103 -0.0029181298 -0.93682063 0.051434197
561000000 -0.93515009 0.059678484 0.00024246519 -0.0022677125 0.00050194591 -0.0019942152 -0.93590939 0.049728371
562000000 -0.93710774 0.056614954 -0.00067348446 -0.0015624443 0.00046181094 -0.0023410688 -0.93626595 0.051444579
563000000 -0.93673366 0.057645548 -0.00019320077 -0.0021566185 0.0003224549 -0.0024279244 -0.9368462 0.050714247
564000000 -0.93782854 0.057393517 0.00036896073 -0.0023010971 -0.0013002059 -0.0021290157 -0.93558359 0.050571024
565000000 -0.93662864 0.057622682 -0.00097475754 -0.0022049393 0.00034259629 -0.0024290138 -0.93569946 0.049173761
566000000 -0.93642873 0.059237346 -5.5990349e-005 -0.0025431679 -8.8687309e-005 -0.0024549782 -0.93584323 0.052013438
567000000 -0.93771952 0.058845505 -0.0008529044 -0.0023929102 -0.00010384098 -0.0023886221 -0.93728667 0.050870381
568000000 -0.93647277 0.059221569 -0.0010454741 -0.0030674646 9.8567871e-005 -0.0021945697 -0.9350127 0.049548529
569000000 -0.93668413 0.059355464 -0.000893788 -0.0025686277 -0.0003039788 -0.0024493092 -0.93570656 0.049390428
570000000 -0.93663901 0.058139753 -0.00023091692 -0.00281165 -0.001103957 -0.0026727857 -0.93632907 0.049328536
571000000 -0.93690085 0.057889242 0.00053732871 -0.0020365119 0.00049818517 -0.0020314236 -0.93576479 0.050365083
572000000 -0.93580252 0.059287656 -2.6053885e-005 -0.0019296115 -0.00049603416 -0.0023958487 -0.93633002 0.050260194
573000000 -0.93695849 0.058577951 -0.00038953041 -0.0018538658 0.0007687693 -0.001825834 -0.93741685 0.049634401
574000000 -0.935987 0.059799854 -0.00080466858 -0.0013406639 -0.00019934251 -0.00232237 -0.937626 0.049856424
575000000 -0.93643159 0.058420885 -0.0004112715 -0.0035590136 -0.00030936158 -0.0025786322 -0.93640953 0.05052935
576000000 -0.93707031 0.058785409 -0.001202352 -0.0020959224 -0.00043896638 -0.0029649227 -0.93808359 0.050609112
577000000 -0.93709415 0.05934044 -0.00010241856 -0.0026371432 -0.00079264096 -0.0029097327 -0.93697047 0.051340468
578000000 -0.93754137 0.058553863 -0.00073805207 -0.0023065167 0.00013266705 -0.0020587018 -0.93571329 0.053409789
579000000 -0.93580735 0.059764259 0.00012614274 -0.0014526403 0.00043053002 -0.002799182 -0.9369697 0.051016893
580000000 -0.93655348 0.059136596 -0.00067994604 -0.0021011075 -0.00070260069 -0.00070642697 -0.93619394 0.049406361
581000000 -0.93729919 0.057682019 5.6176468e-005 -0.0021938877 -0.00057805504 -0.0026507941 -0.93679166 0.052434895
582000000 -0.9377476 0.05924584 2.6191283e-005 -0.0034250084 -0.00034430169 -0.002159955 -0.93734843 0.053071897
583000000 -0.93763912 0.059159532 -0.00074747397 -0.0028637953 -0.00038251543 -0.0016104277 -0.93695867 0.048898611
584000000 -0.93650389 0.058491815 -0.00043196909 -0.0029531925 2.7217617e-005 -0.0021658689 -0.93648052 0.052905019
585000000 -0.93594879 0.058839634 0.00016336702 -0.0019962722 -0.00091442541 -0.0026433389 -0.93590343 0.051742967
586000000 -0.93607992 0.058823615 0.00016273346 -0.0019402022 -0.00074569596 -0.0028955846 -0.93654108 0.050392248
587000000 -0.93598735 0.060286541 -0.00039167545 -0.0023424507 -0.0012340344 -0.0028189572 -0.93647724 0.05143933
588000000 -0.93792987 0.059548095 0.00019507071 -0.0030828638 -0.0012957325 -0.0012448175 -0.93710774 0.053141251
589000000 -0.93780732 0.05992892 -1.5509864e-005 -0.0021560804 -0.00073889847 -0.0013399378 -0.93778324 0.051986661
590000000 -0.93430394 0.058596082 -0.0011558688 -0.0029486266 -0.00071394671 -0.0014731503 -0.9354462 0.051122148
591000000 -0.93457723 0.061498508 -0.00023696305 -0.0028309119 -0.00042089022 -0.0024770785 -0.93572438 0.052020941
592000000 -0.93769324 0.059452385 0.00036486433 -0.0019282349 -0.00044635689 -0.003213875 -0.93777031 0.051799055
593000000 -0.93620735 0.059950337 -0.00045638497 -0.0027564876 -0.00045624035 -0.00094818947 -0.93670696 0.052417234
594000000 -0.93590373 0.060709096 -0.00013963731 -0.0031355815 -0.0013534637 -0.0027641181 -0.936836 0.05344943
595000000 -0.93705642 0.059750084 0.00012070117 -0.003156737 -0.00022125138 -0.001739979 -0.93663597 0.050760381
596000000 -0.9370057 0.06058415 -0.00061669911 -0.0024661918 -0.00057864317 -0.0033716899 -0.93517274 0.050653707
597000000 -0.93599671 0.061285403 0.00037145481 -0.0027128768 0.00065323524 -0.0025370286 -0.93481719 0.051327392
598000000 -0.93875504 0.06188599 -0.0012586027 -0.0029360051 -0.0015174109 -0.0029712752 -0.93599117 0.051959507
599000000 -0.93699205 0.059986807 -0.00051683537 -0.0015272481 -0.00013487127 -0.0032753444 -0.93503159 0.052577179
600000000 -0.93654847 0.061865352 -0.0001133689 -0.0025143051 -9.5505304e-005 -0.0028071906 -0.93739533 0.051829528
601000000 -0.93671197 0.063214704 -0.0011127871 -0.0020090432 -0.00096788059 -0.0020841991 -0.93639416 0.052552249
602000000 -0.93697214 0.063955009 -0.00071140705 -0.0024579701 -0.0010618634 -0.0018442228 -0.93610811 0.053441416
603000000 -0.93791956 0.061709516 0.00025392213 -0.0020119075 -0.0012784383 -0.0032994314 -0.93694621 0.053496484
604000000 -0.9375158 0.06286712 -0.00019105338 -0.002238682 -0.00011556663 -0.0024752286 -0.93588138 0.053819835
605000000 -0.93718106 0.063568488 -0.00016893144 -0.0021969948 -4.6538655e-005 -0.0022232956 -0.93615073 0.054632872
606000000 -0.93689215 0.061345689 -0.00048485023 -0.0029050207 0.00011871452 -0.0016539163 -0.93569821 0.053393956
607000000 -0.93772578 0.062421631 -0.00071721076 -0.00093444774 -0.00079376844 -0.0022617674 -0.93675071 0.053810414
608000000 -0.93619245 0.062189199 -0.0008558961 -0.0026217434 -0.00065116654 -0.0027293328 -0.93497878 0.053492136
609000000 -0.93758655 0.062374856 -0.0012264531 -0.003186252 -0.00065367325 -0.0021095967 -0.93647838 0.053583216
610000000 -0.93644875 0.063762784 -0.00048138152 -0.0017363511 -0.00025817633 -0.0022590957 -0.9358986 0.054260042
611000000 -0.93563533 0.063270636 1.6471928e-005 -0.001795517 0.0019088065 -0.0024699559 -0.93604201 0.054011438
612000000 -0.93786138 0.063207008 -0.00039113834 -0.0039437711 6.3057727e-005 -0.0025304034 -0.93536854 0.05254034
613000000 -0.93778342 0.064259283 -0.00055114029 -0.0035572795 -6.36088e-006 -0.0024228969 -0.93581349 0.052459475
614000000 -0.93644077 0.064861163 -0.0017355684 -0.0025024884 -8.0491918e-005 -0.0022541485 -0.93643534 0.054397084
615000000 -0.93581158 0.064607993 0.00028727393 -0.0031646993 0.00038208844 -0.0023505399 -0.9368099 0.052731585
616000000 -0.93497789 0.064173028 -0.00098982791 -0.0025967183 -0.00016856645 -0.001936233 -0.93464607 0.054394577
617000000 -0.93659228 0.063990951 -0.00099880854 -0.0018267505 0.00065612968 -0.0022977372 -0.93624002 0.055710644
618000000 -0.9364742 0.065088391 8.720412e-005 -0.0021035073 -0.0010494824 -0.0021290409 -0.93648487 0.055359278
619000000 -0.93397808 0.064780265 0.0004430025 -0.0028900569 4.8346974e-005 -0.0017956996 -0.93557304 0.055436395
620000000 -0.93512565 0.064521 -0.00098023843 -0.002589653 -0.00078639603 -0.0028492222 -0.93611342 0.055256903
621000000 -0.93616831 0.065166198 -0.00059187802 -0.0034963649 -0.00054897356 -0.0034739058 -0.9344632 0.055717908
622000000 -0.9360137 0.064731471 0.00021480376 -0.002476179 -0.00017313959 -0.0016561856 -0.93721104 0.054961905
623000000 -0.9368608 0.066144533 0.00013849656 -0.0021620521 -0.00097411557 -0.0033089675 -0.9362272 0.05586103
624000000 -0.93567538 0.063957818 1.8861952e-005 -0.0024041249 -0.00066467718 -0.0021170136 -0.93525702 0.055740107
625000000 -0.9349671 0.067145407 -0.00019047699 -0.0026067733 -0.00048408634 -0.0024395075 -0.9357084 0.053463761
626000000 -0.93705219 0.066894889 0.00024107838 -0.0029320815 0.00055223907 -0.0030128709 -0.93523771 0.057186723
627000000 -0.93688804 0.065687902 -0.00044022998 -0.002445722 -0.001352206 -0.0027466316 -0.93562239 0.055461012
628000000 -0.93667382 0.065682098 -0.00056267914 -0.0025906507 -0.0019867041 -0.0030963635 -0.93680316 0.055880729
629000000 -0.9351362 0.065795243 -0.00098413799 -0.0028456431 0.00020490482 -0.0023252121 -0.93564898 0.055600114
630000000 -0.93458784 0.065710217 7.3544412e-005 -0.0022969164 -0.00090584176 -0.0028619803 -0.93554717 0.056544024
631000000 -0.93651384 0.067081675 -0.00077022624 -0.0020752621 0.00023392287 -0.0028939173 -0.93550551 0.056182869
632000000 -0.93826729 0.066778615 0.00044244554 -0.0023201269 -0.00099934789 -0.0027193844 -0.93503988 0.055145141
633000000 -0.93669617 0.066292614 -0.00067646476 -0.0027043626 -0.00027018445 -0.0032906414 -0.93669981 0.055654258
634000000 -0.93740374 0.068040624 -0.00068162358 -0.0026556563 -0.00053906359 -0.0021355103 -0.93622917 0.055889886
635000000 -0.93623906 0.065554015 3.909324e-005 -0.002092422 -0.00037361562 -0.0028913531 -0.93684584 0.054792084
636000000 -0.93589097 0.066916689 -0.00013726659 -0.0029323157 -0.0010395716 -0.0028947331 -0.93619227 0.05766296
637000000 -0.93601966 0.068429448 0.00031791494 -0.0041039763 0.00042874159 -0.0019324349 -0.93507326 0.056444377
638000000 -0.93552399 0.068230189 -0.00080754573 -0.0017157727 -0.0011687055 -0.0013567097 -0.93641126 0.057363871
639000000 -0.93833101 0.06809637 -0.00017395439 -0.0033755498 4.2194457e-005 -0.0021304006 -0.93407339 0.056863219
640000000 -0.93680686 0.06617666 -0.00080335513 -0.0029901345 -0.00034342124 -0.0026220279 -0.93460906 0.05751222
641000000 -0.93657362 0.068351716 -0.00090594537 -0.0018674911 -2.3440789e-005 -0.0020157513 -0.93557769 0.057304967
642000000 -0.93587661 0.06695196 0.00021584294 -0.0013623423 -0.00077044591 -0.0032348582 -0.93557131 0.057653826
643000000 -0.93504304 0.067657217 -0.00064532383 -0.0028922921 -0.0013663833 -0.0022352983 -0.93600047 0.056433484
644000000 -0.93618548 0.06961482 -0.00046628501 -0.0015514317 -0.00052058115 -0.0027699738 -0.93533432 0.056645051
645000000 -0.93572938 0.068061553 -0.00013579057 -0.0024457695 -0.00011513963 -0.0027083345 -0.93604201 0.055468112
646000000 -0.93627185 0.069084562 -0.00012673388 -0.0021980074 3.0718693e-005 -0.0018665604 -0.93394041 0.056515004
647000000 -0.93697995 0.069958277 -0.00084336108 -0.0025006055 -0.00049381814 -0.0032812133 -0.93433172 0.056961503
648000000 -0.93588126 0.068656422 -0.00078413344 -0.0026944098 -0.00045711666 -0.0028567954 -0.93440425 0.05869963
649000000 -0.93528694 0.068182655 -0.00097251782 -0.0020869258 0.0001263945 -0.0017385209 -0.93436497 0.056455422
650000000 -0.93519509 0.068453111 -0.0010940632 -0.0023874734 0.00015333582 -0.001997828 -0.93347079 0.057067703
651000000 -0.93571621 0.068974592 -0.00047708824 -0.0019436419 7.8710953e-005 -0.0027536966 -0.93594867 0.057440385
652000000 -0.9350431 0.068879955 -0.00020668942 -0.0025697476 6.4336884e-005 -0.0028734247 -0.9331724 0.057542473
653000000 -0.93628836 0.070791237 -3.2472428e-005 -0.0023089298 -0.00016753167 -0.0021762191 -0.93602419 0.057035945
654000000 -0.93552268 0.069015622 -0.0011448559 -0.0026223913 -0.00097811897 -0.002289054 -0.93648815 0.056566618
655000000 -0.93493652 0.06796366 -0.00080039992 -0.0029725325 -0.00061123655 -0.0030271276 -0.9349817 0.057226449
656000000 -0.93471646 0.070932396 -0.0011934934 -0.0036044619 -0.000291462 -0.0028661357 -0.93550634 0.05854043
657000000 -0.93670297 0.069057375 -0.00049135007 -0.0029162224 -0.00063619041 -0.0022696522 -0.93631613 0.058541473
658000000 -0.93692786 0.069263645 -0.00045673273 -0.003287358 0.00051234587 -0.0021124068 -0.93570191 0.056902148
659000000 -0.93505198 0.0705266 -0.0009899725 -0.00370853 -0.00073276402 -0.0019842545 -0.93600088 0.058773827
660000000 -0.93483222 0.071201317 0.00031518584 -0.0041606603 -0.00055162696 -0.0024421292 -0.93587404 0.058243755
661000000 -0.93610382 0.07017421 -5.0680414e-005 -0.0026855255 -0.00094796554 -0.0035569728 -0.93613881 0.058841363
662000000 -0.9359197 0.069542915 -0.0015139299 -0.0031503362 -0.00072293199 -0.0024135441 -0.93629599 0.058877856
663000000 -0.93590313 0.06913922 -0.00053898076 -0.0021694072 -0.0006552008 -0.00097032974 -0.93487781 0.059208918
664000000 -0.93590248 0.068852641 -7.0004469e-005 -0.0026049069 -0.0010153392 -0.0037957644 -0.93463701 0.058963019
665000000 -0.9348079 0.071008183 -0.00067823922 -0.0028333822 0.0010272592 -0.0024797206 -0.93672466 0.058184233
666000000 -0.93630654 0.069098197 -0.00028923398 -0.0028075813 -0.00085519353 -0.0033665807 -0.93407238 0.058759324
667000000 -0.93386245 0.072202228 0.00051803939 -0.0025337373 -0.00040819088 -0.0032134599 -0.93493235 0.058442459
668000000 -0.93423879 0.069323316 -0.00087941525 -0.003499133 -0.00039816534 -0.0023011756 -0.93382859 0.059004582
669000000 -0.93585843 0.069941767 -0.00017379825 -0.0026858451 0.00080178009 -0.0017684824 -0.93478549 0.057001997
670000000 -0.93648225 0.071308002 -0.00020999594 -0.0022486863 -0.00053638022 -0.0024911491 -0.93560678 0.060689978
671000000 -0.93515176 0.069523759 -0.00063252007 -0.0016378063 -0.00011485463 -0.0031593863 -0.93406397 0.057916656
