!Keysight Technologies,M9374A,MY55442783,A.12.55.05
!Date: Friday, May 21, 2021 11:01:00
!Correction: S11(Full 2 Port(1,2)) 
!S21(Full 2 Port(1,2)) 
!S12(Full 2 Port(1,2)) 
!S22(Full 2 Port(1,2)) 
!S2P File: Measurements: S11, S21, S12, S22:
# Hz S  RI   R 50
500000000 -0.93941164 0.050604936 -0.0013436396 -0.002473389 0.00014991421 -0.0011781148 -0.93679166 0.040301129
501000000 -0.94066411 0.050736204 -0.00072874461 -0.0011442712 -0.00043327207 -0.0013835029 -0.93761903 0.04364042
502000000 -0.94043118 0.051258087 -0.00063309213 -0.0014578659 -0.00084782497 -0.0020240122 -0.93765062 0.042584889
503000000 -0.93858993 0.050433289 -0.0011631608 -0.0026767463 -3.6819692e-005 -0.0017340116 -0.9382869 0.040814269
504000000 -0.9380877 0.052127521 -0.0011622485 -0.001932867 4.5901943e-005 -0.001718933 -0.93740374 0.041764267
505000000 -0.93916261 0.052438967 0.00042849404 -0.0019801317 0.00030146854 -0.0026241986 -0.93675578 0.042061973
506000000 -0.93898875 0.050869986 -9.7231539e-005 -0.0030891977 0.00090247917 -0.002093968 -0.93628263 0.041287109
507000000 -0.93913418 0.052026853 0.00017358737 -0.0028243442 0.00086362421 -0.0022327236 -0.9382636 0.044001967
508000000 -0.93953222 0.051435042 -0.00096101145 -0.0019810346 -0.0003755065 -0.0018153478 -0.93686658 0.045276769
509000000 -0.94080251 0.051275391 5.523994e-005 -0.0024400293 0.00010361935 -0.0019493328 -0.93615639 0.044554342
510000000 -0.93872172 0.051953245 -0.00077420654 -0.0014268009 -0.0012896402 -0.00090279226 -0.93791044 0.04345455
511000000 -0.93877423 0.05302044 -5.3748903e-005 -0.00066483312 -0.00010441488 -0.0023904585 -0.93668807 0.046654243
512000000 -0.93854237 0.051432543 0.00057184621 -0.0027289465 4.1512571e-006 -0.0032318747 -0.93916631 0.043854304
513000000 -0.93981463 0.052533824 -0.00089737616 -0.0021673215 -0.00061770872 -0.0023524088 -0.93791288 0.042385146
514000000 -0.94062376 0.052006263 -0.0010192846 -0.0018244134 -0.00034457052 -0.0022789494 -0.93813598 0.046687774
515000000 -0.93828058 0.054033879 0.00032822488 -0.0012898571 -0.00011088361 -0.001815582 -0.93842411 0.044288259
516000000 -0.93882334 0.051869284 -0.0013079549 -0.0023772735 -0.00064556935 -0.0015123679 -0.937518 0.044118393
517000000 -0.93997592 0.053824138 -0.00024670572 -0.0013700289 -0.00088599784 -0.0013990906 -0.93602496 0.044346757
518000000 -0.9404965 0.052556269 -0.00037617353 -0.0033180274 -0.00037100626 -0.0018140181 -0.93769348 0.043699455
519000000 -0.93850547 0.053447098 0.00012529735 -0.0029374135 -0.00052224955 -0.0023370208 -0.93760461 0.044301946
520000000 -0.9386676 0.052045487 -0.00029653159 -0.0019475096 -0.00085326668 -0.0027867313 -0.93721068 0.045434408
521000000 -0.93946111 0.053774226 0.00025553335 -0.00092465413 -0.00011770613 -0.0026608761 -0.93821275 0.045658484
522000000 -0.93931288 0.052523945 0.00021677764 -0.0027309156 -0.00064945262 -0.001445365 -0.93731058 0.044600058
523000000 -0.93725872 0.05305595 8.1976206e-005 -0.0022738599 0.00011532399 -0.0027060672 -0.93637174 0.04621096
524000000 -0.93977916 0.053463332 -0.00081618683 -0.0027017451 -0.0010883416 -0.0025724764 -0.93832272 0.045030463
525000000 -0.93871659 0.054529615 -0.00063343981 -0.0027900746 -0.00014658521 -0.0027374455 -0.93692124 0.04626824
526000000 -0.93970853 0.053307328 -0.0017715659 -0.0023533334 -0.00014434317 -0.0016027465 -0.93508041 0.04606865
527000000 -0.94079769 0.053784188 0.00055958447 -0.0018081502 0.00029371868 -0.0010665535 -0.93689662 0.046035454
528000000 -0.93822759 0.054421075 -0.0014655299 -0.0022814434 -0.0012808705 -0.0023522077 -0.93561065 0.046220507
529000000 -0.94132394 0.054166909 0.0010286316 -0.002560718 0.00028184353 -0.0026341949 -0.93634212 0.044853654
530000000 -0.94179147 0.054088596 -0.0007406029 -0.0022960501 0.00070145883 -0.0018415801 -0.93750566 0.045857042
531000000 -0.9403404 0.05427919 -0.0010211968 -0.0021329827 -0.00049160817 -0.0027812447 -0.9370023 0.046121262
532000000 -0.93975514 0.054036457 -0.00013878726 -0.0024226047 -0.0010786833 -0.00053739257 -0.936077 0.04544019
533000000 -0.9386403 0.053311173 -0.00032805221 -0.0022026827 0.00018066107 -0.0021644845 -0.9374041 0.046932422
534000000 -0.93803853 0.054437451 -0.0014305692 -0.0016285839 0.00018521704 -0.0031594839 -0.93709362 0.046431072
535000000 -0.93946308 0.055041518 0.0002436569 -0.0024185542 -0.00048024007 -0.0018337382 -0.93718857 0.047647111
536000000 -0.93759203 0.05513031 -0.0010302784 -0.001822129 0.00059117487 -0.0028248259 -0.93744731 0.045611668
537000000 -0.93884397 0.053403597 0.00025888404 -0.0019868468 -0.00066487002 -0.0018254429 -0.93810439 0.047047928
538000000 -0.94087255 0.055546973 -0.00037915484 -0.00098672707 -0.0013585446 -0.0016625382 -0.93687803 0.04505717
539000000 -0.93843716 0.055467088 -0.00055649772 -0.0022730215 -0.00018330116 -0.001700184 -0.93550855 0.04710814
540000000 -0.93836933 0.0539103 0.00024324385 -0.0018210952 -0.00022388855 -0.0021371632 -0.93753439 0.0479174
541000000 -0.93867165 0.056369115 0.00018334862 -0.0014561327 -0.00045873079 -0.0026151859 -0.9362793 0.047559783
542000000 -0.93858564 0.055910252 -0.00097060518 -0.0024076651 -0.00023192105 -0.0018292367 -0.93553078 0.047065534
543000000 -0.93853217 0.054130178 -0.00024264261 -0.0028481402 -7.5746146e-005 -0.0017711463 -0.93755925 0.048418306
544000000 -0.93952352 0.056027278 0.00022253527 -0.0026618 0.00021199659 -0.0010805266 -0.93843275 0.048076965
545000000 -0.94082081 0.054818511 -0.00060836057 -0.0018312575 0.00045221747 -0.0015070908 -0.93714881 0.047367621
546000000 -0.93855309 0.0535478 -0.00033148809 -0.0016664944 -0.00016283379 -0.0022767449 -0.93766022 0.048194319
547000000 -0.93827665 0.057281725 -0.00028009337 -0.0020628336 -0.00064645836 -0.0030883132 -0.93741345 0.046984192
548000000 -0.93868458 0.055600807 0.00019593992 -0.0032049324 -0.0017572495 -0.0019962001 -0.93734711 0.047589276
549000000 -0.93949896 0.055683237 -0.00036783668 -0.0026469927 -0.00074788876 -0.001036893 -0.93673778 0.04707643
550000000 -0.93803555 0.056370392 0.00041356246 -0.0018237454 -0.0007395682 -0.0024681003 -0.93856192 0.046409562
551000000 -0.93923587 0.055035733 -0.0010507954 -0.0026155692 0.00031281737 -0.0027052322 -0.9366678 0.047496699
552000000 -0.93932396 0.055611935 -0.00033702573 -0.0019820395 -0.00023007268 -0.0015937667 -0.93682885 0.04797389
553000000 -0.93809283 0.055307593 -0.00030191909 -0.0018913682 -0.0003399303 -0.0018503343 -0.93677372 0.047894605
554000000 -0.93924183 0.054531433 0.00012412555 -0.0031249132 -3.1370546e-005 -0.0020216766 -0.9381572 0.048702866
555000000 -0.93861902 0.055739645 -0.0012351488 -0.0018883444 -0.00021327763 -0.0020150228 -0.93783855 0.049998593
556000000 -0.93825138 0.056306198 -0.00043693502 -0.0024087741 -6.0804807e-005 -0.0024879747 -0.93644613 0.046453919
557000000 -0.94007921 0.055828467 -0.00036714721 -0.0020756908 -0.00029304769 -0.0016424473 -0.93623984 0.048113622
558000000 -0.93852895 0.0552545 -0.00023560757 -0.0025231813 -0.00026944157 -0.0023714064 -0.93799901 0.047479756
559000000 -0.93643594 0.05478609 -0.00043208443 -0.0015406273 0.00011752701 -0.0023377035 -0.93703592 0.046043985
560000000 -0.93924987 0.055996247 0.00011545129 -0.0013956929 -0.0004607428 -0.0028451548 -0.93708479 0.047797434
561000000 -0.93820322 0.056713417 -0.00073593488 -0.0024782203 -4.6666097e-005 -0.0019805182 -0.93697155 0.048018634
562000000 -0.93759698 0.055641819 -0.00088468537 -0.0020584532 0.00022336005 -0.002514058 -0.93656772 0.046817202
563000000 -0.93789345 0.055431224 -0.00013089256 -0.0034656785 -0.00094446063 -0.0025080708 -0.93724322 0.047673609
564000000 -0.93817222 0.057164941 0.00015435874 -0.0025714147 -4.9544735e-005 -0.0016188757 -0.938658 0.047177669
565000000 -0.93844491 0.056514844 -0.00010160124 -0.0031427292 -4.4725904e-005 -0.0014421834 -0.93681115 0.04564799
566000000 -0.93821269 0.05656413 -0.00066636596 -0.0026021204 0.00013520702 -0.0027591488 -0.93724638 0.048563369
567000000 -0.93761355 0.058000989 0.00028875959 -0.0018311823 0.00029640648 -0.0025279394 -0.93877482 0.048487514
568000000 -0.93760204 0.056738585 0.00040992675 -0.001446108 0.00022708595 -0.0028471362 -0.93936765 0.047706436
569000000 -0.94072491 0.056618366 -0.00047015585 -0.0020932681 -0.00057403994 -0.0026248267 -0.93807787 0.047782283
570000000 -0.93820125 0.055899076 -0.00046874216 -0.0027155306 -0.00016763291 -0.0017977504 -0.93690342 0.048730381
571000000 -0.93901271 0.055930119 0.00066401076 -0.0023453555 -0.00024439389 -0.0013067524 -0.9368394 0.047491953
572000000 -0.93696028 0.055898346 -0.00012422644 -0.002168779 -0.00083757512 -0.0024667582 -0.93722081 0.04867797
573000000 -0.93828678 0.056748841 0.00020962273 -0.0028989224 -0.00018062913 -0.0030023784 -0.93799579 0.048105177
574000000 -0.93801308 0.055965658 -2.5079629e-005 -0.0027694765 -0.00028676013 -0.0027670087 -0.93726236 0.048860054
575000000 -0.93765986 0.056168634 -0.00058042223 -0.0019142654 -0.0010591153 -0.0018046779 -0.93822163 0.047376577
576000000 -0.93824595 0.057971712 -0.00035643484 -0.0012703483 -0.00096413982 -0.001918968 -0.93691534 0.049111478
577000000 -0.93778086 0.057630371 0.00052949949 -0.0024008017 0.00040856533 -0.0023088322 -0.93759453 0.048776988
578000000 -0.93880212 0.055604696 0.00011912447 -0.0019006181 0.00070661848 -0.0031762202 -0.93807364 0.048759334
579000000 -0.9375298 0.057063047 -0.0020090041 -0.002845407 -0.00024549296 -0.0025880106 -0.93538517 0.048792183
580000000 -0.93910295 0.056412224 -0.00053276302 -0.0029099586 -0.00070964557 -0.0020678213 -0.93762666 0.049188759
581000000 -0.93804413 0.056911148 -0.00036038231 -0.0019615795 -0.0010281012 -0.0020798813 -0.93796813 0.047068767
582000000 -0.9377088 0.057776004 -0.00083933433 -0.002314681 -8.3309169e-007 -0.0026790844 -0.93735653 0.049535364
583000000 -0.93893397 0.057678703 -0.00043896673 -0.0013785526 -0.00046302011 -0.0020484393 -0.93614608 0.04899282
584000000 -0.93813169 0.057033546 -0.00077395333 -0.0018174623 -0.0020741643 -0.002046861 -0.9368571 0.048910193
585000000 -0.93839002 0.057853274 -0.00061705016 -0.0021694847 -0.00021587915 -0.0026848277 -0.93617183 0.050824367
586000000 -0.93908745 0.057971187 -0.00016573018 -0.0021304507 -7.8265024e-005 -0.0024758407 -0.93738693 0.048154105
587000000 -0.93733037 0.057551064 -0.00057313329 -0.0024481029 -0.0014779533 -0.0025699972 -0.93769866 0.050403178
588000000 -0.93965322 0.057958204 -0.00077464251 -0.0032011687 0.00066667493 -0.0018933981 -0.93772495 0.048593741
589000000 -0.93828326 0.057718683 -0.00097152719 -0.0024909703 9.7584554e-005 -0.0034227187 -0.93859982 0.050132647
590000000 -0.93750584 0.060863223 0.00055830943 -0.0029951457 -0.00034593904 -0.0020691177 -0.93602365 0.049991947
591000000 -0.93768603 0.057444364 6.9388952e-005 -0.003309876 -4.8816587e-006 -0.0021215384 -0.93733466 0.048999768
592000000 -0.93921638 0.059165735 -0.00012833526 -0.0034405105 -0.00085913989 -0.0023593453 -0.93758595 0.049327936
593000000 -0.93818432 0.058803163 0.00052106491 -0.0021984621 -0.00027889299 -0.0022941821 -0.93803751 0.05006532
594000000 -0.93823892 0.057818353 0.00081922667 -0.0029443263 -0.00075837428 -0.0024453315 -0.9368223 0.050304767
595000000 -0.93743563 0.057543479 0.00075423135 -0.0033623155 0.00014214766 -0.0020685357 -0.93738359 0.050178375
596000000 -0.93737495 0.058697626 -0.00095666177 -0.0022810339 -9.9085621e-005 -0.0020006914 -0.93731457 0.049111038
597000000 -0.93847966 0.059332479 -8.0258731e-005 -0.0023023239 -0.001095287 -0.0024005254 -0.93850017 0.050566632
598000000 -0.93894172 0.06020274 -0.0011144216 -0.0028742147 -0.00022161899 -0.0022191501 -0.936526 0.05071884
599000000 -0.93844879 0.059006643 -0.00045657612 -0.0018632184 0.00062594673 -0.0020496768 -0.93820411 0.04863799
600000000 -0.93832117 0.058869809 -0.0010081291 -0.0021244788 -0.00093550194 -0.004003603 -0.93766439 0.048732474
601000000 -0.93779773 0.060512446 -0.00067367562 -0.0022915828 0.0002311813 -0.0013333906 -0.93729335 0.050677396
602000000 -0.93830687 0.057522941 0.00015978377 -0.0020178452 -0.00068074733 -0.0028788515 -0.93774962 0.050815571
603000000 -0.93902034 0.059611563 -0.00074528612 -0.0017874748 -9.2132344e-005 -0.0023505092 -0.93841159 0.051835544
604000000 -0.93731111 0.060573399 -0.0011608417 -0.0036527561 -0.00040100474 -0.0029534858 -0.93710899 0.049885489
605000000 -0.93710548 0.059447266 -0.0011856052 -0.0026012948 -0.00014572901 -0.0016171429 -0.93609595 0.052416284
606000000 -0.93790102 0.059367545 0.00018969184 -0.0031081554 -0.0011533608 -0.0021474876 -0.93649799 0.050451223
607000000 -0.94077861 0.061128888 -0.0010991305 -0.0031414519 -0.00052968069 -0.002241917 -0.93794072 0.050438352
608000000 -0.93849546 0.062560916 -0.00063721201 -0.0026795021 -0.00057087775 -0.0021036677 -0.93587142 0.049250059
609000000 -0.93839508 0.060391013 -0.0011017313 -0.0025363781 -0.00032594908 -0.00082127313 -0.93768477 0.050911725
610000000 -0.9391703 0.0605991 0.00029188953 -0.0038949829 -0.00065991585 -0.0016333736 -0.9374966 0.050429013
611000000 -0.93821323 0.061851759 -0.00070339412 -0.0020517607 -0.00027753957 -0.002772799 -0.93773496 0.050829183
612000000 -0.93598199 0.060603824 -0.00052141119 -0.0023507888 0.000522958 -0.0025934807 -0.93668544 0.050152585
613000000 -0.93750507 0.06201845 -0.00046760883 -0.0031588899 0.0002267377 -0.0024584786 -0.93654394 0.050205603
614000000 -0.93790841 0.061300468 1.2660122e-005 -0.0021965411 0.00041949464 -0.0020024488 -0.93842518 0.051178358
615000000 -0.93884581 0.062033344 -0.00027744405 -0.0021968642 -0.0017693719 -0.0022442951 -0.93812686 0.051386707
616000000 -0.93816394 0.062573276 0.00015984142 -0.0030569935 -0.00090621162 -0.0026740823 -0.93697983 0.052351858
617000000 -0.93890488 0.0630913 -0.0011956886 -0.0021159588 0.00011732705 -0.0026018526 -0.93844044 0.051794857
618000000 -0.93782413 0.061679948 -0.00054195861 -0.0025743535 -0.00083330454 -0.0019820349 -0.93792027 0.051990692
619000000 -0.93745053 0.062379073 -0.0011954671 -0.0033743903 -0.00078321993 -0.0024761846 -0.93692607 0.053250588
620000000 -0.9377628 0.06130458 -0.00041013808 -0.0031120435 -7.4706237e-005 -0.001485879 -0.93617558 0.052154191
621000000 -0.93837899 0.062968753 -0.00037849374 -0.0029870404 -8.1880942e-005 -0.0027489681 -0.93668002 0.051721878
622000000 -0.9379344 0.061841119 -0.001096238 -0.0026744332 -0.00068152376 -0.0028197619 -0.9351781 0.050930955
623000000 -0.93614256 0.063700989 -0.00059457705 -0.0010632214 -0.0012172001 -0.0028607012 -0.93664104 0.050197527
624000000 -0.93676674 0.062690482 -0.0015266947 -0.0012878728 -0.00020501735 -0.0027504854 -0.93791568 0.051768959
625000000 -0.93915057 0.062441226 -0.00047508455 -0.0027218226 0.00015382156 -0.0021037441 -0.93748045 0.051188152
626000000 -0.93847764 0.063516133 0.00034404403 -0.0014188549 -0.0002844191 -0.0024372418 -0.9360826 0.052046351
627000000 -0.93749261 0.063174888 -0.00019430139 -0.0025025427 -0.00076268293 -0.0023982746 -0.93608797 0.051385283
628000000 -0.93812585 0.061916359 -0.00065004919 -0.0027021756 -0.0010440602 -0.002412908 -0.93484253 0.053130042
629000000 -0.93742394 0.064376391 3.0910855e-005 -0.0025281804 -0.00072190748 -0.0018238056 -0.93581235 0.053718273
630000000 -0.93718451 0.064357176 -0.00064965425 -0.0026638345 -0.0004724972 -0.0030409766 -0.93610811 0.055905811
631000000 -0.93752748 0.062626086 -0.0002848492 -0.0023892145 -0.00055772503 -0.0022370499 -0.93723339 0.052796982
632000000 -0.93760574 0.0635553 -0.00093819905 -0.002818556 -0.00038411384 -0.0020301579 -0.93719023 0.05283105
633000000 -0.93833321 0.063899547 -0.00046153 -0.0022466928 -0.00078051252 -0.0023261595 -0.93768167 0.056067444
634000000 -0.93738329 0.064776979 -0.00094296102 -0.0021052139 0.0003180209 -0.0020069189 -0.93640763 0.052555438
635000000 -0.93611026 0.063489944 -0.00043691366 -0.0033031893 0.00030431279 -0.0026534915 -0.93548197 0.053843413
636000000 -0.93650204 0.067124702 -0.0011735494 -0.0026841774 2.8710097e-006 -0.0029119833 -0.9378258 0.055402022
637000000 -0.93661851 0.063979976 -0.00049484812 -0.0028963017 -0.00077339035 -0.0026083637 -0.93575501 0.05370786
638000000 -0.93657392 0.065631486 -0.0012428821 -0.0023775822 -0.0007786841 -0.0027626113 -0.93754512 0.053852171
639000000 -0.93817466 0.06583795 -0.001008675 -0.002642052 0.00022719103 -0.0013768849 -0.93676013 0.055296198
640000000 -0.93816137 0.065505765 -0.00035915736 -0.0012867678 -0.00072757114 -0.0028144936 -0.93566573 0.054056786
641000000 -0.93713868 0.063931711 -0.00037647717 -0.0027175546 -0.00057371834 -0.0018205027 -0.93533856 0.054655485
642000000 -0.93657708 0.064913109 0.00013128742 -0.001580804 -0.00073599053 -0.0026256104 -0.93745273 0.054557122
643000000 -0.93679947 0.064634383 -0.00021110386 -0.001784167 -0.00019542238 -0.0020763371 -0.93530983 0.056391597
644000000 -0.93680894 0.065892309 0.00016526363 -0.0037961104 0.00025471355 -0.001967313 -0.93661499 0.054340228
645000000 -0.93712431 0.066880196 -0.00021914874 -0.0029467477 -0.00065252092 -0.0028899736 -0.93636465 0.054751929
646000000 -0.93861675 0.066851519 -0.00033070717 -0.002453204 -0.00072262838 -0.0014544147 -0.93406183 0.054894455
647000000 -0.93838918 0.0657534 -0.00052739424 -0.0024876765 -9.0985202e-005 -0.0021348572 -0.93671852 0.055395275
648000000 -0.93643808 0.066358484 -0.00044978841 -0.0023287032 -8.3030514e-005 -0.0019231299 -0.93589717 0.055713162
649000000 -0.93481278 0.065847933 -0.00084396574 -0.001882853 -0.00021860622 -0.0016158419 -0.93693256 0.055543125
650000000 -0.93737555 0.065345749 0.0002381581 -0.0029447803 -8.9797228e-005 -0.0019512759 -0.93532652 0.055273335
651000000 -0.93758601 0.065786079 -0.00055758172 -0.0019370164 -0.00094943616 -0.0021379015 -0.93582612 0.055083364
652000000 -0.93795848 0.067760274 -0.00096371368 -0.0026715745 -0.00040907401 -0.0014521029 -0.93657434 0.05486748
653000000 -0.93831217 0.065937795 -0.00057009142 -0.0036038768 -0.0003432002 -0.0024587647 -0.93768471 0.054850213
654000000 -0.93785107 0.067445472 -0.00010330803 -0.0020101282 -0.00048862037 -0.002684294 -0.93614346 0.053837411
655000000 -0.93603951 0.066492788 -0.00032812785 -0.0024835058 1.2596995e-005 -0.002292946 -0.93720657 0.055394303
656000000 -0.93601668 0.067852445 -0.0005609389 -0.0032951697 -0.0011138936 -0.0024069191 -0.93503219 0.056712911
657000000 -0.93660301 0.066600204 -0.0009477734 -0.0020463462 -0.00070578133 -0.002774504 -0.93693256 0.056054376
658000000 -0.9364689 0.067170687 -0.00069137214 -0.0017508854 -3.5732341e-005 -0.0024358237 -0.93508601 0.054495499
659000000 -0.93605316 0.06603419 -0.00082234829 -0.0030698953 -0.00027747205 -0.0027036779 -0.93639547 0.05653448
660000000 -0.93699992 0.06820865 -0.00070721208 -0.001828213 2.6031539e-005 -0.0034146344 -0.93603861 0.05535055
661000000 -0.93720675 0.067574382 -0.00033705027 -0.0014951081 -0.0010302605 -0.0034473282 -0.93721181 0.057098255
662000000 -0.93709445 0.066168196 -0.00029425812 -0.0021980738 -0.00014480289 -0.0025686948 -0.93682504 0.056110706
663000000 -0.93787724 0.067449242 -0.0003391068 -0.0023046064 -0.00065090664 -0.002644165 -0.93549812 0.055697072
664000000 -0.93739212 0.065189481 -0.0016500378 -0.0030017311 -0.00064338499 -0.0024694046 -0.93586326 0.056477454
665000000 -0.93669641 0.068020776 -7.5798132e-005 -0.0025443754 -0.00026786531 -0.0028281917 -0.93587244 0.055079177
666000000 -0.93714625 0.06751474 -0.00078784605 -0.0036712459 -0.00059788296 -0.0024719632 -0.93515712 0.055393588
667000000 -0.93782443 0.068321683 0.00031329674 -0.0020504063 -0.00046286851 -0.0039254357 -0.93656284 0.054126058
668000000 -0.93671292 0.066997856 -0.0008299597 -0.002755919 -0.00048471492 -0.00314525 -0.93793792 0.05516427
669000000 -0.93621153 0.066826403 -0.0009991196 -0.0020082407 -0.0004535265 -0.0020812231 -0.93592834 0.055047758
670000000 -0.93736279 0.067382351 -0.00017831224 -0.0024339338 -0.00014044699 -0.0028132198 -0.93504262 0.056320779
671000000 -0.93674695 0.066717014 0.00021601949 -0.0027230307 -0.00030638522 -0.0036246644 -0.93632215 0.055951748
