!Keysight Technologies,M9374A,MY55442783,A.12.55.05
!Date: Friday, May 21, 2021 11:04:14
!Correction: S11(Full 2 Port(1,2)) 
!S21(Full 2 Port(1,2)) 
!S12(Full 2 Port(1,2)) 
!S22(Full 2 Port(1,2)) 
!S2P File: Measurements: S11, S21, S12, S22:
# Hz S  RI   R 50
500000000 -0.93781435 0.052403383 -0.00018104952 -0.0018886116 -0.00093418581 -0.0017342046 -0.93761051 0.041775994
501000000 -0.9383375 0.050760247 -0.00081816158 -0.0019054246 0.00010051153 -0.0018633184 -0.93689609 0.041921329
502000000 -0.93957824 0.051090766 -0.00025282952 -0.0031204249 -0.0013992756 -0.0024446158 -0.93628895 0.042906184
503000000 -0.94084918 0.050127573 -0.00076206698 -0.0016435664 -2.6003234e-005 -0.0020834773 -0.93866313 0.042868946
504000000 -0.93958634 0.049874723 -0.00015327249 -0.0011287504 -0.0013240643 -0.0020181932 -0.93707854 0.043468285
505000000 -0.94013077 0.052315973 -5.8178775e-006 -0.0026578917 -0.0013290509 -0.000919446 -0.93894404 0.043713212
506000000 -0.94143718 0.052803401 0.00012104517 -0.0026840398 -0.00055814581 -0.0022164988 -0.93809402 0.042979822
507000000 -0.93842781 0.051149182 -0.0011389167 -0.0019401009 9.5980649e-005 -0.0030478919 -0.93864197 0.043687038
508000000 -0.93903941 0.051597133 -0.00085931952 -0.0021760936 -0.00015066488 -0.0015296382 -0.93723935 0.043604624
509000000 -0.93912947 0.050253328 -0.00037482218 -0.0012200419 0.00027057118 -0.0019177635 -0.93866229 0.041874435
510000000 -0.93837357 0.053894039 -0.00046091081 -0.0024290828 -0.00040413786 -0.0012031491 -0.93680316 0.04413629
511000000 -0.93966889 0.05300555 -0.00087630941 -0.0011130812 -0.00088699523 -0.0024395189 -0.93784922 0.045365036
512000000 -0.94005746 0.052049197 -0.00018952468 -0.00098625571 -0.00082180614 -0.0035548361 -0.93760014 0.044076737
513000000 -0.94154882 0.052576523 0.0004327865 -0.0020594718 0.0002050067 -0.0025457446 -0.93816268 0.043877013
514000000 -0.93993658 0.052173432 7.5223434e-005 -0.0016070909 6.3405791e-006 -0.0028834094 -0.93780434 0.045208648
515000000 -0.93958348 0.053196631 -0.00014820568 -0.0029369844 -0.0015397809 -0.0024314811 -0.93921524 0.045379002
516000000 -0.93713498 0.053037137 -8.1018872e-005 -0.0011222083 -0.00094748399 -0.0019726383 -0.93854445 0.044607721
517000000 -0.94058824 0.051911317 0.00065189542 -0.0024731199 0.0011243363 -0.0020179949 -0.93589318 0.043440051
518000000 -0.94033456 0.052034434 0.00014620427 -0.0032104759 0.00026757046 -0.0020055538 -0.93867254 0.044071421
519000000 -0.93862665 0.052738473 -0.00020465252 -0.002173441 -0.00019707835 -0.0023233297 -0.93568522 0.045832794
520000000 -0.93854934 0.053374805 -7.4914475e-005 -0.0011759922 0.00010510528 -0.0021823212 -0.93674743 0.045045454
521000000 -0.93829614 0.053757504 -0.0010275302 -0.0016346953 -0.00044947289 -0.0015541503 -0.93887973 0.046225265
522000000 -0.94030368 0.0518663 -0.00010286736 -0.0030758043 -3.2571786e-006 -0.0027716411 -0.93734092 0.045028027
523000000 -0.9389739 0.052167345 -0.00061867124 -0.0017274476 0.00040153498 -0.0017151176 -0.93726015 0.04688571
524000000 -0.93829256 0.053870372 -0.0010426366 -0.0019701896 -0.00012331434 -0.0020614387 -0.93842548 0.044422258
525000000 -0.93967825 0.05501717 -0.00074036262 -0.0024568848 -0.00043337492 -0.0022343451 -0.93598366 0.046082817
526000000 -0.94049478 0.054192889 -0.00036950025 -0.0014613696 -0.00026895627 -0.0025764699 -0.93544924 0.046237361
527000000 -0.93976527 0.053407818 0.00024959687 -0.0026643439 -4.3705033e-005 -0.0025134066 -0.93732882 0.047021426
528000000 -0.93886709 0.054546311 -7.196216e-005 -0.0029923669 -0.0004850119 -0.0026408839 -0.93518847 0.046063382
529000000 -0.93843234 0.055101238 -0.00081190694 -0.0022377269 3.9655439e-005 -0.0020393485 -0.93759668 0.045627598
530000000 -0.93850207 0.053556602 -0.00058602623 -0.0020339091 0.00034008044 -0.00111687 -0.93727517 0.045290705
531000000 -0.93929726 0.053868994 -0.00027793006 -0.0022681376 -0.00079014455 -0.0028229221 -0.93730533 0.046389394
532000000 -0.93803453 0.055620041 -0.00041181027 -0.0021346454 -3.4223817e-006 -0.0021845575 -0.93676937 0.046368435
533000000 -0.94044143 0.055254873 -0.00074505102 -0.0022512432 -7.4049e-005 -0.0020961012 -0.93748951 0.046869785
534000000 -0.93983775 0.05427219 0.00030137415 -0.0019288966 -0.0002048577 -0.0027735897 -0.93736213 0.045272913
535000000 -0.93832552 0.054860264 0.00061349536 -0.002962817 -0.00073791685 -0.0016421531 -0.93694472 0.047199827
536000000 -0.93865645 0.054369994 -0.00052990887 -0.0025605739 -0.00022647077 -0.0018404233 -0.93677783 0.04536311
537000000 -0.94060254 0.055465639 -0.00062255387 -0.0021375734 0.00036038359 -0.002176455 -0.93739569 0.047739688
538000000 -0.94163871 0.055226956 -0.00050001981 -0.0018324116 -0.00082748837 -0.0015123164 -0.936993 0.046567269
539000000 -0.93998587 0.056521319 -0.00090719992 -0.0017581853 -0.00095029746 -0.002121581 -0.93644214 0.046526957
540000000 -0.9406715 0.055883091 0.00079125288 -0.001843392 -0.00063952425 -0.0021057734 -0.93735594 0.046789382
541000000 -0.94016296 0.055390302 -0.00017641911 -0.001607169 -0.00098929729 -0.001964194 -0.93735462 0.046135698
542000000 -0.93790209 0.054526191 -0.00049256918 -0.0028036889 -0.00048862427 -0.0018156113 -0.93772095 0.047454439
543000000 -0.93899578 0.055406641 -5.7398607e-005 -0.0020994332 5.5304445e-005 -0.001862289 -0.93776524 0.048067126
544000000 -0.94053519 0.056842797 -0.00094549457 -0.003319202 0.00032539992 -0.0028599123 -0.93722403 0.04681797
545000000 -0.93827653 0.055388767 1.8477549e-005 -0.001681751 -0.0011317307 -0.0017244894 -0.93828106 0.047656912
546000000 -0.94033641 0.056090526 -0.00060613209 -0.0022851161 -0.00041068179 -0.0013686384 -0.93684691 0.04731511
547000000 -0.93741912 0.05665933 0.0010777316 -0.0022978303 -9.2681497e-005 -0.0019353814 -0.93741792 0.047430057
548000000 -0.93877745 0.055330519 0.00029746821 -0.0018121894 -0.00013300941 -0.0025036768 -0.93695819 0.049142316
549000000 -0.93910861 0.055901989 -0.0013909035 -0.001965143 -0.00016931554 -0.0022639968 -0.93826073 0.046846792
550000000 -0.93817383 0.056870092 -0.0010236314 -0.00090722879 -0.00022916502 -0.0025124885 -0.93725514 0.048079643
551000000 -0.93696451 0.055243015 -0.00018749738 -0.002622671 1.9313857e-005 -0.0023782845 -0.93666822 0.049166106
552000000 -0.93967259 0.054923754 -0.0002429865 -0.0017382097 -5.305681e-005 -0.002460869 -0.93725425 0.048710797
553000000 -0.93920857 0.054879613 0.00064416748 -0.0021505505 -5.1887699e-005 -0.001105617 -0.9365086 0.0460856
554000000 -0.93888843 0.053446732 -0.00025155573 -0.0028729229 -0.00032345072 -0.0022928885 -0.93775439 0.046159338
555000000 -0.93736976 0.056802783 0.00040152879 -0.0025733579 -0.00022246283 -0.0023245625 -0.9370414 0.04933827
556000000 -0.93873793 0.057330146 2.1601229e-005 -0.0019553322 -0.00049471215 -0.0033481044 -0.9371655 0.048101556
557000000 -0.93964016 0.055330765 5.7141162e-005 -0.0021476438 0.00073082629 -0.0027247514 -0.93641549 0.047180172
558000000 -0.93870074 0.056334853 0.00039051124 -0.0028175144 -0.0006491153 -0.0016936997 -0.93735492 0.047371011
559000000 -0.93873638 0.054986849 0.00043654593 -0.0015591652 0.00093709858 -0.0023046222 -0.93872374 0.048652358
560000000 -0.93873394 0.055861536 -0.0010753938 -0.0014160521 -0.00021650561 -0.0018938335 -0.93798065 0.048304975
561000000 -0.93982047 0.055141028 -0.0011132574 -0.0027392348 -0.00049283798 -0.0021812927 -0.93845111 0.046496831
562000000 -0.93867427 0.055881601 -0.00032329332 -0.002700553 -0.00052764005 -0.0012334174 -0.93863326 0.048059117
563000000 -0.93846482 0.056403369 -0.00058112678 -0.0034416786 -6.7652809e-007 -0.0021180888 -0.93821138 0.048107151
564000000 -0.93987215 0.05675919 -0.000199933 -0.0020928038 -0.00055306469 -0.0015366693 -0.93764108 0.047995612
565000000 -0.93883562 0.057419781 0.00059091893 -0.00185913 0.00020127231 -0.0021844897 -0.93715698 0.047604993
566000000 -0.93884301 0.055179171 -0.00091991859 -0.001866716 0.00048748538 -0.0026372846 -0.93732512 0.048459526
567000000 -0.9391486 0.056174371 -0.00059215981 -0.0024338134 -0.0012883433 -0.0023288794 -0.93873554 0.047683205
568000000 -0.9366526 0.055550847 -0.00027689134 -0.002707795 -0.00058809883 -0.0024878799 -0.93760455 0.049035706
569000000 -0.93899786 0.0546996 8.5876753e-005 -0.0029776976 0.00053169456 -0.0018741179 -0.93693471 0.047328897
570000000 -0.93764639 0.056397952 -0.00032925271 -0.0021948419 -0.00069637777 -0.00074298697 -0.93672305 0.047722824
571000000 -0.93815023 0.056334171 -0.00034111954 -0.0019470127 -0.00040811463 -0.001410112 -0.93653286 0.04896016
572000000 -0.93890309 0.056022011 -0.00084758195 -0.0017359279 -0.00017681513 -0.0028781798 -0.93779773 0.049122866
573000000 -0.93790954 0.056537479 -0.00051377289 -0.0016776519 -0.00030698461 -0.0023515455 -0.9370966 0.048878737
574000000 -0.93741488 0.056939218 -0.00019406078 -0.0021534606 -0.00075716403 -0.0020117373 -0.93854755 0.047369618
575000000 -0.93867391 0.057397343 -0.00066888577 -0.0030161964 -0.0007328603 -0.0018422795 -0.93875116 0.049497381
576000000 -0.93655229 0.056362849 -0.00014497091 -0.0033591441 -0.0010135496 -0.0023523525 -0.93731171 0.048859078
577000000 -0.93880033 0.056417674 -0.00033563806 -0.0026894931 1.1312329e-005 -0.0023665244 -0.93772221 0.048224855
578000000 -0.93848205 0.057250079 0.00044560473 -0.0027065589 -0.00027621663 -0.0020334104 -0.93656009 0.04868073
579000000 -0.93857241 0.057004198 -9.2499591e-005 -0.00095673429 -0.00053297979 -0.002557771 -0.93583077 0.047988363
580000000 -0.93964583 0.056790564 -0.000503421 -0.0017013442 -0.0011795608 -0.0031816438 -0.93782628 0.049823094
581000000 -0.93798572 0.058174476 -0.00031305596 -0.0027511239 0.00046879103 -0.0020518156 -0.93793499 0.049481973
582000000 -0.93958133 0.057236385 -0.0012063463 -0.0025590183 -0.00066498399 -0.0035948011 -0.93671447 0.047787994
583000000 -0.93695217 0.057450838 0.00019239252 -0.0022862745 -0.00018116769 -0.0024316444 -0.93901962 0.049060158
584000000 -0.93777049 0.055215791 0.00016251767 -0.002596607 -0.00017385461 -0.0013437738 -0.93824416 0.048577163
585000000 -0.93892014 0.058248613 0.00042519474 -0.0026730718 -0.00044500281 -0.0014246069 -0.93888706 0.050287206
586000000 -0.93815148 0.056371924 -0.00079037581 -0.0026370233 -0.00093326048 -0.0025222448 -0.9359836 0.04781305
587000000 -0.93835741 0.055858813 0.00023002394 -0.0024455378 -0.00018494119 -0.001869 -0.93726224 0.050596401
588000000 -0.93790495 0.059000921 -0.00035930937 -0.0021587906 0.00025197791 -0.0026321551 -0.93722856 0.050445121
589000000 -0.93844312 0.0579817 0.00021390704 -0.0016657289 5.1766979e-006 -0.002246757 -0.93721914 0.049314924
590000000 -0.93751591 0.057534873 -0.00069942727 -0.0010471526 -0.0012578786 -0.0022891976 -0.93667936 0.04792168
591000000 -0.93492192 0.057610732 -0.00078223512 -0.0021204508 -0.00081083883 -0.0023873884 -0.93784797 0.050478134
592000000 -0.93878835 0.057852425 0.00065215532 -0.0020162335 -0.0006676832 -0.0023144523 -0.93818331 0.048175842
593000000 -0.93740076 0.05783366 -0.00058864063 -0.002341653 -0.00046574289 -0.0019821939 -0.93727791 0.047435485
594000000 -0.93761611 0.05869054 -0.00052528275 -0.0031157287 -0.00034520266 -0.0021223812 -0.93743891 0.050656732
595000000 -0.93866056 0.058563765 -0.001149184 -0.0025972517 -0.0012221643 -0.003426064 -0.93697155 0.050544176
596000000 -0.93746328 0.059172098 -0.00052530604 -0.0022711738 -9.5885654e-005 -0.0024608003 -0.93662763 0.050223786
597000000 -0.93777364 0.057946924 -0.00053984934 -0.0021598961 -0.001104446 -0.0018024835 -0.93560731 0.049950272
598000000 -0.93803686 0.057486095 -0.00048746692 -0.0014666324 -0.00087594055 -0.0028712361 -0.93848979 0.04865811
599000000 -0.93894541 0.059788499 -2.3418628e-005 -0.0016680751 -5.1697152e-005 -0.0027492545 -0.93891478 0.049950603
600000000 -0.93755496 0.059489533 -0.00042315602 -0.0026075395 -0.0013685212 -0.002447993 -0.93693966 0.049922638
601000000 -0.93746436 0.059844799 -0.00090361672 -0.0025106007 0.00021569742 -0.0022568556 -0.93771148 0.050013468
602000000 -0.93953294 0.05831157 0.00021195629 -0.0019724059 -0.0015111961 -0.0016631415 -0.93830323 0.050293148
603000000 -0.93842208 0.059367646 -8.9808527e-005 -0.0027812668 0.00027114802 -0.002289922 -0.93735456 0.050299257
604000000 -0.93654144 0.062338375 -0.00079666963 -0.0033490865 -0.0011658324 -0.0024611263 -0.93764246 0.050811768
605000000 -0.94060498 0.061117422 -9.0255686e-005 -0.0025816371 -0.00098525151 -0.0020630332 -0.93699342 0.051725153
606000000 -0.93731767 0.060273245 -0.00067987473 -0.0032039434 -0.00042631265 -0.0028936113 -0.93681335 0.051739495
607000000 -0.93979841 0.061640892 8.4341955e-006 -0.0022317881 -0.00077239977 -0.0012297933 -0.9390465 0.049567107
608000000 -0.9383086 0.06158838 -0.00037932093 -0.0025543806 -0.00083115895 -0.0027461527 -0.93894577 0.05165264
609000000 -0.93992394 0.060902338 -0.0010130348 -0.0026509673 -0.00074775371 -0.0029129889 -0.93691188 0.049630631
610000000 -0.93827385 0.061328005 -0.0003834423 -0.002645846 0.00040586537 -0.0030198882 -0.93726575 0.052141223
611000000 -0.93791986 0.059896011 0.00039750047 -0.0018494797 -0.0006190252 -0.0021069671 -0.93630809 0.050413568
612000000 -0.93815291 0.060662061 4.1063499e-006 -0.001620281 -0.00074899185 -0.0038835641 -0.93796235 0.051132232
613000000 -0.93779016 0.061070498 -0.00032767159 -0.0017310907 4.2294741e-005 -0.0018802515 -0.93648928 0.051292393
614000000 -0.93631405 0.061153349 -0.00067991309 -0.0015382606 4.7547246e-006 -0.0029387621 -0.93643397 0.05101639
615000000 -0.93614984 0.061093576 -0.00062988739 -0.0024049568 -2.0516556e-005 -0.0014542005 -0.93762386 0.051016983
616000000 -0.93817943 0.06067355 -0.00093670981 -0.0025251089 -0.001023627 -0.0027561705 -0.93651813 0.053490538
617000000 -0.93732846 0.060527075 -0.00056248589 -0.0028195542 -0.00071267842 -0.0021981325 -0.93675882 0.052694026
618000000 -0.93813545 0.063106135 -0.00046439079 -0.0020655661 -0.00029893339 -0.0024119564 -0.93781841 0.050633069
619000000 -0.936822 0.06212293 8.8375258e-005 -0.0021642467 5.7203728e-005 -0.0024496811 -0.93749422 0.051305786
620000000 -0.93732363 0.062020022 -0.00094023626 -0.0017953926 0.00068027253 -0.0020717224 -0.93758929 0.052866306
621000000 -0.93975127 0.063706353 -0.00087560579 -0.0023557344 -0.0010384569 -0.0023285265 -0.93619365 0.0520126
622000000 -0.93644601 0.06097753 -8.1423175e-005 -0.0017769496 -0.00020560616 -0.0016301972 -0.93613297 0.054242756
623000000 -0.93618917 0.062394895 -0.00026941922 -0.0029931723 -0.00079544488 -0.0028730396 -0.93608987 0.052106045
624000000 -0.93676639 0.06387195 -0.00010561464 -0.001751246 -0.00033830752 -0.001704915 -0.93658757 0.05184672
625000000 -0.93908632 0.062582649 0.00049922051 -0.0026845082 -0.00041114626 -0.0022254647 -0.93667895 0.051457684
626000000 -0.93811595 0.063748866 -0.00096740329 -0.0017263693 -0.00020493387 -0.0029181612 -0.93658525 0.053224083
627000000 -0.93776578 0.063517831 0.00033455651 -0.0018997481 -0.00028106809 -0.0023567444 -0.93770081 0.05130595
628000000 -0.93850499 0.063005328 7.0656664e-005 -0.0017041777 -0.0023984292 -0.0018227996 -0.93748897 0.054808013
629000000 -0.93790674 0.063677415 0.00049470016 -0.0026215124 0.0002577148 -0.0022675483 -0.93570489 0.053297188
630000000 -0.93788803 0.064798802 -0.00047629719 -0.0032434748 1.8484343e-005 -0.0015170203 -0.93647355 0.054028697
631000000 -0.93633431 0.062223312 -0.0021380226 -0.0022752283 -0.0009467206 -0.0024026693 -0.93684572 0.053989142
632000000 -0.93668705 0.066304266 0.00061412383 -0.0028745118 1.4724803e-006 -0.0027968634 -0.93644881 0.052734673
633000000 -0.93796462 0.062781505 -0.00040483091 -0.002416244 0.00050773873 -0.0029841508 -0.93706769 0.054466341
634000000 -0.9387731 0.064031184 -0.001451862 -0.0023129312 -0.0011967602 -0.0025275233 -0.93698525 0.051992808
635000000 -0.93809491 0.064397812 -0.0010573587 -0.0022710941 -0.00073284912 -0.0024964362 -0.93685526 0.05395256
636000000 -0.93468517 0.064663723 0.00032155824 -0.0021367543 -0.00097800605 -0.0021699837 -0.93650627 0.052924711
637000000 -0.93660045 0.065234661 -0.00085749838 -0.0018741157 -2.6610027e-005 -0.0023099147 -0.93676525 0.054375872
638000000 -0.93759489 0.06528689 -0.00019093331 -0.0025469554 -0.0007668722 -0.0028177043 -0.93741792 0.053417038
639000000 -0.93758756 0.065052412 0.0003647219 -0.0021418601 -0.00050042226 -0.0015530722 -0.9359414 0.05491852
640000000 -0.93738395 0.064350143 -0.00078081671 -0.0020366127 -0.00086030731 -0.0027103624 -0.93673974 0.053449709
641000000 -0.93708193 0.065144159 -0.00077921309 -0.0029305774 -0.00062246301 -0.002729709 -0.93585134 0.054244272
642000000 -0.93656224 0.06515681 -0.00055768905 -0.0027680334 -0.00082350412 -0.0034361286 -0.93659884 0.053782266
643000000 -0.93735749 0.067257069 -0.00055902806 -0.0019719643 0.00014652988 -0.0027131941 -0.93835878 0.053952143
644000000 -0.93704146 0.065383017 0.00026906034 -0.002079332 -0.00086706923 -0.0020215285 -0.93634766 0.054070823
645000000 -0.9380163 0.065797836 -0.000103488 -0.00308898 0.0003288333 -0.002942777 -0.93754536 0.055094969
646000000 -0.93838 0.064852133 -0.0001484143 -0.0032574944 -0.00051623298 -0.001641901 -0.9359017 0.054489363
647000000 -0.9389587 0.064930618 -0.00051930809 -0.001881855 -0.0015567095 -0.003572712 -0.93483084 0.055318058
648000000 -0.93926972 0.06633769 -6.989766e-006 -0.0022250745 -0.0008230806 -0.0027480845 -0.93561631 0.055431854
649000000 -0.93702078 0.06628596 -0.00046338979 -0.0028320514 -0.00056639325 -0.0021586975 -0.93480802 0.054886319
650000000 -0.93554801 0.066879317 -0.0018550879 -0.0021066421 -0.00068741589 -0.0027012469 -0.93646032 0.055166468
651000000 -0.93821585 0.065268256 -0.0010739797 -0.0031285572 -0.00019808816 -0.0033779053 -0.93473357 0.054700486
652000000 -0.93725312 0.066122703 -0.00027472555 -0.0019162798 -3.0004259e-005 -0.0036995315 -0.93581659 0.053063881
653000000 -0.93876463 0.066443205 -0.0011953695 -0.0029887892 -0.00013492953 -0.0027590222 -0.93645734 0.054808334
654000000 -0.93524098 0.06781695 -0.00042444342 -0.0018805645 0.00012829492 -0.0018137394 -0.9374429 0.053928517
655000000 -0.93670249 0.066733733 0.00038391136 -0.0030865129 5.4847456e-005 -0.002666421 -0.93636513 0.055463646
656000000 -0.93670505 0.066716239 -2.4725332e-005 -0.0027440437 -0.00069469301 -0.0023597495 -0.93707234 0.055279851
657000000 -0.93551677 0.066153124 7.4742427e-005 -0.0031349438 -0.00055181066 -0.0018885961 -0.93655139 0.055622101
658000000 -0.93756378 0.066689759 0.00029178261 -0.0025637143 -0.00097708637 -0.0029928866 -0.93562913 0.053159393
659000000 -0.93712252 0.067986265 0.00018761092 -0.0032163798 -0.00081432849 -0.0025454615 -0.93738729 0.055051252
660000000 -0.93800646 0.066934228 -0.00015113263 -0.0034072036 -0.00089026714 -0.002109153 -0.93620485 0.054023992
661000000 -0.93800765 0.067755237 -0.00047418525 -0.0025487326 -0.0012018555 -0.0024457716 -0.93599182 0.054892458
662000000 -0.93696451 0.067373097 0.00038850552 -0.0024728656 0.00043861466 -0.0027456335 -0.93761164 0.055797536
663000000 -0.93657994 0.066613846 0.00033791125 -0.0025988233 -4.9585419e-006 -0.0022462474 -0.93592483 0.056070849
664000000 -0.93622613 0.066830285 -0.00019413084 -0.0025760818 -0.000105001 -0.0027370004 -0.93671834 0.054828212
665000000 -0.93623888 0.067438111 -1.3194654e-005 -0.0027828049 -0.00014098713 -0.0032550842 -0.93659645 0.055999521
666000000 -0.93679583 0.067055084 -0.0012613415 -0.0028548585 -0.0010107246 -0.0024043554 -0.93585944 0.054844256
667000000 -0.93738204 0.067552656 -0.0013488171 -0.0032194394 -0.00066116318 -0.0024757194 -0.93528485 0.0558074
668000000 -0.93607467 0.067722388 -7.8175726e-006 -0.0023251222 0.00040480043 -0.0020973342 -0.93671638 0.055251613
669000000 -0.93707258 0.065907337 -0.00091503741 -0.0020521393 0.00066864921 -0.0018978697 -0.93507373 0.05568612
670000000 -0.93666923 0.068129592 -0.0010624928 -0.0026609544 -0.00081637036 -0.0034637211 -0.93676364 0.055220466
671000000 -0.93730676 0.066803001 -0.00055454235 -0.0028307838 -0.00067698321 -0.0021287615 -0.93658388 0.056589015
