!Keysight Technologies,M9374A,MY55442783,A.12.55.05
!Date: Friday, May 21, 2021 10:41:34
!Correction: S11(Full 2 Port(1,2)) 
!S21(Full 2 Port(1,2)) 
!S12(Full 2 Port(1,2)) 
!S22(Full 2 Port(1,2)) 
!S2P File: Measurements: S11, S21, S12, S22:
# Hz S  RI   R 50
500000000 -0.93942654 0.052310273 0.00063702138 -0.0018008092 0.00015799 -0.0031116863 -0.93744719 0.042621385
501000000 -0.93851382 0.050760649 -0.00037578336 -0.0010474039 -0.00023395901 -0.0016861616 -0.93679214 0.042528346
502000000 -0.93874657 0.051919688 -0.00012078945 -0.0016514271 -0.00093722541 -0.0017416343 -0.93842381 0.043348633
503000000 -0.93812203 0.050377265 7.2477429e-005 -0.0027088481 -0.00013723863 -0.0012230285 -0.93668896 0.043106358
504000000 -0.93769461 0.051784098 -0.00040815747 -0.0020177751 -0.0012890717 -0.0017368938 -0.93670851 0.042867139
505000000 -0.93906373 0.051685121 -0.00061962061 -0.0023220056 0.00048177849 -0.0010744786 -0.93716967 0.045220297
506000000 -0.93871659 0.052196424 -2.6962349e-005 -0.0021102545 0.00045264902 -0.0021413399 -0.93764764 0.04525321
507000000 -0.93708462 0.052843504 0.00059484498 -0.0022907523 -0.0010426248 -0.0015019238 -0.93827313 0.043321572
508000000 -0.938905 0.050469164 -0.0004898301 -0.002667651 0.00072089478 -0.0014818877 -0.93755811 0.044401828
509000000 -0.93742603 0.054236811 -0.0017493925 -0.0017679933 0.00044140851 -0.00045011056 -0.93569028 0.044314113
510000000 -0.93761677 0.052107435 -9.3572535e-006 -0.0017048757 -0.00047315931 -0.0008667754 -0.93663746 0.044547107
511000000 -0.93947434 0.055250771 -0.00026075618 -0.0016145054 0.00033378811 -0.001540825 -0.93500829 0.044353589
512000000 -0.9404434 0.053295657 -0.00016101325 -0.0015959946 -0.00047957816 -0.0026819219 -0.93790239 0.044849336
513000000 -0.93795651 0.052069481 4.6154539e-005 -0.0022118359 -2.4389592e-006 -0.0018473248 -0.93708646 0.042558752
514000000 -0.93957359 0.053416509 -0.00028488226 -0.0027486435 -0.00061713834 -0.0025538215 -0.93788487 0.043488231
515000000 -0.93878925 0.053137284 -0.0010816125 -0.0023510263 -0.00027658031 -0.0016968279 -0.93700022 0.047071509
516000000 -0.93870902 0.052748781 -0.00027916857 -0.0030023172 -0.00010650601 -0.0017045955 -0.93761748 0.044023037
517000000 -0.93760538 0.054813284 -0.00060291012 -0.0022542828 0.00057111698 -0.0017627345 -0.93598825 0.045138568
518000000 -0.93755567 0.053166475 -0.00078602839 -0.0016888106 -8.9045636e-005 -0.0025148992 -0.93689668 0.045560189
519000000 -0.93868226 0.05425702 -0.0002762966 -0.001795794 -3.1853347e-006 -0.0026361817 -0.93720871 0.044952985
520000000 -0.93757653 0.053898193 -0.0004325638 -0.0029198609 -5.0736442e-005 -0.0017483425 -0.93679327 0.044660732
521000000 -0.93885148 0.055266839 -0.001129642 -0.0029750066 -0.00032624954 -0.0033317397 -0.93602675 0.045959882
522000000 -0.93932772 0.054204572 -0.00098302471 -0.0027631416 -0.00066135899 -0.0018533049 -0.93830556 0.046916705
523000000 -0.93878114 0.054061096 -0.00043035252 -0.00086812454 -0.00035505267 -0.0028016772 -0.93713975 0.046766657
524000000 -0.93769675 0.056605406 -0.00084989483 -0.0022642293 -0.00013147421 -0.0025501843 -0.937846 0.045975801
525000000 -0.93877959 0.055768494 -0.00024933406 -0.0028966039 -0.000344525 -0.0020905719 -0.93701488 0.04790521
526000000 -0.93820596 0.054841332 0.00010946608 -0.0020415329 -0.0010102702 -0.0016458058 -0.93747711 0.046220846
527000000 -0.93902892 0.053999074 -0.00088133331 -0.0023027107 -0.00044117103 -0.0023709713 -0.93570906 0.04680486
528000000 -0.93828523 0.054452341 -0.001439099 -0.0017450473 -0.00076893019 -0.0028726242 -0.93722242 0.046706889
529000000 -0.93793428 0.054869317 -0.00022129086 -0.0010834956 9.4525494e-005 -0.0015621585 -0.93632275 0.046945009
530000000 -0.93868464 0.055704974 5.825311e-005 -0.0020471241 -0.00010830017 -0.0017898437 -0.93708491 0.046887383
531000000 -0.937635 0.054290272 -0.00085145736 -0.0030424725 -0.00057446049 -0.0024294169 -0.93748212 0.046731018
532000000 -0.93745643 0.055745699 -0.00012734918 -0.0025277245 -0.00070864329 -0.0014664418 -0.93770987 0.047686778
533000000 -0.93840331 0.055003922 0.00079549581 -0.0025710736 -0.00011350623 -0.0025301264 -0.93666333 0.04656202
534000000 -0.93690211 0.054311901 -0.00032271075 -0.0019860542 0.00038368843 -0.0030239616 -0.93705595 0.04786576
535000000 -0.93819684 0.056054901 -0.00035757892 -0.0026758697 -0.00093826541 -0.0018932518 -0.93506467 0.046524219
536000000 -0.93750399 0.057646636 5.6255867e-005 -0.001570465 -0.00082106679 -0.0020938665 -0.93680662 0.047497306
537000000 -0.9393456 0.054886412 -2.7778076e-005 -0.0023163534 -0.000255308 -0.0023565989 -0.93666393 0.048123091
538000000 -0.93859786 0.055508304 -0.00099638454 -0.0023533043 -0.00081907865 -0.0029772832 -0.93663245 0.047791079
539000000 -0.93914425 0.056095738 -0.00091961049 -0.0021511456 -0.00034934134 -0.0015955553 -0.93552244 0.047533885
540000000 -0.93754935 0.055477284 -0.00053427299 -0.0024982337 -0.00044123031 -0.0013620273 -0.93700099 0.048127577
541000000 -0.93650693 0.057160217 0.0010807673 -0.0023823662 -0.00032036242 -0.0016985171 -0.93753326 0.046774812
542000000 -0.93766725 0.054788906 -0.00070774485 -0.0016071479 2.4335919e-005 -0.0020236676 -0.93683672 0.047506027
543000000 -0.93667305 0.05694849 -9.8717937e-005 -0.0027259293 -8.2088256e-005 -0.0031664474 -0.93511873 0.048228372
544000000 -0.93766665 0.054822944 -0.00076404324 -0.0020769155 -0.00022445977 -0.0024595247 -0.93700951 0.04959321
545000000 -0.93949819 0.055714555 0.00032627935 -0.0018202463 -0.00023600846 -0.0021730948 -0.93614024 0.047290545
546000000 -0.938842 0.056293149 0.00017035246 -0.0024229288 0.00091381586 -0.0024618923 -0.93778169 0.047000866
547000000 -0.93704146 0.056393839 -0.00041094841 -0.0017935204 -0.00047103182 -0.0019107922 -0.93577063 0.047531456
548000000 -0.93847233 0.055914268 -0.0021576595 -0.002021533 -0.00069567078 -0.0023603195 -0.93532395 0.047581058
549000000 -0.93673044 0.056903437 6.5163746e-005 -0.0031791518 -0.00093777955 -0.0021273673 -0.9363324 0.049787533
550000000 -0.93681651 0.058715399 0.00016362338 -0.001694306 0.00020303794 -0.0017294879 -0.93849391 0.048237152
551000000 -0.93700302 0.057240944 -0.00065413397 -0.0027298843 -0.00040565981 -0.0027047941 -0.93553233 0.048086427
552000000 -0.93788528 0.055410262 -0.00051172078 -0.0023898818 -0.00068288931 -0.002555985 -0.93638754 0.047911171
553000000 -0.93784589 0.056753092 -0.001187342 -0.0031189749 0.00043890651 -0.0023880017 -0.93757933 0.048793141
554000000 -0.93745482 0.054909982 -0.00082038896 -0.0020630404 0.00056947692 -0.0017609926 -0.93691421 0.049990237
555000000 -0.93803602 0.057298113 -0.0013622511 -0.0014334781 -0.0013195616 -0.0017345317 -0.93732423 0.048204627
556000000 -0.93582314 0.055738952 -0.00063715578 -0.0021102051 -0.00032406038 -0.0028902027 -0.9358179 0.050360925
557000000 -0.93826497 0.056740228 -0.00013646974 -0.0029887941 0.00012301175 -0.0036391139 -0.93667948 0.048214715
558000000 -0.93825996 0.057342544 0.0002492769 -0.0019371975 -0.0018395198 -0.0025840602 -0.93816513 0.04904066
559000000 -0.93780887 0.058017582 -0.00032825998 -0.0022128399 -0.00035532421 -0.0032334509 -0.93760973 0.048321307
560000000 -0.936602 0.057076093 -0.00079391518 -0.0023860135 -0.00072470942 -0.0012458527 -0.93583471 0.049708001
561000000 -0.93666708 0.057750281 -0.0010768787 -0.0022589376 -0.00011663191 -0.0020599195 -0.93738848 0.047055814
562000000 -0.93829244 0.056860283 0.00050199201 -0.0026043125 -0.00040858524 -0.0017837972 -0.93685716 0.049950831
563000000 -0.93805653 0.056633681 -0.00015579905 -0.0013901003 -0.0004320333 -0.0025335287 -0.93748397 0.049131602
564000000 -0.93785399 0.055032685 -0.00023080129 -0.0027846722 -0.00034343 -0.0018194169 -0.93584234 0.047943946
565000000 -0.93842721 0.056077134 -0.00012797315 -0.0014090639 0.00097234559 -0.0019066652 -0.93663752 0.047984619
566000000 -0.93791354 0.056598216 -0.00044123561 -0.001457061 -1.9695977e-005 -0.0023598578 -0.9379487 0.048718922
567000000 -0.93719459 0.056662466 -0.00054163591 -0.0029474909 -0.00079888321 -0.0023271276 -0.93667716 0.04892261
568000000 -0.93721771 0.056666426 0.00011374748 -0.0026339784 -0.00094057008 -0.001803962 -0.93603247 0.049295165
569000000 -0.93875527 0.057831414 -0.00056349335 -0.0018500226 -0.0013565129 -0.001979836 -0.93579644 0.047977351
570000000 -0.93699819 0.057507209 0.00089029403 -0.0022237916 -0.0018257394 -0.0031117285 -0.93729514 0.049613316
571000000 -0.93762213 0.056424625 -0.00086130167 -0.0018588545 0.00043473832 -0.0027889444 -0.93793172 0.049825057
572000000 -0.93516141 0.056235153 -0.00063631969 -0.0022839906 -0.00053032313 -0.0030375849 -0.93757695 0.048596837
573000000 -0.93876201 0.057676304 -0.00023281341 -0.002236631 -0.00012410567 -0.0028235686 -0.93520844 0.049559738
574000000 -0.93576205 0.05658409 7.8178789e-005 -0.0017442113 -0.0012047351 -0.0033903448 -0.9364624 0.048599675
575000000 -0.93690264 0.058140676 0.00043627672 -0.0021574788 -0.00064074749 -0.0021972237 -0.9355461 0.050921764
576000000 -0.93650997 0.058085106 0.00032610874 -0.0020637205 -0.00016460604 -0.0029379176 -0.93819618 0.0489012
577000000 -0.93745804 0.057528026 -0.00016028098 -0.0032595498 4.1173971e-005 -0.0026683763 -0.93600792 0.051662341
578000000 -0.93695295 0.057887569 -0.00097832968 -0.0020697434 -0.0010060243 -0.00238185 -0.93810922 0.048967309
579000000 -0.93776244 0.059678618 -0.00011602267 -0.0031383524 -0.0008648223 -0.0020104847 -0.9373045 0.049305324
580000000 -0.93653977 0.057776716 0.00016711773 -0.0011625305 -0.00030963909 -0.002630075 -0.93598974 0.050006155
581000000 -0.93718553 0.057543099 -0.00070733065 -0.0020725157 -4.248356e-005 -0.0017301695 -0.93807614 0.048421059
582000000 -0.9378317 0.058284894 -0.00068168604 -0.0023997908 -0.00067331397 -0.0018709389 -0.93787539 0.049184743
583000000 -0.93673766 0.058854092 -5.9413003e-005 -0.002653647 -0.00010664448 -0.0020089594 -0.93629515 0.049708024
584000000 -0.93804723 0.056868706 -0.00083438959 -0.0027994441 -0.00073102908 -0.0029735013 -0.93795294 0.049912717
585000000 -0.93780673 0.057994794 -0.00094602717 -0.0024285954 -0.0011270201 -0.0021296358 -0.93719578 0.049237866
586000000 -0.93748915 0.058189135 -9.0431757e-005 -0.0029504546 -0.00034159439 -0.001535545 -0.93645477 0.05008132
587000000 -0.93764859 0.058414526 -2.9470981e-005 -0.0028221181 -0.00036380661 -0.0026741414 -0.93780482 0.049899142
588000000 -0.93696809 0.058712795 -0.0013392466 -0.0031401052 -0.00018648834 -0.0021693911 -0.93898344 0.048803311
589000000 -0.93895262 0.05869469 -0.00055388111 -0.0022675991 -0.00062657328 -0.0024208862 -0.93666619 0.051240657
590000000 -0.93705332 0.060140789 -0.00094421487 -0.00098041003 -0.00059932371 -0.002267391 -0.93548214 0.050798699
591000000 -0.93601549 0.058931034 -0.00032817252 -0.00128881 -0.00025666843 -0.0023842214 -0.93589705 0.05001859
592000000 -0.93733239 0.056563571 -1.0381749e-007 -0.0021242255 -0.00071923964 -0.0024589931 -0.93604434 0.048818953
593000000 -0.93531704 0.058545481 0.00048706523 -0.0025465169 -0.00054559048 -0.0018138264 -0.93743205 0.050644893
594000000 -0.93856263 0.059587426 -0.00023640406 -0.0024527302 -0.00079662981 -0.0027943067 -0.93601876 0.050712314
595000000 -0.93836218 0.058841418 -3.65099e-005 -0.0022235797 -0.00056931999 -0.0031302231 -0.93629855 0.05181187
596000000 -0.9376449 0.058595397 -0.00046791221 -0.0012648687 -7.7995741e-005 -0.0029532253 -0.93649405 0.049216174
597000000 -0.93753976 0.05995949 -0.0002137423 -0.0011789849 -0.00042745037 -0.002113821 -0.93658966 0.050499085
598000000 -0.93867326 0.059867211 0.00010268609 -0.0019770525 -0.00052589038 -0.0024247428 -0.93890762 0.05112775
599000000 -0.93705803 0.059143905 0.00066948246 -0.0015361765 0.00021662739 -0.0026103032 -0.937051 0.050066151
600000000 -0.93636358 0.06117776 -0.00028298169 -0.0020759834 0.00043084819 -0.0014415502 -0.93649554 0.050359629
601000000 -0.93643171 0.060933042 -0.0002031871 -0.0018200285 7.1922193e-005 -0.0022806879 -0.93689954 0.051857244
602000000 -0.93647432 0.059804529 -0.00011545626 -0.0024363608 -0.0010149144 -0.0028938507 -0.93537956 0.052246723
603000000 -0.93758148 0.06207446 -0.00015874692 -0.002251009 0.00088915223 -0.0022403782 -0.93662274 0.052429717
604000000 -0.93641406 0.061069477 -0.00065000792 -0.0027318473 -3.003249e-005 -0.0027611733 -0.93712658 0.051104736
605000000 -0.93752646 0.061047781 -0.00065567973 -0.0032561077 -0.00093357422 -0.0015018099 -0.93621284 0.052818764
606000000 -0.93798614 0.060366932 -0.00016702423 -0.002531192 0.00021923719 -0.0017908261 -0.93622738 0.050468877
607000000 -0.93794733 0.060568675 -0.00024187681 -0.0031671948 0.00028415312 -0.0025847626 -0.93518072 0.052140567
608000000 -0.93777055 0.062420979 0.00050702359 -0.0021032544 0.00050174078 -0.0020247966 -0.93613714 0.051812198
609000000 -0.93645507 0.06298244 -0.0010469171 -0.002752546 -0.00034122734 -0.0027087771 -0.93676805 0.051573094
610000000 -0.93612677 0.061372392 0.00065646518 -0.0019896233 0.00014230804 -0.0025103691 -0.93647188 0.053534493
611000000 -0.93597406 0.061442479 -0.00041603312 -0.0020056369 0.00010403788 -0.0028559992 -0.93719834 0.050575443
612000000 -0.93700135 0.0634178 -0.00019136787 -0.0024618506 -0.00073030521 -0.0020381862 -0.9358474 0.052607957
613000000 -0.93623543 0.061436985 -0.00023409448 -0.0029572055 9.5166841e-005 -0.0030655311 -0.93682593 0.051159874
614000000 -0.93703669 0.063462555 -0.00027708765 -0.0023000508 -0.00015050753 -0.0021088726 -0.93656397 0.052831717
615000000 -0.93748248 0.061049141 7.541629e-005 -0.0026135563 -0.00090438721 -0.0032612416 -0.93659723 0.051998463
616000000 -0.93777055 0.063781194 -0.0014463103 -0.0014713297 0.00049730437 -0.001872652 -0.93701655 0.051809676
617000000 -0.9380576 0.063018411 -0.00043038206 -0.0024756563 -0.0010484371 -0.002009725 -0.93547934 0.054210652
618000000 -0.93671203 0.063471839 -0.00028083232 -0.0027843865 -4.3800217e-005 -0.0036539109 -0.93431264 0.053538997
619000000 -0.93525636 0.06375502 -4.4300687e-005 -0.0030272275 -0.00011465586 -0.0027478144 -0.93589276 0.052110624
620000000 -0.93709224 0.06450665 -7.2497824e-005 -0.0022770236 -0.00054485386 -0.0023378711 -0.93612432 0.053339396
621000000 -0.93766958 0.063002057 0.00041205049 -0.0029824886 -0.00069982256 -0.0019709661 -0.93574476 0.053258192
622000000 -0.93713546 0.062028989 0.00043415543 -0.0020116258 -0.00016992621 -0.0027866177 -0.93628651 0.052753162
623000000 -0.93721396 0.065147735 -0.0012158746 -0.0034991144 -5.2261644e-006 -0.0025897603 -0.93529958 0.053944845
624000000 -0.93725437 0.064507164 -0.00067378447 -0.0019995454 0.00020381628 -0.0035542115 -0.93663317 0.053418227
625000000 -0.93709362 0.065170765 -0.00020018667 -0.0034817264 0.0003496109 -0.0032131129 -0.93606019 0.053403169
626000000 -0.93716097 0.06405098 0.00071987347 -0.0026942058 0.00020677136 -0.0026480774 -0.93518752 0.054187216
627000000 -0.9357245 0.06374485 -0.0006486713 -0.0025209805 0.0002042894 -0.0031906825 -0.93601006 0.05323175
628000000 -0.93651074 0.065865144 -6.6107932e-005 -0.0012125144 0.00014708212 -0.0020180002 -0.93573666 0.053250477
629000000 -0.9376756 0.064430945 -0.0001598274 -0.0026099717 -0.00042065809 -0.0032076421 -0.93528312 0.055264529
630000000 -0.93834615 0.064191714 0.0010781534 -0.002011064 -0.0012310729 -0.0028806841 -0.93530715 0.055161931
631000000 -0.93588102 0.06586647 -0.0004652201 -0.0034502274 -4.5071574e-005 -0.0027712213 -0.93758827 0.054820683
632000000 -0.93744487 0.067139603 -0.0012898339 -0.0026182649 -0.00029011889 -0.003043398 -0.93654722 0.053991359
633000000 -0.93685287 0.06698104 -0.001126766 -0.0042223735 -0.00039292136 -0.0023940923 -0.93559897 0.053810596
634000000 -0.93830389 0.064750358 -0.0014990924 -0.0014670026 -0.00050856173 -0.0030759955 -0.93578386 0.056571554
635000000 -0.93593359 0.064118885 0.00085315999 -0.0024992269 -9.7270349e-005 -0.0027065396 -0.93555367 0.055922821
636000000 -0.93667442 0.066085726 -0.00082357728 -0.0027105268 -0.00018461437 -0.002586206 -0.93641639 0.055462096
637000000 -0.93602163 0.065633163 -0.0012589936 -0.0028135844 0.0005069992 -0.0035506408 -0.93443626 0.055459518
638000000 -0.93624288 0.066225804 -0.0002417186 -0.0022844593 0.00011389687 -0.0021100142 -0.93719214 0.054068945
639000000 -0.93690342 0.066061854 -8.8228677e-005 -0.0015500952 -0.001267853 -0.0023328818 -0.9346773 0.056668252
640000000 -0.93548125 0.066576093 6.9319292e-005 -0.0027234016 -0.00061318174 -0.0029889853 -0.93498921 0.05597908
641000000 -0.93642324 0.066830248 -0.0003038568 -0.0024517253 0.00010637736 -0.0037423242 -0.93327475 0.054912601
642000000 -0.93648559 0.066520251 9.6712953e-005 -0.0026135978 -0.00020107746 -0.0022541862 -0.9355306 0.054512441
643000000 -0.93709064 0.066651002 -0.0012201821 -0.0021025727 -0.00098584057 -0.0035901549 -0.93596935 0.053641837
644000000 -0.93696809 0.066629015 -0.0015137903 -0.0029754436 -0.001423866 -0.0028755981 -0.9373256 0.056472622
645000000 -0.93625963 0.065619707 7.3897972e-005 -0.0021238499 -0.00072183128 -0.0021966544 -0.93718469 0.054561228
646000000 -0.93750584 0.066168711 -0.00038792175 -0.0025569871 0.0004083401 -0.0026597241 -0.93517423 0.056171376
647000000 -0.93599522 0.067601658 -0.00082084269 -0.002563095 -0.00070635596 -0.0028602174 -0.93563777 0.056241643
648000000 -0.93719828 0.064624414 -0.00011927456 -0.0032232224 -0.00012364991 -0.0024976425 -0.93291223 0.055556197
649000000 -0.9386276 0.065741375 -0.0011905814 -0.0025310621 0.00057984906 -0.0015647615 -0.93591154 0.055899132
650000000 -0.93467408 0.06786976 -0.0018821685 -0.0019762509 -0.00066517614 -0.0018446995 -0.93402684 0.056904949
651000000 -0.93599921 0.067918748 -0.00027785072 -0.0023443538 -0.0018737317 -0.0023462123 -0.93554622 0.055662386
652000000 -0.93680763 0.066838942 0.00024701099 -0.0039256033 -0.00049596338 -0.0023064644 -0.93555772 0.054479949
653000000 -0.93669349 0.067928925 -0.00089571276 -0.002874118 8.4553161e-005 -0.0029337211 -0.93534923 0.056869298
654000000 -0.93481225 0.068563662 0.00072896201 -0.0024018218 -0.00067837792 -0.0017505215 -0.93503189 0.057594802
655000000 -0.93617862 0.068427458 -0.0010249506 -0.0029928442 -0.00071439863 -0.0030717365 -0.93555409 0.056842636
656000000 -0.936221 0.067275956 -0.00068808731 -0.0030903409 -0.00057693449 -0.0029204634 -0.93704259 0.056404658
657000000 -0.9370364 0.068085052 5.1675768e-005 -0.0030090993 -0.00090012531 -0.0018727919 -0.9359957 0.056973077
658000000 -0.93740231 0.067938119 -0.00034037317 -0.0020669126 -0.00020025372 -0.0032977907 -0.93683797 0.055766344
659000000 -0.93539 0.067460835 -0.00083837984 -0.0028799786 0.00012812206 -0.0027039198 -0.93707174 0.05656857
660000000 -0.93600863 0.068875588 -0.0011654088 -0.0028744165 -0.00033293999 -0.003146688 -0.93361527 0.056628507
661000000 -0.93494892 0.069058582 0.00016477294 -0.0023347868 -0.00067369558 -0.0025087122 -0.93441522 0.055521853
662000000 -0.93627042 0.068245709 0.00042953424 -0.0021467316 -1.9582109e-005 -0.0025465153 -0.9363516 0.056032199
663000000 -0.93727213 0.067720309 -0.00054309238 -0.0025438834 0.0001190018 -0.0035417103 -0.9350003 0.057066478
664000000 -0.93619335 0.067506164 0.00058399158 -0.0024132631 0.00041078907 -0.0030801266 -0.93538105 0.056733001
665000000 -0.9368434 0.068628974 0.00032439767 -0.0017821449 -0.00096866605 -0.0035188796 -0.93608278 0.056509085
666000000 -0.93554568 0.067549013 0.0002194124 -0.0021612325 -0.00046219278 -0.0021039515 -0.93588549 0.056475133
667000000 -0.93621641 0.069247067 -0.00018824945 -0.0028819949 -0.00020901617 -0.0021590651 -0.93590856 0.055616055
668000000 -0.93641961 0.068040863 -6.8258925e-007 -0.0020582024 -0.0015103036 -0.0025034454 -0.93523675 0.056931503
669000000 -0.93584889 0.06921836 -0.00057188905 -0.0022222558 -0.00070022605 -0.0033311381 -0.93423957 0.056293201
670000000 -0.93642551 0.068290688 0.00075736857 -0.0023552384 -0.0004791953 -0.001348087 -0.93520057 0.058400668
671000000 -0.93675208 0.068968683 0.00029527559 -0.0029592025 -0.00084350281 -0.0026881131 -0.93260962 0.057473604
