!Keysight Technologies,M9374A,MY55442783,A.12.55.05
!Date: Friday, May 21, 2021 10:57:46
!Correction: S11(Full 2 Port(1,2)) 
!S21(Full 2 Port(1,2)) 
!S12(Full 2 Port(1,2)) 
!S22(Full 2 Port(1,2)) 
!S2P File: Measurements: S11, S21, S12, S22:
# Hz S  RI   R 50
500000000 -0.93934447 0.052014373 -0.00096863584 -0.0020754824 0.00035519942 -0.0026537185 -0.93792403 0.041144222
501000000 -0.94112486 0.050939441 -0.00043839676 -0.0019803159 -0.00057761511 -0.0013051649 -0.93694252 0.041157953
502000000 -0.93884432 0.051551171 -0.00030493501 -0.0024552508 -0.00048506563 -0.0015763477 -0.93795091 0.042857509
503000000 -0.93847942 0.050941914 0.00031946224 -0.0018149815 -0.00036476343 -0.0022181147 -0.93722415 0.041409075
504000000 -0.93839478 0.0512264 -0.00044935933 -0.0022352035 -0.00010342329 -0.0024489518 -0.93729031 0.04183916
505000000 -0.94028503 0.051848322 0.0002357598 -0.0024481232 -0.00078875164 -0.0018776894 -0.93826067 0.040843856
506000000 -0.94002229 0.05168571 -0.00074824161 -0.0022163568 -2.7437434e-005 -0.0021063196 -0.93683469 0.043187331
507000000 -0.93818957 0.051853985 0.00055138697 -0.0017204521 0.00041980669 -0.0011181681 -0.9365347 0.044517327
508000000 -0.94054747 0.051442269 -0.00060833432 -0.0020582189 -0.00034698981 -0.0025929604 -0.9390738 0.044628691
509000000 -0.93959719 0.051325899 -0.00014991801 -0.0016623162 -0.00091340276 -0.001142403 -0.9368785 0.043657426
510000000 -0.93935144 0.051970102 0.00033536198 -0.0021621971 -0.00020421948 -0.0015017985 -0.93668163 0.043667369
511000000 -0.93955034 0.052792944 -0.0010748124 -0.0015815562 -0.00010714817 -0.0016959561 -0.93588573 0.045429107
512000000 -0.93883997 0.05044356 0.00023073722 -0.0020671999 -0.00030031183 -0.0019127688 -0.93700624 0.0435711
513000000 -0.9405207 0.051965866 -0.00058601104 -0.0011909461 2.6541024e-005 -0.0025250262 -0.93819672 0.043895416
514000000 -0.94028842 0.053214848 -0.00079835788 -0.0013758143 0.00026154888 -0.002939858 -0.93757528 0.044233613
515000000 -0.93912536 0.052066159 -0.0008473075 -0.0014611966 0.0001003944 -0.0018890827 -0.93694651 0.045227449
516000000 -0.93808246 0.05346553 0.00091699435 -0.0018899819 0.00056413159 -0.0026780453 -0.93743575 0.044402909
517000000 -0.9392966 0.054514065 -0.00079549814 -0.0024133401 -0.00040662126 -0.002241266 -0.93793964 0.044010621
518000000 -0.93943429 0.051767044 -0.0003083614 -0.0015632431 -0.00084986369 -0.00091866456 -0.93712437 0.044682946
519000000 -0.94059479 0.05311707 -0.00082525314 -0.002345511 -0.0004999665 -0.0012740076 -0.93692201 0.045743559
520000000 -0.93958807 0.052387439 0.00068323873 -0.0015973047 -0.00015412152 -0.0010295567 -0.9374826 0.045375451
521000000 -0.93746638 0.05354565 -0.00034712866 -0.0024196822 -0.00048207771 -0.0027648679 -0.938968 0.045889702
522000000 -0.94031847 0.05398031 -0.00071153371 -0.0021649769 -0.00030988676 -0.0019032763 -0.93766528 0.044598889
523000000 -0.94114643 0.054219685 -0.0014438645 -0.0026874018 -0.00026827346 -0.0020218112 -0.93689877 0.04431415
524000000 -0.93894923 0.055051826 -0.00058336108 -0.0028816659 -0.00032648948 -0.0021392799 -0.93769217 0.045242138
525000000 -0.93711257 0.054821644 -0.00076891115 -0.0025166299 -0.00026140077 -0.0020844592 -0.93777323 0.046485525
526000000 -0.93799877 0.05472099 -0.0010979453 -0.0023501574 -0.00024368918 -0.0022381605 -0.93785769 0.045356423
527000000 -0.93904722 0.05411607 -0.00077434751 -0.0024537425 -0.00063981977 -0.0027032748 -0.93669987 0.04654805
528000000 -0.93863028 0.055559821 0.0006308743 -0.0018501336 -0.00057540991 -0.0016809375 -0.93522608 0.047156278
529000000 -0.94021434 0.055594549 -0.0013650135 -0.0021201705 -0.0015938457 -0.0022306088 -0.93721473 0.046592064
530000000 -0.9391675 0.05377112 -0.00043527456 -0.0019163656 -0.00046736427 -0.0025137439 -0.93752408 0.047575105
531000000 -0.93994373 0.053949419 -0.0012965398 -0.0033734697 0.00010379706 -0.0021338726 -0.93829739 0.044239469
532000000 -0.93825132 0.053285681 -0.00069725158 -0.0018454244 0.00029636172 -0.0016847629 -0.93649971 0.046154417
533000000 -0.93851638 0.055309027 0.00083157216 -0.002046736 -0.00045612955 -0.0026817285 -0.93536943 0.045318194
534000000 -0.93837017 0.052983887 -0.0014676752 -0.0021733854 6.9342845e-005 -0.0018993207 -0.93849975 0.045623809
535000000 -0.93953383 0.053967979 0.00018939181 -0.0022212255 -0.0011043428 -0.0010327521 -0.93739831 0.047573932
536000000 -0.94005829 0.055571549 -0.0006741957 -0.0034354739 0.00039006237 -0.0021211654 -0.93721199 0.046937186
537000000 -0.93715489 0.054012157 -0.00067600521 -0.0027486694 0.00055011827 -0.0022199138 -0.93706369 0.046155162
538000000 -0.93893039 0.053527087 -0.00090625131 -0.0019375652 4.7906498e-005 -0.002422621 -0.93773037 0.046719316
539000000 -0.93792897 0.055580307 -0.00074635696 -0.0020101278 -0.00047336964 -0.0017427738 -0.9370026 0.045956541
540000000 -0.93899816 0.055663124 -0.00014566883 -0.0013969528 -6.6591288e-005 -0.0021507628 -0.93673694 0.047407672
541000000 -0.93806678 0.057036728 0.00061486609 -0.0024987219 -0.00046316558 -0.0022795596 -0.9359929 0.046756759
542000000 -0.93957627 0.055894744 0.00034334706 -0.0016157208 -0.001480203 -0.0016963498 -0.93433154 0.047545467
543000000 -0.93778056 0.055679414 -0.00086175237 -0.0018777684 -0.0011033539 -0.0020419278 -0.93674076 0.047885235
544000000 -0.94104606 0.055209637 -0.00025094335 -0.0033049907 -0.0012477641 -0.0021822783 -0.93580663 0.048569832
545000000 -0.94024247 0.055100113 -0.00042472448 -0.0017707231 -0.00029019589 -0.0033136236 -0.93799829 0.046245221
546000000 -0.93917412 0.05558794 -0.00022708702 -0.0016342072 -0.001333628 -0.0025021648 -0.93636459 0.046972428
547000000 -0.93800992 0.056469597 0.00041657826 -0.0019363912 -0.00054257835 -0.0016539802 -0.93770325 0.048000403
548000000 -0.93765515 0.054652475 -0.0009390217 -0.0027974306 -0.00026272039 -0.0017246408 -0.93652099 0.049301609
549000000 -0.93732846 0.056146719 -0.0004894787 -0.0018266238 -0.00082394597 -0.0021337059 -0.93589509 0.048630007
550000000 -0.93833524 0.056265295 -0.00085210585 -0.0018239932 -0.00044045341 -0.0024649177 -0.93837261 0.047381327
551000000 -0.93859869 0.05570465 -0.0007112117 -0.0021022174 -0.00068004249 -0.0033513065 -0.93767601 0.047828972
552000000 -0.93864292 0.055655256 -0.00038280827 -0.0022614116 -0.00031571751 -0.0015321135 -0.93738413 0.047561768
553000000 -0.93951017 0.055992078 -0.00026905636 -0.002717796 0.00051514537 -0.0018889543 -0.93667877 0.046255525
554000000 -0.93779838 0.056541711 0.00034835559 -0.00197529 -0.00015190731 -0.0016263109 -0.93754524 0.047218096
555000000 -0.93780726 0.055240154 -0.00012089292 -0.0031016753 -0.00038464283 -0.0029686776 -0.93781722 0.047109663
556000000 -0.93796676 0.055582196 -0.00063839916 -0.0022672659 -0.00072147028 -0.0025064987 -0.93839556 0.047942013
557000000 -0.9403795 0.054781843 -0.00099903112 -0.0024853188 0.0001004321 -0.0014210719 -0.93788815 0.046744246
558000000 -0.93872714 0.056552801 0.00030285292 -0.0021374512 -0.00070047408 -0.0030387947 -0.93631381 0.048198737
559000000 -0.93837154 0.054719407 0.00020654102 -0.0017360722 -0.00082335848 -0.0024014488 -0.93852848 0.047426336
560000000 -0.9395417 0.05567985 -0.00064723718 -0.0019816309 -0.0011153324 -0.0016434341 -0.93728876 0.048114639
561000000 -0.93874288 0.055478465 -0.0011088772 -0.0021602206 -0.00036485383 -0.0011626884 -0.93810666 0.046351362
562000000 -0.93876517 0.056399614 -0.00087313529 -0.0014289097 -0.0016392587 -0.0018570883 -0.9361071 0.047563389
563000000 -0.93828714 0.055912163 0.00010270075 -0.0029151046 -0.00047330145 -0.0015771918 -0.93679357 0.049257059
564000000 -0.93697888 0.056159899 0.00014229519 -0.0019826817 0.00011787908 -0.0021983199 -0.93763846 0.046860717
565000000 -0.93747628 0.055978745 0.00020454338 -0.0031048208 -0.00084340759 -0.0020709836 -0.93764281 0.048624836
566000000 -0.93909109 0.056986719 0.00023213778 -0.0016206631 -0.0006523013 -0.0021676167 -0.93755269 0.047664996
567000000 -0.9381361 0.055893693 -0.00010586512 -0.0026687412 -0.00032079333 -0.0022452488 -0.93783027 0.047042359
568000000 -0.93602312 0.056224022 0.00072549388 -0.0029354135 -0.00034364496 -0.0026014117 -0.93627971 0.047247775
569000000 -0.93937594 0.057168245 -0.00044764639 -0.0016581696 -0.0012038797 -0.0022252102 -0.93653154 0.048462976
570000000 -0.93685639 0.056332421 -0.0012924968 -0.0018267356 -0.00036955054 -0.0018325886 -0.93653411 0.048363302
571000000 -0.9383024 0.054117002 -6.8998612e-005 -0.0024974062 -0.0012028416 -0.0028023622 -0.93757957 0.048289388
572000000 -0.93769425 0.058643613 -0.00095039851 -0.0036386726 -0.00094497163 -0.0020821805 -0.93614012 0.050154518
573000000 -0.93860006 0.056311831 0.0002497723 -0.0020818794 -0.00054331048 -0.0024368828 -0.93856496 0.048751108
574000000 -0.93707174 0.05600547 -0.00015194647 -0.0017503015 -1.0614134e-005 -0.0021083606 -0.93614227 0.047770325
575000000 -0.93909395 0.056739677 -0.0013046704 -0.0030496786 -0.0010187282 -0.0027363321 -0.93772203 0.047836293
576000000 -0.93765116 0.056277577 -0.00043612375 -0.002686627 -0.00057598134 -0.0027929149 -0.93749493 0.049167361
577000000 -0.93789488 0.057029679 0.00047943273 -0.0017665373 -0.00084333553 -0.0030223045 -0.93685353 0.047573153
578000000 -0.93811578 0.05718023 -0.00012196623 -0.0017867476 0.00084462279 -0.0028471681 -0.93638521 0.047229521
579000000 -0.93768716 0.055606887 -0.00048248179 -0.00042525979 -0.00035136973 -0.0014808889 -0.93919432 0.050040785
580000000 -0.93879867 0.056531791 -0.00040097634 -0.001655456 0.00018393676 -0.002644358 -0.93628454 0.049718618
581000000 -0.93842727 0.057831183 0.00032988624 -0.002689624 -0.0015533633 -0.0019001265 -0.93629354 0.048516959
582000000 -0.93890107 0.057040956 -0.00023579165 -0.0019060284 -0.00043847677 -0.0024421965 -0.93757945 0.047582146
583000000 -0.93717349 0.059329677 -0.0012337931 -0.0033618063 -0.00055714557 -0.0023576221 -0.93775046 0.047201857
584000000 -0.93763608 0.054953009 -0.0002321636 -0.0015879474 -0.00070044777 -0.0026239355 -0.93930334 0.049067076
585000000 -0.9378565 0.057221025 -0.00026159885 -0.00096699427 0.00052231678 -0.0031361131 -0.93567163 0.049256034
586000000 -0.93744689 0.056930214 0.00068875233 -0.0026896512 -0.00027880352 -0.0025757994 -0.93568051 0.047876943
587000000 -0.93772238 0.058476817 8.4126747e-005 -0.001862762 -0.00069011626 -0.0016216139 -0.9373337 0.049453493
588000000 -0.93870294 0.05824507 -0.00067090173 -0.0019470945 0.00056903681 -0.0023771839 -0.93753177 0.050316222
589000000 -0.93840361 0.05749847 -0.00072543888 -0.0023425499 -0.00026865554 -0.0027907207 -0.93716872 0.049788106
590000000 -0.9395833 0.057226323 -0.00074328668 -0.0025973076 -0.00054169731 -0.0024849509 -0.93768924 0.048412625
591000000 -0.93771297 0.060081482 -0.00068610295 -0.002063747 -0.0007201499 -0.0027418353 -0.9367637 0.04844768
592000000 -0.93913591 0.057682708 -0.0005384484 -0.0028208268 -0.0013421049 -0.001529574 -0.93906301 0.048678499
593000000 -0.93839628 0.058056694 -0.00061580742 -0.0027567311 -0.00018473213 -0.0015789616 -0.93701708 0.048314635
594000000 -0.93792456 0.058776062 0.00073037954 -0.0022059965 0.00011833454 -0.0022091283 -0.93793386 0.050207518
595000000 -0.93786496 0.057085767 -0.00028140226 -0.0040178937 -0.0010203191 -0.0028393026 -0.93676454 0.051573418
596000000 -0.93775392 0.056852769 -0.00070485112 -0.0023134588 -0.0013214339 -0.0028241889 -0.93883902 0.049210381
597000000 -0.93871206 0.05744499 -0.0010454111 -0.002840389 0.00052059535 -0.0018813467 -0.93862778 0.049938478
598000000 -0.93939525 0.060239512 0.00073878013 -0.0025542392 -0.001178777 -0.0022167319 -0.93708861 0.049891531
599000000 -0.939062 0.057477597 -0.00050077378 -0.0013286121 -0.00048809897 -0.0022490965 -0.93702227 0.049703117
600000000 -0.93838805 0.058507286 -0.00057554507 -0.0019397247 0.00077620329 -0.00254219 -0.93651241 0.050444718
601000000 -0.93689376 0.05835706 -0.00016986823 -0.0019634287 -0.00082429306 -0.001388297 -0.93731689 0.048619576
602000000 -0.93898159 0.059398092 -0.00064114487 -0.0015416247 0.00089221582 -0.0015104355 -0.93800914 0.049618125
603000000 -0.93761533 0.060290594 0.00027682219 -0.0021282462 -0.00078658119 -0.0020977263 -0.93830633 0.049931321
604000000 -0.93718237 0.05958879 -0.00087842275 -0.0026596473 -0.00022912718 -0.0030518626 -0.93809104 0.050211038
605000000 -0.93812943 0.06191479 -0.0015301593 -0.0019038096 -0.0011542693 -0.0021236651 -0.9360792 0.050494239
606000000 -0.93764621 0.059113301 9.7268885e-006 -0.0018211461 -0.00063583592 -0.0032652083 -0.93787628 0.05056674
607000000 -0.93925411 0.060692895 0.00092343969 -0.0028087455 0.00028546 -0.0016784336 -0.93646896 0.049009327
608000000 -0.93836856 0.060943719 -4.9728715e-005 -0.0019149245 -0.00099332165 -0.0019748749 -0.93748218 0.051906366
609000000 -0.93873024 0.060731102 -0.0021963834 -0.001837892 -0.00089627062 -0.0029687893 -0.93812215 0.05158275
610000000 -0.93752754 0.06157513 -0.00073308987 -0.0015622416 0.00037137343 -0.0017659651 -0.93633991 0.050048608
611000000 -0.93646783 0.062396299 -0.002196305 -0.0028520215 -0.0002015928 -0.0027223497 -0.93685573 0.048924975
612000000 -0.93698144 0.062897086 -0.00040860963 -0.0019846174 -0.0011611521 -0.0014961573 -0.9374724 0.052016124
613000000 -0.93765575 0.061209228 -0.00068044238 -0.0018101484 -0.0010592476 -0.0020625836 -0.93622214 0.05071846
614000000 -0.93840045 0.06079765 0.00013955674 -0.0025756632 -0.00013014735 -0.0010708743 -0.93744773 0.049908157
615000000 -0.93772042 0.061515722 -0.00090171932 -0.0035472859 -0.0012542797 -0.0026719845 -0.936324 0.052261069
616000000 -0.9389258 0.061279032 -0.00071253488 -0.0022763354 0.00079153321 -0.0025316302 -0.93648493 0.054535847
617000000 -0.93914336 0.061437558 -0.00064483669 -0.0019783245 0.00054374267 -0.0028602988 -0.937289 0.051657282
618000000 -0.93754822 0.062614374 -0.00099168171 -0.0032472934 -0.00020946296 -0.0024298497 -0.93698311 0.051212896
619000000 -0.93774325 0.062667735 -0.00052843563 -0.0012245787 -0.00036524984 -0.0026648552 -0.93720287 0.051687159
620000000 -0.9375577 0.061788827 -0.00046607119 -0.0020305382 -0.00055410276 -0.0017721797 -0.93684095 0.053302146
621000000 -0.93908221 0.063211985 -0.00010368948 -0.0029776415 9.1520633e-005 -0.002428734 -0.93754572 0.05337064
622000000 -0.93796951 0.062879831 0.00010486606 -0.0017755822 0.00040180911 -0.0026472236 -0.93769318 0.053491991
623000000 -0.93589604 0.062035065 -0.0010199409 -0.0015399529 -0.00049403869 -0.0026252163 -0.93690926 0.051719774
624000000 -0.93748152 0.061653204 -0.00044851092 -0.0024749974 -0.0012866551 -0.0025769942 -0.93781954 0.054534838
625000000 -0.93786538 0.062559932 -0.0011284683 -0.0025062845 -0.00058189279 -0.0022918021 -0.93572122 0.05288716
626000000 -0.93725449 0.063421547 -0.00032175533 -0.0028731318 -0.00041867193 -0.0033248845 -0.93518543 0.052527495
627000000 -0.93735015 0.063331731 -0.00069702649 -0.0024966819 -0.0010295145 -0.00163171 -0.9359538 0.052677676
628000000 -0.93796051 0.064694911 -0.001240141 -0.0026647807 -0.00014756557 -0.0021171176 -0.93752408 0.053133518
629000000 -0.9385255 0.064732894 -0.00011019314 -0.0028100752 0.00011298889 -0.0022300659 -0.93662238 0.054591335
630000000 -0.93679023 0.062833294 0.00011116582 -0.0027776947 0.00015657351 -0.0027751736 -0.93585742 0.054948006
631000000 -0.93835181 0.063074246 0.00018042498 -0.0026039383 -7.9057078e-005 -0.0040403767 -0.93794292 0.052334182
632000000 -0.93637282 0.064970337 -2.7960521e-005 -0.0031288045 -0.00061768031 -0.002107875 -0.93664306 0.053542506
633000000 -0.9374795 0.065610014 -0.00038860698 -0.0031444563 0.00026551346 -0.0019439826 -0.93655109 0.055224098
634000000 -0.93959218 0.064874351 -0.00044539938 -0.0020154351 -0.00123829 -0.0022076198 -0.93451965 0.055393785
635000000 -0.9386602 0.063492581 -0.0011380032 -0.002149554 0.00015921383 -0.0021396938 -0.93742955 0.054047499
636000000 -0.93773639 0.065623403 -0.00037169864 -0.0025730627 -0.00016470141 -0.0018219155 -0.93506598 0.053714063
637000000 -0.9368118 0.064101145 -0.00024042056 -0.0030064988 -0.00017939961 -0.002189901 -0.93608522 0.053705528
638000000 -0.93831509 0.065648533 -0.00067040755 -0.0019487346 -0.00094583206 -0.0019606396 -0.93613106 0.054322109
639000000 -0.93786347 0.066523202 0.0002490055 -0.003133364 -0.00065773993 -0.0026731594 -0.93572032 0.054676365
640000000 -0.93800008 0.066167369 -8.6829845e-005 -0.0032396142 0.00060608739 -0.0024331543 -0.93621236 0.054777782
641000000 -0.93557328 0.065023653 0.00028936009 -0.0017083827 -0.00087406801 -0.0028626041 -0.93615288 0.05411024
642000000 -0.93617785 0.065771461 -0.0011031582 -0.0026283669 -0.0005136074 -0.0024879228 -0.93669254 0.05403826
643000000 -0.93547636 0.066172928 0.00043662681 -0.002543885 -0.00034716737 -0.0018078763 -0.93718266 0.053812664
644000000 -0.93737674 0.06523066 0.00020633092 -0.0023925772 0.00014586824 -0.0015136458 -0.9359867 0.054797594
645000000 -0.93640649 0.064882033 -0.00041389489 -0.0020285284 0.00056410744 -0.0031518666 -0.93651915 0.053720605
646000000 -0.93713033 0.066808455 0.00031834486 -0.0023950993 -0.0011765104 -0.0022574451 -0.93526506 0.055802669
647000000 -0.93719095 0.065522581 0.00041204988 -0.0016985721 0.00011375496 -0.0020708356 -0.93630296 0.054333761
648000000 -0.93534416 0.066802882 -0.0014811765 -0.002903722 -0.00024863158 -0.0028049054 -0.93624204 0.055763647
649000000 -0.93706143 0.065988645 -0.00053848891 -0.002490924 -0.00063221308 -0.0025744087 -0.93619806 0.055557754
650000000 -0.93573576 0.065793104 -0.00054596469 -0.0033899904 2.3121263e-005 -0.0026183478 -0.93642443 0.055135902
651000000 -0.93808126 0.06717284 -0.00084723724 -0.0022156672 -0.00041457365 -0.0025804618 -0.93747836 0.056061052
652000000 -0.93744564 0.067394577 -4.467597e-005 -0.0022342193 -0.00068690168 -0.0022987586 -0.93462312 0.053891812
653000000 -0.93791974 0.067745239 -0.00067765458 -0.00134412 -0.00042526083 -0.0019753072 -0.93507642 0.054037146
654000000 -0.93701631 0.066154942 -0.00043209427 -0.0032987623 -0.00011831983 -0.0023575434 -0.93589848 0.055298459
655000000 -0.93671423 0.066659614 -0.00028952243 -0.0019488927 -6.3064261e-005 -0.0030699493 -0.93580055 0.056235638
656000000 -0.93638724 0.06796886 -0.00069604459 -0.0017835805 -0.001632495 -0.0022064866 -0.93630433 0.055178024
657000000 -0.93661416 0.067207612 -0.001149463 -0.002407515 -0.00058998278 -0.0019434971 -0.93616027 0.056279946
658000000 -0.9379673 0.068275809 -0.00044235014 -0.002245608 -0.00045815646 -0.0023042329 -0.93565828 0.055755921
659000000 -0.93724471 0.068131022 -0.0007709561 -0.0013898191 -0.00074315211 -0.0025720957 -0.93641156 0.054898813
660000000 -0.93680733 0.068180665 -0.0010042023 -0.0018746807 -0.00091822731 -0.0023070539 -0.93436074 0.056463093
661000000 -0.93778825 0.067972258 -0.0005066201 -0.002800823 -0.0010528823 -0.002487709 -0.93483043 0.055114485
662000000 -0.93649012 0.067967653 -8.1978404e-005 -0.0023224014 -0.0014402458 -0.0022155179 -0.93700671 0.05674167
663000000 -0.93824393 0.067112401 -6.8224239e-005 -0.0012363034 -0.0006558568 -0.0020043554 -0.93417156 0.054278091
664000000 -0.93646407 0.066270359 0.00025663362 -0.0025774904 0.00032657007 -0.0024525935 -0.9360382 0.057254609
665000000 -0.93934357 0.068524234 -0.00068205083 -0.0029548514 -0.0011783155 -0.0020642343 -0.93501353 0.056295197
666000000 -0.93735081 0.068738349 -0.00059720792 -0.0012191799 -0.00083363731 -0.0026828675 -0.93725127 0.055492826
667000000 -0.9371537 0.068354256 -0.0017548627 -0.0035771341 -0.00098034122 -0.0029788099 -0.93498224 0.056895837
668000000 -0.93705219 0.066932656 -0.00031328917 -0.0033836802 -0.00020495556 -0.0025833002 -0.93560177 0.054092672
669000000 -0.93721795 0.068265654 -3.1229032e-005 -0.0032820241 -0.00032829688 -0.0032828837 -0.93496227 0.055707619
670000000 -0.93706727 0.067375563 -0.001063536 -0.0023758875 0.00031601032 -0.0025885138 -0.93585789 0.056880314
671000000 -0.93689615 0.068085618 -0.00056071038 -0.0023711086 -0.0011411362 -0.0026087645 -0.93519974 0.056651551
