!Keysight Technologies,M9374A,MY55442783,A.12.55.05
!Date: Friday, May 21, 2021 11:13:58
!Correction: S11(Full 2 Port(1,2)) 
!S21(Full 2 Port(1,2)) 
!S12(Full 2 Port(1,2)) 
!S22(Full 2 Port(1,2)) 
!S2P File: Measurements: S11, S21, S12, S22:
# Hz S  RI   R 50
500000000 -0.94107074 0.050853353 -0.00031170421 -0.0027060537 -1.4668538e-005 -0.0023681952 -0.93827546 0.040896349
501000000 -0.93904346 0.050819647 -0.00015113117 -0.0024994304 9.3416318e-005 -0.0018805345 -0.93921989 0.042212192
502000000 -0.94064665 0.05035546 -0.0010999124 -0.0018645825 0.00016054633 -0.0021026889 -0.93703401 0.041595176
503000000 -0.9400506 0.050060574 3.9955285e-006 -0.0022822861 -0.00037799636 -0.0026843988 -0.93852276 0.042521559
504000000 -0.93934327 0.050073799 0.00081926439 -0.0011609175 -0.0015670774 -0.0025922873 -0.93830347 0.042498056
505000000 -0.93965757 0.051048644 -0.0004415203 -0.0025287704 -0.00018647237 -0.002506773 -0.93782794 0.041722219
506000000 -0.94057828 0.051994249 -0.00052578136 -0.0019767014 0.00037768958 -0.0025698922 -0.93733031 0.042483546
507000000 -0.9403984 0.051612444 -0.00053007033 -0.0018289798 -0.0012354439 -0.0025341506 -0.93729568 0.042892762
508000000 -0.94199699 0.050213538 -0.00023759695 -0.001569932 -0.00041329151 -0.0025664782 -0.93760484 0.043637171
509000000 -0.93998402 0.051731057 -0.00049602013 -0.0022418972 -0.00035414309 -0.0027894117 -0.93770874 0.041951634
510000000 -0.93830669 0.051459946 -0.00087918696 -0.0022059903 -0.00018988622 -0.0025526881 -0.93629229 0.044353917
511000000 -0.94064951 0.051292378 -0.00080670574 -0.0021859584 -0.00024611576 -0.0023773327 -0.93789858 0.045031067
512000000 -0.93886292 0.051770337 -0.00063404848 -0.001561938 -0.00040047127 -0.0020263977 -0.9384836 0.043709859
513000000 -0.9397276 0.051951081 -0.00041962354 -0.0016545547 -0.0007004792 -0.0016693257 -0.93835646 0.041373242
514000000 -0.94022906 0.052989852 0.00070365012 -0.0020180331 -0.00068610761 -0.0023397943 -0.93839222 0.0431601
515000000 -0.93885326 0.051523365 0.0001959777 -0.0030280598 -0.0010119452 -0.0030149452 -0.93821943 0.044307038
516000000 -0.93925631 0.053005971 -0.00052789861 -0.0017477302 -0.0011100072 -0.0029489037 -0.93862295 0.044389017
517000000 -0.9390747 0.053456679 7.9137804e-005 -0.0014724337 -0.00077622704 -0.001301405 -0.93820328 0.044315752
518000000 -0.93857998 0.050965935 -0.00029657048 -0.0022704822 -0.0002404394 -0.0031128018 -0.93795687 0.044962905
519000000 -0.94049227 0.052765418 -0.0014296044 -0.0023558477 -0.0002528459 -0.0024510345 -0.93817729 0.046243858
520000000 -0.9402374 0.052351829 0.00012619002 -0.0030088578 -0.00079079287 -0.0017544343 -0.93609345 0.0459463
521000000 -0.94171041 0.054329287 -0.0001433946 -0.0015743352 -0.00042217772 -0.0022974552 -0.93844157 0.044628508
522000000 -0.94044596 0.05335455 0.00056659384 -0.00086270034 0.00023899163 -0.0017779149 -0.93772072 0.045968637
523000000 -0.93983555 0.054451127 -0.00094169122 -0.0031299863 0.00042897472 -0.0016925468 -0.9370988 0.044904917
524000000 -0.94051749 0.05154974 -0.00073361601 -0.0022384648 -0.001438169 -0.0010944819 -0.93732762 0.046194285
525000000 -0.93903339 0.053024773 0.00010889592 -0.0011030796 0.00023289621 -0.0017860231 -0.93733549 0.045146022
526000000 -0.93930382 0.054161709 -0.0011446601 -0.0021990004 -0.00054880418 -0.0023944911 -0.93704301 0.045253448
527000000 -0.94166368 0.053559624 3.974319e-005 -0.002291596 -0.00038251822 -0.0017638926 -0.93796456 0.047089905
528000000 -0.9406541 0.05496699 -0.00054331141 -0.0024559705 -4.7648133e-005 -0.0014235541 -0.93817335 0.047182675
529000000 -0.94045061 0.054009072 -0.0015521209 -0.0013740355 -0.00067051698 -0.0025688678 -0.93694836 0.04526538
530000000 -0.93919551 0.05456467 -0.00024959986 -0.00183756 -0.0006528314 -0.0016920983 -0.93754768 0.046121221
531000000 -0.94190109 0.053638984 -0.00076851231 -0.0032673837 -0.00063429622 -0.0023729075 -0.93835253 0.046199962
532000000 -0.94032538 0.054445218 0.00041630081 -0.0022148723 0.00017163124 -0.0021362277 -0.93594909 0.04672711
533000000 -0.93710852 0.053137783 -0.00074879744 -0.0014362157 -0.00049049658 -0.001586742 -0.93646675 0.046936214
534000000 -0.94024563 0.05294691 0.00034853487 -0.0005328026 0.00056808797 -0.0024398156 -0.93610853 0.046837442
535000000 -0.93931162 0.053987093 -0.00047236792 -0.0030111531 -0.00084342272 -0.0021686647 -0.93727839 0.045136493
536000000 -0.93849427 0.055457037 5.5424123e-005 -0.0022145261 -0.00030491003 -0.0027368751 -0.93766987 0.046837781
537000000 -0.94074816 0.053314034 -0.0008328624 -0.0025085711 -0.00038380304 -0.0024676886 -0.93773818 0.045675322
538000000 -0.93826294 0.053854145 0.00012345151 -0.0015222074 1.4482464e-005 -0.0017207313 -0.93765944 0.045826778
539000000 -0.93965751 0.055016566 0.00015748327 -0.0020292292 -0.00035667862 -0.0021185831 -0.93896174 0.047718074
540000000 -0.93789977 0.054853145 -0.00029988179 -0.0016521442 -0.00034373725 -0.0016189974 -0.9372828 0.046570782
541000000 -0.93952644 0.055113923 -0.00026836817 -0.0012717736 -0.00062266248 -0.0023045358 -0.93827331 0.046262819
542000000 -0.93775403 0.055229168 -0.00077895558 -0.0028738764 0.00096639129 -0.0024676304 -0.93704534 0.047527816
543000000 -0.9399783 0.054623295 8.0851296e-006 -0.0030025945 -0.00038411212 -0.0023853399 -0.93752801 0.046535455
544000000 -0.94081593 0.056905493 -0.00011667235 -0.0012042824 5.1927514e-006 -0.001945083 -0.93745303 0.047481522
545000000 -0.94049114 0.054054182 0.00023096135 -0.0025761914 -0.0014230094 -0.0013788978 -0.93707293 0.046606936
546000000 -0.93903309 0.055672936 -0.00059627701 -0.0026598647 -0.00044228011 -0.0026515282 -0.9382965 0.046839282
547000000 -0.93961591 0.054324381 5.5933015e-005 -0.0022241641 -8.2754726e-005 -0.0016222958 -0.9372707 0.047208693
548000000 -0.94006586 0.055503059 -0.0011294016 -0.0023245425 -0.00064070686 -0.0023459606 -0.93682498 0.048265595
549000000 -0.93787098 0.055531349 -0.00054743676 -0.0019254357 -4.3642733e-005 -0.0020796738 -0.93713176 0.048057295
550000000 -0.93769461 0.054508764 -0.0011699372 -0.0023015209 9.1785121e-005 -0.0022983358 -0.93725204 0.047623064
551000000 -0.93943125 0.055869758 -0.00037581316 -0.0020124489 -0.00015919625 -0.0019859143 -0.93907279 0.047789283
552000000 -0.93834704 0.055174615 -0.00047546497 -0.0018665871 -0.0010823031 -0.002798354 -0.93684185 0.046716686
553000000 -0.93901491 0.05625359 -0.00044684729 -0.0014792013 0.00027789728 -0.0013713369 -0.93797415 0.045866583
554000000 -0.93848187 0.055759016 -0.00064598984 -0.0024196247 -0.00012050097 -0.0017872123 -0.93688148 0.04882627
555000000 -0.93774045 0.055142712 -0.0009932575 -0.0021024665 -0.00024788457 -0.0021120408 -0.93821174 0.047361784
556000000 -0.93842286 0.054118197 -0.00078126765 -0.0018490531 -8.5343127e-005 -0.0024078269 -0.93848801 0.049116485
557000000 -0.9401558 0.05505237 -0.0011452783 -0.0020481502 -0.00053628563 -0.0022120471 -0.93805283 0.047760408
558000000 -0.93732554 0.055582531 -0.00037132442 -0.0024098861 -0.00022601587 -0.0019590252 -0.93891639 0.04791569
559000000 -0.93927544 0.055391219 -0.00038944039 -0.0023742111 -0.00054560357 -0.0018762925 -0.93819338 0.047551502
560000000 -0.93722248 0.055653181 0.0002680383 -0.0014838235 -0.00069962692 -0.0026211592 -0.93705255 0.047917847
561000000 -0.93946016 0.056491718 -0.00095679989 -0.0029122178 0.00012901219 -0.0026009309 -0.93756431 0.047680046
562000000 -0.93809277 0.056298509 0.00052443397 -0.0028260043 -0.00078701094 -0.0026775768 -0.93559682 0.04847018
563000000 -0.93998647 0.056498624 0.00024139236 -0.0014850987 1.9694178e-005 -0.0012218839 -0.93801409 0.048639104
564000000 -0.93987238 0.056522485 0.00096592604 -0.0023456647 -0.0002555399 -0.0011972622 -0.93606287 0.046754029
565000000 -0.93771952 0.055465378 -0.00028732311 -0.0026946997 -0.00038764506 -0.0012739871 -0.93662697 0.048363715
566000000 -0.93906933 0.05537878 0.00082186511 -0.0015560954 -0.0016582778 -0.0022766627 -0.93618989 0.047693886
567000000 -0.94020599 0.056298632 -0.00059865759 -0.0017382572 -0.00027549374 -0.0027613048 -0.9386825 0.047230937
568000000 -0.93803757 0.055972725 0.00041521716 -0.002852028 0.00017816646 -0.0017316645 -0.93643945 0.04789992
569000000 -0.9397732 0.055075176 -0.0011256273 -0.0028917501 0.00092348288 -0.0026395528 -0.938254 0.047139697
570000000 -0.93948954 0.055709112 -0.00061236596 -0.0017740183 0.00027364443 -0.0019138968 -0.93755865 0.047014713
571000000 -0.93771833 0.054769319 -0.00091823831 -0.0017972253 -0.0012536924 -0.0035811872 -0.93902904 0.046437055
572000000 -0.93923354 0.05664888 -0.00068966323 -0.0015447059 -0.00069368037 -0.0022125363 -0.93793947 0.047945809
573000000 -0.94063276 0.055104118 -0.00016029576 -0.0027611193 -0.00015908018 -0.002931752 -0.93772781 0.049440149
574000000 -0.93709224 0.056424942 -0.00047073589 -0.0015899214 -0.00055352994 -0.0020031407 -0.93749112 0.046573721
575000000 -0.93765664 0.056321256 0.00018651082 -0.0031910457 -0.00098302879 -0.0020263621 -0.93654609 0.049768999
576000000 -0.93813241 0.056381732 -0.00050756108 -0.002177356 -0.00026296161 -0.0025910342 -0.93859279 0.049573131
577000000 -0.93881744 0.057016265 -0.00029579009 -0.0024445255 0.00044634292 -0.0029826378 -0.93838698 0.04723677
578000000 -0.93889266 0.057024475 -0.00032102808 -0.0027958504 -0.0001785706 -0.0025583471 -0.93748546 0.047815945
579000000 -0.9398396 0.056861304 -0.00034959664 -0.0022196323 -0.00022350023 -0.0018364905 -0.93743652 0.047515556
580000000 -0.93642837 0.057305478 0.00062632345 -0.0020347261 0.00053061324 -0.0028017198 -0.93655032 0.048110899
581000000 -0.93923783 0.055170678 -0.0010566199 -0.0020973324 -0.00066604413 -0.0020145001 -0.93769336 0.048254751
582000000 -0.93840802 0.056838658 -0.00056963041 -0.0020968909 -0.00089669233 -0.0013342507 -0.935507 0.048818462
583000000 -0.93889838 0.057802301 -8.4538078e-005 -0.0022898321 -0.00046564639 -0.0017431589 -0.93768764 0.047728345
584000000 -0.93665504 0.056588165 -0.00048965146 -0.0025754538 0.00071038579 -0.00358875 -0.93850583 0.049960021
585000000 -0.93979305 0.057456933 -0.00032603205 -0.0026310009 0.00027893379 -0.0026147573 -0.93811738 0.048995089
586000000 -0.93875349 0.058015771 -0.0011125756 -0.0031817518 -0.00056790496 -0.0029079842 -0.93617326 0.049706884
587000000 -0.9377597 0.056528658 -0.00039770731 -0.0025322444 -0.00084009551 -0.0025291531 -0.9380551 0.048677545
588000000 -0.93758178 0.058251817 9.4462026e-005 -0.0033162865 -0.00031120898 -0.0031310914 -0.93818039 0.049464602
589000000 -0.93900162 0.054396648 -0.0014907512 -0.0028084361 0.00017869544 -0.0024279475 -0.93782294 0.049763188
590000000 -0.93879819 0.05770931 7.2659554e-006 -0.0026299874 -0.0001036559 -0.0025454576 -0.93603575 0.048887704
591000000 -0.93652427 0.058825497 -0.0002724829 -0.0016134835 -0.00097805157 -0.0030134015 -0.93670058 0.050541122
592000000 -0.93810987 0.055661406 -0.00036332777 -0.0025529454 -0.0006328281 -0.0023380346 -0.93822747 0.049454655
593000000 -0.93718642 0.055913664 0.00027865346 -0.0025929098 -0.00054373976 -0.0023367039 -0.93898529 0.050109319
594000000 -0.93791914 0.057076905 -0.00018591802 -0.0031132386 0.0011046821 -0.0028963562 -0.93680197 0.050616428
595000000 -0.93826509 0.057914063 0.00010199002 -0.0026329844 -0.0004723265 -0.0016739779 -0.93836683 0.049596947
596000000 -0.93819547 0.058438603 -0.00061925693 -0.0031053622 -0.00045575827 -0.0022621087 -0.93761754 0.049572796
597000000 -0.93711793 0.057160489 -0.00042069811 -0.0029302347 0.00019236204 -0.002284141 -0.9358592 0.050635535
598000000 -0.93879271 0.057682499 -0.00041880779 -0.0020824356 -0.00013096321 -0.0013894452 -0.93738484 0.047821019
599000000 -0.93765974 0.059082001 -0.00093746086 -0.0022423568 -0.00086934044 -0.0019661933 -0.93821013 0.051121898
600000000 -0.93884635 0.058223668 -0.0009954673 -0.0015771152 -0.00013081936 -0.0025126515 -0.93786711 0.050219595
601000000 -0.93854713 0.059542831 0.00034479334 -0.0021079783 2.0991489e-005 -0.0030693633 -0.93748724 0.05110652
602000000 -0.93814498 0.057619393 -0.000623309 -0.0022522926 -0.00018335717 -0.0019519365 -0.93876547 0.049661823
603000000 -0.93926001 0.059604187 -0.0010029966 -0.0020386453 -0.00092313683 -0.0028673317 -0.93683082 0.051931549
604000000 -0.93835932 0.060382832 -0.00089649268 -0.0021563619 -0.00040625199 -0.0015883342 -0.93751997 0.051599246
605000000 -0.93767136 0.061384939 -0.00039347913 -0.0017611289 -0.00012073686 -0.0016653049 -0.93651682 0.051214222
606000000 -0.93920368 0.060078319 -0.00033598038 -0.0030231003 2.0442034e-008 -0.0027831285 -0.936786 0.050727047
607000000 -0.93968803 0.059528392 -0.00031507949 -0.001766614 -0.00012362962 -0.0036407425 -0.93653566 0.049562231
608000000 -0.93972689 0.061389782 -0.00067532313 -0.001964181 -0.00081539078 -0.0015109677 -0.93707669 0.049424391
609000000 -0.93802696 0.059572849 -6.3750595e-005 -0.0019474415 -0.00044137536 -0.0032592097 -0.93629175 0.051196158
610000000 -0.93706554 0.058779325 -0.00043301933 -0.0030715282 -0.00055831717 -0.0024269512 -0.9372865 0.051799405
611000000 -0.93756467 0.05990871 -0.0010862243 -0.002255216 -0.00036044966 -0.00344311 -0.93706858 0.050303601
612000000 -0.93740809 0.058748942 -0.00085893844 -0.0027468496 6.1493367e-005 -0.0028869582 -0.93786114 0.052747644
613000000 -0.93653178 0.061103188 -0.00084945053 -0.0024953433 0.00020772536 -0.0024396225 -0.93763006 0.050713539
614000000 -0.93810409 0.060665324 0.00097782363 -0.0019947556 -0.00020173399 -0.0021781325 -0.93757689 0.052374631
615000000 -0.9370569 0.061548863 0.00015752514 -0.0030985156 -0.00031241533 -0.0025082706 -0.93564349 0.051033407
616000000 -0.93748319 0.05923925 -0.00044389124 -0.0018157444 -0.00016670887 -0.0020277568 -0.93522686 0.051831994
617000000 -0.9375869 0.061214488 -0.00084773952 -0.0012049015 0.0012261663 -0.0037877753 -0.93904096 0.052137908
618000000 -0.93802923 0.061507925 -0.00020626394 -0.001368593 0.00036396834 -0.0031896702 -0.93591756 0.052470315
619000000 -0.9394601 0.06140554 -0.00072640192 -0.002511651 0.00033991097 -0.0026040145 -0.9373675 0.052118205
620000000 -0.93627238 0.061511781 -0.0010443184 -0.0022840323 0.00041741389 -0.002560324 -0.93688989 0.053085886
621000000 -0.93906748 0.061996561 -0.00024488699 -0.0032949592 -0.00085934723 -0.0038425 -0.93617642 0.052134633
622000000 -0.93772256 0.062137309 -0.00076204567 -0.0022139929 -0.00016206688 -0.0019248857 -0.93506157 0.053243086
623000000 -0.93621051 0.06269858 -0.00018924035 -0.0014798167 -0.00022629675 -0.0030158674 -0.93649274 0.052535571
624000000 -0.93832177 0.062921584 -0.00071764714 -0.0012826518 0.00045970466 -0.0023362106 -0.93782258 0.052456122
625000000 -0.93726254 0.064086311 -0.0014511161 -0.0024863237 -0.00053431734 -0.0022095339 -0.93499047 0.051581141
626000000 -0.93856746 0.063535333 -0.00040161554 -0.0031079229 0.00083549262 -0.002705365 -0.93718511 0.053937353
627000000 -0.93773067 0.063049823 8.9176567e-005 -0.0021633434 -0.0013985343 -0.0027290902 -0.93739736 0.050968215
628000000 -0.93910623 0.062717095 -0.00053006917 -0.0035821332 -0.00014163689 -0.0022409405 -0.93860972 0.053255495
629000000 -0.93747699 0.063832924 -0.0011128617 -0.0023099761 0.00032211881 -0.0028817784 -0.9376384 0.052682117
630000000 -0.93666458 0.06264285 0.00013207183 -0.0028923457 -0.00067282125 -0.0030503778 -0.936795 0.053320728
631000000 -0.9386574 0.063760817 0.00042172946 -0.0034113652 -0.00022573644 -0.0029209976 -0.93679988 0.051786814
632000000 -0.93827313 0.063008986 -0.0013635514 -0.0012127594 -0.00087622338 -0.00240961 -0.93573517 0.053344231
633000000 -0.93582791 0.063244864 -0.00091800973 -0.0017297057 -0.00023544367 -0.0031467408 -0.93677878 0.054595813
634000000 -0.93655336 0.064200252 -0.0008357921 -0.0021348114 -0.00025397554 -0.0024840594 -0.93520331 0.053562101
635000000 -0.93755358 0.062759578 -0.00047618116 -0.0023688113 -7.044278e-005 -0.0030191131 -0.93787998 0.054384321
636000000 -0.93696564 0.062374409 0.00010843895 -0.0021893922 0.0008383597 -0.0026057218 -0.93730909 0.053480286
637000000 -0.93826491 0.064274155 -9.9783238e-006 -0.0010446503 -0.00094272493 -0.0035799276 -0.93529403 0.053881031
638000000 -0.93698716 0.064064652 -0.00078172423 -0.0021866425 -0.00095099764 -0.0016895403 -0.93654269 0.054370102
639000000 -0.93720913 0.064312316 -1.6925467e-005 -0.0023583402 -0.00026690078 -0.0031324066 -0.93706679 0.054267984
640000000 -0.93797833 0.064504869 -0.00075778627 -0.0023116837 -0.00075035432 -0.0030392967 -0.93607157 0.054678857
641000000 -0.93594366 0.065928951 0.00049366878 -0.0020683191 -3.6290021e-005 -0.0031066395 -0.93550485 0.054433845
642000000 -0.93793482 0.065845728 -0.00036604842 -0.0021802492 -0.00049767486 -0.0021220567 -0.93675959 0.054787252
643000000 -0.93630952 0.065441564 -0.00017600933 -0.0027315055 -0.00056480448 -0.0022603064 -0.93625712 0.053784184
644000000 -0.93675494 0.066257551 -0.0011207174 -0.002093619 -0.00060777197 -0.0024894539 -0.9383831 0.053891167
645000000 -0.93773443 0.06722822 2.4318679e-005 -0.0023276377 0.00046289485 -0.0032384535 -0.93698978 0.055170104
646000000 -0.93857735 0.064337134 0.00025265742 -0.0019925067 -0.0004812871 -0.0023109454 -0.9361769 0.055273656
647000000 -0.9377287 0.065213107 -5.0207596e-005 -0.0019963796 -0.00031397591 -0.0023698381 -0.93663782 0.053974152
648000000 -0.93832099 0.064871438 -0.0012365264 -0.002259532 -0.00085337926 -0.0024901228 -0.93772256 0.054503333
649000000 -0.93943244 0.065576605 -6.2259831e-005 -0.0020571246 -0.00094054843 -0.0030474435 -0.93698663 0.055810228
650000000 -0.93705374 0.066221952 -0.0004840527 -0.0026801869 -0.0005498734 -0.0031557467 -0.93741685 0.055440012
651000000 -0.93861586 0.065498181 0.00050662138 -0.0020177988 -0.00058243232 -0.0015016616 -0.93520063 0.053580981
652000000 -0.93693566 0.065561898 -9.2181224e-005 -0.0024842338 -0.00092273694 -0.0022247529 -0.93495119 0.053626876
653000000 -0.93780631 0.065483734 -0.00022580745 -0.003118854 -6.6307104e-005 -0.0026463696 -0.93556803 0.05453537
654000000 -0.93791372 0.06647075 -0.0012348364 -0.0025700417 -0.00041510398 -0.0027908026 -0.93650663 0.053850643
655000000 -0.93664485 0.06657321 0.00038357268 -0.0023349188 -0.00019396082 -0.0017555834 -0.93714976 0.056799028
656000000 -0.93775386 0.065663442 -0.00019370716 -0.0021488951 -0.00062424346 -0.0023758388 -0.93652654 0.054257803
657000000 -0.93883508 0.066222996 -0.0010516885 -0.0019272798 0.00057608978 -0.0032702228 -0.93656796 0.054782744
658000000 -0.93862027 0.067280516 -0.00039010079 -0.0025909138 0.00013062934 -0.0030570498 -0.93745202 0.053721406
659000000 -0.93734848 0.065773271 -0.00048986764 -0.0022093393 -0.00020349548 -0.0029112848 -0.93673629 0.054694861
660000000 -0.93613368 0.066510148 -0.00045037299 -0.0029918002 -0.00045243831 -0.0033920214 -0.93403655 0.055809937
661000000 -0.93793446 0.065427482 -0.0015329081 -0.002025594 -0.00023771096 -0.0026542773 -0.93629694 0.055570271
662000000 -0.93656611 0.065509945 9.9966455e-006 -0.0029226115 -0.00075988699 -0.0024846662 -0.93724841 0.056256477
663000000 -0.93793803 0.066279642 -0.00017073861 -0.0022710192 0.00062679232 -0.0021085306 -0.93623257 0.053876497
664000000 -0.936831 0.066445976 -0.00087153754 -0.0024922013 -0.00047178834 -0.0014958841 -0.93538493 0.054141324
665000000 -0.93728417 0.066760801 -0.00040927686 -0.0028166473 -0.00022337429 -0.0027567435 -0.93604428 0.055524375
666000000 -0.9371627 0.067815974 -0.00075269921 -0.0022909208 -0.00072511006 -0.002149794 -0.93647444 0.055686917
667000000 -0.93727994 0.068250835 -0.00053787651 -0.0027719485 -0.00089893187 -0.0024042421 -0.93722612 0.054261044
668000000 -0.93700951 0.066193327 -5.7937883e-005 -0.0030191382 -0.00057737523 -0.0037634221 -0.93746591 0.055024296
669000000 -0.93785715 0.067046404 -0.0010007157 -0.0034930895 -0.00047834328 -0.0028947182 -0.93610001 0.053692821
670000000 -0.93725032 0.06892138 -0.00070600671 -0.0034979961 0.00015222859 -0.0031586471 -0.9367972 0.056051381
671000000 -0.93672055 0.066459924 -6.5705382e-005 -0.0027082656 -0.0011814298 -0.001962268 -0.93713588 0.056233194
