!Keysight Technologies,M9374A,MY55442783,A.12.55.05
!Date: Friday, May 21, 2021 10:54:32
!Correction: S11(Full 2 Port(1,2)) 
!S21(Full 2 Port(1,2)) 
!S12(Full 2 Port(1,2)) 
!S22(Full 2 Port(1,2)) 
!S2P File: Measurements: S11, S21, S12, S22:
# Hz S  RI   R 50
500000000 -0.94101423 0.051668946 -0.00046664814 -0.0017439581 -0.00051561627 -0.0013659042 -0.93665588 0.042566057
501000000 -0.94071466 0.05131067 -0.0003788177 -0.0020720903 -0.0016424617 -0.0012779259 -0.93829846 0.043073308
502000000 -0.93994057 0.050105181 3.4661382e-006 -0.0027122973 -0.00027005139 -0.0010042697 -0.93859249 0.04188234
503000000 -0.93906283 0.051145021 -0.00057733216 -0.002069969 -0.00020262212 -0.0020114125 -0.93853885 0.043098066
504000000 -0.93946499 0.052596088 0.00020922581 -0.0023461548 -0.001055722 -0.0026623562 -0.93860149 0.041772336
505000000 -0.94017512 0.051725365 0.00034662604 -0.0012489371 -0.00020196452 -0.0018254288 -0.93686223 0.0434599
506000000 -0.93926907 0.051137708 -0.00043801489 -0.0020646835 -0.00060844049 -0.0017954084 -0.93716061 0.042010702
507000000 -0.93869793 0.053367391 7.8616984e-005 -0.0016950147 0.00065844605 -0.0020067792 -0.93666446 0.044873204
508000000 -0.94076586 0.052400351 -0.00042289076 -0.0020339063 0.00037214372 -0.0024927584 -0.93809766 0.042834383
509000000 -0.93836594 0.053854972 -3.9221646e-005 -0.0027558056 -0.0018958767 -0.0021748859 -0.93794501 0.043254424
510000000 -0.93867731 0.052305397 -0.00053793727 -0.0031159779 7.0062153e-005 -0.0023894042 -0.93717891 0.042323139
511000000 -0.93905735 0.052861564 -0.00049720216 -0.0024014316 0.00024757531 -0.0014863353 -0.93695742 0.045435697
512000000 -0.94031465 0.05113348 0.000503749 -0.0030380271 -0.00067637651 -0.003089617 -0.93805546 0.042834122
513000000 -0.93830484 0.053674269 9.9178411e-005 -0.0021144545 -0.00030960623 -0.002610344 -0.9365049 0.042726196
514000000 -0.9395076 0.052351378 -0.00062083808 -0.0034246186 -0.001619884 -0.0025303941 -0.93853718 0.043283369
515000000 -0.93850768 0.054201905 0.00028355489 -0.0023838759 -0.000617115 -0.0011385138 -0.9372738 0.044417143
516000000 -0.93916684 0.052678995 0.00024980895 -0.002209089 -0.00060923072 -0.0019323636 -0.93616706 0.043245934
517000000 -0.93998766 0.052115075 0.00064870407 -0.0022117144 9.6581731e-005 -0.0020022562 -0.93796003 0.043348342
518000000 -0.94058669 0.052940704 -0.00057655375 -0.0011503961 -0.00087579992 -0.0024795814 -0.93643343 0.044700392
519000000 -0.94028383 0.052980047 -0.00053143455 -0.0023599442 -0.0010215854 -0.0015936157 -0.93674392 0.044521119
520000000 -0.93850625 0.051989544 0.00012079402 -0.0022144571 0.0007595956 -0.0021473279 -0.93737638 0.045448612
521000000 -0.93863344 0.052936405 -0.00023519088 -0.002175244 -0.0012613739 -0.003024674 -0.93790942 0.044347797
522000000 -0.94085205 0.053452764 -0.00056992075 -0.0011953083 -0.00056543277 -0.0015530318 -0.93850011 0.043753821
523000000 -0.93840766 0.05263504 -0.00085519988 -0.0017946471 -0.00053152477 -0.0019566177 -0.93683553 0.044817451
524000000 -0.9387939 0.054709878 -0.00085425039 -0.0017635081 0.00034539838 -0.0014576083 -0.93799824 0.045818992
525000000 -0.93867689 0.054410532 -0.0009786227 -0.0024501893 0.00019217379 -0.0029295341 -0.9372527 0.045736708
526000000 -0.93935043 0.056115661 -0.00044393542 -0.0027460465 -0.00025003497 -0.0025144902 -0.93783319 0.044695143
527000000 -0.94025707 0.054509204 -0.00051155 -0.0018627804 -4.5761204e-005 -0.002769046 -0.93740314 0.046104986
528000000 -0.94042224 0.056065649 0.00062768592 -0.0023799681 -0.00076937815 -0.0018735239 -0.93662304 0.048390921
529000000 -0.93904054 0.053834375 -0.000926012 -0.0015657379 -0.0017311606 -0.0025129658 -0.93464881 0.045820147
530000000 -0.93969482 0.053750042 -0.0014165371 -0.00078936561 -0.00048966741 -0.00072795647 -0.93784469 0.046931375
531000000 -0.93812656 0.054559629 0.00022076731 -0.0022277969 -0.00036417707 -0.0026773869 -0.93713087 0.047438104
532000000 -0.93915552 0.05486276 -0.00051058078 -0.0022560372 -0.00020121792 -0.0020493201 -0.9361732 0.046229545
533000000 -0.93899024 0.055753008 -0.0016223012 -0.0031211334 -0.00088470796 -0.0021630088 -0.93871981 0.047236692
534000000 -0.93957895 0.053893887 -0.00031575386 -0.0012818498 -4.5435605e-005 -0.0026568668 -0.93746841 0.044272795
535000000 -0.94027811 0.056471076 -0.00037489383 -0.00089750096 -0.00061234424 -0.0032328542 -0.93824828 0.048402857
536000000 -0.94005728 0.055599291 -0.0010481043 -0.00083601719 0.00019318587 -0.0013862366 -0.93757188 0.047367387
537000000 -0.94009942 0.054036729 -4.7366972e-005 -0.0022057495 -0.00081995811 -0.0018187223 -0.93750095 0.046830393
538000000 -0.93811387 0.056393173 -0.00055030728 -0.002281589 -0.00070311659 -0.0022857555 -0.93701565 0.046148289
539000000 -0.93824923 0.05544284 -0.0013243224 -0.0020313738 0.00011181679 -0.0028673115 -0.93871737 0.047673617
540000000 -0.93927693 0.056065697 -0.00081511564 -0.0027592024 -0.00037272222 -0.00088855351 -0.93657827 0.047695871
541000000 -0.93769771 0.055897754 -0.0014869932 -0.0019898959 -0.0013922219 -0.0015286166 -0.93718982 0.047324065
542000000 -0.93864089 0.054915249 3.6398628e-006 -0.0024125255 -0.00014705965 -0.0010968635 -0.93620211 0.045929644
543000000 -0.93851733 0.056645583 -0.00045418978 -0.0027473539 -0.00055754272 -0.0022034408 -0.93687135 0.047258578
544000000 -0.93916118 0.055402115 0.00023206492 -0.0015792907 -0.00095819787 -0.0025523321 -0.93807805 0.046901889
545000000 -0.93915647 0.055163186 -0.00054648065 -0.0012822897 0.0007648936 -0.0038470172 -0.93851602 0.047499582
546000000 -0.93812859 0.056592934 -0.0011242304 -0.0016050091 -0.0010266184 -0.0029408424 -0.93780911 0.047703035
547000000 -0.93922508 0.054670773 -0.00027221403 -0.0028848075 -0.0010966597 -0.0019781645 -0.93844146 0.047728132
548000000 -0.93922335 0.056076903 -0.00043692524 -0.0019392383 -0.0001798703 -0.002352634 -0.93678176 0.047100499
549000000 -0.9389919 0.057783354 0.00070691516 -0.0019935388 -0.00069261936 -0.0018865785 -0.93601972 0.048010245
550000000 -0.93659002 0.054844789 -0.00027371634 -0.0021056442 -0.00062110357 -0.001828701 -0.9364332 0.04821052
551000000 -0.93780965 0.055113334 -0.00070386485 -0.0014346289 -0.00065288733 -0.0027054755 -0.93628693 0.04627566
552000000 -0.93868196 0.055621851 -0.00028914152 -0.0026254363 -0.00046022586 -0.0013893117 -0.93873107 0.046988595
553000000 -0.93948239 0.05445461 -0.0015572757 -0.0018973317 -0.00036753813 -0.0020852617 -0.93644595 0.048033163
554000000 -0.93810928 0.05672041 0.00019785811 -0.0025542094 -9.5984527e-005 -0.0022852533 -0.93784308 0.047644872
555000000 -0.93702567 0.054783087 -5.4082589e-005 -0.0015912355 -0.00079886982 -0.0021170459 -0.93751991 0.046695717
556000000 -0.93810093 0.056822591 -0.00015266119 -0.0021676556 -4.6421759e-005 -0.0021982896 -0.93944764 0.048060812
557000000 -0.93883973 0.055099726 -0.00071724434 -0.0017225612 0.00025468881 -0.0016268308 -0.93865973 0.047726519
558000000 -0.93801826 0.055911362 -0.00080096605 -0.0014871068 -0.00093570095 -0.0027141878 -0.9383195 0.049333379
559000000 -0.93810993 0.056314975 -0.0011822627 -0.0017391396 -0.00022800763 -0.0025099576 -0.93812376 0.047592584
560000000 -0.93886799 0.05608099 0.00012044099 -0.002424387 -0.00020569585 -0.0021733029 -0.93842125 0.0500766
561000000 -0.9373197 0.055939183 0.00041875677 -0.0032752166 -0.00067215227 -0.002363737 -0.93783915 0.04679092
562000000 -0.93990648 0.055231012 -0.0011651331 -0.0026153054 -6.716702e-005 -0.0024531691 -0.93749207 0.047390368
563000000 -0.93943048 0.055687282 -0.00067076785 -0.0022253005 -0.0010946075 -0.0014373845 -0.93619537 0.04868177
564000000 -0.93754667 0.056000628 -0.00035535716 -0.0022059162 0.00017601789 -0.0019860386 -0.93653744 0.047707573
565000000 -0.93772668 0.055925075 -3.4028624e-005 -0.0028775029 -0.00032618636 -0.0017368537 -0.93625659 0.046995949
566000000 -0.93738657 0.056719821 -0.00055234553 -0.0023525939 -0.00096430635 -0.0015859578 -0.93766147 0.048622012
567000000 -0.93799728 0.055278033 -0.00034202964 -0.002831148 -0.00054170098 -0.0026935642 -0.93567157 0.046958566
568000000 -0.93791926 0.056477174 -3.8134825e-005 -0.0016259821 0.00034550589 -0.0025297406 -0.93797839 0.048474934
569000000 -0.94043201 0.056326699 -0.00049450825 -0.001588807 -1.4637938e-005 -0.0024938397 -0.93726146 0.047908258
570000000 -0.93848455 0.05575987 -0.00019935239 -0.0022692264 -0.00026714159 -0.0025496699 -0.93771398 0.049332742
571000000 -0.93735075 0.057478487 -0.0010346 -0.0020907058 -0.00073024427 -0.0030315339 -0.93739736 0.048143588
572000000 -0.93793178 0.055988453 -0.00010284811 -0.0028346046 -0.0010970106 -0.001756249 -0.93600339 0.048474248
573000000 -0.93870074 0.055911917 3.6686091e-005 -0.0024062304 0.00013918197 -0.0019831455 -0.93732905 0.048797097
574000000 -0.93714505 0.05585419 -0.00093319389 -0.0018184929 -0.00065923989 -0.0026489957 -0.93950826 0.048230041
575000000 -0.93776774 0.057087101 -0.00015488618 -0.0017256356 -0.00072116684 -0.0023313307 -0.93731636 0.049533941
576000000 -0.93841094 0.056541998 0.00017361081 -0.0014355528 0.00043963385 -0.002265323 -0.93710667 0.04915721
577000000 -0.93857133 0.057127938 -0.00025705039 -0.001782811 -0.00013373076 -0.0019910843 -0.93827021 0.049010016
578000000 -0.93788993 0.056251459 -4.3704844e-005 -0.0018245123 -0.00042085248 -0.0031993124 -0.93645227 0.047185902
579000000 -0.9389447 0.056866091 -0.00012676315 -0.0026837732 -0.00027239515 -0.0018464092 -0.93832499 0.046848137
580000000 -0.93693656 0.055717211 -0.00064004987 -0.0020829248 -0.00093952374 -0.0023172162 -0.93651819 0.049646296
581000000 -0.93898469 0.057086542 9.0911701e-005 -0.0024874045 -0.00035020447 -0.0026582433 -0.93843985 0.049062766
582000000 -0.93692017 0.056318574 -0.00073813449 -0.0024543316 0.00041869574 -0.0026930973 -0.93562484 0.048692126
583000000 -0.93671477 0.059534501 -0.00040237117 -0.002740419 -0.0017367506 -0.0026270899 -0.93821603 0.048876651
584000000 -0.93777472 0.057815239 -0.0016023787 -0.0018910784 0.00015910836 -0.0023192356 -0.93821174 0.051279277
585000000 -0.93847698 0.057138473 0.00015066715 -0.0019993912 -0.00054723665 -0.002410735 -0.93815535 0.049415484
586000000 -0.93731463 0.056781124 -0.00077397091 -0.0007201244 -0.00027944622 -0.0022998697 -0.93598694 0.048794683
587000000 -0.93754107 0.058543123 0.00053765101 -0.0019153112 -0.00038262404 -0.0034683235 -0.93590814 0.049802724
588000000 -0.93845755 0.057221133 8.630479e-005 -0.0010880296 0.0011672532 -0.0020911647 -0.93708503 0.047915541
589000000 -0.93720049 0.057971463 -0.0003809761 -0.0027371363 -0.000716465 -0.002831277 -0.93618423 0.05005575
590000000 -0.93783641 0.059059028 -0.0011981061 -0.002309086 -0.0011100195 -0.0028114785 -0.9366855 0.049498789
591000000 -0.93993986 0.058735978 -0.00050296151 -0.0036464785 -6.4254265e-005 -0.0038311055 -0.9375475 0.049224712
592000000 -0.93669331 0.057292096 -0.0009294998 -0.0023913796 -0.000716126 -0.0035678495 -0.93818283 0.050646771
593000000 -0.93832648 0.057262242 0.00019112388 -0.0030643025 0.00011242797 -0.001293577 -0.93737507 0.049408402
594000000 -0.93877441 0.059334796 -0.00046829987 -0.0027879619 -0.00094971806 -0.0013545351 -0.93635017 0.050084881
595000000 -0.93894672 0.058544151 -0.00058160024 -0.0017258627 8.6930122e-005 -0.0011691531 -0.93672407 0.048747271
596000000 -0.938995 0.057741337 -0.00016569706 -0.0017956503 0.0008373608 -0.0018501809 -0.93650472 0.049486112
597000000 -0.93818665 0.059022982 0.0007867759 -0.0019904566 0.00038424376 -0.0029242279 -0.93680686 0.050193451
598000000 -0.93735623 0.060004488 -0.0013662251 -0.0030375102 5.0655559e-005 -0.0017323324 -0.93664533 0.050592396
599000000 -0.9381671 0.058596097 0.00033090197 -0.0024581766 -0.00034304406 -0.0021255764 -0.93651289 0.050395254
600000000 -0.93846065 0.059971437 -0.0010945483 -0.0022984664 7.4185737e-005 -0.0028924143 -0.93761426 0.050028872
601000000 -0.93814975 0.061130941 -0.00011591968 -0.0019208759 -0.00057339238 -0.0024861831 -0.93606722 0.049939048
602000000 -0.93821967 0.059692442 9.2284085e-005 -0.0025273273 -0.00083199266 -0.0023472775 -0.93741351 0.051843017
603000000 -0.93927252 0.060594443 -0.00096666219 -0.002649622 -0.0007702327 -0.0036415798 -0.93763226 0.048951421
604000000 -0.93790591 0.0600187 -0.0002613574 -0.0033041521 -0.00076055864 -0.0034354255 -0.93784922 0.052026138
605000000 -0.93711591 0.060724135 -0.00032621084 -0.0019054653 0.00090938469 -0.0026254307 -0.93657607 0.050860509
606000000 -0.93708307 0.060543336 -0.00092182099 -0.0023512742 0.00014356276 -0.0029717435 -0.93714076 0.050968431
607000000 -0.93842369 0.061715417 -0.0004408551 -0.0013591992 -0.0015960389 -0.0018179597 -0.93680775 0.049530711
608000000 -0.9396463 0.060877044 0.0005944001 -0.0023382779 -0.00048772857 -0.0026952706 -0.93660051 0.050724708
609000000 -0.93791479 0.06091192 0.00024683811 -0.0023772961 -0.00099032791 -0.0017558903 -0.93685734 0.050532583
610000000 -0.93919313 0.06058792 -0.00060128345 -0.0016983064 -0.00093692809 -0.0017501635 -0.93483537 0.052371357
611000000 -0.93802315 0.060393851 0.00014500476 -0.0015329028 0.00027831414 -0.0026390352 -0.93555063 0.050041869
612000000 -0.93764657 0.062151272 -0.0021627555 -0.002164745 3.5893652e-005 -0.0023978299 -0.93847632 0.051513955
613000000 -0.93853664 0.061207671 -0.00027251494 -0.0024859144 0.00024368028 -0.0016245148 -0.93545866 0.051078752
614000000 -0.93772602 0.061052997 -0.00091186794 -0.0017996383 -1.6379836e-005 -0.0023320459 -0.93857658 0.051416248
615000000 -0.93635142 0.06330584 -0.0011946063 -0.0018518288 -0.00015831972 -0.0022041453 -0.93603349 0.052974213
616000000 -0.9386937 0.061201155 0.0003297815 -0.002611785 -0.0003410292 -0.0028592933 -0.93556899 0.052324601
617000000 -0.93842196 0.0623997 -0.00087266287 -0.0027461946 0.00011839571 -0.0026356762 -0.93510503 0.05488785
618000000 -0.93679923 0.063827246 -0.00017988951 -0.0019984399 -0.00034438551 -0.0014740706 -0.9378522 0.052832272
619000000 -0.93674934 0.062333703 -0.0010553083 -0.0022861492 -0.00040038416 -0.002475033 -0.93787026 0.053402998
620000000 -0.93649483 0.061995577 -0.00040473469 -0.0033677006 -0.00025222549 -0.0016313856 -0.93643618 0.052091002
621000000 -0.9386611 0.06384249 -0.00032777208 -0.0034139028 0.00014019047 -0.0032297515 -0.93676704 0.053028859
622000000 -0.93768954 0.063025378 -0.00081578741 -0.0028900595 0.00023556626 -0.0022938724 -0.93728435 0.052094817
623000000 -0.93619335 0.062177427 -0.0005176682 -0.001705635 -0.0011173335 -0.0025519591 -0.93522447 0.052100718
624000000 -0.93938953 0.063878745 -0.0019539432 -0.00354379 0.00053375144 -0.0024675664 -0.93526042 0.052508794
625000000 -0.93802828 0.064342625 -0.00089063984 -0.0011520417 0.00025806625 -0.0016389311 -0.93700534 0.052840594
626000000 -0.93886572 0.062603675 -0.00094291533 -0.0025147416 -0.00059934007 -0.0030826717 -0.93703341 0.054588914
627000000 -0.93850613 0.063535623 -1.7755214e-005 -0.0030385358 -0.0015685572 -0.0029418312 -0.93713057 0.053559549
628000000 -0.93881559 0.063784346 -0.00041495645 -0.0034235213 -0.0012470467 -0.0028586322 -0.93688941 0.054111298
629000000 -0.93598557 0.0639553 -0.00055806141 -0.0026521799 -0.00012076843 -0.0035230257 -0.93715566 0.053618908
630000000 -0.93678141 0.063203514 0.00070791389 -0.0026870163 -1.5189845e-005 -0.0019401337 -0.93728656 0.054712452
631000000 -0.93889958 0.064149655 -0.00087554188 -0.0022506397 0.00014651325 -0.0024012243 -0.93598753 0.05574758
632000000 -0.93620467 0.064399712 -0.00066426618 -0.0033982291 -0.00025226155 -0.0022155668 -0.9356963 0.054715186
633000000 -0.93874431 0.064120457 1.8000563e-006 -0.0033383167 -0.00098875072 -0.0024195488 -0.93740767 0.053492274
634000000 -0.93579 0.066660024 -0.00099500956 -0.0025868348 -0.00061096076 -0.0026739142 -0.93663573 0.053943451
635000000 -0.93768191 0.064363874 -0.00091959169 -0.0021450743 -0.0013125929 -0.0024503814 -0.9363147 0.05228949
636000000 -0.9377948 0.064954959 0.00046819056 -0.0028031613 -0.00032300045 -0.0022584843 -0.93568599 0.05285183
637000000 -0.93839765 0.064218357 0.00022101277 -0.0025525547 -0.00015597984 -0.0014320045 -0.9351632 0.054137919
638000000 -0.93610007 0.065643892 -0.00019567925 -0.0032791875 0.00055572257 -0.0025368757 -0.93685532 0.054864407
639000000 -0.93903577 0.065191515 0.00026304234 -0.0025277659 -0.0011264581 -0.0027343321 -0.93670833 0.054167658
640000000 -0.93815029 0.066906147 -0.0013310583 -0.0027497346 -0.0005337352 -0.0026708038 -0.93667245 0.053575605
641000000 -0.93737525 0.066440009 -0.00048379446 -0.0015424656 -0.00090505555 -0.0031095606 -0.93555659 0.055563051
642000000 -0.93755746 0.065216273 -0.00011374307 -0.0030408786 -0.00060212309 -0.0022977509 -0.9374615 0.053986464
643000000 -0.93738943 0.067767106 -5.4930675e-005 -0.00099969166 0.00027655406 -0.0025878709 -0.93609422 0.053742919
644000000 -0.93752044 0.066784814 -0.00056691014 -0.0026306408 -0.00058853027 -0.0023051752 -0.93749881 0.055675045
645000000 -0.93812776 0.065799288 -0.00086912652 -0.0024942695 -0.00030167971 -0.0023935311 -0.93643743 0.054554421
646000000 -0.93749076 0.065991133 9.7029908e-005 -0.0022545508 -0.00019735048 -0.002717495 -0.93565351 0.054640073
647000000 -0.93830699 0.064859062 -0.00030415406 -0.0026112809 -0.00038657969 -0.0033779326 -0.93489558 0.055760846
648000000 -0.9356178 0.06751579 -0.0016702805 -0.0032600486 0.00024282618 -0.0018753895 -0.93505555 0.05481365
649000000 -0.93744242 0.066485591 -1.0336088e-005 -0.0026771831 -0.00018403109 -0.0024717415 -0.93860132 0.056006238
650000000 -0.9344337 0.066425338 -0.0012621213 -0.0025291506 5.3309752e-005 -0.0025871736 -0.9349981 0.056000218
651000000 -0.93694443 0.065625742 -0.0008622157 -0.0028286607 9.0219764e-005 -0.0030759228 -0.93534869 0.054358587
652000000 -0.93776673 0.066726603 -0.00045891627 -0.002045135 -0.00045598089 -0.0025839545 -0.93613678 0.054821163
653000000 -0.93798745 0.065929823 -0.00039698559 -0.0027875477 -0.0005144045 -0.0017734106 -0.93503684 0.054672431
654000000 -0.93760568 0.065243289 0.00028876253 -0.0036460061 -0.00035083675 -0.0031743718 -0.9365291 0.055272151
655000000 -0.93685448 0.06531512 -0.00083265221 -0.0021409891 0.00042614352 -0.0028851631 -0.93574107 0.054994851
656000000 -0.93585503 0.067055814 -2.0338848e-005 -0.0025794434 0.0004980755 -0.0021434408 -0.93606597 0.053940382
657000000 -0.93795335 0.066263579 -0.00022334306 -0.0027664823 0.00015230046 -0.0028200343 -0.93541873 0.056834899
658000000 -0.93638754 0.068069249 0.0003173523 -0.0019972231 0.00020734053 -0.0026592195 -0.93520373 0.054239679
659000000 -0.9369927 0.066854335 1.4882672e-005 -0.003016134 -0.00015845634 -0.002333431 -0.93552518 0.055173691
660000000 -0.93578768 0.067083627 0.00031875484 -0.00335328 -0.0013119131 -0.0020638199 -0.93655735 0.055724237
661000000 -0.9388175 0.067416981 -0.00052305678 -0.0019492196 -0.00037500789 -0.002834345 -0.93632859 0.057454664
662000000 -0.93789566 0.068579949 -0.00082869362 -0.0022086259 -0.00020581133 -0.0019707587 -0.93673372 0.055862881
663000000 -0.93796372 0.067294113 -0.0010756011 -0.0026642517 -0.00035984741 -0.0031647787 -0.93340921 0.054709654
664000000 -0.93668598 0.066693373 0.00014151855 -0.0028602956 -0.00052144262 -0.0015973378 -0.93519521 0.057726957
665000000 -0.9369787 0.067991786 0.0003369539 -0.004056788 -0.001122047 -0.0027865027 -0.93664783 0.056161962
666000000 -0.93702328 0.067090921 -0.0011784438 -0.0025639122 -0.0010112284 -0.0014107334 -0.93640703 0.055416096
667000000 -0.93819493 0.067779839 -0.00054629688 -0.0031912485 -0.00084620807 -0.001837132 -0.93550396 0.056228094
668000000 -0.93617505 0.066475056 -9.5449112e-005 -0.0024415713 -0.00030673528 -0.002689671 -0.9358322 0.054923244
669000000 -0.93707848 0.066848859 -0.00014068614 -0.00266459 -7.8332632e-005 -0.0027062641 -0.93500406 0.056714047
670000000 -0.93604022 0.067913152 0.00056974223 -0.0019747713 -0.0011691452 -0.0034391293 -0.93653697 0.057423465
671000000 -0.93663228 0.068658449 -0.00018419181 -0.0023500754 0.00027436382 -0.002153106 -0.9355852 0.057060145
