!Keysight Technologies,M9374A,MY55442783,A.12.55.05
!Date: Friday, May 21, 2021 10:38:20
!Correction: S11(Full 2 Port(1,2)) 
!S21(Full 2 Port(1,2)) 
!S12(Full 2 Port(1,2)) 
!S22(Full 2 Port(1,2)) 
!S2P File: Measurements: S11, S21, S12, S22:
# Hz S  RI   R 50
500000000 -0.93810022 0.052230816 0.00027531057 -0.0024308281 0.00035495826 -0.0024070719 -0.93697464 0.04160437
501000000 -0.93876475 0.052557714 0.00026777171 -0.0024077576 -3.80452e-005 -0.0019647058 -0.93681526 0.043057706
502000000 -0.93843752 0.052735936 0.00042069043 -0.0022471845 0.00018507431 -0.0026524616 -0.93717456 0.043031313
503000000 -0.93709701 0.051436279 0.0003942328 -0.00076524034 0.00052572007 -0.0022523419 -0.93843913 0.042955842
504000000 -0.93796158 0.053377036 0.00034753786 -0.0011721017 -0.00024612993 -0.0029001851 -0.93734795 0.042811014
505000000 -0.93774718 0.051944248 -0.00057532697 -0.0013402615 -0.00028010283 -0.0028250196 -0.93660516 0.044041939
506000000 -0.93798459 0.052187279 -0.00056703627 -0.0013026457 -7.5004995e-005 -0.0017702583 -0.93759996 0.044323627
507000000 -0.93817997 0.052707788 -0.00044110668 -0.0019203053 -0.00068765169 -0.0017767473 -0.93575853 0.045855645
508000000 -0.93720257 0.053621896 -0.00069056667 -0.0020298825 -0.00079690007 -0.0012623376 -0.93701977 0.044940926
509000000 -0.93918711 0.054139834 -0.0013047754 -0.0026464071 -0.00026318603 -0.002616412 -0.9370892 0.043744128
510000000 -0.93761444 0.054346155 0.0005069027 -0.0018300975 0.0012292325 -0.002911912 -0.93665296 0.044146031
511000000 -0.93920088 0.053623963 -0.00062450138 -0.0016914018 -0.00022108223 -0.002712203 -0.93747884 0.045838766
512000000 -0.93798858 0.052594092 2.7264716e-005 -0.0012288417 -0.0002583052 -0.0021805137 -0.93817735 0.044883072
513000000 -0.93911654 0.054205503 -2.22686e-006 -0.0028386309 0.00016611358 -0.0017597903 -0.93805432 0.044573594
514000000 -0.93833905 0.054336909 -0.00078899233 -0.0022023653 0.00047408888 -0.002745521 -0.93741453 0.045408715
515000000 -0.93807751 0.05317897 -0.00057119381 -0.0027671901 -0.00085352955 -0.0014291334 -0.93749583 0.04504659
516000000 -0.93784964 0.054040592 -0.00047456505 -0.002543356 -0.00087224162 -0.0020355987 -0.93691415 0.044345133
517000000 -0.93798953 0.053003337 1.4852183e-005 -0.0018812409 -0.00061065593 -0.0027981275 -0.93856776 0.045361623
518000000 -0.93739384 0.056124259 -0.0011457585 -0.0023364343 -2.958392e-005 -0.0016079035 -0.93876272 0.045198862
519000000 -0.93808717 0.05364617 -0.0010832968 -0.0022476963 -0.00081996841 -0.0026854754 -0.93804413 0.045898028
520000000 -0.93739456 0.054689735 -0.00015920209 -0.0029026046 -0.00015630932 -0.0019222792 -0.93741888 0.047123324
521000000 -0.93712676 0.056539577 -0.0005196046 -0.0020887763 -0.0011755405 -0.001732856 -0.93729162 0.046418648
522000000 -0.93835872 0.054529049 -0.00074657635 -0.0024693015 -0.00024157227 -0.0034538691 -0.93596202 0.04582822
523000000 -0.93763781 0.053599574 0.00019913097 -0.0019898405 -0.0011843232 -0.0029984235 -0.93709886 0.045794785
524000000 -0.9371829 0.055697873 -0.00083193695 -0.0015783386 -8.6334308e-005 -0.0023134102 -0.93683928 0.045380712
525000000 -0.93724465 0.055717286 -0.00032628237 -0.0013615551 -0.00015511765 -0.0020814943 -0.93507791 0.046814658
526000000 -0.93627226 0.0546414 0.00063048245 -0.0017815267 6.1241582e-005 -0.0035263665 -0.93430495 0.047046226
527000000 -0.93902332 0.055681866 0.00018642652 -0.0026495364 -0.00046669802 -0.0026633446 -0.93605739 0.047192596
528000000 -0.938712 0.056027234 -0.00048524278 -0.0026930219 0.001008662 -0.0019974902 -0.9368273 0.04652277
529000000 -0.93904632 0.056303862 -0.00022305455 -0.0020497078 0.00026586055 -0.002247809 -0.93584526 0.046695396
530000000 -0.93782443 0.055663902 0.00047647007 -0.002099229 0.00056517671 -0.0028748328 -0.93447137 0.048173759
531000000 -0.93747771 0.056318499 0.00044612997 -0.0023169124 -0.00045170484 -0.0023132996 -0.93641537 0.048081469
532000000 -0.93743616 0.055848695 -0.00032507899 -0.001711961 -7.8532266e-006 -0.0020745986 -0.93650007 0.047657851
533000000 -0.9384616 0.055192422 -0.0011783143 -0.0018593612 0.00046392993 -0.0018339263 -0.93605143 0.047447514
534000000 -0.93777186 0.056066517 -0.00052891771 -0.0018946487 -0.00049514929 -0.0016508617 -0.93706858 0.047550898
535000000 -0.93765396 0.05757618 -0.0015979962 -0.0021058556 -0.0012107937 -0.0024662558 -0.93563843 0.047025744
536000000 -0.93756741 0.055822171 -0.00056321698 -0.0029753696 -9.2076334e-005 -0.00093997893 -0.936207 0.048336841
537000000 -0.938348 0.056740563 -0.00079144794 -0.002095375 -0.00081302575 -0.0023891698 -0.93819094 0.04820567
538000000 -0.9384008 0.056463283 -0.00080190226 -0.0027121608 0.00032583164 -0.0024427653 -0.93583775 0.04895385
539000000 -0.93918484 0.055966593 -0.0005575472 -0.0027838792 -0.00013888275 -0.0018123675 -0.93662244 0.046958134
540000000 -0.93850493 0.056524377 -0.00025108567 -0.0011898263 -0.00032796562 -0.0017430222 -0.93696743 0.048812568
541000000 -0.9371317 0.056467518 -0.00026792669 -0.00093411247 -0.00033839236 -0.0017492424 -0.93704605 0.049690939
542000000 -0.93747616 0.055981774 -0.0014473101 -0.0016621224 -0.0003420194 -0.0015922416 -0.93458885 0.048525069
543000000 -0.93784618 0.055880021 -0.00010598278 -0.0021581089 -0.00036413062 -0.0031679582 -0.93611008 0.048684906
544000000 -0.93814594 0.057793144 -0.00065579161 -0.0025091644 -0.00056411792 -0.0022798781 -0.93653142 0.048715763
545000000 -0.9396019 0.055717446 -3.779375e-005 -0.0022704508 -0.00045244326 -0.0024383131 -0.9366706 0.0484992
546000000 -0.9377718 0.056652468 -0.00042085975 -0.0019583451 -0.00024442642 -0.0028118631 -0.93647009 0.046703279
547000000 -0.93729061 0.056830067 6.0749444e-006 -0.0017830832 -5.2273725e-005 -0.001381342 -0.93671054 0.049279451
548000000 -0.93739712 0.05843826 -0.00025656942 -0.0023636497 9.7048265e-005 -0.0026217019 -0.93612343 0.048291802
549000000 -0.9374693 0.056859586 0.00044917507 -0.0019275297 -0.0012999241 -0.0017372018 -0.93802726 0.050218388
550000000 -0.93554693 0.058298014 -0.00047178398 -0.0020387047 -0.00053490786 -0.00203489 -0.93459314 0.048949715
551000000 -0.93721998 0.056347772 0.00027403311 -0.0021341657 -0.00080076995 -0.0020072747 -0.93723166 0.049069256
552000000 -0.93831402 0.056161005 -0.0005797029 -0.0015597084 -0.0016344888 -0.0024348558 -0.93643767 0.048937924
553000000 -0.93676639 0.056535482 8.9948931e-005 -0.0026778893 -0.00019169421 -0.0026774898 -0.93745852 0.048760772
554000000 -0.93709415 0.056591596 3.8416805e-005 -0.0020599694 -0.00015063652 -0.0016430679 -0.93638897 0.048918597
555000000 -0.93705928 0.058299765 -0.00097833911 -0.003712035 -0.0010917818 -0.0026884933 -0.93749785 0.049902361
556000000 -0.93705004 0.056606062 -0.00035717752 -0.0030529192 -0.00047331257 -0.0016737414 -0.93694359 0.04967349
557000000 -0.9367438 0.058510471 -0.00027580926 -0.0028129183 -5.2501502e-005 -0.0016936517 -0.93691933 0.04780224
558000000 -0.93749571 0.056176543 -0.00019475257 -0.0032635736 -0.0012910104 -0.0020767632 -0.93763536 0.049000736
559000000 -0.93818372 0.057214495 -0.0006472508 -0.0017330881 -0.00082044955 -0.0013514588 -0.93763405 0.049360953
560000000 -0.93732077 0.057471737 -0.00019287186 -0.0023203674 -0.00041658201 -0.0021875785 -0.93700707 0.049039856
561000000 -0.93627977 0.055891998 0.00016333809 -0.0020701527 -0.00073688233 -0.0022433479 -0.93673134 0.047094464
562000000 -0.9375695 0.05765276 -0.0014408623 -0.0036487891 -0.0010032719 -0.0013200104 -0.93686438 0.050161365
563000000 -0.93699247 0.05951611 -0.00054897508 -0.0020812918 -0.00049425621 -0.0015690231 -0.93641454 0.049680419
564000000 -0.93735468 0.057460621 -0.00099854812 -0.0027938171 0.00067770062 -0.0020411934 -0.93724173 0.048828971
565000000 -0.93630844 0.058481887 -7.6996002e-005 -0.0022340207 0.0001300951 -0.0028493146 -0.9356786 0.049030811
566000000 -0.9377839 0.056451965 0.0007348549 -0.0018077632 -0.0013142801 -0.002865169 -0.93854266 0.050282344
567000000 -0.93641579 0.05716468 -0.0004245567 -0.0025818762 0.00060945196 -0.0025404138 -0.93716228 0.049216017
568000000 -0.93871969 0.057920072 -0.00082291703 -0.0020372402 -0.00098133401 -0.0023286887 -0.93689489 0.047621176
569000000 -0.93619686 0.057731036 0.00042037008 -0.0016055023 0.00045211893 -0.0029155232 -0.93614614 0.04954733
570000000 -0.93794948 0.05730325 0.0001724092 -0.0027307891 0.00050017069 -0.0020027037 -0.93477726 0.050011352
571000000 -0.93610454 0.057004005 -0.00018704358 -0.0019919295 -0.00031700608 -0.0023810861 -0.93615186 0.050541606
572000000 -0.93691605 0.057050776 -0.0016928675 -0.0019386555 -0.00050216785 -0.0031872978 -0.93575752 0.04959473
573000000 -0.93743575 0.057143796 -0.00066895375 -0.0018816524 -0.0010764241 -0.0035144854 -0.93713921 0.050136302
574000000 -0.93598831 0.058213346 -0.00023365085 -0.0025082109 -0.0004835756 -0.0013643156 -0.9364512 0.049845129
575000000 -0.93739092 0.059033725 -0.0013678814 -0.0012450628 -0.0008184957 -0.0020891256 -0.93666422 0.049196031
576000000 -0.93690497 0.057083368 0.00044780871 -0.0021743847 -0.00070926535 -0.0027391715 -0.93554598 0.048963614
577000000 -0.93631727 0.056316309 -0.00027032127 -0.001759026 -0.00074513967 -0.0031232743 -0.93718612 0.049222242
578000000 -0.93793583 0.057986684 -0.00051762711 -0.0029414317 -0.00015860607 -0.0033496234 -0.93566835 0.050183088
579000000 -0.9370352 0.057376288 -0.00056432886 -0.001976263 -0.0015496827 -0.0018547986 -0.9386372 0.049507868
580000000 -0.93799245 0.057096895 -0.00081569998 -0.0014776976 -0.00039047658 -0.0022866463 -0.93716854 0.050880134
581000000 -0.93662822 0.057099506 0.00028233626 -0.0020135036 0.00035776926 -0.0025432161 -0.9365319 0.049740668
582000000 -0.93645704 0.060172126 0.00059255259 -0.0018118037 -0.00028219551 -0.0030126031 -0.93779582 0.050152559
583000000 -0.93720645 0.059154537 7.9773039e-005 -0.0024061571 0.0011224771 -0.0030963181 -0.93692231 0.049796794
584000000 -0.93662262 0.057091996 0.00037410497 -0.0024524555 -0.00081009633 -0.002011884 -0.93647927 0.050704952
585000000 -0.93731916 0.058545586 -0.00024219965 -0.0020704786 -0.00024283744 -0.0022928733 -0.93619436 0.047920525
586000000 -0.93751192 0.058125276 -0.00089114695 -0.0024269195 -0.0004086314 -0.0033085118 -0.93612599 0.051281899
587000000 -0.93854731 0.059196051 -0.00018049577 -0.0022428257 -7.5844466e-005 -0.0013754366 -0.93557835 0.050610811
588000000 -0.93653655 0.060234468 -0.00018888775 -0.0021244164 -0.00085979659 -0.002052218 -0.9362011 0.049976088
589000000 -0.9358781 0.05929476 6.960184e-005 -0.003062773 -0.0012179397 -0.0030149873 -0.93711704 0.049421448
590000000 -0.936046 0.059687689 -6.385913e-005 -0.001803009 -0.00077976706 -0.0010384987 -0.93562955 0.049484987
591000000 -0.93757504 0.061841331 -0.001427018 -0.0028453488 -0.00035871755 -0.0029571885 -0.93685228 0.050903715
592000000 -0.93671036 0.059695493 -0.00050942082 -0.0024173148 5.7622812e-005 -0.0024475311 -0.93534899 0.049364105
593000000 -0.93693423 0.058156051 -0.00031810015 -0.0016473071 -6.686947e-005 -0.0017145918 -0.93680084 0.05049799
594000000 -0.93710274 0.058482334 0.00037920289 -0.0023636508 -0.00027240586 -0.0018359659 -0.93733913 0.051361803
595000000 -0.93922108 0.059490532 0.00023729047 -0.0020403469 -0.0009017546 -0.0015173559 -0.9378888 0.049693681
596000000 -0.93559223 0.057551015 -0.00047869296 -0.0021520914 8.5796077e-005 -0.0019202663 -0.93791407 0.052253775
597000000 -0.93686044 0.058911096 -2.7529171e-005 -0.0027942294 -0.00012955403 -0.0015024462 -0.93536627 0.051669747
598000000 -0.9381597 0.060190782 -0.0012031184 -0.0021209023 0.00022694602 -0.0018061098 -0.93679345 0.051355187
599000000 -0.93745011 0.060012888 -7.2412367e-005 -0.0028751751 -0.0006915842 -0.002420248 -0.93636483 0.051884983
600000000 -0.93779337 0.060858399 -0.00063055026 -0.0022854456 -0.00044386438 -0.0012484475 -0.93671542 0.050559465
601000000 -0.9371081 0.061966468 -0.00041462842 -0.0018737268 3.2267799e-005 -0.002429859 -0.93567884 0.051961098
602000000 -0.93783695 0.060022462 0.00024955455 -0.0016493904 6.8989561e-005 -0.002723678 -0.93597597 0.052965682
603000000 -0.93728834 0.060729381 -0.00046123387 -0.0019834649 -0.00023944957 -0.0018336038 -0.93679458 0.051692478
604000000 -0.93723524 0.062073261 -0.0001523737 -0.0039426321 -0.00018951744 -0.00073460845 -0.93865186 0.051651996
605000000 -0.93717486 0.061985489 -0.00058936968 -0.0027284231 0.00023020477 -0.0024433087 -0.93629014 0.052485328
606000000 -0.9371804 0.061184514 -0.0014374933 -0.002099751 -0.00045472095 -0.0025525005 -0.93618453 0.051419456
607000000 -0.93648469 0.061479371 0.0001142044 -0.0022302051 -9.7646647e-005 -0.0021854269 -0.93549633 0.052827198
608000000 -0.93733543 0.061276171 6.370406e-006 -0.0017802364 -0.00046552913 -0.00078465731 -0.93514037 0.053837329
609000000 -0.9379499 0.062899314 -0.0011450417 -0.0020968248 0.00040283607 -0.0025462171 -0.93466657 0.052369419
610000000 -0.93768066 0.064037852 0.00035404958 -0.0022471328 -0.00048848055 -0.0026783196 -0.93599999 0.053034693
611000000 -0.93582124 0.060461603 0.00079990388 -0.0023614061 -0.00037693363 -0.0026654114 -0.93519878 0.05281803
612000000 -0.93657011 0.060747389 0.00045897646 -0.0024387194 -0.00065539463 -0.0017555417 -0.9378497 0.052904017
613000000 -0.93566334 0.064068012 -0.0011270487 -0.0034157783 -0.0015227093 -0.002944476 -0.93567532 0.052569903
614000000 -0.9362731 0.062828109 -0.00063379633 -0.0017141989 -0.00013331576 -0.003135181 -0.93864095 0.053251721
615000000 -0.93727493 0.061235964 -0.0004935977 -0.0022236742 0.00049380679 -0.0010098333 -0.93621844 0.054285981
616000000 -0.93726784 0.063456886 -0.00085152738 -0.0024961173 -5.4590455e-005 -0.0026188358 -0.93602431 0.052226495
617000000 -0.93547767 0.065046415 5.3724554e-005 -0.0027182528 -0.0009520608 -0.0017590181 -0.93547684 0.053219289
618000000 -0.93673801 0.063155085 -0.0012798598 -0.0025425004 -0.00065766106 -0.0030892687 -0.93490934 0.051736619
619000000 -0.93658727 0.063925214 0.00034437393 -0.0024463702 -0.0012041271 -0.0021216166 -0.93542606 0.054396223
620000000 -0.93514693 0.064367071 -0.00031282529 -0.0023727075 -0.0022353178 -0.0031857907 -0.93552113 0.052956253
621000000 -0.93767333 0.065026574 -0.0019131086 -0.0034234431 3.3876199e-006 -0.0025690068 -0.93620193 0.053420998
622000000 -0.93545878 0.064784594 -0.0012818876 -0.0032607794 -0.00010121949 -0.0027270028 -0.93709111 0.05510442
623000000 -0.93550938 0.062971041 0.00066437427 -0.0024612034 7.7131299e-005 -0.0019393546 -0.93744093 0.054073356
624000000 -0.93623924 0.062188689 -0.00096809008 -0.0018470102 0.00079832377 -0.0020808605 -0.9367308 0.054434847
625000000 -0.93654579 0.066598766 0.00022850749 -0.0020129154 -0.00085662835 -0.0023194414 -0.93436527 0.052838784
626000000 -0.93490773 0.063919723 -0.00028789617 -0.0025687772 -0.0007909463 -0.0022054124 -0.93527424 0.055130724
627000000 -0.93631595 0.065650992 -0.00049532327 -0.0019122033 -0.0002127693 -0.0028815358 -0.93549162 0.053035069
628000000 -0.93661261 0.065480441 0.0010823397 -0.0021752603 -0.00092885859 -0.0035488505 -0.93750352 0.053944599
629000000 -0.9374842 0.066367842 -0.00086802355 -0.0035710372 -0.0013248629 -0.0024763306 -0.93547654 0.055147838
630000000 -0.93616754 0.065288506 -0.00019016107 -0.0022819997 -0.00092814217 -0.0032810015 -0.93458825 0.055017751
631000000 -0.93680853 0.065469868 1.8275501e-005 -0.0037224335 0.00013429156 -0.0023342175 -0.93533677 0.055405628
632000000 -0.93555903 0.065386139 -0.00041949499 -0.0021764953 0.00014611275 -0.0020848217 -0.93392861 0.056643538
633000000 -0.93483537 0.065644361 -0.00058554433 -0.0017893841 -0.0014518374 -0.0028841076 -0.93591148 0.054010525
634000000 -0.93759435 0.06630531 -0.00014246428 -0.001616585 0.00073674711 -0.0022994799 -0.93611974 0.055208012
635000000 -0.93695128 0.065862395 0.00023192645 -0.0031170186 -6.5844943e-005 -0.0019464192 -0.93605012 0.055116918
636000000 -0.93509376 0.066054031 4.6682922e-005 -0.0015482756 -0.00077642192 -0.0028822576 -0.93658292 0.054048147
637000000 -0.93594617 0.066436023 0.00026936084 -0.0034786754 0.00017802532 -0.0021162084 -0.93477762 0.054389153
638000000 -0.93503928 0.066724017 -0.00032178205 -0.0017456852 -0.0013380621 -0.0025749118 -0.93732351 0.05592775
639000000 -0.93716335 0.06803102 2.9445009e-005 -0.0023971768 -5.4304528e-005 -0.0019776747 -0.93687475 0.055336878
640000000 -0.93684578 0.065467745 -0.00038735906 -0.0024195625 -0.00044260776 -0.0037820046 -0.93579996 0.055280931
641000000 -0.93668622 0.065254666 -0.00038622099 -0.0031619016 -0.00016766817 -0.0026787168 -0.93352658 0.05593551
642000000 -0.93625581 0.06557662 -2.6138572e-005 -0.0021458226 -0.00087622798 -0.0024224098 -0.93586069 0.056037094
643000000 -0.93598592 0.06710171 -0.00030178178 -0.002894985 0.00061644276 -0.0024501088 -0.93562925 0.055088349
644000000 -0.93546128 0.067812979 -0.0010932777 -0.0028444929 -0.00086975371 -0.0024235146 -0.93630493 0.05542386
645000000 -0.9358291 0.067573972 -0.0009695965 -0.0015650571 0.00049506233 -0.002835314 -0.93500584 0.055471621
646000000 -0.93505269 0.068356253 -0.00045928135 -0.0023120027 -3.8599315e-005 -0.0024631517 -0.93628407 0.057283435
647000000 -0.9369821 0.066920727 3.0354899e-005 -0.0030239804 -0.00064546487 -0.0024408796 -0.93603981 0.055108827
648000000 -0.9370622 0.067852966 -0.00030580445 -0.0027850838 -0.0015712943 -0.0034889409 -0.93527943 0.056485943
649000000 -0.93656266 0.069461256 3.1411222e-005 -0.0019462695 -0.00096785038 -0.0022963264 -0.93605018 0.054926064
650000000 -0.9352746 0.066529602 -0.00073704543 -0.0018626908 -0.00051609951 -0.0020667652 -0.93505508 0.055283941
651000000 -0.93532735 0.068691261 -2.9920353e-005 -0.0019182084 -0.00069091591 -0.0023775771 -0.93519711 0.057361789
652000000 -0.93648994 0.067779817 -0.0001867008 -0.0026205762 -0.00055824016 -0.0026094776 -0.93506831 0.056731727
653000000 -0.93670827 0.067028508 -0.00066961319 -0.003013103 -0.0011376927 -0.0026257324 -0.93577182 0.056428529
654000000 -0.93560249 0.069702841 -0.0012412071 -0.0027660781 -0.00050065626 -0.003043171 -0.93715864 0.056158539
655000000 -0.93649423 0.069184318 -9.6280892e-005 -0.002664112 -0.00065973884 -0.0027339922 -0.93469703 0.056426618
656000000 -0.93661267 0.067426182 -0.00041135686 -0.0026917707 -0.001164503 -0.0017817767 -0.93617898 0.056093793
657000000 -0.93669152 0.069444813 -0.00027509299 -0.0037587828 -0.0011929745 -0.0024755185 -0.93557215 0.058535207
658000000 -0.93558294 0.069607444 -0.0011031913 -0.0028057313 -0.00030240393 -0.0026861513 -0.93467718 0.056981809
659000000 -0.93591422 0.068160474 -0.00025957616 -0.0032005594 -0.00050455867 -0.0019870794 -0.93579793 0.056688685
660000000 -0.93621057 0.068412267 -0.0019467664 -0.0026040687 -0.0010932037 -0.001508026 -0.93627012 0.055773396
661000000 -0.93537903 0.069492936 0.0011634162 -0.0021749234 -0.00043004469 -0.0028668207 -0.93477196 0.056165539
662000000 -0.93663514 0.069958501 -0.00043047371 -0.0033693465 -4.240873e-005 -0.0023381626 -0.9351967 0.056907807
663000000 -0.93606693 0.067942142 -8.1546394e-005 -0.0020784228 -0.00043343412 -0.0028020414 -0.93616807 0.056841515
664000000 -0.93577445 0.069094934 -4.6524299e-005 -0.0034648301 -0.0013851073 -0.0020458247 -0.93672937 0.057829656
665000000 -0.93530875 0.069400363 -0.00077247975 -0.0026660748 0.00017260999 -0.0021989609 -0.93420368 0.055883341
666000000 -0.93639129 0.068055168 6.7508648e-005 -0.002915985 -0.0015955435 -0.0028419518 -0.93630826 0.05790538
667000000 -0.93468297 0.06841179 -0.00024415911 -0.0027485427 0.0004008016 -0.00281542 -0.93678665 0.056830999
668000000 -0.93579537 0.069512673 0.00035080631 -0.0033395595 -0.00076569925 -0.0026387661 -0.93533206 0.057114586
669000000 -0.9359414 0.068646051 -0.0017020914 -0.0021491949 -0.00042719493 -0.0026181799 -0.93474084 0.05657291
670000000 -0.93717647 0.070458755 0.0003553557 -0.0017238751 -2.6886348e-005 -0.0027491446 -0.93556982 0.058144622
671000000 -0.93737644 0.067903556 -0.00020981446 -0.002522843 0.00091719901 -0.002119397 -0.93483871 0.057259794
