!Keysight Technologies,M9374A,MY55442783,A.12.55.05
!Date: Friday, May 21, 2021 11:07:29
!Correction: S11(Full 2 Port(1,2)) 
!S21(Full 2 Port(1,2)) 
!S12(Full 2 Port(1,2)) 
!S22(Full 2 Port(1,2)) 
!S2P File: Measurements: S11, S21, S12, S22:
# Hz S  RI   R 50
500000000 -0.94062364 0.049570106 -0.001045633 -0.002261125 -0.00049353653 -0.0011572117 -0.9393146 0.041025475
501000000 -0.93868679 0.052953422 -0.00081519742 -0.001925754 -0.00064975198 -0.0020273172 -0.93841654 0.042915773
502000000 -0.94042856 0.050481472 -0.00035655123 -0.0035076083 -0.00036953547 -0.0026229827 -0.9385156 0.043237239
503000000 -0.93847221 0.051126875 -0.00057573413 -0.0019367499 0.00026888089 -0.0019244977 -0.93751848 0.042893261
504000000 -0.93823713 0.052623343 -0.00062827492 -0.0021802655 -0.00080991432 -0.0019869313 -0.93862039 0.04350134
505000000 -0.93922412 0.050805442 -0.00025559336 -0.0018362749 0.00018818444 -0.0024716901 -0.93791437 0.043153986
506000000 -0.94012928 0.052049804 -0.00056845421 -0.0020864238 -0.00023178131 -0.0022178649 -0.93914282 0.042872895
507000000 -0.93897265 0.051920179 -0.00024085119 -0.0024226464 -0.0011982444 -0.0020453315 -0.93801105 0.044597179
508000000 -0.93868488 0.051440708 -0.00083847408 -0.0020365969 -0.00075083645 -0.0022498462 -0.93792439 0.044605799
509000000 -0.93911856 0.050621875 -0.000157931 -0.002282744 -0.00043722076 -0.0026840062 -0.93698293 0.043426685
510000000 -0.93953675 0.052799549 -0.00035615056 -0.0019639865 -0.00017482348 -0.0024610735 -0.93658704 0.043363079
511000000 -0.93806148 0.053868551 -0.00030426361 -0.0022689761 -0.00067207858 -0.0024804331 -0.93971366 0.044244766
512000000 -0.93928349 0.051808864 -0.00098953326 -0.0028532979 -0.00071403448 -0.0015313695 -0.93797499 0.043293685
513000000 -0.93977147 0.052082494 0.00033937101 -0.0029051441 -0.00077586243 -0.0016541876 -0.93767613 0.043226302
514000000 -0.94038302 0.052477136 0.00014186626 -0.0018536471 0.00059407327 -0.0023083568 -0.9388532 0.043278985
515000000 -0.93969911 0.052227642 -0.00055127905 -0.0029789081 -0.0012114337 -0.001720207 -0.93873775 0.043243036
516000000 -0.93930358 0.051639099 -4.5453264e-005 -0.0021262309 -0.00078239711 -0.0028328486 -0.93718398 0.04362002
517000000 -0.94055921 0.053948876 -0.00051020464 -0.0032895131 -0.00070859765 -0.0017656438 -0.9367938 0.043886311
518000000 -0.93905771 0.053237338 -0.00082608673 -0.0021172222 -9.6561402e-005 -0.0018765517 -0.93683493 0.045177616
519000000 -0.93930966 0.053313609 -0.00032299233 -0.0016803562 0.00026826086 -0.0023972634 -0.93780094 0.045039419
520000000 -0.93890387 0.053002633 -0.00028652727 -0.0025740447 -0.0006474742 -0.001784217 -0.93725806 0.043235362
521000000 -0.93831432 0.053357434 0.0003466871 -0.0015730351 -0.0001175125 -0.0021490739 -0.93697774 0.044915881
522000000 -0.94068104 0.052062016 0.00073903659 -0.0017092199 -0.00054429221 -0.0019097357 -0.93818122 0.044054441
523000000 -0.93894136 0.052399315 -0.00086089043 -0.0017076639 -0.00082003069 -0.0022309674 -0.93633062 0.04529402
524000000 -0.94046932 0.055076037 -0.00084175105 -0.0014760734 -0.00074159459 -0.0027694413 -0.93830323 0.044905987
525000000 -0.94054878 0.052659441 0.00013361881 -0.0013690126 -0.0014248125 -0.0034079177 -0.93843001 0.045320712
526000000 -0.93972498 0.054056842 -0.00085561298 -0.0030605164 0.00014258716 -0.00061954599 -0.93768352 0.045485821
527000000 -0.94121343 0.054836612 -0.00022670644 -0.0028311433 -0.00057626958 -0.0021222869 -0.93871993 0.04537807
528000000 -0.93954331 0.054130081 -0.00091912312 -0.0018041808 3.4825018e-005 -0.0025209144 -0.93895966 0.045110993
529000000 -0.94009984 0.055204865 0.0010627831 -0.0017409426 -0.0003957696 -0.0015602219 -0.93669587 0.045506712
530000000 -0.93924868 0.055101037 -0.0011336158 -0.0022667244 -0.00038902462 -0.0026663595 -0.93707597 0.045942754
531000000 -0.93932527 0.053655919 -0.00018476041 -0.0013796473 -0.00036404314 -0.0014015196 -0.93716979 0.046194322
532000000 -0.93858039 0.056543723 0.0003567106 -0.0027724761 -0.00076816621 -0.0022501396 -0.93705809 0.046591643
533000000 -0.93871784 0.05394534 -0.00081754435 -0.0029957616 -0.00022728888 -0.0015825684 -0.93690336 0.046344325
534000000 -0.94067335 0.053351726 -0.0010921134 -0.0021972149 7.4050753e-005 -0.0030579511 -0.93569982 0.04621204
535000000 -0.93776315 0.054218005 -0.00019131904 -0.0030293076 -0.00035872229 -0.0029409563 -0.9377864 0.046785787
536000000 -0.9405964 0.054944992 -0.00088472717 -0.0023950133 -0.00020786695 -0.0022029202 -0.93646938 0.045367744
537000000 -0.93930894 0.054678988 -0.0010391703 -0.0017509157 0.00021023402 -0.002502504 -0.93615359 0.046721905
538000000 -0.93870562 0.055435494 -0.00018280392 -0.0017108178 9.5823498e-006 -0.0023892834 -0.93633699 0.046714887
539000000 -0.93904185 0.053935103 -0.00061427115 -0.0024322332 0.00031017041 -0.003096503 -0.93756437 0.045514919
540000000 -0.93739206 0.05579856 -8.2283987e-005 -0.0023912587 -0.00038055136 -0.0021945776 -0.93754727 0.046160407
541000000 -0.93866396 0.055060625 -0.00060790073 -0.0018233391 0.00034606626 -0.0012453446 -0.93779051 0.047801118
542000000 -0.93796992 0.054566551 -0.00039315052 -0.0017804902 0.00021593069 -0.001545444 -0.93712926 0.047875062
543000000 -0.93995988 0.055335794 0.000474247 -0.0021016772 -0.00066764688 -0.0020759029 -0.93601876 0.046462469
544000000 -0.93713647 0.055202875 -0.00076131005 -0.001624461 -0.0018465732 -0.0023438728 -0.93902427 0.049113899
545000000 -0.93859512 0.057158194 -0.0004413088 -0.0024566883 -0.00042390358 -0.0025488485 -0.9365586 0.046469335
546000000 -0.93916202 0.055987984 -0.00077197206 -0.0010283166 8.9511104e-006 -0.0024660269 -0.93727106 0.047078658
547000000 -0.93808973 0.055077538 9.2942733e-005 -0.0016371644 -0.00010079356 -0.0022041879 -0.93757451 0.045743875
548000000 -0.93845481 0.05356678 -0.001605398 -0.0026502465 -0.00081759866 -0.0021735693 -0.93825686 0.047469225
549000000 -0.93884808 0.055790927 0.00061020063 -0.0024421366 -0.00081218762 -0.0019858095 -0.93715054 0.046939585
550000000 -0.93919516 0.056575906 0.0013281895 -0.0019633151 0.00096949167 -0.0020536145 -0.93829042 0.047636565
551000000 -0.93803281 0.056386039 4.5666806e-005 -0.0015771587 -0.00066829851 -0.0024319813 -0.93638659 0.047101181
552000000 -0.93908495 0.05533145 -0.00039219044 -0.0016667064 -0.00035721148 -0.0024964078 -0.93529487 0.047328144
553000000 -0.94032705 0.056505479 0.000400374 -0.001793173 -0.00021448063 -0.0023919574 -0.93764144 0.047764536
554000000 -0.93886948 0.054699998 -0.00045727991 -0.002213282 -0.00052468979 -0.0021442922 -0.93730015 0.046877127
555000000 -0.93905675 0.054477189 -2.0753732e-005 -0.002972577 0.00023664128 -0.0025165014 -0.93847048 0.047069319
556000000 -0.93827367 0.056396503 -0.00025425581 -0.0021959739 -5.517478e-005 -0.002232916 -0.93830633 0.049313035
557000000 -0.93855166 0.055373985 -0.00014666906 -0.002015607 0.00060465629 -0.0018690585 -0.93857485 0.047386322
558000000 -0.93941671 0.055918582 -0.00012209296 -0.0025978382 0.00041287395 -0.0023045614 -0.93831789 0.047011789
559000000 -0.93650633 0.055170622 0.00010083728 -0.0025576972 -0.00093153393 -0.0014466958 -0.93747306 0.04879874
560000000 -0.9388414 0.055805314 -0.00028402917 -0.0018806705 0.00029937914 -0.002621247 -0.93845034 0.047215462
561000000 -0.9403311 0.056457598 -0.00014183138 -0.0022634768 0.00037583517 -0.00269953 -0.93898368 0.047161728
562000000 -0.93844694 0.056195222 2.1299284e-005 -0.001786488 -0.0016078118 -0.0018516142 -0.93795586 0.048260495
563000000 -0.93744278 0.055890452 -0.0012896227 -0.0021453877 -0.00042047774 -0.0013693405 -0.93863785 0.048332211
564000000 -0.93895167 0.05424802 -0.0005305222 -0.0015260737 0.00065530953 -0.0017128942 -0.93721849 0.045597553
565000000 -0.93917161 0.05703418 -0.00018777621 -0.0026714315 -8.8181245e-005 -0.0026733417 -0.93879604 0.047174606
566000000 -0.93927479 0.056291033 -0.00021500282 -0.0023714595 -0.0012209226 -0.0017380827 -0.93712127 0.04904959
567000000 -0.93709356 0.053722363 0.00043582276 -0.0027420179 -0.00048739495 -0.0016489238 -0.93690032 0.04740154
568000000 -0.93819666 0.056425314 9.5973439e-005 -0.00262764 -5.5303717e-005 -0.0018875181 -0.93764323 0.048267465
569000000 -0.93877208 0.056172237 -0.00052451697 -0.0016876038 -0.00042606087 -0.0015146721 -0.9371931 0.048270755
570000000 -0.93755794 0.056130938 -0.00094210031 -0.0019606473 -0.00040531842 -0.0018171482 -0.9368456 0.048994459
571000000 -0.93739021 0.056053296 -0.00042325197 -0.0010703342 -0.00016853014 -0.0024403725 -0.93762672 0.047781762
572000000 -0.9370665 0.055770636 -0.00071728509 -0.001993268 -0.00013169044 -0.0028019659 -0.93618244 0.049240574
573000000 -0.93929183 0.056284104 -0.00017975891 -0.0021364007 -0.0011636893 -0.0021311075 -0.93831283 0.048605919
574000000 -0.93874824 0.057731658 -0.00043867671 -0.0026467356 -4.1838364e-005 -0.0024655007 -0.93755352 0.048233073
575000000 -0.93921036 0.056413371 -0.00026462099 -0.0020751844 -0.00049100129 -0.0015221351 -0.93814456 0.04737334
576000000 -0.93617904 0.057256076 -0.00067333126 -0.0023859399 -0.00047463964 -0.0022731647 -0.93725616 0.048277337
577000000 -0.93811351 0.057070054 -0.00098389015 -0.0015398918 -0.00068370544 -0.0024863409 -0.9368673 0.04773752
578000000 -0.94062412 0.057082299 -0.00048929593 -0.003221286 -0.00060027948 -0.0022678028 -0.93721902 0.048460554
579000000 -0.93765575 0.05566027 0.0010501588 -0.0014088976 -0.00052843086 -0.0029626088 -0.93842351 0.047046352
580000000 -0.93776941 0.055269226 -7.8931364e-005 -0.0025135055 -0.0007733677 -0.0026304661 -0.93631023 0.047106657
581000000 -0.93847513 0.05700108 -0.0006105004 -0.0029228786 -0.00057167257 -0.0024032514 -0.93906581 0.0479233
582000000 -0.93733752 0.056226362 -0.00056343898 -0.0028967303 -0.00021166849 -0.0021009934 -0.93806303 0.049141716
583000000 -0.93895727 0.057050675 -0.00054774032 -0.0032820955 -0.00016152218 -0.002786529 -0.93797165 0.047987729
584000000 -0.93852925 0.057780571 0.00026352459 -0.0017131466 -0.00020663426 -0.0021651038 -0.93867975 0.049340341
585000000 -0.93771243 0.057331454 -0.0008699919 -0.0031779793 -0.00074491388 -0.0018730529 -0.93690687 0.049690805
586000000 -0.94054842 0.057067852 -0.00015905745 -0.0019066178 -0.00064343208 -0.0022282901 -0.93923652 0.048810147
587000000 -0.93958551 0.057561543 -0.00067783409 -0.0020265039 -0.00027590722 -0.0016333682 -0.9371593 0.047269717
588000000 -0.93790215 0.059440646 0.00021948409 -0.0027211946 0.00018408743 -0.0019633065 -0.93850243 0.048993383
589000000 -0.93654042 0.056833725 -0.00081390719 -0.0025626076 -0.00010883416 -0.0025001555 -0.93736166 0.050529145
590000000 -0.93804181 0.058285888 -0.00057335815 -0.0025845906 7.0688235e-005 -0.0033000214 -0.93780208 0.049367987
591000000 -0.93721586 0.057823151 -0.00022984178 -0.0010480504 0.00016824447 -0.0022104685 -0.93697709 0.050199822
592000000 -0.93797237 0.058989871 -0.00081940251 -0.0013599253 -0.00088839349 -0.0027563707 -0.93993562 0.048433229
593000000 -0.93839103 0.056315184 -0.00014902638 -0.0025334214 -0.0001427302 -0.0017200662 -0.93818808 0.04845513
594000000 -0.93845892 0.058537658 0.00024748873 -0.0022607972 -0.00070407864 -0.0026180164 -0.93645459 0.050861001
595000000 -0.93879384 0.057599362 -0.00069551228 -0.0023315032 -0.00075216475 -0.00091098883 -0.93606693 0.04991569
596000000 -0.93709844 0.058347944 -0.0011100053 -0.0024538029 0.00050488423 -0.0019785699 -0.93973696 0.049129527
597000000 -0.9377287 0.059239946 0.00040727601 -0.0025644354 9.9207544e-005 -0.0033706091 -0.93757463 0.050452102
598000000 -0.93874514 0.059605576 7.0507289e-005 -0.0027626494 -0.0013539483 -0.0020097347 -0.93771732 0.051435843
599000000 -0.93845242 0.058259703 -8.4814201e-006 -0.0029228586 -0.00018527622 -0.0027551011 -0.93796688 0.048774965
600000000 -0.93762445 0.058793485 0.00096220092 -0.0021941501 -0.00096704735 -0.0027321829 -0.93714643 0.051697951
601000000 -0.93917298 0.059757188 0.00029543464 -0.0038554172 -0.00029707112 -0.0021622851 -0.93866938 0.050964616
602000000 -0.93757331 0.058754526 -0.00046297134 -0.0027753306 -0.0011019292 -0.0017683168 -0.93787026 0.051971473
603000000 -0.9382565 0.059180964 -0.0011295886 -0.0014662303 -0.0010388913 -0.0031402588 -0.93698013 0.052036002
604000000 -0.93874091 0.060498919 -0.0006157094 -0.0024962935 -9.0509049e-005 -0.0023910708 -0.93725973 0.051431272
605000000 -0.93739277 0.058386676 -0.00067938864 -0.0026608789 -0.0011550876 -0.0032985562 -0.93859512 0.051645953
606000000 -0.93808579 0.057406757 0.00037902751 -0.0022551003 0.00011768889 -0.0022371411 -0.93661922 0.050871216
607000000 -0.93776971 0.060947448 -0.00028545756 -0.00270891 0.00086328422 -0.0021634083 -0.93741125 0.051917728
608000000 -0.94036007 0.061277509 0.00035162372 -0.0022302126 0.0011510823 -0.0026727922 -0.93789274 0.050669383
609000000 -0.93616015 0.060626119 -0.00014108377 -0.002293976 -0.0013418309 -0.0017655124 -0.93730581 0.051139791
610000000 -0.93799067 0.060833909 -0.00019923344 -0.002205824 0.00032620976 -0.0030762884 -0.93640304 0.051561307
611000000 -0.93737686 0.061944351 -0.0010390367 -0.0021212178 0.00073136028 -0.0029867864 -0.93607593 0.050592821
612000000 -0.93902779 0.060569938 4.4001765e-005 -0.0022009967 -0.0013225633 -0.0024305498 -0.93706697 0.049952772
613000000 -0.93812639 0.059390824 -0.00037337249 -0.0035488927 -0.0014580193 -0.0022314405 -0.93661046 0.051756863
614000000 -0.93882108 0.06100424 -0.00054936792 -0.0034831963 -0.00012728141 -0.0029543126 -0.93895286 0.051669691
615000000 -0.93687642 0.060889937 -0.00015393164 -0.00090273749 -5.673456e-005 -0.0018189402 -0.93667591 0.051315393
616000000 -0.93958724 0.062861592 -0.00039198247 -0.0031648525 -0.0014570288 -0.0020121585 -0.93871421 0.052222054
617000000 -0.9390375 0.062118839 0.00078125182 -0.0017807614 -0.00013791589 -0.0015122239 -0.93750805 0.053700846
618000000 -0.93695909 0.062717579 -0.00071819359 -0.00250242 0.0004424229 -0.0020045592 -0.93707311 0.052170608
619000000 -0.93658715 0.063977085 -0.0011155101 -0.0031858901 0.0003011974 -0.0023769122 -0.93786907 0.054201823
620000000 -0.93672246 0.061471872 0.00039993619 -0.0030772097 -0.00016606291 -0.0025830513 -0.93676668 0.050750792
621000000 -0.93854827 0.062544048 0.00034652904 -0.00223121 -0.00058733305 -0.0034960539 -0.93624651 0.0536745
622000000 -0.93824768 0.062052194 -0.00055813161 -0.0025541391 -0.0006214577 -0.001795703 -0.93672085 0.052392595
623000000 -0.93637443 0.062441554 -0.0014380094 -0.0041947057 0.00027319763 -0.0021123444 -0.93818122 0.052445337
624000000 -0.9386903 0.063018709 1.3552017e-005 -0.0028619219 -0.00068145583 -0.0017896974 -0.93684781 0.051660661
625000000 -0.93725532 0.06363254 -0.00016712151 -0.0030527057 0.00032143533 -0.0033074634 -0.93608034 0.052624173
626000000 -0.93726325 0.062770493 -1.8348395e-005 -0.0021093448 0.00061210763 -0.002926477 -0.9366709 0.053590633
627000000 -0.93752325 0.064314038 0.00037626087 -0.003163778 0.00057914836 -0.0027344369 -0.93580824 0.052160271
628000000 -0.9357307 0.062301058 -0.00058474293 -0.0019417319 -0.001443414 -0.0022456788 -0.93663508 0.053081032
629000000 -0.9383955 0.062101845 -0.0011075163 -0.0019417488 -0.00096956047 -0.0027028357 -0.93662357 0.055755191
630000000 -0.93799168 0.062926039 -0.00024188415 -0.0024176212 0.00027860238 -0.0026844989 -0.93690366 0.056141108
631000000 -0.93834132 0.063181564 -0.00036532301 -0.0031134575 -0.00021956509 -0.002271106 -0.9365052 0.052826107
632000000 -0.9366042 0.063534923 0.00053606729 -0.0017432017 -0.00064007577 -0.0027268541 -0.93608892 0.05362834
633000000 -0.93799955 0.064257517 -0.00060507789 -0.0030258868 -0.00072143634 -0.0015463026 -0.93811542 0.05435022
634000000 -0.93746489 0.065403916 -0.00067413185 -0.0033632026 -0.00090792059 -0.0019148421 -0.93647677 0.054428555
635000000 -0.93721086 0.063838728 -0.00060041604 -0.0019477085 -0.00073059241 -0.0028734028 -0.93517375 0.052801773
636000000 -0.93695998 0.06403812 -0.00073111366 -0.0027945742 -9.886041e-006 -0.0022324359 -0.93739015 0.054926492
637000000 -0.93638462 0.064147972 -0.00078102818 -0.0023602284 -0.00049307628 -0.0035323612 -0.93535125 0.054065004
638000000 -0.93766564 0.064219609 -0.0017591977 -0.0022346692 -0.0012145012 -0.003112019 -0.93688864 0.054552868
639000000 -0.93902826 0.06571319 -0.0005139893 -0.0030569904 -9.358595e-005 -0.0029851797 -0.93535185 0.053790171
640000000 -0.93734998 0.065284997 -0.00044785798 -0.0016201595 -4.5281686e-005 -0.0027445229 -0.93604648 0.052597012
641000000 -0.93731028 0.064852118 -0.0011823588 -0.002652019 -0.0013236806 -0.0028665359 -0.93584162 0.053206392
642000000 -0.9361403 0.066175908 7.6177261e-005 -0.0021011045 0.00013732298 -0.0032212469 -0.93722737 0.055722002
643000000 -0.93672466 0.065770552 -2.2792128e-005 -0.0022802383 -0.00043663933 -0.0033122569 -0.93619198 0.05507442
644000000 -0.9373489 0.063449405 -0.00083383702 -0.0029610379 -0.00056713651 -0.0020851463 -0.93834943 0.054428704
645000000 -0.93768358 0.064874105 0.00037877614 -0.0031869982 -0.00056141603 -0.0022122564 -0.93635017 0.05426627
646000000 -0.93710256 0.066602431 -0.00043473416 -0.0032843435 -0.00083190086 -0.0026435736 -0.93613321 0.054996032
647000000 -0.93614447 0.066940024 0.0015299374 -0.0021422189 -0.00020156786 -0.002610628 -0.93633151 0.055476096
648000000 -0.9369266 0.066418394 -6.3209205e-005 -0.0037564756 -0.00052219472 -0.0014436974 -0.9354223 0.056128185
649000000 -0.93751067 0.065564543 -0.00044704331 -0.002216425 0.00077959581 -0.0011859601 -0.93677676 0.05438441
650000000 -0.93602759 0.065883271 0.00024487826 -0.0025719174 0.00015773399 -0.0025162443 -0.93602347 0.055709459
651000000 -0.9374187 0.066905513 -0.0008932621 -0.0023390057 -0.00074160285 -0.0028890264 -0.93572634 0.052976027
652000000 -0.9372676 0.067537315 -0.001216503 -0.0025736138 -9.1869893e-005 -0.0029132299 -0.93543696 0.055991083
653000000 -0.93761319 0.066655487 0.00023841468 -0.0025291285 -7.1947994e-005 -0.0025267585 -0.93603295 0.054843422
654000000 -0.93654221 0.067403883 -0.00041715088 -0.001914016 0.00030769914 -0.0029645255 -0.93734962 0.055139888
655000000 -0.93740499 0.067493625 3.3065731e-005 -0.00216169 0.00036613812 -0.0025367525 -0.93573964 0.055274647
656000000 -0.93696982 0.06653975 0.00033458843 -0.0025291389 -0.00095892762 -0.0028657436 -0.93718672 0.054509297
657000000 -0.93670636 0.067156948 -0.0003746539 -0.0033547182 -0.00073011615 -0.0028790659 -0.93658608 0.055627737
658000000 -0.9379012 0.066958129 -0.00076416094 -0.0019636357 2.2311389e-005 -0.0022371309 -0.93592632 0.055891469
659000000 -0.93656498 0.067100719 -0.0013706814 -0.0030630066 0.00012117077 -0.003381762 -0.93526381 0.055386737
660000000 -0.93758619 0.067349121 -0.00022027468 -0.0026794421 -0.00035993374 -0.0030033684 -0.93470925 0.054214798
661000000 -0.93704534 0.068654545 0.00016740245 -0.002926663 0.00010745736 -0.0024117944 -0.93649191 0.055562623
662000000 -0.93680441 0.067447029 -0.00041971976 -0.0019911772 -0.00092205708 -0.001678923 -0.93594569 0.055916581
663000000 -0.93848634 0.066490166 -0.00062069477 -0.0035361478 0.00020112269 -0.0037083821 -0.93601614 0.055007942
664000000 -0.9368872 0.06719733 -0.0007320458 -0.0028998707 0.00025436314 -0.0025085371 -0.93652725 0.0555855
665000000 -0.9365986 0.068539634 -0.00094781193 -0.0017559127 -0.00091873627 -0.002871661 -0.93590826 0.056989472
666000000 -0.93685609 0.067558505 -0.00059875596 -0.0026187464 -0.0012438883 -0.002816387 -0.93657678 0.055871986
667000000 -0.93679368 0.067081116 -0.00090270588 -0.0016954488 -0.0010627598 -0.0026270007 -0.93733656 0.05475305
668000000 -0.93784529 0.067678764 -0.00079440745 -0.0024940935 0.00022336825 -0.002565447 -0.9361462 0.055722497
669000000 -0.93673408 0.067702219 -0.00021191983 -0.0031285794 -0.00031977729 -0.0030598876 -0.93588048 0.05338398
670000000 -0.93646067 0.067323379 -0.00011707416 -0.002934007 -0.0016747444 -0.0029449954 -0.93676186 0.058090068
671000000 -0.93686152 0.067520551 -0.00077926269 -0.0033478835 -0.00087518012 -0.0022467149 -0.9372313 0.055819783
