!Keysight Technologies,M9374A,MY55442783,A.12.55.05
!Date: Friday, May 21, 2021 10:44:48
!Correction: S11(Full 2 Port(1,2)) 
!S21(Full 2 Port(1,2)) 
!S12(Full 2 Port(1,2)) 
!S22(Full 2 Port(1,2)) 
!S2P File: Measurements: S11, S21, S12, S22:
# Hz S  RI   R 50
500000000 -0.93831438 0.051528964 -0.00033643376 -0.0015842929 -0.00083368161 -0.001809291 -0.93736774 0.042425647
501000000 -0.93998772 0.05223164 -0.00063753035 -0.0019056088 -0.00015040097 -0.002165125 -0.93836004 0.042283364
502000000 -0.93971372 0.05203107 -0.00045725831 -0.0020232843 -0.00029099433 -0.0017613336 -0.9375971 0.042134143
503000000 -0.93906015 0.050640706 -0.00029394135 -0.0025536804 0.00014542379 -0.0032102312 -0.93796563 0.043865152
504000000 -0.93819803 0.051876172 -0.00074010761 -0.0021449556 -0.0014852886 -0.0014121732 -0.93754888 0.044326879
505000000 -0.93891019 0.053639844 0.00055547268 -0.0013135895 1.7487888e-005 -0.00059202005 -0.93713027 0.042681947
506000000 -0.93928105 0.050856963 0.00013437083 -0.0017300838 -9.5192685e-005 -0.0013298834 -0.93640792 0.043773834
507000000 -0.93878597 0.05208528 0.00096563465 -0.0018027059 -0.00094936363 -0.0017555087 -0.93896687 0.045031194
508000000 -0.93950337 0.052309714 0.0012049753 -0.0024732996 -0.0004766855 -0.00091845903 -0.93647164 0.045456335
509000000 -0.94086272 0.052236442 0.00021237192 -0.00090918422 0.00069461839 -0.0025175032 -0.93632436 0.043067914
510000000 -0.93874478 0.054150332 0.00011527161 -0.0028850306 -0.0016845788 -0.0017439026 -0.93707597 0.044605073
511000000 -0.93923497 0.052444313 -0.00026703326 -0.0015661911 -0.00068754726 -0.0025175584 -0.93664807 0.042723197
512000000 -0.93875593 0.053441692 0.0006064889 -0.0019556903 0.00031341022 -0.0020711992 -0.93703634 0.044163514
513000000 -0.93897367 0.053564198 -0.00058125966 -0.0026552854 -0.0012391229 -0.0017592408 -0.93721187 0.043892797
514000000 -0.94024199 0.053049434 -0.00055316061 -0.0012419365 -0.00057208136 -0.0012099248 -0.93646157 0.044719636
515000000 -0.93749577 0.052181713 -0.00020294623 -0.0031200745 -0.00031833907 -0.001994418 -0.93630105 0.043460112
516000000 -0.93917894 0.054685615 0.00011687485 -0.0015985083 -0.0014524922 -0.0012437049 -0.93652213 0.045983147
517000000 -0.93891042 0.053401362 -0.00057975139 -0.0029670247 -0.00035059734 -0.002695119 -0.93602961 0.044427972
518000000 -0.93871373 0.053306889 0.0002002604 -0.0025989132 -5.2039082e-005 -0.0019816419 -0.93736875 0.044812433
519000000 -0.93849689 0.054122511 -0.00074776454 -0.0028730077 -5.8684476e-005 -0.0021682514 -0.93708855 0.045874394
520000000 -0.93749654 0.052343767 0.00016206971 -0.0023490954 -0.0010392885 -0.0015260982 -0.93678927 0.046723876
521000000 -0.93925601 0.055787392 -0.0016210802 -0.0017155424 -0.00095748284 -0.0017365479 -0.93649822 0.045871556
522000000 -0.93850213 0.053694237 0.00067487813 -0.0027527756 -0.0002544765 -0.0013926183 -0.9371987 0.047388982
523000000 -0.93801183 0.053020515 -0.0001905067 -0.0012742395 -0.00037643206 -0.0022098026 -0.9356665 0.046064164
524000000 -0.93777901 0.05413815 1.9877491e-005 -0.0014433069 0.00075237505 -0.0023348369 -0.93902457 0.046721354
525000000 -0.93890101 0.054057568 -0.00035567526 -0.0014874828 8.3817969e-005 -0.0018501185 -0.9369275 0.046398744
526000000 -0.94024074 0.054642443 -0.0013134206 -0.0017481386 -0.0001889726 -0.0013335291 -0.93712926 0.045607004
527000000 -0.94008994 0.054515239 0.00044571451 -0.0020821446 0.00040813244 -0.0012271178 -0.93728614 0.046712235
528000000 -0.93875211 0.056231998 -0.0002163528 -0.00086357194 -0.00041749777 -0.001392313 -0.93645304 0.047567394
529000000 -0.93830574 0.054720104 -0.00051519112 -0.0015473245 -0.00086984423 -0.0023039244 -0.93666422 0.046822209
530000000 -0.93982828 0.055089846 -0.00019027844 -0.0020238392 -0.0012126357 -0.0020233961 -0.93578041 0.047169764
531000000 -0.93781781 0.05282807 -0.00013417818 -0.0017489061 -0.00082904659 -0.0018875588 -0.93743199 0.045762792
532000000 -0.93774718 0.056172058 -0.00015630445 -0.0020257072 -0.00027124616 -0.0028263037 -0.9372927 0.046166308
533000000 -0.94025546 0.055724513 0.00035716296 -0.0016564889 0.00047161084 -0.0022346803 -0.93611306 0.046851676
534000000 -0.93963593 0.053409066 0.00042798687 -0.002313891 -0.0004519319 -0.0029150122 -0.93636447 0.047168605
535000000 -0.93907309 0.055057868 -0.0009198981 -0.00089292717 -0.00013456825 -0.0016971281 -0.93709594 0.047215801
536000000 -0.93894339 0.05679296 -0.00016018227 -0.0022371898 5.5791614e-005 -0.0016714516 -0.93684089 0.047622252
537000000 -0.93895054 0.055012647 -0.00040672091 -0.0022467277 0.0004765116 -0.0031135383 -0.93778545 0.04633477
538000000 -0.9375307 0.055754926 -0.00033542971 -0.0023062299 -0.00075986685 -0.0025589247 -0.93770361 0.048318636
539000000 -0.93864208 0.0551081 -4.0887768e-005 -0.001461797 -0.0005328526 -0.0026224433 -0.93753588 0.047258917
540000000 -0.93883622 0.056499436 -0.0011156575 -0.002369036 -0.00060296396 -0.0030289791 -0.93800229 0.046922758
541000000 -0.93761861 0.056039084 -8.2189261e-005 -0.0024340432 -0.00066580006 -0.0017861836 -0.93736011 0.048259526
542000000 -0.9378863 0.055959776 0.00030671619 -0.0019048478 -0.00011437754 -0.0018381127 -0.93616676 0.046766832
543000000 -0.93878412 0.05524784 -0.00082239608 -0.002857449 -0.00055042759 -0.0022429258 -0.93811375 0.047148269
544000000 -0.93858027 0.056892391 -0.00031102091 -0.0019330012 0.00063761178 -0.0028669627 -0.93730861 0.04636614
545000000 -0.93814695 0.056744434 0.00016484862 -0.0022148397 -0.0004656433 -0.0010940193 -0.93644214 0.048747282
546000000 -0.93801975 0.05703079 -0.00056331838 -0.0028427134 0.00059915619 -0.0029876956 -0.93640167 0.048171297
547000000 -0.93955982 0.057076469 -0.00072394061 -0.0020296234 5.8294145e-006 -0.0028137658 -0.93599081 0.046961509
548000000 -0.93654227 0.056690041 -0.00021169924 -0.0023086939 -0.00074975821 -0.0017347492 -0.93703997 0.047066376
549000000 -0.93870693 0.057739854 -6.5735687e-005 -0.0021822036 -6.7958135e-005 -0.0019358762 -0.93601561 0.048555218
550000000 -0.93837839 0.05629167 0.0010573766 -0.0020366425 -0.00054635346 -0.0024164049 -0.93708903 0.048435628
551000000 -0.93691474 0.05652177 0.00045569724 -0.0022908978 -0.00044813741 -0.0025689877 -0.93688589 0.048567932
552000000 -0.93895817 0.056149308 -0.00050432369 -0.0022857902 -0.00069023931 -0.0026785773 -0.93693578 0.048133854
553000000 -0.93807393 0.056348857 0.00031195619 -0.0022786548 -0.00018870991 -0.0024303151 -0.93646818 0.048014008
554000000 -0.93836135 0.054987047 -0.0010579572 -0.0011889886 -1.9696968e-006 -0.0022250372 -0.93694997 0.047716714
555000000 -0.93828791 0.055221818 -0.0006550785 -0.0017634408 -0.0009099287 -0.0018940123 -0.93741071 0.04889527
556000000 -0.93789798 0.057429615 -0.00093873491 -0.0023006885 -0.0010560993 -0.0030331672 -0.93786263 0.048992444
557000000 -0.93764341 0.056411821 -0.00017055744 -0.0016712175 -0.00088281871 -0.001995252 -0.93587327 0.047669444
558000000 -0.93821466 0.055242285 -0.00016699894 -0.0022044284 0.0004230226 -0.0034053675 -0.93770289 0.048708256
559000000 -0.93851137 0.055565916 -0.00011803458 -0.0035811944 9.8341028e-005 -0.0020525847 -0.93673217 0.048909727
560000000 -0.94082779 0.05735673 0.00032845404 -0.0028066705 -0.00068042154 -0.002665089 -0.936297 0.048662972
561000000 -0.93777704 0.057538074 -0.00060595927 -0.00248953 -0.00047958389 -0.0023880678 -0.93719965 0.046778832
562000000 -0.93813634 0.058843572 -0.00045068562 -0.0005560554 -0.00058362348 -0.0019586531 -0.93700224 0.048147343
563000000 -0.93964881 0.057068333 -0.00067743054 -0.0025028989 -0.0002220778 -0.001461541 -0.93856782 0.048478466
564000000 -0.93961996 0.057232048 -0.00032985589 -0.0021351329 -0.0011427221 -0.0011991926 -0.93713576 0.046716847
565000000 -0.93829262 0.056349855 -1.2703205e-005 -0.0029327269 0.00033166789 -0.003292582 -0.9368459 0.048039973
566000000 -0.93730587 0.054638602 -0.00080176606 -0.0014088651 -0.00059044716 -0.0017718299 -0.93638986 0.048140544
567000000 -0.93656147 0.057247091 -0.00090753398 -0.0015396795 -0.00077651639 -0.0027271549 -0.93751568 0.049245212
568000000 -0.93803 0.057000022 -0.00097044877 -0.0024180771 -0.00069717149 -0.0029555969 -0.93741274 0.048575412
569000000 -0.93786424 0.055654522 -0.00057848205 -0.0020029021 0.00048212815 -0.0020887794 -0.93759024 0.047020458
570000000 -0.93846756 0.056060508 -0.00039157984 -0.0021280102 0.00053932628 -0.0015352702 -0.93578899 0.048068587
571000000 -0.93684858 0.055756181 5.9621485e-005 -0.0031503732 0.00038257783 -0.0022933816 -0.93772095 0.050183486
572000000 -0.93787128 0.055715092 -0.0013322422 -0.003055834 -0.00097399508 -0.0019598673 -0.93669415 0.048392773
573000000 -0.9390716 0.057002153 -0.00046726319 -0.0022103002 -0.00069533143 -0.0023462507 -0.93509841 0.048584089
574000000 -0.93749696 0.056202382 -0.00029638104 -0.0020357678 -0.0012658833 -0.0027152041 -0.93565679 0.049589355
575000000 -0.93897319 0.056935143 -0.0001504034 -0.0020361324 -0.00034021618 -0.0026362112 -0.93805289 0.047828235
576000000 -0.93704313 0.057337251 7.938737e-005 -0.0021999618 0.00056627754 -0.0021328721 -0.93662059 0.048059579
577000000 -0.93818849 0.057293154 0.00043262227 -0.002446142 -0.00082322879 -0.0017652089 -0.93783355 0.049036685
578000000 -0.93756068 0.057953209 -0.00042572877 -0.0021107134 -0.0020764857 -0.0033591075 -0.9358725 0.048942346
579000000 -0.93650252 0.058976255 0.00039283768 -0.0020405112 0.00022517744 -0.0020924041 -0.93649316 0.049833357
580000000 -0.93719435 0.055853717 -0.0011117194 -0.0031828159 -4.7010079e-005 -0.002698896 -0.935911 0.050116498
581000000 -0.9382661 0.058165196 -0.0013328863 -0.0031181537 -0.00088509457 -0.0029214092 -0.93835342 0.051613998
582000000 -0.93693846 0.058073644 -0.00066375569 -0.0017845153 -0.00057407841 -0.002659485 -0.93700445 0.049987718
583000000 -0.93695247 0.058460865 0.00071901066 -0.0030136385 -0.00050279265 -0.0025953522 -0.9367156 0.049249534
584000000 -0.93593097 0.059834611 -0.00036147464 -0.0033521014 0.00036824314 -0.0019979605 -0.93768936 0.04891488
585000000 -0.93791682 0.056023069 -0.00053311157 -0.0025040053 -0.001001401 -0.0017910728 -0.93731922 0.047344387
586000000 -0.9381752 0.058247276 -2.1420994e-005 -0.0028372479 -0.00071575533 -0.0025289019 -0.93478262 0.048995093
587000000 -0.9393273 0.059082344 -0.00022307446 -0.0021622207 -0.0014976813 -0.0023876783 -0.9372347 0.048464067
588000000 -0.93818122 0.057687458 -0.0002455622 -0.002859208 -0.000180337 -0.0018712668 -0.93711627 0.049667463
589000000 -0.9384104 0.057294462 -0.00047394625 -0.0026119477 0.00077507744 -0.0019276716 -0.9373222 0.048850689
590000000 -0.93606186 0.059471026 -0.00080742111 -0.0015622727 0.00019676927 -0.0018750678 -0.9358989 0.048556905
591000000 -0.93918169 0.058117956 -0.0011632 -0.0024626204 -0.00026919047 -0.0032184613 -0.93521154 0.050758809
592000000 -0.93772703 0.058696374 -0.0012991554 -0.0022080378 -7.3608448e-005 -0.002243408 -0.93718028 0.048924979
593000000 -0.93854445 0.059199072 -0.00048769938 -0.0019997046 -0.00041995136 -0.002281528 -0.93654639 0.049114186
594000000 -0.9362039 0.05930407 -0.00056280498 -0.0014536117 0.00097509491 -0.0020494324 -0.93767428 0.050488707
595000000 -0.938223 0.05826325 -0.00023599149 -0.0027173336 -0.0011261319 -0.0017698617 -0.93680608 0.050411228
596000000 -0.93670261 0.058906846 0.00037667895 -0.0028328507 -0.0013781763 -0.002814726 -0.93588018 0.050131403
597000000 -0.93820333 0.058357812 -0.00022957857 -0.0022961206 -0.00085633638 -0.0020147997 -0.93787211 0.050959598
598000000 -0.93840623 0.060153589 -0.00062293315 -0.0021051471 -0.00032307595 -0.0010780349 -0.93618697 0.050857253
599000000 -0.93757302 0.059618481 -0.00098401518 -0.0019980699 -0.00065491389 -0.0029749086 -0.93751162 0.051390599
600000000 -0.93601114 0.05953211 -0.00056368212 -0.0017604497 -0.00054747454 -0.0028662947 -0.93781763 0.050079886
601000000 -0.93801409 0.058577724 0.00013581295 -0.0024898706 0.00058807305 -0.0023029801 -0.93605089 0.049847547
602000000 -0.93590015 0.060223345 -0.00012376357 -0.0022082163 -0.00081625261 -0.0023278953 -0.93782538 0.050763004
603000000 -0.93744171 0.059069492 1.6798482e-005 -0.0029176115 -5.6012792e-005 -0.0028900797 -0.93668926 0.050655227
604000000 -0.93803102 0.060517784 -0.0004627443 -0.0027084006 -1.1641084e-005 -0.0016828603 -0.93682599 0.050957661
605000000 -0.93837583 0.058740478 0.00016509301 -0.0019678008 -0.00065902929 -0.0020067608 -0.93514752 0.051878516
606000000 -0.9364897 0.060579814 -0.00053911604 -0.0022777133 7.0534014e-005 -0.0026047907 -0.93581021 0.05083229
607000000 -0.93902653 0.061713126 0.00011459392 -0.0026091395 3.9902283e-005 -0.0019680487 -0.93561441 0.051938388
608000000 -0.93658531 0.060410809 -0.00013460015 -0.0025349271 -0.00035538906 -0.0024195332 -0.93537444 0.050147481
609000000 -0.93636918 0.061180726 -0.00078805356 -0.0019555739 -0.0010635079 -0.001628538 -0.93624347 0.052003864
610000000 -0.93878186 0.062423076 -4.1445324e-005 -0.0036329397 -0.00023266237 -0.0018480632 -0.93635029 0.052308384
611000000 -0.93786317 0.061583765 -0.0013534415 -0.0024983238 -0.0012786007 -0.001861938 -0.93686891 0.050658241
612000000 -0.93810928 0.061290037 -0.00048473707 -0.0032748138 -0.00050430058 -0.0026068348 -0.93626225 0.052413564
613000000 -0.93620133 0.061606154 0.00025151877 -0.0021430044 -0.00074038509 -0.0031120679 -0.93770647 0.051144429
614000000 -0.93604159 0.061088331 -0.00054160686 -0.0040249978 -0.00070715789 -0.0022996175 -0.9359957 0.051620625
615000000 -0.93870729 0.061045583 -0.0007788887 -0.0012416031 -0.00038781911 -0.0034703745 -0.93633652 0.052024819
616000000 -0.93807352 0.062968485 -0.00021592666 -0.0033002999 -0.0010288702 -0.0023980567 -0.93642873 0.05243839
617000000 -0.93831378 0.064212665 0.00037193333 -0.002209798 0.00097194832 -0.0027543269 -0.93611997 0.052681174
618000000 -0.93696141 0.061771117 -0.00012175577 -0.0019580116 -0.0011020036 -0.0010010311 -0.93451792 0.052077238
619000000 -0.93705642 0.062502436 8.9204468e-006 -0.0020233062 -0.0014311991 -0.0034568564 -0.93637162 0.053572237
620000000 -0.93812817 0.061115548 -0.00058455061 -0.0021737767 0.00024268522 -0.003021844 -0.93658507 0.052749053
621000000 -0.93697464 0.062771097 0.00028865138 -0.0023601179 0.00056423829 -0.001827384 -0.93597293 0.052378673
622000000 -0.93765694 0.063701525 -0.00058364496 -0.0023688874 -0.00034938529 -0.0026136388 -0.93635941 0.053596463
623000000 -0.93691683 0.063358456 0.00049591297 -0.0024948649 -0.00069514709 -0.0023852964 -0.93737203 0.05235745
624000000 -0.93653077 0.062295102 0.00012647716 -0.0030522752 -0.00050803489 -0.0020766472 -0.93470734 0.052364264
625000000 -0.93619502 0.063828707 -0.0011897882 -0.0023887074 -0.00050562527 -0.0017013625 -0.93530172 0.053344931
626000000 -0.93802583 0.062706038 -0.001164106 -0.0028126233 -0.00088864885 -0.0020708314 -0.9359979 0.054758064
627000000 -0.93812418 0.063633129 -0.00045858632 -0.0021580474 -8.2942724e-006 -0.0026651321 -0.93537414 0.052061137
628000000 -0.93757677 0.063489899 -0.0012942944 -0.0031443536 0.00031455161 -0.0039509581 -0.93672192 0.053938638
629000000 -0.93818289 0.063827656 -0.0013658947 -0.0020577691 0.00018940194 -0.0029560111 -0.93657744 0.053856883
630000000 -0.9361763 0.065733925 0.00050399534 -0.001968096 0.00024760811 -0.0019058139 -0.93659294 0.05530189
631000000 -0.9381699 0.064219736 -0.00070669263 -0.0026844565 0.00023666072 -0.0017607791 -0.93533742 0.054990806
632000000 -0.9386071 0.064330384 -0.0012321579 -0.0021774622 0.00092112977 -0.0030368327 -0.93524992 0.053251516
633000000 -0.93728006 0.06493549 -0.0014160612 -0.0023067936 -0.00062303332 -0.0023447704 -0.93545967 0.054065082
634000000 -0.93702435 0.06613902 -0.0011971268 -0.0027955475 -0.00017539023 -0.0021095921 -0.93573058 0.054328762
635000000 -0.93619704 0.064260602 -0.0003861025 -0.0029004249 0.00036195671 -0.0033756779 -0.93513662 0.053769968
636000000 -0.93590802 0.065685727 -0.00021357471 -0.0023956953 -0.00079640391 -0.0024233421 -0.93654841 0.053236667
637000000 -0.93818921 0.065889753 -0.00032032593 -0.0026325197 -2.1541524e-005 -0.0025987776 -0.93554616 0.053304709
638000000 -0.93717027 0.064800009 -0.00038467592 -0.0025777582 -6.3316766e-005 -0.0029556071 -0.93623191 0.053845193
639000000 -0.93781263 0.066549584 -0.0015701413 -0.0021309224 -0.00048802633 -0.0027849658 -0.9349879 0.054681227
640000000 -0.93546015 0.066657104 -0.00013332082 -0.0022874023 -0.0010507619 -0.0025970405 -0.93597758 0.054404255
641000000 -0.93643653 0.066050932 -0.00099326042 -0.0031589419 9.2067079e-005 -0.0027962895 -0.93603402 0.054108921
642000000 -0.93627411 0.067488715 -0.00085676997 -0.002816231 -0.00063373387 -0.0010332178 -0.93501592 0.0545591
643000000 -0.93706894 0.068364315 -0.00076420599 -0.0023572242 -0.0004703447 -0.0028746421 -0.9360016 0.054749604
644000000 -0.93746287 0.067058563 -0.0016268351 -0.0021466836 7.7822202e-005 -0.0024546324 -0.93598127 0.053881295
645000000 -0.93502957 0.067766957 -0.00068538293 -0.0031461024 -0.00072518765 -0.0028778487 -0.93663669 0.053590115
646000000 -0.93632448 0.065919094 -0.0010212796 -0.0037260866 6.5117863e-005 -0.0030852021 -0.93432707 0.0554341
647000000 -0.93622738 0.066578068 0.00099220907 -0.0018482782 -0.00023685722 -0.0011372073 -0.93574971 0.054601274
648000000 -0.93714041 0.067696318 -0.0011033099 -0.0019723463 0.00026237106 -0.0026732646 -0.93663573 0.05615852
649000000 -0.93664443 0.066309005 -0.00043502322 -0.0025157356 -0.00029763617 -0.0016616114 -0.93515843 0.055234015
650000000 -0.93699092 0.066734888 -0.00043683988 -0.003575545 -0.00071312959 -0.0028055196 -0.93588805 0.054919433
651000000 -0.93809509 0.067149863 -0.00056742795 -0.0029310246 -0.00057586579 -0.001694578 -0.93837416 0.055984508
652000000 -0.93733364 0.066938333 -0.00042409947 -0.0035502953 -1.3446453e-005 -0.0025016724 -0.93455589 0.054945882
653000000 -0.93626922 0.066309564 -0.00019266308 -0.0017436915 -5.3179494e-005 -0.0022270572 -0.93748611 0.056869235
654000000 -0.93556517 0.068045042 -0.00011564598 -0.0028948174 -0.00037243395 -0.0020334972 -0.93593574 0.05673312
655000000 -0.93622988 0.067450225 -0.00049560849 -0.0037321211 -0.00074694987 -0.0024143816 -0.93589115 0.056923013
656000000 -0.93557411 0.068650857 -0.00012611179 -0.002252388 -0.00024164392 -0.0028271528 -0.93646616 0.056415081
657000000 -0.93763363 0.066894904 0.00061766943 -0.0023198656 0.00013615913 -0.0012194884 -0.93607312 0.056150135
658000000 -0.93737596 0.067213558 -0.0020179758 -0.0035843772 -0.0016355478 -0.0024093159 -0.93739045 0.055364493
659000000 -0.93656117 0.068365872 0.00015496505 -0.0030249711 -0.00087197282 -0.0031386935 -0.93601412 0.055846397
660000000 -0.93635952 0.066482671 0.00063248433 -0.0025404519 -0.00028584397 -0.002645893 -0.93611914 0.056373291
661000000 -0.93831629 0.067442179 -0.00060274481 -0.0021778946 -0.00074128562 -0.0029540746 -0.93601406 0.056595396
662000000 -0.93664855 0.068871796 5.6490906e-005 -0.0033523988 -0.00012699852 -0.0027420404 -0.93601787 0.056745261
663000000 -0.93600339 0.067653313 -0.00076478411 -0.0031693648 0.0003888112 -0.0027800731 -0.93538427 0.055134911
664000000 -0.93700266 0.066445515 -0.00011307154 -0.0023859816 -0.00072172849 -0.002315796 -0.93531179 0.056442399
665000000 -0.93560636 0.068483502 -0.00096102705 -0.0017293087 -0.00016128519 -0.0031159418 -0.93569422 0.056119297
666000000 -0.93659216 0.068464622 -0.00065926637 -0.0024901433 0.0006179362 -0.0020521374 -0.93627673 0.055856332
667000000 -0.93666089 0.068537429 -0.00052274117 -0.0024110018 -0.00064308662 -0.0024895465 -0.93618119 0.055753522
668000000 -0.93612814 0.067782357 -0.00059662882 -0.0039075441 0.00046524566 -0.0022746162 -0.93609637 0.05536817
669000000 -0.93727618 0.068631895 -0.00089995656 -0.0029135135 -0.00067798584 -0.0015792702 -0.93452388 0.05648753
670000000 -0.93677425 0.067392617 0.00047269202 -0.0036572965 0.00048688549 -0.0024099806 -0.93467945 0.058506753
671000000 -0.9373613 0.068443358 -0.00050327531 -0.0024665822 -0.00014408381 -0.0027783078 -0.93535542 0.056081373
