!Keysight Technologies,M9374A,MY55442783,A.12.55.05
!Date: Friday, May 21, 2021 10:48:02
!Correction: S11(Full 2 Port(1,2)) 
!S21(Full 2 Port(1,2)) 
!S12(Full 2 Port(1,2)) 
!S22(Full 2 Port(1,2)) 
!S2P File: Measurements: S11, S21, S12, S22:
# Hz S  RI   R 50
500000000 -0.93983376 0.051051013 9.2948998e-005 -0.0028607585 -0.0001698019 -0.0023795981 -0.938353 0.041143447
501000000 -0.9409439 0.050923675 0.00021461741 -0.0020080374 -0.00025687562 -0.0028197167 -0.93637478 0.041873246
502000000 -0.93938041 0.052723575 0.00075783621 -0.0020369603 0.00018118085 -0.0023260817 -0.93816322 0.042356674
503000000 -0.93910676 0.051575717 -0.00042417494 -0.0023457839 -0.00082111161 -0.0019263127 -0.93715245 0.04191393
504000000 -0.93954837 0.053271979 -0.00045606564 -0.0018578108 -0.00053368427 -0.0019259077 -0.9386614 0.044231296
505000000 -0.93943459 0.050917711 -0.00088728446 -0.0011605925 -0.00042348148 -0.0012951633 -0.93638963 0.044220701
506000000 -0.93924946 0.051560409 5.749891e-005 -0.002259633 -0.00033765836 -0.0018604349 -0.93768579 0.044240437
507000000 -0.93963063 0.051813874 -0.00065851962 -0.0016544983 -0.00036864736 -0.0017177545 -0.93708438 0.044002783
508000000 -0.93912667 0.052240349 2.1099806e-005 -0.0021102228 -0.0012193169 -0.0021132557 -0.93766928 0.044926334
509000000 -0.93906856 0.051793419 0.00065048737 -0.0014918698 -0.0010148539 -0.0027309621 -0.93725181 0.043789029
510000000 -0.93816566 0.052869234 -0.001147392 -0.0025681295 4.2764761e-005 -0.0033522921 -0.93615496 0.043157697
511000000 -0.93828708 0.052599769 -0.0010589159 -0.0024745208 -0.00096434547 -0.0010838744 -0.93730462 0.044527743
512000000 -0.93775189 0.053402785 -0.00046720516 -0.0023379661 -0.0010267962 -0.0016776328 -0.93876582 0.043738604
513000000 -0.9385004 0.052398957 -0.00076895457 -0.0018036893 -0.0012629844 -0.0020265849 -0.93700844 0.043163747
514000000 -0.93881685 0.051896788 -0.00068137911 -0.00072359707 0.00011411455 -0.0012396316 -0.93729204 0.044452306
515000000 -0.93782711 0.054489072 0.00028982369 -0.0028547496 -0.00047312467 -0.0022567855 -0.93660426 0.04496637
516000000 -0.93953437 0.053642597 -0.00013776755 -0.0023766684 -0.00015098118 -0.0031904199 -0.93754297 0.044213917
517000000 -0.94029897 0.053276055 -0.00089402247 -0.001937434 0.00082891824 -0.0024329596 -0.93637413 0.045490768
518000000 -0.93943888 0.053173147 -0.0011168538 -0.0026500144 7.2886512e-005 -0.002393313 -0.93624485 0.045237027
519000000 -0.93900138 0.052924681 -0.00033382268 -0.0019331273 -0.00062932033 -0.0030599262 -0.93673581 0.043864358
520000000 -0.93943435 0.053313944 -0.0012558079 -0.0017184673 0.00044816546 -0.0020115746 -0.93605822 0.045449704
521000000 -0.93948036 0.055338968 -0.0014560936 -0.0022597106 0.00080970087 -0.0026042711 -0.93862647 0.046507929
522000000 -0.9408226 0.053997431 -0.00047718102 -0.0022881068 0.00036134163 -0.0015925905 -0.9364239 0.046275195
523000000 -0.93819463 0.054902446 -0.0016084274 -0.0024836266 -0.00040544046 -0.00092256011 -0.93735588 0.047158316
524000000 -0.93958902 0.054760791 -0.00051339233 -0.0011887689 -0.00043525017 -0.0020620259 -0.93591797 0.046210077
525000000 -0.94009531 0.053968057 -0.00034368373 -0.0022617886 -0.0010537391 -0.0019091105 -0.93712544 0.045320615
526000000 -0.93906742 0.055447295 0.00014528364 -0.0018844577 -0.00059020915 -0.0021949757 -0.93773067 0.044832345
527000000 -0.93927997 0.053154744 -0.00070174725 -0.0012850538 -0.0013904725 -0.0029388194 -0.93832004 0.045658432
528000000 -0.938034 0.054981694 -0.0010885231 -0.0019053032 -0.00097518053 -0.002002097 -0.93754518 0.047197971
529000000 -0.93892282 0.053579506 0.00017704436 -0.0023556254 -0.00033504653 -0.0023432672 -0.93614686 0.048173111
530000000 -0.93877012 0.055552211 -0.00033800706 -0.0016814886 -6.5418128e-005 -0.0022988077 -0.93665206 0.046050221
531000000 -0.93865705 0.055121858 -0.00097295066 -0.001518246 -0.00090072566 -0.0015959735 -0.93752652 0.046769749
532000000 -0.93832207 0.05476962 0.00027762164 -0.0027537525 -0.00041524167 -0.0027206372 -0.93580621 0.046224937
533000000 -0.93911695 0.055297248 0.0007798773 -0.0030700651 -0.00052248733 -0.0022874863 -0.93802047 0.047080711
534000000 -0.93760407 0.054754689 -0.00025731465 -0.0030936981 -0.0005665599 -0.0022530332 -0.9372319 0.045354944
535000000 -0.93882453 0.055522237 -0.00042660549 -0.0024400721 -0.00020925031 -0.002381148 -0.93522072 0.046316329
536000000 -0.93802249 0.055504635 -0.0012804419 -0.0022276938 -8.4085725e-005 -0.0019765857 -0.93639731 0.046494436
537000000 -0.93849397 0.054944891 -4.8727197e-005 -0.002453502 -5.4564465e-005 -0.0030452174 -0.93604779 0.048240542
538000000 -0.94011104 0.056007575 -0.0011749878 -0.0013744172 -0.00042349365 -0.0025640121 -0.93708211 0.045636289
539000000 -0.93863678 0.055283125 0.00031159291 -0.0017608058 -0.00013052714 -0.0025530274 -0.93561888 0.048256073
540000000 -0.9390676 0.056293927 0.00067579513 -0.0023195588 -0.00074406131 -0.0025208467 -0.93770248 0.047706164
541000000 -0.93938082 0.056235757 0.000858852 -0.0017428875 -0.00080542703 -0.0025451991 -0.93606836 0.046406906
542000000 -0.93890303 0.054482546 -0.0011028335 -0.0015010952 0.00016689296 -0.0021331664 -0.93640417 0.046318442
543000000 -0.93842995 0.055506855 -9.3196395e-005 -0.0017022478 0.00042073234 -0.0025724275 -0.93681204 0.047369514
544000000 -0.93935484 0.05610561 0.00021804168 -0.0030284962 -0.00023002404 -0.0012614658 -0.93821162 0.047599576
545000000 -0.93726712 0.05485196 -0.00055377511 -0.0027327382 -0.00097597938 -0.0018615378 -0.93741721 0.047999762
546000000 -0.93704331 0.053821765 5.5034565e-005 -0.0021928314 0.00010189786 -0.0023627325 -0.935875 0.047730852
547000000 -0.93880165 0.056580245 -7.4719384e-005 -0.0019666571 -0.00072170171 -0.0022110527 -0.93731552 0.046213858
548000000 -0.93896437 0.055518501 -0.00018900876 -0.0020004658 0.00069704617 -0.0017095868 -0.93597752 0.046768226
549000000 -0.93819606 0.05554698 -0.00034288209 -0.0011798934 -0.0002376952 -0.0024443984 -0.93832695 0.047898047
550000000 -0.9380663 0.056371875 -0.00069878472 -0.0029429947 -0.00062749709 -0.002252314 -0.93679178 0.050140474
551000000 -0.93904215 0.055580914 -0.00068146794 -0.0024583924 -0.00031100112 -0.0024469448 -0.9361397 0.047092061
552000000 -0.93845516 0.054871861 0.00043626383 -0.0024945096 0.00029951564 -0.0025637785 -0.93671876 0.047049399
553000000 -0.93905765 0.054392107 -0.00037406071 -0.0018300603 0.0009533689 -0.0029144024 -0.93670547 0.046285983
554000000 -0.9376325 0.054766107 -8.926697e-005 -0.0013232254 0.00019601776 -0.00028283312 -0.93643093 0.04867078
555000000 -0.93925422 0.056321874 2.6049342e-005 -0.0017130694 -0.0011764166 -0.0021607243 -0.93667179 0.047539458
556000000 -0.93705207 0.055312876 -0.00015325764 -0.0021326256 0.00015737893 -0.0018285834 -0.93823165 0.048682418
557000000 -0.93774921 0.056694448 0.00044006886 -0.0032822771 1.6538936e-005 -0.0021839286 -0.93720978 0.046972889
558000000 -0.93696195 0.055842314 -0.00060762319 -0.0025021664 -0.00081710838 -0.003488339 -0.93755478 0.048295081
559000000 -0.93889183 0.056656398 -0.00074907718 -0.0035109923 0.00089363812 -0.0018388442 -0.93944246 0.050293073
560000000 -0.93939841 0.056571521 -0.0011355506 -0.0024533067 -0.00026210462 -0.0018095997 -0.93621373 0.049422909
561000000 -0.93866402 0.057876024 -9.5718511e-005 -0.0023361715 -0.00073205127 -0.0021241677 -0.93606329 0.047906637
562000000 -0.93796068 0.056817252 -0.00047424473 -0.0013653571 -0.00033118148 -0.0024628821 -0.9386695 0.049890861
563000000 -0.93890041 0.055964351 -0.00014519977 -0.0020918995 -1.3405351e-005 -0.0023720211 -0.93709934 0.050076663
564000000 -0.93590701 0.056798089 -0.00132343 -0.0030228044 0.00017642503 -0.0027520196 -0.93887109 0.047539964
565000000 -0.93927759 0.057915658 -0.00083473773 -0.0016245274 0.00033382376 -0.0022031604 -0.93661189 0.049044408
566000000 -0.93802738 0.055955905 -0.0014094791 -0.0016385355 -6.4198503e-006 -0.0017787929 -0.93688303 0.047435347
567000000 -0.93715531 0.057382517 -0.0012846971 -0.0032301547 -0.0012742275 -0.0029834921 -0.93739671 0.048998434
568000000 -0.93915129 0.055901356 9.7368385e-005 -0.0020122614 6.1924286e-005 -0.0025011017 -0.93833774 0.045328517
569000000 -0.93862486 0.056365658 -8.1933889e-005 -0.0030878338 -0.00025895395 -0.0021935678 -0.93662679 0.047454059
570000000 -0.93794137 0.056564134 -0.00095507922 -0.0016536196 -0.00023901773 -0.0028424887 -0.93674666 0.046474561
571000000 -0.93901205 0.055743128 -0.00068417483 -0.0017751748 -0.00070630619 -0.0018480092 -0.93789023 0.04811722
572000000 -0.93721873 0.057943936 -0.0002285784 -0.0025344442 -0.00065618154 -0.0021782566 -0.93536878 0.04960122
573000000 -0.93763447 0.057157461 -0.00076631468 -0.0014287197 -0.00025403133 -0.0026657747 -0.93724328 0.048714366
574000000 -0.9366163 0.05762352 -0.00085253495 -0.0029794441 -0.00050196872 -0.0017655452 -0.93931228 0.048605006
575000000 -0.93754035 0.055769969 -0.00035572247 -0.0020249609 -0.00010274217 -0.0018261854 -0.93798429 0.048857722
576000000 -0.93804091 0.057891618 -0.00088984711 -0.0020992584 -0.00019704374 -0.0010422474 -0.93736768 0.049965519
577000000 -0.9380886 0.056974992 -0.00099330128 -0.0020949966 -0.00010514734 -0.0018247195 -0.9367426 0.048716549
578000000 -0.93754673 0.059213001 -0.00020249051 -0.0022842898 -0.00011448512 -0.0020757893 -0.93650097 0.049433891
579000000 -0.93724072 0.05804706 -0.00023149792 -0.0018621804 0.0005760424 -0.0024236327 -0.93688023 0.047772177
580000000 -0.93809032 0.056233883 0.00018740202 -0.0022061078 2.0564396e-005 -0.0028302278 -0.93815213 0.050115548
581000000 -0.93785828 0.055325862 -0.00053047499 -0.0021072489 -0.00066818268 -0.0010312654 -0.9370783 0.04935379
582000000 -0.93713969 0.058172405 -0.0001760751 -0.001704109 -0.00028883014 -0.0030995416 -0.93779087 0.04856937
583000000 -0.93764693 0.057665743 -0.00043352853 -0.0026692809 5.601364e-005 -0.0027857637 -0.93713301 0.049892657
584000000 -0.93602473 0.057568032 -0.00089888909 -0.0018797956 0.00046299168 -0.0030177506 -0.93751192 0.050572876
585000000 -0.93902916 0.056553349 -0.00041726598 -0.0020196335 0.0002131543 -0.0037331677 -0.93799114 0.049313173
586000000 -0.9381175 0.057655133 -0.00070264505 -0.0021295713 -0.00029022308 -0.0022770627 -0.93714446 0.048774794
587000000 -0.93648028 0.057965804 -0.00072033075 -0.0011649296 -0.00062152371 -0.00086034549 -0.93806511 0.048612744
588000000 -0.93637675 0.057875853 -0.00060507993 -0.0024109504 -0.00015099108 -0.0034895083 -0.9360624 0.050296973
589000000 -0.93712789 0.05795313 -0.00066838571 -0.0015752261 0.00036629013 -0.0012409991 -0.93455881 0.049460687
590000000 -0.93678337 0.057403155 -0.0002749697 -0.0022093037 -0.00082854921 -0.0020035289 -0.93710464 0.04947323
591000000 -0.93808144 0.059505403 -0.00097558374 -0.0026448357 -5.222614e-005 -0.0023861178 -0.93521899 0.05123977
592000000 -0.93569297 0.056731623 0.00030095817 -0.0016455818 -3.3649205e-005 -0.0029135027 -0.93726355 0.048537489
593000000 -0.937419 0.059072424 -0.0018002087 -0.0024962383 -0.00028676263 -0.0029323343 -0.93930376 0.050108209
594000000 -0.9363547 0.058191795 -0.00056047924 -0.0015338066 -0.00026012791 -0.0029267294 -0.937195 0.048749611
595000000 -0.93793607 0.057172708 0.00046012836 -0.00188488 -0.0010555799 -0.002274324 -0.93546867 0.048893567
596000000 -0.93822837 0.058712911 -0.00047310319 -0.0021571808 -9.1648217e-005 -0.0018272972 -0.93669111 0.050304662
597000000 -0.93766421 0.058435291 -3.8143433e-005 -0.0017210094 0.00013579705 -0.0025791456 -0.93627828 0.04904015
598000000 -0.93750966 0.05933987 -6.0378377e-005 -0.0036725888 -0.00040163135 -0.0028690831 -0.93734908 0.051100381
599000000 -0.93665212 0.058243755 -0.001162446 -0.0020873076 -0.00071647414 -0.0032049273 -0.93690193 0.050606441
600000000 -0.93878376 0.059813026 -0.00030240629 -0.00080892962 0.00026681946 -0.002177177 -0.93558073 0.048870187
601000000 -0.93865258 0.059588287 -0.00021523099 -0.0026485675 -0.00024932079 -0.0028974824 -0.93694299 0.051063977
602000000 -0.93945187 0.060092095 -2.5295407e-005 -0.0016973949 0.00017219331 -0.0012734733 -0.93706328 0.048524238
603000000 -0.93722171 0.060585521 -0.00089068373 -0.0026169061 -0.0015319502 -0.0013792824 -0.93841058 0.051702213
604000000 -0.93561041 0.059707761 -0.00047679391 -0.0026010412 2.6792746e-005 -0.0032096985 -0.93678117 0.050483052
605000000 -0.93674564 0.061634932 -6.8670248e-005 -0.0026970811 0.00025009227 -0.0028561398 -0.93593353 0.050611153
606000000 -0.93698442 0.061652452 -0.0013534919 -0.0027921908 0.00016060895 -0.0028515945 -0.93684816 0.052232262
607000000 -0.9374426 0.059898499 5.4823118e-005 -0.0021609021 -0.0009532657 -0.0021386538 -0.93607533 0.049516186
608000000 -0.9385038 0.060538832 -0.00069275365 -0.0028559414 -0.0012527911 -0.0021241442 -0.9361288 0.050804369
609000000 -0.93709999 0.061637186 -0.0002677562 -0.0019233311 -0.00036369674 -0.0028629154 -0.93720436 0.053052712
610000000 -0.93655753 0.061588254 -0.00072425557 -0.0025120855 -0.00093268114 -0.0022659921 -0.93531382 0.051505599
611000000 -0.93705362 0.063264735 -0.00055117346 -0.0025125716 0.00069167325 -0.0034912152 -0.93788308 0.05054976
612000000 -0.93784618 0.06253273 -0.00053592026 -0.0017435369 0.00036639915 -0.001833536 -0.93699229 0.049795199
613000000 -0.93551672 0.062082484 -0.0010915676 -0.0031391033 -0.00039610855 -0.0034831914 -0.93741649 0.050424259
614000000 -0.93571407 0.062858872 -0.00052125059 -0.0025162883 7.9669764e-005 -0.001663967 -0.93755478 0.051384766
615000000 -0.93683964 0.060994141 -0.00040922192 -0.0022518861 -0.00050314289 -0.002824524 -0.93566149 0.052240234
616000000 -0.93764478 0.061475661 2.3297269e-005 -0.0028763134 -0.00019206239 -0.0009273761 -0.93575996 0.052008782
617000000 -0.93742412 0.063890107 -0.00029928621 -0.0018924351 -4.8939801e-005 -0.0037567611 -0.93739623 0.053339262
618000000 -0.93687421 0.06177431 -0.00077558705 -0.0032524567 -0.0007041085 -0.0020231365 -0.9357968 0.052544925
619000000 -0.93744206 0.0636831 -0.00071648724 -0.0029722399 -0.00021888108 -0.0018398836 -0.93737501 0.052783847
620000000 -0.93917191 0.063707873 -0.00026460874 -0.0033930233 -0.0013012786 -0.0021878281 -0.93518633 0.052789077
621000000 -0.93794596 0.063896097 -0.00045932204 -0.0028017815 0.00069617055 -0.0031665142 -0.93596375 0.052060574
622000000 -0.93704301 0.063849464 -0.00060644222 -0.0017622401 7.1582667e-006 -0.0026977803 -0.93591332 0.054698326
623000000 -0.93647748 0.062805764 -0.00086780195 -0.0031465921 -0.00061634235 -0.002148652 -0.9375608 0.051848281
624000000 -0.93904608 0.064233281 0.00017248761 -0.0017300972 0.00040312135 -0.0019848654 -0.93682516 0.053189158
625000000 -0.93590426 0.06399741 -0.00054701592 -0.0023527266 -0.00071996084 -0.0019722516 -0.93646818 0.053995989
626000000 -0.93756604 0.063096963 -0.00074306485 -0.003200396 -0.0005130652 -0.0031677759 -0.93587112 0.052625015
627000000 -0.9374879 0.064930186 -0.0016413332 -0.0028110105 -0.0010476554 -0.0020837504 -0.93570226 0.052237187
628000000 -0.93657476 0.063133702 -0.00038125177 -0.0029263529 -0.00054861978 -0.0020361252 -0.9374696 0.054901477
629000000 -0.93761981 0.0655462 -0.0003428061 -0.0028972432 0.00096408674 -0.0017551298 -0.93624932 0.053917244
630000000 -0.93619531 0.066309638 -0.00080194778 -0.0021830942 -0.00059555873 -0.0023734074 -0.93488443 0.053643957
631000000 -0.93608677 0.066402212 0.00043953775 -0.0015982434 -0.00023202025 -0.0029919927 -0.93651813 0.05475403
632000000 -0.93804806 0.064798504 -0.00049642491 -0.0030191124 -0.0013163649 -0.002649568 -0.93438774 0.054662634
633000000 -0.93814558 0.064965814 -0.0020108554 -0.002024482 9.2367831e-005 -0.0015737091 -0.93642563 0.052980844
634000000 -0.93912709 0.066489823 -0.00053730322 -0.0014866388 -0.00065669848 -0.001498556 -0.93642449 0.053788081
635000000 -0.93750173 0.06393417 -0.00024186439 -0.0023067277 -0.00022244702 -0.0022064834 -0.93652487 0.054403119
636000000 -0.93653053 0.065404184 -0.0015246022 -0.0030026177 -0.00098740694 -0.0020372348 -0.93700981 0.053731434
637000000 -0.93617028 0.064233921 -0.0012523017 -0.0027123017 -0.00089412491 -0.0026425449 -0.9366228 0.05324129
638000000 -0.93655366 0.065806367 0.00052795361 -0.0020578702 -0.00088382227 -0.0033998983 -0.93644738 0.054548953
639000000 -0.93746996 0.065380022 -0.00030041486 -0.0026183061 -0.00083214435 -0.0014583094 -0.93550783 0.055756804
640000000 -0.93811184 0.064170189 -0.00094103738 -0.0021058205 -0.00042712293 -0.0021317333 -0.93450093 0.054531682
641000000 -0.93724281 0.065670766 -0.0006793504 -0.0030263278 -0.00098196883 -0.0030981349 -0.93562406 0.054212678
642000000 -0.93526542 0.067281924 0.00080890127 -0.0015116828 -0.00083995413 -0.0016459683 -0.93564826 0.055548403
643000000 -0.93733114 0.067332789 -0.00050619326 -0.00194491 -0.00096602808 -0.0022149363 -0.93641669 0.054627214
644000000 -0.93519008 0.065533802 -0.00047200933 -0.002974858 0.00011949798 -0.003071489 -0.93624806 0.055152018
645000000 -0.93657583 0.065366842 -4.8039401e-005 -0.0023979074 -0.00024609244 -0.0024825654 -0.93668908 0.055067278
646000000 -0.93618757 0.066074833 -0.000552157 -0.002493781 0.00014611641 -0.0035785835 -0.93604076 0.05447042
647000000 -0.93787009 0.066498347 -0.00032644664 -0.0039366479 0.0001170375 -0.0033237657 -0.93522877 0.054850511
648000000 -0.93704706 0.067546256 -0.0010867984 -0.0027801921 -0.00039487821 -0.002097727 -0.93616247 0.056291599
649000000 -0.93750334 0.0663241 -0.00033013651 -0.0020596208 -0.00042541916 -0.0027520587 -0.9367376 0.055180456
650000000 -0.93563765 0.066251829 0.00021029577 -0.0025946896 -0.0011567617 -0.0034623584 -0.93617117 0.055414785
651000000 -0.93753326 0.067320943 -0.00024202102 -0.0025160278 -0.00050318654 -0.0018928719 -0.93616813 0.055994228
652000000 -0.93527836 0.066809297 -0.00031060845 -0.0025299639 -0.00084293226 -0.0024212673 -0.93543738 0.053906411
653000000 -0.93672478 0.066656917 -0.0011562066 -0.0030427473 0.00083414814 -0.0015575313 -0.93477285 0.055073407
654000000 -0.93747538 0.067583583 -6.5206177e-006 -0.0022076496 -0.00045032919 -0.0027248815 -0.93781829 0.055597357
655000000 -0.93517154 0.067510083 -0.00066265045 -0.001526976 0.0002305098 -0.0024259111 -0.93650961 0.055942766
656000000 -0.93747014 0.067105353 -0.00073893456 -0.0030697887 -0.0011291659 -0.0023383701 -0.93523628 0.055607151
657000000 -0.93654597 0.067603447 -0.0005665049 -0.0022101651 -0.0012047827 -0.001581007 -0.93699896 0.057897668
658000000 -0.93722117 0.069431357 -0.00058660336 -0.0019475756 3.2240721e-005 -0.0019216328 -0.93628609 0.056241874
659000000 -0.93744081 0.069151938 -0.00074982876 -0.0020860394 -0.00015874664 -0.0024422642 -0.93706065 0.058048669
660000000 -0.93694532 0.068885028 -0.00031767352 -0.0016349686 0.00044596448 -0.0020798156 -0.93594599 0.056432109
661000000 -0.93554133 0.069137797 -0.0010194462 -0.0022958908 7.4242678e-005 -0.0023519071 -0.93576986 0.05655659
662000000 -0.93511862 0.066779509 5.6058732e-005 -0.0026551196 -0.00017938133 -0.002059045 -0.93627763 0.056345258
663000000 -0.93584359 0.067214474 -0.00054512476 -0.0033310051 0.00014947017 -0.0017200585 -0.93414247 0.055583335
664000000 -0.93723136 0.066663235 -0.000178002 -0.0028888416 -0.00025455523 -0.0031987934 -0.935893 0.055928186
665000000 -0.93695205 0.067612551 0.0001052078 -0.0019332191 -0.00045546234 -0.0021376144 -0.93563408 0.05667435
666000000 -0.93742472 0.068143688 -6.5237684e-005 -0.0030015176 -0.0010719105 -0.0021710689 -0.93572676 0.055811111
667000000 -0.93723756 0.067760579 5.1738312e-005 -0.0027586122 -0.00080136338 -0.0031172102 -0.93511701 0.055589367
668000000 -0.93519872 0.068401083 -0.00063427188 -0.0026495187 7.7919904e-005 -0.0025891336 -0.93504822 0.055329978
669000000 -0.93697703 0.068502598 -0.00043663877 -0.0024280173 -0.00094286964 -0.0025242656 -0.93486768 0.053454459
670000000 -0.93607163 0.068468109 -0.00025561036 -0.002708365 -0.0010565021 -0.0029090964 -0.93579888 0.056186654
671000000 -0.93777239 0.067870654 -4.009646e-005 -0.0021261151 -0.00051683345 -0.0037744963 -0.93745661 0.056895722
