!Keysight Technologies,M9374A,MY55442783,A.12.55.05
!Date: Friday, May 21, 2021 10:51:17
!Correction: S11(Full 2 Port(1,2)) 
!S21(Full 2 Port(1,2)) 
!S12(Full 2 Port(1,2)) 
!S22(Full 2 Port(1,2)) 
!S2P File: Measurements: S11, S21, S12, S22:
# Hz S  RI   R 50
500000000 -0.93949175 0.050018001 0.00048179794 -0.0019554957 -0.00089006149 -0.0016388663 -0.93770081 0.041557793
501000000 -0.93982327 0.051110838 -0.0011202478 -0.0023512256 -0.0010188399 -0.0018995999 -0.93756646 0.043051317
502000000 -0.93787163 0.052263543 -0.00032339396 -0.0019027147 0.00020097227 -0.0026122143 -0.93742627 0.042080462
503000000 -0.93690699 0.051293835 -0.00031654103 -0.0015951148 -0.0002877705 -0.0021396717 -0.93610847 0.043378484
504000000 -0.93781406 0.051817436 -0.0011677602 -0.0026237606 -0.00054147345 -0.0014541986 -0.9376992 0.042485222
505000000 -0.93826497 0.051628895 -0.00020283397 -0.0020756545 -5.5858902e-005 -0.0018703206 -0.93751526 0.040781081
506000000 -0.94189566 0.051616147 -0.00047889026 -0.0015129383 -6.3520558e-005 -0.0015421498 -0.9365747 0.044449404
507000000 -0.93878675 0.052398719 -0.00081588916 -0.0016699792 0.00039328687 -0.0020440507 -0.9374283 0.043209024
508000000 -0.93945515 0.052908603 0.00027955617 -0.0021252858 -0.00022071112 -0.0028737437 -0.93791556 0.04383437
509000000 -0.94172907 0.052243028 0.00011179388 -0.002120266 -0.00076948857 -0.0023361845 -0.93775159 0.043946948
510000000 -0.93872249 0.052781802 0.00019421657 -0.0018201373 -0.00094083505 -0.0029880847 -0.93801421 0.043209117
511000000 -0.93896234 0.054523144 0.0011494623 -0.002393052 0.00027820916 -0.0019789534 -0.93664014 0.044523757
512000000 -0.93885893 0.053549271 -0.0010193257 -0.0021630959 -0.00075826474 -0.0019683191 -0.93670774 0.04534502
513000000 -0.93898791 0.053101469 0.00031431188 -0.0021869282 -0.00053184642 -0.0025674121 -0.93748009 0.045066871
514000000 -0.93847263 0.052997429 -0.00037911595 -0.0022969302 -0.00032364397 -0.0017070654 -0.9371168 0.045406286
515000000 -0.94009048 0.05302928 8.2473627e-005 -0.0011863314 -0.00082195114 -0.0014388604 -0.93736774 0.04532988
516000000 -0.93960255 0.054262295 -0.00077539356 -0.0019884596 0.00054215983 -0.0023136868 -0.9371407 0.044009827
517000000 -0.93820375 0.052892886 0.00021680378 -0.00086807739 -0.0010404652 -0.0010019829 -0.9374091 0.044336379
518000000 -0.93973768 0.053962331 -0.0004261104 -0.0032893005 -0.00045131889 -0.0015841654 -0.93522811 0.042740833
519000000 -0.93977249 0.05377017 0.00018177368 -0.0027784992 0.00021086913 -0.002208526 -0.93674707 0.044701248
520000000 -0.93729156 0.054354422 -0.00056480605 -0.0018871153 -0.00020598664 -0.001897143 -0.93735284 0.046494786
521000000 -0.93878245 0.052124817 -0.00092584279 -0.0018160526 0.00031360681 -0.0015327198 -0.93597704 0.045236051
522000000 -0.93980122 0.052918445 0.0001780998 -0.0012898436 -0.00049860141 -0.0027625267 -0.93848866 0.046095364
523000000 -0.93935871 0.052329693 0.00037636166 -0.0019509121 -0.00039046092 -0.0012891842 -0.93684769 0.044952411
524000000 -0.93927282 0.053290144 0.00078585552 -0.0029013827 -0.00021971753 -0.0023065004 -0.93701279 0.047096882
525000000 -0.93979782 0.054222211 -1.6276004e-005 -0.0016705303 -4.540486e-005 -0.0019667416 -0.93673974 0.045511823
526000000 -0.93951911 0.052333221 -0.00038423314 -0.0016355568 -0.00026397881 -0.0014585142 -0.93784267 0.045827251
527000000 -0.93995935 0.054109707 0.00018953724 -0.001629085 -0.00056394585 -0.002383779 -0.93784648 0.04572811
528000000 -0.93841428 0.055757277 -0.00066101266 -0.0020002131 9.9878844e-006 -0.0026947388 -0.93818778 0.046021707
529000000 -0.93847382 0.054946218 -0.00098499784 -0.0030098564 0.00030266718 -0.0027757436 -0.93580574 0.046538398
530000000 -0.94095421 0.054591279 -6.1610524e-005 -0.002250518 -0.00047719141 -0.0021823714 -0.93803322 0.047710877
531000000 -0.93868458 0.055326335 -5.4800646e-005 -0.0023709051 -0.00049733504 -0.0027422074 -0.93779343 0.04638391
532000000 -0.940162 0.054282378 -0.0012390389 -0.0021602919 -0.0003095305 -0.0015675545 -0.93790942 0.047962088
533000000 -0.9385187 0.054430615 -0.00038109376 -0.0033728387 0.00029742613 -0.0017216909 -0.9368993 0.047487136
534000000 -0.93878633 0.053607866 -0.00091688021 -0.0016156378 -0.00015311157 -0.0010192533 -0.93747991 0.046871204
535000000 -0.9387356 0.054394078 -0.00063551147 -0.0020787979 0.0002680007 -0.0021257231 -0.93620396 0.047134783
536000000 -0.93830216 0.054877918 -0.00046370839 -0.0018041539 6.2548061e-005 -0.0025990135 -0.93801051 0.046921473
537000000 -0.9391979 0.053727232 -0.00032940283 -0.0027867954 -0.00027457764 -0.0020792505 -0.93709677 0.047408562
538000000 -0.93912721 0.05332806 7.2626812e-005 -0.0017687918 -9.9307763e-005 -0.0017132149 -0.93651718 0.047657624
539000000 -0.93908054 0.055546839 -0.00082912337 -0.0015914942 -0.0006897499 -0.0018593716 -0.93692619 0.046301525
540000000 -0.93838823 0.055909943 -5.5258239e-005 -0.0020891614 -0.00047079654 -0.0017363507 -0.93622911 0.046502247
541000000 -0.93758255 0.056089234 0.0003028069 -0.0028278898 -0.0006541473 -0.001517438 -0.93743664 0.047171976
542000000 -0.93839371 0.056268267 8.2271341e-005 -0.001991075 -0.00028053363 -0.0022295951 -0.93807924 0.047389142
543000000 -0.93861073 0.055471718 -0.00043026428 -0.0028823786 -0.00024498213 -0.0024394195 -0.93654394 0.048448823
544000000 -0.93849105 0.05732229 -0.00062485074 -0.0021679997 -0.0012263524 -0.0021526667 -0.93941283 0.047814615
545000000 -0.93947226 0.056413822 -3.6537291e-005 -0.00180553 -0.00028448386 -0.0014166661 -0.93656301 0.048695982
546000000 -0.93990093 0.056455519 2.118991e-005 -0.0024310015 0.00073263695 -0.0017366104 -0.93684 0.047755789
547000000 -0.93920225 0.054760806 -0.00014808528 -0.0025574032 0.00020054885 -0.001772507 -0.93805373 0.047240809
548000000 -0.93967003 0.056317985 -0.00017564782 -0.0017412673 -0.00015845241 -0.0026294419 -0.93701816 0.047869645
549000000 -0.93795258 0.055811964 0.00019332413 -0.0018024649 -0.00045908865 -0.002000198 -0.93754935 0.048930556
550000000 -0.93649811 0.058966003 -0.00039806691 -0.0020098186 -0.00080412609 -0.002792689 -0.93817651 0.049231835
551000000 -0.93928295 0.054185536 -0.00085007108 -0.0020144093 -0.0011903222 -0.0027792575 -0.93792492 0.046919819
552000000 -0.94052374 0.054364726 8.9712667e-005 -0.0019453159 -0.00035893914 -0.0018593426 -0.9372617 0.047452889
553000000 -0.94048184 0.055591267 -0.00073635799 -0.0013062146 -0.00075952354 -0.0015431966 -0.93751818 0.047797777
554000000 -0.93863416 0.05406487 -0.001547428 -0.0018322113 -0.00019774723 -0.0016660528 -0.93821508 0.046788003
555000000 -0.93791366 0.05721356 5.105271e-005 -0.0011369271 -0.001127003 -0.0013094818 -0.93777049 0.049064461
556000000 -0.93731487 0.057754517 -0.00059490162 -0.0015354524 -0.00014516429 -0.00078634929 -0.93694651 0.049824812
557000000 -0.93867755 0.055724606 0.00012646811 -0.0018733232 -0.0012005102 -0.0022625823 -0.93786311 0.048751581
558000000 -0.93854332 0.055485826 -0.00075254386 -0.0024146244 -0.00043504237 -0.0025355848 -0.93738258 0.050524015
559000000 -0.93673408 0.055804867 -0.00013743014 -0.0031793988 0.00036890025 -0.0018497704 -0.93776971 0.047823597
560000000 -0.93793076 0.056329854 -0.00018436016 -0.0030296799 -9.8616263e-005 -0.0020081224 -0.9366172 0.048158485
561000000 -0.93850183 0.05637509 7.2760515e-005 -0.0020654961 -0.00048894441 -0.0015032524 -0.93715757 0.047649086
562000000 -0.93819642 0.058291227 -0.00045477037 -0.002604838 -0.00049242517 -0.0028074167 -0.93711233 0.047881689
563000000 -0.93826187 0.055496842 0.00027680921 -0.0024561414 0.00014966523 -0.0013401036 -0.93748617 0.048622508
564000000 -0.93880206 0.055100735 -0.00010306365 -0.0021873079 0.00022586086 -0.0036591121 -0.93818331 0.048198979
565000000 -0.93943381 0.055160765 -0.00085721473 -0.0027643517 -0.00075119856 -0.001863784 -0.93755466 0.049081758
566000000 -0.93666887 0.057445228 -0.00069385959 -0.0031273216 0.00014611083 -0.0017364816 -0.93579024 0.048180874
567000000 -0.93697274 0.057307992 -0.00062070333 -0.0028261838 -0.00040689757 -0.002317905 -0.93717414 0.04947656
568000000 -0.93618876 0.054289583 -0.00071179838 -0.0017558595 -2.2022859e-005 -0.0023327218 -0.93836677 0.047138855
569000000 -0.93680328 0.055289514 -0.00012125328 -0.0023754661 0.00033739457 -0.0022302549 -0.93728977 0.049136192
570000000 -0.93820453 0.056442626 0.00093061139 -0.0021330928 0.00030641109 -0.0022781286 -0.93635923 0.04829732
571000000 -0.93821204 0.055650685 -0.00091850222 -0.0021599345 -0.00012125707 -0.0025736038 -0.93720067 0.048613217
572000000 -0.93651474 0.05526568 1.5054876e-005 -0.0020546077 -0.00046698045 -0.0028309403 -0.9382087 0.045986932
573000000 -0.93951714 0.056453951 0.00012404528 -0.0028802522 -0.0013062416 -0.0018700368 -0.93555021 0.047679882
574000000 -0.93612283 0.058162268 -8.722693e-005 -0.0015187525 -0.0003195735 -0.0021007059 -0.93910319 0.048588708
575000000 -0.93812257 0.057165079 -0.00050563365 -0.0021680163 0.0001456082 -0.0020682851 -0.93883592 0.048660547
576000000 -0.93822461 0.058672164 -0.00074293534 -0.0021813111 0.00025205442 -0.0028159742 -0.93618941 0.049104504
577000000 -0.9379487 0.057467919 -0.00013354879 -0.0018937034 -0.0012537315 -0.001819234 -0.93915057 0.048320279
578000000 -0.93713462 0.059009988 -0.00038191362 -0.0029099933 -4.7446771e-005 -0.0013618801 -0.93727851 0.047391694
579000000 -0.9381507 0.057411831 0.00041772603 -0.0023883637 -0.00082414621 -0.0023237949 -0.9395054 0.047466621
580000000 -0.9378292 0.057001054 0.00082078995 -0.0013783862 5.6311255e-005 -0.0023792235 -0.936674 0.048796229
581000000 -0.93853992 0.056391787 -0.00060428987 -0.0021945112 0.00098116545 -0.0025626721 -0.93842769 0.050207004
582000000 -0.93760145 0.058568683 -0.00062408688 -0.0024054826 -0.00034603104 -0.0025245289 -0.93704742 0.049073886
583000000 -0.93861353 0.058697786 -0.00020879756 -0.002055265 -0.00087023398 -0.0018218063 -0.93653941 0.048798978
584000000 -0.93908304 0.058608226 -0.00076912274 -0.0025066952 -0.0013369031 -0.0023406732 -0.93666202 0.050819281
585000000 -0.93641269 0.057610895 0.00083432847 -0.0022179212 -0.0011863508 -0.0018249517 -0.93625009 0.049129825
586000000 -0.9382593 0.056737553 -0.00026714892 -0.0025207468 0.00012863119 -0.00313129 -0.93723786 0.048311781
587000000 -0.93833405 0.0584203 -6.504645e-005 -0.0031256906 -0.0010573718 -0.0024568895 -0.93693244 0.049391672
588000000 -0.9375416 0.058212608 -0.0014434623 -0.0022441014 -0.0004497935 -0.002299079 -0.93575376 0.048808135
589000000 -0.93760777 0.058557991 -1.5764149e-006 -0.0016019264 -0.00045570266 -0.0025205209 -0.93888372 0.049182925
590000000 -0.93715811 0.058684841 0.00014423832 -0.0029343301 0.00019264505 -0.0035372993 -0.93581319 0.049920261
591000000 -0.93833345 0.058117069 -0.00041515796 -0.0032099655 -0.000312235 -0.0015622712 -0.93704152 0.050247952
592000000 -0.93837279 0.058184128 -0.00035459059 -0.0025805621 -0.0013054094 -0.0026990438 -0.9402895 0.049528077
593000000 -0.938362 0.058491055 -0.00063910492 -0.0026623702 -0.00094568019 -0.0028209898 -0.93845391 0.049019661
594000000 -0.94041079 0.059230518 -0.0014290544 -0.0018242106 -0.00088921224 -0.0030256195 -0.93804222 0.050317418
595000000 -0.93744129 0.057002816 0.00015954321 -0.0023288126 -0.0015183217 -0.0022215121 -0.93727833 0.051133677
596000000 -0.93816209 0.058748975 -0.0007942121 -0.0013058591 -0.0012412505 -0.0023476484 -0.93593276 0.050415747
597000000 -0.93788552 0.058729507 -0.00011485286 -0.0026596822 -5.6815086e-005 -0.0019694124 -0.9391067 0.050264865
598000000 -0.93679923 0.059522867 0.00024545664 -0.0024724465 -0.000574846 -0.0021289361 -0.93955004 0.050310455
599000000 -0.93688428 0.058271632 -0.0005258944 -0.0030298582 0.00028221234 -0.0020415524 -0.93743771 0.049523216
600000000 -0.93733203 0.059691418 -0.00042327977 -0.0017268215 -0.00021345349 -0.0022434609 -0.93881458 0.050090376
601000000 -0.93735111 0.060792107 0.00033122717 -0.0030288021 0.00041488878 -0.0019804928 -0.93699706 0.051239628
602000000 -0.9376353 0.057324987 -0.00013643867 -0.0034248466 -2.814318e-005 -0.0029031467 -0.93641222 0.051981635
603000000 -0.93861628 0.059409652 6.0099039e-005 -0.0020600802 6.6803223e-006 -0.0017221407 -0.93847471 0.050979856
604000000 -0.93808281 0.059442636 -0.0005336043 -0.0033411141 -0.00051194051 -0.002339914 -0.93804467 0.052040566
605000000 -0.93951601 0.060482711 -0.0012005111 -0.0026079197 0.00091174775 -0.0025946922 -0.93847597 0.050683752
606000000 -0.93878675 0.058599919 -0.00052038213 -0.0024739997 -0.0010507704 -0.0026705423 -0.93621022 0.051243082
607000000 -0.93759334 0.060751576 -0.00024035863 -0.0022885695 0.00048993673 -0.0014535482 -0.93698388 0.049320102
608000000 -0.93771875 0.061184153 -0.00014858737 -0.0018459087 -0.0013896851 -0.0023346317 -0.93661195 0.050844796
609000000 -0.93947542 0.060000744 -0.00055780436 -0.001650868 0.00035012671 -0.0028055173 -0.93618512 0.051358391
610000000 -0.93820137 0.06002824 -0.00087906944 -0.0028519116 -0.00063169486 -0.0034100704 -0.93569446 0.051140603
611000000 -0.93805009 0.061469004 -9.8831115e-005 -0.0026009635 0.0002421118 -0.0021567766 -0.93650055 0.052127372
612000000 -0.93683803 0.062572844 -0.0012724469 -0.0033992161 -0.00060781202 -0.0020429762 -0.93599963 0.052741714
613000000 -0.93730062 0.061974239 -0.0010492012 -0.0038395801 -0.00017872748 -0.0012342492 -0.93631631 0.052442826
614000000 -0.93724608 0.063585892 0.00033823721 -0.0023464535 0.00010092765 -0.0023234601 -0.93842226 0.052405283
615000000 -0.93689197 0.059797663 -5.622199e-005 -0.0020486959 0.00089571299 -0.0035582187 -0.93846482 0.052576981
616000000 -0.93974769 0.060762387 -0.00020077833 -0.0023170973 0.0011624522 -0.0029092741 -0.9357236 0.052698132
617000000 -0.93673074 0.062107235 -0.00053549762 -0.0017055343 -0.00010567196 -0.0038237551 -0.93647391 0.053052355
618000000 -0.93675309 0.062825315 -0.0011808511 -0.0027276799 -0.00043438506 -0.00099639222 -0.93622619 0.053266276
619000000 -0.93584847 0.062197775 -0.00064376288 -0.0026211611 -0.00069053541 -0.0023039135 -0.93839872 0.050661456
620000000 -0.93741316 0.063605927 -0.0006873961 -0.0016918076 3.0283933e-005 -0.0017820635 -0.93686044 0.052128516
621000000 -0.9395197 0.06239282 -0.00092686329 -0.0017932878 -0.00020358922 -0.0024440102 -0.93480271 0.053698
622000000 -0.93639141 0.061771281 -0.0010849937 -0.0018642201 9.2107955e-005 -0.0025774934 -0.93699366 0.05338585
623000000 -0.93782824 0.063709334 -0.0008547717 -0.0026631288 -2.7483186e-006 -0.0022858838 -0.93590969 0.053607393
624000000 -0.93845075 0.062808022 -0.00040974875 -0.0028930428 -0.0010833637 -0.0026919476 -0.93634659 0.054653097
625000000 -0.9386462 0.063344747 -0.0010122099 -0.0030208803 -0.00012008459 -0.0026072727 -0.93682253 0.052320763
626000000 -0.93841815 0.063479833 0.00085036264 -0.0027536948 -0.0008837257 -0.0022989612 -0.93694103 0.05347044
627000000 -0.93792796 0.064540818 -0.00035037406 -0.0029432566 -0.00011906798 -0.0025194138 -0.93550336 0.051310655
628000000 -0.93791848 0.063803293 0.0002558807 -0.0026229811 -0.00040048463 -0.002810298 -0.93642998 0.053332627
629000000 -0.93733931 0.064324833 -0.00038797685 -0.0026008182 -0.00080470613 -0.0033483007 -0.93730366 0.054271318
630000000 -0.93692219 0.064708829 -0.0010308248 -0.0024171518 -0.00025249011 -0.0017875634 -0.93641561 0.055413429
631000000 -0.93821591 0.064522855 -0.0010040245 -0.0030703251 -0.00029358157 -0.0022766422 -0.93788093 0.054698143
632000000 -0.93737489 0.063200288 -2.095102e-005 -0.0023303861 -6.506643e-005 -0.0028755644 -0.93683213 0.053318962
633000000 -0.93600988 0.064069204 0.00027675173 -0.0017272157 0.0004237027 -0.0028509956 -0.93578494 0.053562704
634000000 -0.9360587 0.065953285 -0.0013247665 -0.0020718332 -0.0011641808 -0.0031974318 -0.93640035 0.052962132
635000000 -0.93874884 0.064448543 -0.00013533483 -0.0023327672 -0.00022138093 -0.0027191311 -0.93504316 0.052996248
636000000 -0.93737024 0.065437034 -0.00088143838 -0.0017734839 -0.00046791494 -0.0020035633 -0.9369033 0.054351382
637000000 -0.9367708 0.065528043 -0.0002728244 -0.0025220676 -0.00048715508 -0.0014399961 -0.9355756 0.054170556
638000000 -0.93728936 0.065078042 -0.00068001542 -0.0026895697 -0.001176123 -0.0016955331 -0.93825924 0.054069337
639000000 -0.93850595 0.065093346 0.00016905894 -0.0024197856 -0.00081022922 -0.0024794426 -0.93763995 0.05405644
640000000 -0.9360913 0.067210779 -0.00072872423 -0.0024423988 -0.00034215391 -0.0024489085 -0.93692946 0.054120239
641000000 -0.93744236 0.066154137 -0.00025722708 -0.0025550609 -0.0010620678 -0.0022243117 -0.93572837 0.054352321
642000000 -0.93603987 0.064389817 -0.00062560645 -0.0020739746 0.00025572174 -0.0028710151 -0.93578809 0.052366264
643000000 -0.93577152 0.067794733 0.00015236849 -0.002890473 -0.0010501167 -0.0022310426 -0.93583626 0.054284848
644000000 -0.93604803 0.0662328 -0.00051902968 -0.0019016059 -0.00019645067 -0.0022784341 -0.93599254 0.053955887
645000000 -0.93603563 0.066646397 -0.001181416 -0.0028857971 0.000254985 -0.00081874157 -0.93644625 0.055905342
646000000 -0.93665189 0.066466816 -0.00045428783 -0.0032967031 -0.0005163505 -0.0019612238 -0.93565559 0.055365555
647000000 -0.93654662 0.065654621 -0.00076911488 -0.0029041513 0.00075242238 -0.0026133608 -0.93733531 0.054331999
648000000 -0.93814224 0.066152893 0.00088266452 -0.0021403159 0.00047976983 -0.0024181337 -0.93645185 0.056060839
649000000 -0.93778294 0.065711088 -3.0774958e-005 -0.0021520483 -0.00062176958 -0.0035727061 -0.93541348 0.056504812
650000000 -0.93654972 0.066583335 -0.0010445568 -0.0038399154 2.444269e-005 -0.0033024962 -0.93608308 0.056790821
651000000 -0.93620706 0.066457376 -0.0003211427 -0.0027845202 -0.00079955172 -0.0029027071 -0.93619508 0.054990076
652000000 -0.9380306 0.066637479 -0.00085805857 -0.0017136778 -0.00082984584 -0.0034051933 -0.93523586 0.055367857
653000000 -0.93735063 0.066634245 -0.0012605506 -0.0022213664 0.00027564829 -0.0021155672 -0.93428147 0.053275894
654000000 -0.93594843 0.06707219 0.00042522035 -0.0032218357 -0.00049357896 -0.003092824 -0.93718219 0.054953732
655000000 -0.9363516 0.066552527 -0.00061148545 -0.0030834281 -0.00027959922 -0.002971652 -0.93576735 0.055447951
656000000 -0.93652451 0.066614509 -0.00071752217 -0.0025193482 -0.00040877858 -0.0023273183 -0.93626285 0.055387612
657000000 -0.937576 0.06924244 0.00031642968 -0.0015844916 -0.00047164861 -0.003754399 -0.93695229 0.056773674
658000000 -0.9364779 0.068312585 -0.00049272092 -0.0026235925 -0.00013920527 -0.0028423318 -0.9370504 0.056125905
659000000 -0.93665314 0.067724444 -0.0018322484 -0.0025884747 4.3058437e-005 -0.0035698148 -0.93503618 0.055757888
660000000 -0.93717426 0.067693874 -0.00028905214 -0.0019985111 -8.4151281e-005 -0.0019923481 -0.93732107 0.055860247
661000000 -0.93509489 0.067554198 -0.00099041418 -0.0034245446 -0.00021327137 -0.0023441378 -0.935893 0.056454487
662000000 -0.93587971 0.067377098 -0.00035838893 -0.0026352226 -0.00031290509 -0.0021833673 -0.9369843 0.057425775
663000000 -0.93627214 0.066895977 -0.0011053128 -0.001500354 0.00014305743 -0.0027163809 -0.93614173 0.054844461
664000000 -0.93620414 0.067127965 -0.00024470079 -0.0023070304 0.0004890823 -0.0030083135 -0.93559855 0.057397254
665000000 -0.93646139 0.067778528 0.00019667012 -0.0022055295 -0.00047017587 -0.0028418836 -0.93742174 0.056997608
666000000 -0.93647307 0.067523725 -0.00030042691 -0.0013411561 -0.00035671864 -0.0029388072 -0.935781 0.05524284
667000000 -0.93758297 0.068212703 -0.00020514446 -0.0032157206 -0.0015400371 -0.0030201816 -0.93427211 0.056338929
668000000 -0.9363181 0.068506114 -0.00087516755 -0.0020337573 -0.00015453373 -0.0027120914 -0.93651021 0.055535249
669000000 -0.93750501 0.067779638 -0.00033380941 -0.0032846215 -0.00020951568 -0.0030517548 -0.93523473 0.055906858
670000000 -0.93576103 0.068631157 3.4419174e-006 -0.003407472 0.00023304721 -0.0026307199 -0.93597567 0.056576818
671000000 -0.93625677 0.066826038 -0.00071456138 -0.002674683 0.00022169181 -0.003403544 -0.93626118 0.056452475
