!Keysight Technologies,M9374A,MY55442783,A.12.55.05
!Date: Friday, May 21, 2021 11:10:44
!Correction: S11(Full 2 Port(1,2)) 
!S21(Full 2 Port(1,2)) 
!S12(Full 2 Port(1,2)) 
!S22(Full 2 Port(1,2)) 
!S2P File: Measurements: S11, S21, S12, S22:
# Hz S  RI   R 50
500000000 -0.94082427 0.049243722 -0.00030392906 -0.0026905199 -0.00016733528 -0.0030184377 -0.93908519 0.041538134
501000000 -0.93844283 0.050712127 -0.00034401039 -0.00263977 -0.0003431798 -0.0019307653 -0.937464 0.041762963
502000000 -0.93916565 0.049641576 -0.00089598942 -0.0027131222 6.9296875e-005 -0.0028435157 -0.93823546 0.043074705
503000000 -0.93826711 0.051528681 -0.00066777715 -0.0016049804 -0.00079380436 -0.0023133135 -0.93941718 0.043118734
504000000 -0.93980396 0.050930887 -0.0005761488 -0.0024498513 -0.0010006875 -0.0023531506 -0.93821305 0.041986793
505000000 -0.94002157 0.050199926 0.0010582708 -0.0018420791 -0.00024637091 -0.0036884011 -0.93711317 0.043929197
506000000 -0.9389109 0.050765902 -0.00072702527 -0.0030054862 -0.00039705748 -0.0016150015 -0.93851018 0.043367926
507000000 -0.93984199 0.05124322 -0.00051640673 -0.0020268483 -0.00032172218 -0.0023551765 -0.9382149 0.04257489
508000000 -0.94069427 0.05021432 -9.3081675e-005 -0.0024398195 -0.00056537474 -0.0029424331 -0.93843472 0.040518962
509000000 -0.93941087 0.053025302 -6.3260108e-005 -0.0010044297 -0.0009913214 -0.0026156425 -0.93795514 0.043738574
510000000 -0.93872797 0.052268129 -0.00067236775 -0.0026990748 -0.00058755791 -0.0020571996 -0.93644315 0.042428885
511000000 -0.93757904 0.051049698 0.00012962589 -0.0020510552 0.00069840695 -0.0027607244 -0.93615907 0.042972546
512000000 -0.93989021 0.051823292 -0.00043648004 -0.0012403805 -0.00015116741 -0.002834969 -0.93851864 0.040583365
513000000 -0.93943232 0.051883243 -0.00026314417 -0.0020040472 0.00066279818 -0.0021972514 -0.93743742 0.044638634
514000000 -0.94015408 0.051353633 -0.00084399339 -0.0024750561 -0.00085304002 -0.0022842516 -0.93683153 0.044887103
515000000 -0.94024897 0.054070778 -0.00036516046 -0.0024509672 0.00043999491 -0.0018528069 -0.93757349 0.043786526
516000000 -0.93907171 0.051869154 0.00029419496 -0.0021143171 0.00010681954 -0.0021681383 -0.93671471 0.045287825
517000000 -0.94021428 0.054118868 0.0010449635 -0.0012227157 0.0001840726 -0.0013652734 -0.93665099 0.044037569
518000000 -0.939928 0.053501684 -0.00078804116 -0.0018160937 -0.00084557681 -0.002824724 -0.93839192 0.043924633
519000000 -0.9403013 0.054557726 0.00063078047 -0.0031054688 0.00065102917 -0.0012635015 -0.93801755 0.045738477
520000000 -0.93926221 0.052850269 -0.00081054325 -0.0017700733 0.00024828748 -0.0015174028 -0.93723029 0.044472743
521000000 -0.94116402 0.054468714 -0.00030103003 -0.002818021 -0.00052187569 -0.0020528159 -0.93750805 0.045748793
522000000 -0.93986404 0.053856935 -0.00063540554 -0.0022241173 -0.00040734845 -0.0017859556 -0.93772757 0.044433158
523000000 -0.9401046 0.051980462 -0.0006401253 -0.0019843385 -0.001002896 -0.0022229166 -0.93634653 0.046052098
524000000 -0.93916976 0.053375002 -0.00062874658 -0.0016256187 -0.0004693057 -0.0020729622 -0.93822151 0.044276118
525000000 -0.93865627 0.054175507 -0.00018524721 -0.002390442 -0.00051618589 -0.0024056348 -0.94042569 0.046657942
526000000 -0.94015235 0.054149698 0.00037965178 -0.0021155716 2.6919508e-007 -0.0017067048 -0.93863297 0.044841785
527000000 -0.9398213 0.053825527 -0.00085908623 -0.0026579539 -0.00035720677 -0.0022969404 -0.93717974 0.045532271
528000000 -0.93750626 0.053963866 -0.00035936612 -0.0012433705 0.00041410714 -0.0015522697 -0.93809706 0.046669181
529000000 -0.94150084 0.05432044 -0.00026370052 -0.0015967519 -0.00046904219 -0.0027590587 -0.93736565 0.04575387
530000000 -0.93961871 0.05448214 -0.00035508687 -0.0011238358 0.00061847706 -0.0025306009 -0.93868893 0.047061622
531000000 -0.9389745 0.053705081 -0.00026523846 -0.0022906226 -0.00054019567 -0.0020132696 -0.93821084 0.045884129
532000000 -0.93959016 0.052882276 -0.00041099457 -0.001703952 -0.00053827802 -0.0033367476 -0.93777817 0.047087222
533000000 -0.9393096 0.054154232 -0.00042689554 -0.0024100139 -0.00095049851 -0.0023272736 -0.93567324 0.045537602
534000000 -0.93945664 0.054387178 0.00082630629 -0.0021970328 -4.2055217e-005 -0.0019902738 -0.93683749 0.04541133
535000000 -0.93957555 0.053962246 -0.00010941404 -0.0029450494 -0.0010358931 -0.0011411044 -0.93742412 0.045447752
536000000 -0.94057405 0.054518908 0.00081132393 -0.0024349776 -0.00069758209 -0.0019693102 -0.93869901 0.045768168
537000000 -0.93904024 0.053285893 0.00071581209 -0.0018868569 -0.00035172864 -0.002713633 -0.93771929 0.047080565
538000000 -0.93855584 0.054540303 -0.0011373577 -0.0010428714 -0.0011585887 -0.0021950591 -0.9372766 0.045961976
539000000 -0.9378472 0.054520074 -0.00092198758 -0.0028528916 8.7909386e-005 -0.0018471616 -0.93746918 0.045555346
540000000 -0.94138396 0.056001306 -0.00021845844 -0.0014180741 -0.00053163053 -0.0012694832 -0.93658221 0.047561906
541000000 -0.9382273 0.054761507 0.00024424243 -0.0026147973 0.00031860481 -0.002319525 -0.93859452 0.048366591
542000000 -0.93799514 0.055107325 -0.0004832437 -0.0022070466 -4.8956605e-005 -0.0030928205 -0.93727916 0.047853198
543000000 -0.93889356 0.054302819 -0.00017924521 -0.0023783634 -0.00061612291 -0.0017766935 -0.93811595 0.045516811
544000000 -0.93889725 0.055010431 4.9498012e-005 -0.0028788196 -0.00061081006 -0.0014845688 -0.93732959 0.048489712
545000000 -0.93922222 0.055163823 -0.00050770247 -0.0025091174 -0.00076213985 -0.0024542406 -0.93772733 0.047875963
546000000 -0.94000703 0.054807756 -0.00067285105 -0.0020227146 -0.00015758841 -0.0021025515 -0.93631697 0.046909589
547000000 -0.93972492 0.054748695 -0.00038478168 -0.0021609543 -0.00071302819 -0.0017349316 -0.93809736 0.046095338
548000000 -0.9389866 0.054893337 0.00017707025 -0.0023186766 -0.00015833952 -0.0031669845 -0.93620795 0.047667444
549000000 -0.9390294 0.053751018 -0.0012315918 -0.0015672495 1.633512e-005 -0.0024412514 -0.9371565 0.04777474
550000000 -0.93894267 0.055040848 -0.00034805638 -0.0021446038 0.0003649414 -0.0027335216 -0.93927866 0.047306046
551000000 -0.93915731 0.054324094 0.00043933172 -0.0022849489 -5.5973738e-005 -0.0016667497 -0.93773478 0.047790159
552000000 -0.93918329 0.055746865 -0.00051928434 -0.002842823 0.00029952425 -0.0018256934 -0.93668509 0.046949301
553000000 -0.9396829 0.055174589 -0.00053975749 -0.001988953 0.00035195911 -0.0022235999 -0.9386977 0.046466317
554000000 -0.9377532 0.055276308 0.00016806104 -0.0024527395 -0.00036251621 -0.0013029549 -0.93826067 0.047721937
555000000 -0.93797928 0.054544684 -0.00046700769 -0.0027649561 -0.00069212407 -0.0021746357 -0.9378888 0.047953557
556000000 -0.9383142 0.056831528 5.8013495e-005 -0.0023439033 -0.00021815962 -0.0025046687 -0.93794221 0.047863219
557000000 -0.94152492 0.055681415 -0.00036338583 -0.002208591 -0.000384174 -0.0026076618 -0.93751138 0.047873069
558000000 -0.93844628 0.05512074 0.0012943815 -0.0018335661 -0.00094665639 -0.0014936959 -0.93742573 0.046677236
559000000 -0.94046658 0.055607617 0.0003671945 -0.0025182867 -0.00047312246 -0.0019577043 -0.93773568 0.048241101
560000000 -0.93884408 0.054523919 0.00044253108 -0.0015061534 -0.00034901247 -0.0031259567 -0.93578422 0.047385629
561000000 -0.93863553 0.056589 -0.0002456801 -0.0024718505 -0.00053143594 -0.001323498 -0.93753827 0.048275277
562000000 -0.93923515 0.055906706 -0.00020723333 -0.0020724181 -0.00016431707 -0.0014908314 -0.93743598 0.047670055
563000000 -0.93892246 0.055874515 -6.6519671e-005 -0.0025283494 -0.0013571879 -0.0020680188 -0.93886781 0.047984023
564000000 -0.93895549 0.055755258 -0.0007029188 -0.0018545397 -0.00055960251 -0.0030993326 -0.93796808 0.048977867
565000000 -0.93857956 0.05567785 -0.00018763037 -0.0014334013 -7.3817428e-005 -0.0025656861 -0.93791246 0.047720164
566000000 -0.93739837 0.05513401 -8.2739998e-006 -0.0016444738 0.00065788574 -0.0027993915 -0.93778265 0.047090374
567000000 -0.93712348 0.055073038 -0.00071797904 -0.002427296 -0.00043616397 -0.0022576642 -0.93711907 0.047734961
568000000 -0.9380157 0.055869076 -0.00096693938 -0.0024673149 -0.0013273406 -0.0022107228 -0.93860179 0.047729734
569000000 -0.93800104 0.056167893 -0.0015060179 -0.0025712471 -0.00060769054 -0.0034121627 -0.93679035 0.048049025
570000000 -0.93840635 0.054416534 -0.00090335339 -0.002212605 -0.00034744837 -0.0025342766 -0.93781424 0.048313163
571000000 -0.93735355 0.054201938 0.00025389311 -0.0026903467 -0.00033785761 -0.0018073998 -0.93871742 0.049674332
572000000 -0.93875313 0.057207495 -0.00037841118 -0.002549388 0.00074484164 -0.0024579025 -0.93674254 0.047773633
573000000 -0.93920565 0.056450233 -0.00080271519 -0.00052245671 7.5507029e-005 -0.0023231825 -0.93889493 0.048175845
574000000 -0.93706822 0.055537466 -0.00066916773 -0.0025812492 0.00024751236 -0.0026850139 -0.93947613 0.048572462
575000000 -0.9388575 0.057997745 -0.00047804049 -0.0017749893 -0.00060229131 -0.0013352924 -0.93789005 0.047772363
576000000 -0.93877435 0.056393996 -0.00029053868 -0.0030083761 1.4233234e-005 -0.0015118342 -0.93698329 0.047314957
577000000 -0.93855476 0.055360153 -0.00019940075 -0.002263516 -0.0008054552 -0.0021845943 -0.93700254 0.047153082
578000000 -0.93896365 0.056775223 0.00011170602 -0.0034482717 0.00015130961 -0.0015363537 -0.93859297 0.049082659
579000000 -0.93824625 0.059053265 -5.1698444e-005 -0.0021599571 0.001021494 -0.0021080212 -0.937635 0.046790276
580000000 -0.93985444 0.057247441 -8.0925944e-005 -0.0017611224 -5.9304358e-007 -0.001327576 -0.93700677 0.050203629
581000000 -0.9389866 0.057264883 0.00056310504 -0.0020905936 0.00017857314 -0.0020308048 -0.93762916 0.049521808
582000000 -0.93879521 0.056190725 -0.0002919301 -0.0023939109 -0.00023383064 -0.0022725579 -0.93705225 0.048747573
583000000 -0.93948674 0.057948038 -3.1962871e-005 -0.0019538605 0.00012671461 -0.0023545662 -0.93806815 0.047566522
584000000 -0.93852264 0.056719348 -2.4600107e-005 -0.0023596194 -0.00052126101 -0.0011165458 -0.93688709 0.050470937
585000000 -0.93841702 0.057689287 0.00014150972 -0.0026651761 -0.00015964927 -0.0015375684 -0.9383533 0.04963721
586000000 -0.93928444 0.05702281 -0.00050799467 -0.0013102627 -0.0005167785 -0.0022669008 -0.93691432 0.047748357
587000000 -0.93848121 0.054885581 -0.00056468969 -0.0024513744 -0.0003361204 -0.0014549965 -0.93691266 0.050727747
588000000 -0.93837649 0.057709333 0.00014830071 -0.002706663 0.00041236999 -0.002376341 -0.93812925 0.048790913
589000000 -0.93753421 0.058767766 -0.00044079777 -0.0030076809 -0.00039074974 -0.0022580861 -0.9357053 0.050727598
590000000 -0.93841773 0.058484461 -0.00099168241 -0.0010042901 -0.0010103177 -0.0026925842 -0.93775308 0.049724549
591000000 -0.93996775 0.056830578 -9.3474118e-005 -0.0018076209 0.00042925356 -0.0012724467 -0.93717009 0.048503909
592000000 -0.93944985 0.05706197 -1.2094698e-005 -0.0022766578 0.00038937177 -0.0025939287 -0.93769592 0.04835967
593000000 -0.93825674 0.058330826 -0.00024783917 -0.0017611118 0.00043766471 -0.0025189123 -0.93791944 0.050040141
594000000 -0.93836135 0.058005415 0.00034696097 -0.0020051356 -0.0004296962 -0.0032875321 -0.93786633 0.04792406
595000000 -0.94010007 0.058060821 5.711626e-005 -0.0021021469 -0.00062877062 -0.0024460601 -0.9375912 0.051167451
596000000 -0.93899798 0.058771163 0.00027797694 -0.0027432221 3.455234e-005 -0.0029050536 -0.9376871 0.049712803
597000000 -0.9381485 0.058919366 -0.00078984821 -0.0024253665 -0.0010700861 -0.0022930638 -0.93719023 0.050255612
598000000 -0.93822396 0.057825968 0.00020838226 -0.0015746146 -0.0010160864 -0.0019138029 -0.93848336 0.049443495
599000000 -0.9387157 0.058419652 0.00017783363 -0.0024160205 0.00033591155 -0.002302689 -0.93801576 0.04959479
600000000 -0.93872964 0.058648173 -0.0009974069 -0.0029250667 -0.00079861609 -0.002090072 -0.93711042 0.050484329
601000000 -0.93738151 0.058669761 -0.00060390163 -0.0033311718 0.0010947763 -0.003241492 -0.93830162 0.052844908
602000000 -0.93886638 0.05869351 -0.00083905004 -0.0027470421 0.00093940453 -0.0021950894 -0.93776679 0.049465649
603000000 -0.93843275 0.060375512 -0.00034229754 -0.002292742 1.8847297e-005 -0.0016231029 -0.93761718 0.049563523
604000000 -0.93757689 0.060729947 -0.00083764852 -0.0031451429 -0.0010288977 -0.003216943 -0.93640351 0.051022563
605000000 -0.93843538 0.061284363 0.00047414962 -0.0024731096 -0.00055275258 -0.0018188161 -0.93781143 0.051663391
606000000 -0.93803734 0.058830019 4.4850578e-005 -0.0019862908 -0.00018582259 -0.0023964348 -0.93569827 0.050090283
607000000 -0.93851024 0.060628727 -0.00035552762 -0.0033185277 8.6852833e-006 -0.0022075798 -0.93639451 0.050598942
608000000 -0.93873656 0.061205961 0.00034491569 -0.003096753 0.00065936608 -0.0020755883 -0.93745989 0.05034158
609000000 -0.93769914 0.059154525 -0.0010650394 -0.0026026207 0.00067753642 -0.001770068 -0.93582988 0.051073276
610000000 -0.93751061 0.060963638 0.00025298868 -0.0018727118 -0.0010896482 -0.0017405874 -0.93620181 0.051022045
611000000 -0.93609887 0.060434584 0.00041370813 -0.0034111694 -0.00047300299 -0.0019401857 -0.9350208 0.049489684
612000000 -0.93863767 0.061646599 -0.00049014564 -0.0023000247 -0.00079543004 -0.0018008167 -0.93699938 0.049418166
613000000 -0.93735194 0.06205593 -0.00054423825 -0.0023745925 -0.00058145879 -0.0023293979 -0.93627834 0.050113026
614000000 -0.93727612 0.06032278 -0.00030789321 -0.0019760113 -0.00091283285 -0.0019318375 -0.93760127 0.051585987
615000000 -0.93674219 0.060337033 -0.0003163589 -0.0034744609 0.00072555552 -0.0022960959 -0.93638319 0.050454881
616000000 -0.93772995 0.062648147 -0.00051901449 -0.0028414165 -8.8561908e-005 -0.0032182527 -0.93628681 0.051521618
617000000 -0.93795174 0.062565185 -0.00033989086 -0.0015657424 -0.00092929462 -0.0021548686 -0.93777329 0.051624261
618000000 -0.9385373 0.063738361 7.1452916e-005 -0.0029533186 -0.0006828683 -0.0017732934 -0.93844074 0.051654071
619000000 -0.93880904 0.062563434 -0.00057324825 -0.0019259296 -0.00034072046 -0.0029489985 -0.93557769 0.052135903
620000000 -0.93733549 0.062872201 0.00012670147 -0.0021345611 -0.00025866658 -0.0023606587 -0.93634242 0.053836051
621000000 -0.93875557 0.061727144 -0.0010027469 -0.0011988007 -0.00040633683 -0.0026666166 -0.93644857 0.052549917
622000000 -0.93915355 0.06186017 0.00028195808 -0.0023262564 6.111656e-005 -0.0031875777 -0.93537164 0.051676705
623000000 -0.93648303 0.063387185 -0.00039489428 -0.0019349069 -0.00031331836 -0.0030110253 -0.93686497 0.052447565
624000000 -0.93894494 0.063921519 -0.00055836298 -0.0014279012 -0.0010279083 -0.0022185515 -0.93721056 0.052274588
625000000 -0.93680501 0.064041622 8.8829829e-006 -0.003210925 0.00046082298 -0.0026546358 -0.93597412 0.053782322
626000000 -0.93772101 0.063005522 -0.0018563612 -0.0027970979 0.00044907405 -0.0017183956 -0.93770307 0.052497499
627000000 -0.93984509 0.063728079 -5.0539315e-006 -0.0030365854 -0.0011825071 -0.0015908808 -0.93635261 0.053852841
628000000 -0.9359718 0.062849253 -0.00059912098 -0.0023501171 0.00011531299 -0.0028329024 -0.93657613 0.055233546
629000000 -0.93777555 0.065434419 -0.00016805527 -0.0027622944 -1.6201428e-006 -0.00083997141 -0.93874836 0.051905487
630000000 -0.93757015 0.06503763 -0.0012228145 -0.0025971942 -0.00017599879 -0.0011124881 -0.93767804 0.053632215
631000000 -0.93910247 0.063106127 -0.00036335539 -0.0022026224 -0.00079360831 -0.004056328 -0.93663329 0.053235997
632000000 -0.93778199 0.065637961 -0.00098525919 -0.0035073094 -0.00060750905 -0.0021119595 -0.93686116 0.053826001
633000000 -0.93807548 0.063549511 0.00037686439 -0.0024385597 -0.00062283833 -0.0029088729 -0.9361378 0.052811686
634000000 -0.93681777 0.063843697 -0.00071271299 -0.0018562087 -0.0009503102 -0.0022958086 -0.93754101 0.053816713
635000000 -0.93676388 0.063000061 -0.0001651452 -0.0018098801 -0.0009276378 -0.0017208454 -0.93629581 0.054844256
636000000 -0.93797648 0.065511085 -0.0010315921 -0.001472692 -0.00079170411 -0.0025732974 -0.93694502 0.05365311
637000000 -0.93596911 0.064674795 0.00015111954 -0.0028718275 -0.000241141 -0.0028531349 -0.93598318 0.053268451
638000000 -0.93758112 0.064239644 0.00056185917 -0.002690936 -0.00044024436 -0.0027866282 -0.93627888 0.052925076
639000000 -0.93901634 0.064714298 -0.00032809208 -0.0037108525 -0.0018167701 -0.0031640595 -0.93708938 0.05433099
640000000 -0.93626916 0.065555409 6.5309156e-005 -0.0026172104 -0.00049617514 -0.0013734465 -0.93546277 0.0529809
641000000 -0.93688005 0.063898228 -0.00063483109 -0.0031875351 -0.00036788924 -0.0029908002 -0.93570739 0.055442873
642000000 -0.93686396 0.063932829 -0.0010809257 -0.0028848741 0.00044516133 -0.0021647895 -0.93548477 0.052062202
643000000 -0.93887633 0.065214016 0.00017724768 -0.0021431108 -0.00056979631 -0.0027195236 -0.93620467 0.053806599
644000000 -0.93682629 0.066662773 -0.00029340058 -0.0021290707 0.00010269834 -0.0022346613 -0.93752396 0.054894105
645000000 -0.9386338 0.065130539 -0.00049304782 -0.002533796 -0.0010980836 -0.0030580426 -0.93566406 0.05467714
646000000 -0.93782824 0.065819591 0.00060157385 -0.0023782765 -0.00025890622 -0.0026597239 -0.93557155 0.054982662
647000000 -0.93663192 0.065186583 -0.00039936943 -0.0026998573 0.00050403958 -0.0021587026 -0.93710881 0.053514358
648000000 -0.93590868 0.065605722 -8.3272334e-006 -0.0028654432 -0.00046680952 -0.0020690865 -0.93712628 0.055363681
649000000 -0.93745893 0.065809987 -0.00019428029 -0.002967458 -0.00046177403 -0.0031836738 -0.93597811 0.055346671
650000000 -0.93664485 0.064896427 -0.00074891554 -0.0021643636 -2.7351929e-005 -0.0017991823 -0.93519241 0.054849267
651000000 -0.93655139 0.065546125 0.00024671949 -0.001698417 -0.00026704176 -0.0029961539 -0.9368459 0.055009451
652000000 -0.93777424 0.066269025 -0.00029717581 -0.0018983128 -0.000904218 -0.0028715858 -0.93613207 0.054359466
653000000 -0.93743896 0.066960983 0.00032268409 -0.0010303262 0.00038527619 -0.0017473054 -0.93775523 0.053528856
654000000 -0.93784791 0.066664279 0.00037199151 -0.0016631368 -0.00023825878 -0.0026204593 -0.93662155 0.054257672
655000000 -0.93815523 0.06525591 -0.00096414803 -0.0025166951 -0.00070545229 -0.0032034065 -0.93664509 0.056021899
656000000 -0.93712419 0.06857577 -0.00071288703 -0.001687052 -0.00077441346 -0.0032716875 -0.93598348 0.054818291
657000000 -0.93681794 0.067111418 -0.00082188041 -0.0023232405 -0.00073730637 -0.0029509091 -0.93552715 0.054424506
658000000 -0.93758839 0.067806408 -0.0012127727 -0.0024188929 -0.00049306342 -0.0027731727 -0.93664384 0.055828065
659000000 -0.93705881 0.066681713 0.00044620712 -0.0029839007 -0.00151728 -0.0021452112 -0.93677604 0.05458523
660000000 -0.93754923 0.067249745 -0.00022623781 -0.0020685175 -0.0001398899 -0.0025588491 -0.93657994 0.056142531
661000000 -0.93805933 0.066283353 -3.6619488e-006 -0.0019100179 0.0007167767 -0.0031965331 -0.93650877 0.055062462
662000000 -0.93712866 0.066442937 0.00054953696 -0.0031083571 0.00021035924 -0.0020645612 -0.93600041 0.055171028
663000000 -0.93683958 0.067722462 0.00059345644 -0.0027414199 -0.00038176871 -0.0027900406 -0.93689901 0.056524526
664000000 -0.93748856 0.067414425 0.00030828975 -0.0024125353 6.4916982e-005 -0.0030007942 -0.93611151 0.055723801
665000000 -0.93655634 0.0674081 0.00054711039 -0.0024153679 -0.00025370935 -0.0034597116 -0.93647194 0.055669602
666000000 -0.93591744 0.066792965 -0.0010850797 -0.0022569993 -0.00019236817 -0.0029470017 -0.93644679 0.0557376
667000000 -0.93598926 0.066974662 -0.00052165944 -0.0025207987 -0.00015140041 -0.0031315247 -0.93618476 0.055414576
668000000 -0.93651819 0.067807242 -0.00058596738 -0.0027510903 0.00080917485 -0.0026277839 -0.93654674 0.055568304
669000000 -0.93803334 0.067585662 -0.00068229227 -0.0021236539 -0.00069021771 -0.0034659689 -0.93716741 0.054840881
670000000 -0.93802363 0.066224374 -0.00070874079 -0.0022075069 -0.00021648908 -0.0020087643 -0.93664038 0.056910582
671000000 -0.93692476 0.068845473 -0.00034684775 -0.0021242423 -0.0014018755 -0.0029882265 -0.93664294 0.055624325
